True,index,freq,Re(Z),Im(Z),Z,Phase(Z),time,Ewe_meas,I_meas,Cs,Cp,cycle_number,I_Range,Ewe,I,Ns,(QQo),cycle
0,0,7000018.5,704.7416,2117.7356,2231.9194,-71.59355,2.469482010608772,0.025105942,3.2980646e-05,1.0736167e-05,9.665752e-06,1.0,40,0.010119207,4.533859e-06,0,1.0336990886918961e-08,1.0
1,1,6057573.0,916.78894,2296.747,2472.9636,-68.23968,3.021480890136445,0.025190027,-7.262922e-06,1.1439534e-05,9.86732e-06,1.0,40,0.014403284,5.8243004e-06,0,1.2031070514442237e-08,1.0
2,2,5242039.0,1038.3749,2721.7522,2913.101,-69.11766,3.437499149906216,0.025245586,-1.1417379e-06,1.1155044e-05,9.7377215e-06,1.0,40,0.020183409,6.928496e-06,0,1.33315120935625e-08,1.0
3,3,4536288.0,982.9163,3101.3047,3253.339,-72.414696,4.669479021773441,0.02520631,-6.611711e-06,1.1312929e-05,1.0280288e-05,1.0,40,0.021701172,6.67043e-06,0,2.3639942528107996e-08,1.0
4,4,3925558.5,1216.6841,3537.5344,3740.9182,-71.02008,5.085484774870565,0.025167538,-3.6906733e-06,1.1460881e-05,1.0248562e-05,1.0,40,0.01970409,5.2671803e-06,0,2.2214793226541788e-08,1.0
5,5,3397055.0,1417.3643,3841.8115,4094.9282,-69.749405,5.501483647938585,0.025138734,-4.6767627e-06,1.21949915e-05,1.0733986e-05,1.0,40,0.020525616,5.012448e-06,0,2.274620583587724e-08,1.0
6,6,2939708.2,1632.313,4274.9463,4575.982,-69.101524,6.053477594192373,0.02509493,2.1966154e-05,1.2664417e-05,1.1052944e-05,1.0,40,0.020011228,4.3731e-06,0,2.836899774102777e-08,1.0
7,7,2543924.5,1923.8905,5088.9023,5440.43,-69.290596,6.7724830949737225,0.025160775,-2.9745777e-06,1.229396e-05,1.0756564e-05,1.0,41,0.019688146,3.6188585e-06,0,2.6866610330150328e-08,1.0
8,8,2201436.2,2266.3176,5683.287,6118.492,-68.25943,7.324491547857178,0.025121164,3.0272408e-06,1.27208e-05,1.0975512e-05,1.0,41,0.020534962,3.3562128e-06,0,2.7047816685937835e-08,1.0
9,9,1905053.1,2893.4246,6236.7,6875.1973,-65.111755,7.8764944274153095,0.02511781,2.5356246e-06,1.3395475e-05,1.1022943e-05,1.0,41,0.02058614,2.9942619e-06,0,2.7739930842509844e-08,1.0
10,10,1648567.4,3504.6416,7034.007,7858.7383,-63.51556,8.42848717365996,0.025129624,2.972848e-07,1.3724946e-05,1.0995388e-05,1.0,41,0.019881241,2.5298261e-06,0,2.8300582861214074e-08,1.0
11,11,1426616.2,4268.8135,7706.7246,8810.016,-61.017597,8.980487173161237,0.025110656,2.2860938e-06,1.447582e-05,1.1077186e-05,1.0,41,0.020597244,2.337935e-06,0,2.882566500836169e-08,1.0
12,12,1234551.2,5275.559,8380.17,9902.463,-57.8084,9.532493626087671,0.025101805,2.546799e-06,1.5383606e-05,1.1017356e-05,1.0,41,0.020496706,2.0698594e-06,0,2.8321533165543163e-08,1.0
13,13,1068345.5,6571.397,9047.7,11182.313,-54.008877,10.084487012267346,0.025106873,3.025379e-06,1.6465321e-05,1.077912e-05,1.0,41,0.020883763,1.8675709e-06,0,2.9548702180370077e-08,1.0
14,14,924510.06,7449.6265,9420.049,12009.757,-51.66211,10.636493038531626,0.025096813,5.943414e-06,1.8274914e-05,1.1243285e-05,1.0,41,0.020345127,1.6940498e-06,0,2.9057608951155265e-08,1.0
15,15,800039.0,10774.47,10930.489,15348.12,-45.411846,11.188502291421173,0.025109239,2.5449365e-06,1.8199915e-05,9.2307755e-06,1.0,41,0.020838395,1.3577164e-06,0,2.99475957960102e-08,1.0
16,16,692334.1,10275.948,9887.697,14260.493,-43.896904,11.740502717642812,0.025100017,2.87268e-06,2.3249268e-05,1.1177134e-05,1.0,41,0.020346517,1.4267752e-06,0,3.042584842312242e-08,1.0
17,17,599122.25,11745.415,9910.879,15368.158,-40.15795,12.29249783718842,0.025088726,3.950882e-06,2.6803564e-05,1.1147391e-05,1.0,41,0.02054335,1.3367477e-06,0,3.0022113556948206e-08,1.0
18,18,518454.94,13115.455,9549.033,16223.415,-36.057423,12.844503036729293,0.025101284,3.222771e-06,3.2147684e-05,1.1137404e-05,1.0,41,0.020520411,1.2648638e-06,0,3.1305286962246845e-08,1.0
19,19,448662.03,14336.715,9269.301,17072.238,-32.8844,13.396501596289454,0.02512638,2.5095562e-06,3.826959e-05,1.12815005e-05,1.0,41,0.020353619,1.1922057e-06,0,3.214844805607855e-08,1.0
20,20,388258.97,15585.443,8731.686,17864.725,-29.259563,13.948480395803927,0.025098005,3.2562905e-06,4.6946214e-05,1.1215124e-05,1.0,41,0.02079031,1.1637633e-06,0,3.295100447007668e-08,1.0
21,21,335983.9,16692.484,7926.971,18479.066,-25.402231,14.500480955379317,0.025088632,4.0849595e-06,5.9757767e-05,1.0996358e-05,1.0,41,0.020496842,1.1091925e-06,0,3.323644545921588e-08,1.0
22,22,290751.2,17342.105,7295.714,18814.252,-22.816181,15.052480341604678,0.02505817,6.172464e-06,7.502929e-05,1.1282166e-05,1.0,41,0.020422846,1.0854988e-06,0,3.3597008687375286e-08,1.0
23,23,251605.19,18053.3,6502.45,19188.63,-19.80804,15.60448356778943,0.025125133,2.300994e-06,9.727999e-05,1.1170937e-05,1.0,41,0.020359702,1.0610295e-06,0,3.4327844245046736e-08,1.0
24,24,217729.38,18664.139,5846.304,19558.357,-17.392502,16.156492154026637,0.02509452,2.7013632e-06,0.00012503215,1.1171713e-05,1.0,41,0.020310149,1.0384383e-06,0,3.4532852120782486e-08,1.0
25,25,188418.58,19160.598,5047.268,19814.223,-14.757561,16.708480660250643,0.025126996,4.2469733e-06,0.00016735551,1.0859221e-05,1.0,41,0.020319045,1.0254778e-06,0,3.504857210402691e-08,1.0
26,26,163051.14,19450.469,4493.6895,19962.814,-13.008935,17.260502259799978,0.025147676,1.8429e-06,0.00021721672,1.1006667e-05,1.0,41,0.020603169,1.0320773e-06,0,3.595398786557919e-08,1.0
27,27,141098.2,19667.395,3876.229,20045.736,-11.149475,17.81248220600537,0.025129698,1.5486763e-06,0.00029099747,1.088088e-05,1.0,41,0.020182252,1.0068102e-06,0,3.7098399265722213e-08,1.0
28,28,122105.11,19746.406,3305.6025,20021.178,-9.503352,18.228484439110616,0.025089975,3.8019152e-06,0.00039430807,1.0748744e-05,1.0,41,0.021574266,1.0775723e-06,0,3.7977404665569896e-08,1.0
29,29,105663.59,19922.932,2856.755,20126.705,-8.160036,18.780491985351546,0.025103595,3.7311518e-06,0.0005272563,1.0622393e-05,1.0,41,0.020286767,1.0079527e-06,0,3.820015945371817e-08,1.0
30,30,91439.65,20012.229,2434.904,20159.812,-6.9371266,19.196483711741166,0.025082018,2.928556e-06,0.0007148316,1.0427842e-05,1.0,41,0.021514578,1.0672013e-06,0,3.9104478662434555e-08,1.0
31,31,79127.08,19949.541,2180.4448,20068.346,-6.2375546,19.748484137962805,0.025108065,1.9974675e-06,0.000922465,1.0889726e-05,1.0,41,0.020106258,1.0018891e-06,0,3.8174940719688125e-08,1.0
32,32,68475.36,20103.15,1841.6617,20187.332,-5.2342906,20.16448122440488,0.025133554,2.5226036e-06,0.0012620481,1.05035915e-05,1.0,41,0.021133406,1.0468648e-06,0,3.822620576307953e-08,1.0
33,33,59252.523,20062.982,1563.6919,20123.826,-4.4565754,20.716489037295105,0.025102999,3.1948503e-06,0.0017177584,1.0371542e-05,1.0,41,0.020227494,1.0051515e-06,0,3.966589325647065e-08,1.0
34,34,51282.285,20204.291,1453.3347,20256.494,-4.1143126,21.132481243723305,0.025107898,3.0905703e-06,0.0021354388,1.0992332e-05,1.0,41,0.020982852,1.0358581e-06,0,3.9990920114604476e-08,1.0
35,35,44369.8,20111.928,1252.1328,20150.867,-3.5625353,21.549485743540572,0.025198393,-8.684214e-07,0.0028647205,1.106103e-05,1.0,41,0.021606065,1.0722151e-06,0,3.983700229731666e-08,1.0
36,36,38403.727,19879.95,931.8237,19901.775,-2.6836348,22.101495449751383,0.0250956,4.273055e-06,0.0044474695,9.749826e-06,1.0,41,0.020242073,1.0170988e-06,0,3.789256304722717e-08,1.0
37,37,33226.32,20037.31,1023.7909,20063.45,-2.9249399,22.517486349475803,0.025125654,3.9732445e-06,0.0046787155,1.2182543e-05,1.0,41,0.020681059,1.0307829e-06,0,3.9135897749383095e-08,1.0
38,38,28754.086,20123.037,980.61884,20146.916,-2.7898827,22.933483649248956,0.025098247,4.731152e-06,0.005644433,1.3372224e-05,1.0,41,0.02102554,1.0436108e-06,0,4.056844631519299e-08,1.0
39,39,24884.947,20038.99,950.7837,20061.533,-2.7164578,23.34949292233796,0.025126195,4.243261e-06,0.006726694,1.5109041e-05,1.0,41,0.021158686,1.0546894e-06,0,4.015754064411681e-08,1.0
40,40,21553.963,20539.32,795.74054,20554.729,-2.2186608,23.76648856882821,0.025112668,4.206017e-06,0.009279435,1.3907241e-05,1.0,41,0.021301031,1.036308e-06,0,4.1023017112709994e-08,1.0
41,41,18631.234,20015.479,847.8777,20033.43,-2.4256618,24.182483841927024,0.025146801,3.062641e-06,0.010075006,1.8046836e-05,1.0,41,0.021204636,1.0584625e-06,0,4.1257311200439514e-08,1.0
42,42,16126.037,19965.066,894.8359,19985.11,-2.566284,24.59848311499809,0.025097633,5.3140143e-06,0.011029328,2.2111733e-05,1.0,41,0.02103871,1.0527192e-06,0,4.166082074128654e-08,1.0
43,43,13954.87,20119.045,776.98035,20134.043,-2.211615,25.015483774797758,0.025142983,3.4611464e-06,0.01467859,2.1859609e-05,1.0,41,0.020882979,1.0371975e-06,0,4.108152873096237e-08,1.0
44,44,12080.609,20185.545,1060.9702,20213.408,-3.0087488,25.43150054124999,0.025083696,4.4238923e-06,0.012417326,3.421018e-05,1.0,41,0.020540442,1.0161791e-06,0,4.0668388013083736e-08,1.0
45,45,10447.592,20119.453,988.65643,20143.729,-2.8132133,25.847479334304808,0.025173351,-2.1868445e-06,0.015408434,3.7116723e-05,1.0,41,0.019996163,9.926744e-07,0,4.051452828112032e-08,1.0
46,46,9045.586,20191.074,1048.19,20218.264,-2.9717584,26.420256934856297,0.025140876,1.2377039e-06,0.016785853,4.511653e-05,1.0,41,0.020309009,1.0044882e-06,0,4.0622233708594044e-08,1.0
47,47,7827.7437,20196.598,1191.145,20231.693,-3.3752525,26.900925837719114,0.025129605,1.5207546e-06,0.017069425,5.9167567e-05,1.0,41,0.020328658,1.0047927e-06,0,4.110064964973188e-08,1.0
48,48,6770.8345,20342.94,1225.6329,20379.828,-3.4478207,27.439421809947817,0.025144454,2.8168322e-06,0.019178629,6.936451e-05,1.0,41,0.020417016,1.0018248e-06,0,4.074941363907985e-08,1.0
49,49,5860.798,20397.336,1407.1866,20445.818,-3.946511,28.04599178544595,0.025140895,-3.7119698e-06,0.019297972,9.141261e-05,1.0,41,0.020417262,9.986034e-07,0,3.935900466217706e-08,1.0
50,50,5071.625,20303.818,1421.7274,20353.533,-4.0054655,28.726679044470075,0.025115648,2.7777262e-06,0.022072762,0.00010769852,1.0,41,0.020348663,9.997607e-07,0,3.9815973874764566e-08,1.0
51,51,4388.5933,20397.027,1775.4124,20474.15,-4.974641,29.406810490094358,0.025148124,2.6697203e-06,0.020426577,0.00015359683,1.0,41,0.02037862,9.953341e-07,0,4.114025506212076e-08,1.0
52,52,3798.7827,20490.79,1946.3141,20583.018,-5.425951,30.086802789068315,0.025150584,6.1573525e-07,0.021525972,0.00019247331,1.0,41,0.020386124,9.904342e-07,0,4.22996611341091e-08,1.0
53,53,3286.0488,20538.617,2139.202,20649.72,-5.9462075,30.76669996802957,0.02515159,1.8652574e-06,0.022640934,0.00024297944,1.0,41,0.0203681,9.86362e-07,0,4.230676825070153e-08,1.0
54,54,2844.088,20691.9,2350.9016,20825.021,-6.4818416,31.446846266975626,0.025105476,2.5393672e-06,0.0238036,0.00030334765,1.0,41,0.020373985,9.783416e-07,0,4.349846246824679e-08,1.0
55,55,2460.7852,20945.377,2680.5896,21116.21,-7.2930694,32.12669024596107,0.025173873,-6.9710245e-07,0.02412771,0.00038881658,1.0,41,0.020448107,9.683606e-07,0,4.339426209772531e-08,1.0
56,56,2129.3164,21020.463,2895.1213,21218.896,-7.8419375,32.80580702488078,0.025117215,1.984436e-06,0.025817439,0.0004806192,1.0,41,0.020402998,9.615485e-07,0,4.335418608887506e-08,1.0
57,57,1843.2289,21481.86,3283.2656,21731.316,-8.689781,33.48596607049694,0.025164763,3.3826902e-07,0.026298735,0.00060030894,1.0,41,0.020515766,9.4406454e-07,0,4.4124368256360765e-08,1.0
58,58,1594.4913,21401.441,3579.2192,21698.676,-9.4943905,34.16580698279722,0.025129326,6.343557e-07,0.027887505,0.00075878686,1.0,41,0.020372763,9.388943e-07,0,4.46934542849312e-08,1.0
59,59,1380.4436,21652.486,3971.3408,22013.672,-10.393256,34.84569882843789,0.025147863,1.5391383e-07,0.029031154,0.00094482995,1.0,41,0.020401705,9.2677425e-07,0,4.5634434182902494e-08,1.0
60,60,1194.6187,21965.426,4343.7905,22390.812,-11.186242,35.52583699407114,0.025099682,2.0924422e-06,0.030670578,0.0011543036,1.0,41,0.020410364,9.1155084e-07,0,4.5681344764181135e-08,1.0
61,61,1033.3434,22327.686,4810.0977,22839.934,-12.157536,36.20610363970627,0.025130965,5.3355492e-08,0.032020018,0.0014201679,1.0,41,0.020432705,8.946044e-07,0,4.571436649956695e-08,1.0
62,62,894.71045,22629.736,5308.1025,23243.943,-13.2008295,36.88581297866767,0.025111308,1.3606051e-06,0.033511847,0.0017476615,1.0,41,0.020425797,8.787578e-07,0,4.620426623396807e-08,1.0
63,63,774.2569,23097.709,5888.7124,23836.549,-14.302749,37.565939997613896,0.02513715,1.0719666e-06,0.034907177,0.002130437,1.0,41,0.020459244,8.58314e-07,0,4.673374118037464e-08,1.0
64,64,669.7856,23501.223,6184.153,24301.26,-14.742697,38.24580650991993,0.02512342,3.1296736e-06,0.038424138,0.0024883244,1.0,41,0.020415543,8.4010225e-07,0,4.665068321135853e-08,1.0
65,65,579.81464,24039.898,6675.3096,24949.479,-15.518712,38.925806835555704,0.02513156,1.9658103e-06,0.04112061,0.0029436043,1.0,41,0.020404357,8.17827e-07,0,4.6187800160797425e-08,1.0
66,66,501.44418,24604.541,7362.2495,25682.41,-16.658403,39.603188654378755,0.025068417,4.429473e-06,0.04311089,0.0035427173,1.0,41,0.020433178,7.956098e-07,0,4.616682289752324e-08,1.0
67,67,434.02762,25156.02,7775.845,26330.383,-17.176628,40.283232526649954,0.025113394,2.6622638e-06,0.047157977,0.004112785,1.0,41,0.02042142,7.755838e-07,0,4.757824967243272e-08,1.0
68,68,375.6009,25864.588,8413.38,27198.564,-18.018965,40.96145791889285,0.025177358,2.5859135e-06,0.050364327,0.004819168,1.0,41,0.020435441,7.5134267e-07,0,4.850256620394412e-08,1.0
69,69,325.10385,26555.744,9051.036,28055.816,-18.82073,41.89168129643804,0.025097465,1.2939836e-07,0.054087847,0.0056292494,1.0,42,0.02050599,7.308998e-07,0,4.818153702406549e-08,1.0
70,70,281.3503,27224.86,9692.06,28898.598,-19.595747,42.56880543526495,0.025148403,-1.7368189e-08,0.058365557,0.0065650083,1.0,42,0.020453453,7.077663e-07,0,4.853038774461993e-08,1.0
71,71,243.36427,27972.018,10433.297,29854.438,-20.455038,43.25208904102328,0.02508813,9.717611e-08,0.06268184,0.0076553863,1.0,42,0.020434963,6.844866e-07,0,4.7722120369943215e-08,1.0
72,72,210.60631,28876.76,11249.576,30990.646,-21.284494,43.929168993170606,0.025145851,-6.393286e-08,0.06717576,0.008851638,1.0,42,0.020472135,6.605908e-07,0,4.767867915505993e-08,1.0
73,73,182.27473,29954.748,12223.556,32352.777,-22.19877,44.601287958415924,0.025128597,2.341736e-08,0.07143254,0.010196897,1.0,42,0.02058255,6.361911e-07,0,4.7588015111901745e-08,1.0
74,74,157.72879,30720.09,12800.173,33280.15,-22.62008,45.28962649783534,0.02514287,1.6478026e-07,0.078830324,0.011661502,1.0,42,0.02043016,6.138843e-07,0,4.736680982374095e-08,1.0
75,75,136.52892,31834.969,13744.656,34675.363,-23.352133,45.96152730300673,0.025127405,7.9103614e-08,0.08481284,0.013325617,1.0,42,0.02046791,5.902724e-07,0,4.7527553978773716e-08,1.0
76,76,118.14758,32818.49,14648.415,35939.242,-24.053427,46.64991640241351,0.0251076,2.1953664e-07,0.091961205,0.015277353,1.0,42,0.020393446,5.6744227e-07,0,4.783627045650639e-08,1.0
77,77,102.25773,34062.27,15708.224,37509.82,-24.757355,47.316329047404,0.025131486,2.552972e-07,0.099082485,0.01737645,1.0,42,0.020426843,5.445732e-07,0,4.7845097659602076e-08,1.0
78,78,88.4436,35326.883,16717.78,39082.895,-25.324968,48.00626308014034,0.025145907,6.122316e-08,0.10764035,0.01969513,1.0,42,0.020415759,5.2237067e-07,0,4.776907894795417e-08,1.0
79,79,76.54279,36698.34,17854.822,40811.31,-25.944286,48.673715725235525,0.025143858,2.862796e-08,0.11645558,0.022290012,1.0,42,0.020422019,5.00401e-07,0,4.7909228564374786e-08,1.0
80,80,66.250786,38152.46,18926.71,42589.09,-26.385138,49.34196962360875,0.025145628,8.3758295e-08,0.12692699,0.025067298,1.0,42,0.020407356,4.7916865e-07,0,4.757054126705087e-08,1.0
81,81,57.329906,39641.95,20152.48,44470.29,-26.947077,49.995606428025894,0.025143914,1.6149455e-08,0.13775596,0.028289646,1.0,42,0.02040905,4.5893674e-07,0,4.7962561354023277e-08,1.0
82,82,49.60321,41308.703,21335.512,46493.15,-27.31588,50.68134118054877,0.0251065,2.3518048e-07,0.15038596,0.031669084,1.0,42,0.020392057,4.3860348e-07,0,4.796759515253907e-08,1.0
83,83,42.92585,42946.586,22645.195,48551.15,-27.802118,51.389456147531746,0.025159266,8.30129e-08,0.16372883,0.03561872,1.0,42,0.02038094,4.1978285e-07,0,4.761747678861165e-08,1.0
84,84,37.1518,44857.477,24110.902,50926.7,-28.258038,52.03315748475143,0.025106966,5.824102e-08,0.1776752,0.039825637,1.0,42,0.020431396,4.011922e-07,0,4.787277225806008e-08,1.0
85,85,32.150223,46451.84,25559.047,53019.227,-28.820768,52.67235826179967,0.025128243,6.4628467e-09,0.193683,0.04501052,1.0,42,0.020365974,3.8412432e-07,0,4.830290220224261e-08,1.0
86,86,27.835518,48384.652,27037.12,55426.35,-29.196255,53.40032653635717,0.025127415,9.586288e-08,0.21147567,0.050320927,1.0,42,0.020365994,3.6744245e-07,0,4.846444061073009e-08,1.0
87,87,24.082958,50559.58,28600.668,58088.46,-29.49608,54.10237798301387,0.025238357,-6.8224864e-08,0.23106498,0.05601531,1.0,42,0.020408466,3.5133425e-07,0,4.87762953330364e-08,1.0
88,88,20.833313,52255.56,30603.709,60557.66,-30.35557,54.756736414157785,0.025087329,1.2771065e-07,0.24962479,0.06375257,1.0,42,0.020358615,3.3618562e-07,0,4.78894210767638e-08,1.0
89,89,18.021912,54427.004,32719.457,63504.816,-31.012693,55.50274490292941,0.02513009,2.3163766e-07,0.2699064,0.07164931,1.0,42,0.020410815,3.214058e-07,0,4.8657556578585094e-08,1.0
90,90,15.604198,56404.395,34798.887,66275.32,-31.672657,56.15802266736864,0.025145125,1.133674e-07,0.2930983,0.0808054,1.0,42,0.02039457,3.0772495e-07,0,4.774217710717702e-08,1.0
91,91,13.500899,58365.688,37423.55,69333.08,-32.667625,56.9059953695687,0.025148142,-1.3574397e-07,0.31500137,0.09177438,1.0,42,0.020392707,2.9412666e-07,0,4.750489544750991e-08,1.0
92,92,11.686608,60553.164,39925.598,72530.95,-33.398773,57.49686883762479,0.025090571,6.549992e-08,0.34109882,0.103356145,1.0,42,0.020384993,2.8105234e-07,0,4.7692728210609265e-08,1.0
93,93,10.113269,62571.707,43477.008,76193.625,-34.792923,58.17050220290548,0.025145143,-1.831359e-08,0.361967,0.1178558,1.0,42,0.02043703,2.6822494e-07,0,4.898511810596694e-08,1.0
94,94,8.748621,64340.66,46762.254,79538.85,-36.009342,58.937372346030315,0.025142396,-4.4854485e-08,0.38903177,0.1344675,1.0,42,0.020371938,2.5612562e-07,0,4.9816960549176454e-08,1.0
95,95,7.570237,66535.3,51093.953,83890.03,-37.52147,59.812996867636684,0.025126083,8.030612e-08,0.4114728,0.15263686,1.0,42,0.020410154,2.4329654e-07,0,4.729685968277487e-08,1.0
96,96,6.554112,68478.05,56054.38,88494.836,-39.30288,60.34829329306376,0.025152372,2.2604793e-07,0.4332083,0.17381209,1.0,42,0.020407045,2.3060154e-07,0,4.999337206396367e-08,1.0
97,97,5.669445,70379.05,61373.035,93380.19,-41.08959,61.18612602617941,0.025143951,6.4626977e-07,0.45740613,0.19758216,1.0,43,0.020396411,2.1842332e-07,0,5.060504783513567e-08,1.0
98,98,4.907347,72966.93,67987.47,99731.984,-42.976765,61.87853627235745,0.02507369,-4.5548052e-07,0.47702864,0.22168346,1.0,43,0.020420749,2.0475626e-07,0,4.9483301875860596e-08,1.0
99,99,4.245922,74899.02,75750.766,106527.19,-45.323933,62.66631620316184,0.02512147,1.1198748e-07,0.49483573,0.2502155,1.0,43,0.020401673,1.9151612e-07,0,4.818392463871154e-08,1.0
100,100,3.6747382,77341.19,84281.09,114389.52,-47.458717,63.56594467256218,0.025149802,2.2890177e-07,0.51388216,0.27896607,1.0,43,0.020368716,1.7806452e-07,0,5.1532457393737414e-08,1.0
101,101,3.180988,80242.49,94864.41,124250.2,-49.77328,64.5941775747051,0.02512421,-2.1516172e-07,0.5274178,0.3074448,1.0,43,0.020399313,1.6417931e-07,0,5.0061567594648674e-08,1.0
102,102,2.752818,83282.39,106556.586,135241.5,-51.989563,65.77313869734644,0.02505208,3.3106524e-08,0.54257816,0.33682394,1.0,43,0.020410014,1.5091533e-07,0,4.732138602296862e-08,1.0
103,103,2.3804083,87197.484,120147.46,148454.75,-54.029587,67.127013321704,0.02513525,1.3885301e-07,0.5564858,0.36449793,1.0,43,0.02040417,1.3744369e-07,0,4.899110369881359e-08,1.0
104,104,2.060257,91644.85,135131.56,163276.81,-55.855278,68.68331736893742,0.025117438,9.095986e-08,0.57166547,0.3915674,1.0,43,0.02039853,1.2493219e-07,0,5.1953558938382825e-08,1.0
105,105,1.7836765,96831.31,152888.84,180973.2,-57.652096,70.47168958724797,0.025136298,-3.4132878e-08,0.58361745,0.4165348,1.0,43,0.020404255,1.1274739e-07,0,5.162635475870461e-08,1.0
106,106,1.5427545,102770.04,172812.25,201061.56,-59.260395,72.5302410183067,0.025042335,3.518612e-09,0.59696484,0.44100115,1.0,43,0.020428497,1.016032e-07,0,4.871653101742229e-08,1.0
