True,index,freq,Re(Z),Im(Z),Z,Phase(Z),time,Ewe_meas,I_meas,Cs,Cp,cycle_number,I_Range,Ewe,I,Ns,(QQo),cycle
110,110,7000018.5,521.4182,3202.025,3244.201,-80.75113,82.1374970213219,-0.027158588,6.213424e-06,7.1006198e-06,6.9171974e-06,2.0,41,0.009887301,3.0476847e-06,0,-3.792746460554497e-09,2.0
111,111,6057573.0,848.4135,3166.4653,3278.1562,-75.00065,82.68948107419419,-0.026949577,-7.4382115e-06,8.29749e-06,7.741711e-06,2.0,41,0.014044251,4.284192e-06,0,-3.707417040011762e-09,2.0
112,112,5242039.0,1018.04254,3621.5747,3761.9429,-74.299065,83.10548178726458,-0.026988387,-3.313482e-06,8.383444e-06,7.769498e-06,2.0,41,0.019501187,5.1838074e-06,0,-4.074958262408125e-09,2.0
113,113,4536288.0,1019.7575,4280.7197,4400.5073,-76.60068,84.4734813189425,-0.027018813,-3.497836e-06,8.196014e-06,7.755875e-06,2.0,41,0.021362102,4.8544634e-06,0,-3.949879182980472e-09,2.0
114,114,3925558.5,1279.6766,4738.9897,4908.7266,-74.88874,84.88950349864899,-0.027078006,1.2786535e-06,8.555254e-06,7.973826e-06,2.0,41,0.019222017,3.9158867e-06,0,-3.5733920242972456e-09,2.0
115,115,3397055.0,1396.3832,5145.839,5331.936,-74.81773,85.3054976251151,-0.027085999,-7.958153e-07,9.10461e-06,8.480157e-06,2.0,41,0.02000755,3.752399e-06,0,-3.9469632149599456e-09,2.0
116,116,2939708.2,1865.4402,5796.729,6089.4937,-72.161354,85.72150740484358,-0.02709906,1.5575951e-07,9.339699e-06,8.4632375e-06,2.0,41,0.021798192,3.5796395e-06,0,-4.537727870731898e-09,2.0
117,117,2543924.5,1925.9642,6568.9326,6845.452,-73.65924,86.27349196441355,-0.02710586,2.4145836e-06,9.5240375e-06,8.770138e-06,2.0,41,0.020759981,3.0326676e-06,0,-5.130229553493848e-09,2.0
118,118,2201436.2,2223.0344,7183.9624,7520.053,-72.805626,86.82550303064636,-0.027055591,-1.261359e-06,1.0063522e-05,9.184092e-06,2.0,41,0.020401897,2.712999e-06,0,-6.146708442407957e-09,2.0
119,119,1905053.1,2537.8926,8335.792,8713.571,-73.06675,87.3774982568284,-0.027107015,-1.5574462e-06,1.0022271e-05,9.172073e-06,2.0,41,0.020756917,2.3821367e-06,0,-6.424996035537984e-09,2.0
120,120,1648567.4,3230.7893,9544.781,10076.748,-71.29968,87.92950505638146,-0.027143478,5.1352263e-06,1.01145715e-05,9.074833e-06,2.0,41,0.01994159,1.9789709e-06,0,-6.531958180012509e-09,2.0
121,121,1426616.2,3770.051,10548.82,11202.271,-70.33358,88.4815013759362,-0.027130082,3.6212753e-06,1.0575699e-05,9.37788e-06,2.0,41,0.02044153,1.8247665e-06,0,-6.680579212625067e-09,2.0
122,122,1234551.2,4590.2793,11628.782,12501.97,-68.45915,89.03349305552547,-0.02711011,-8.6323276e-08,1.1086048e-05,9.59154e-06,2.0,41,0.020493139,1.6391928e-06,0,-7.3731901253234846e-09,2.0
123,123,1068345.5,5738.93,13102.478,14304.203,-66.34641,89.58549633502844,-0.027053207,5.9523416e-07,1.1369857e-05,9.539695e-06,2.0,41,0.020587152,1.439238e-06,0,-6.769212615306546e-09,2.0
124,124,924510.06,6992.8,14597.614,16186.093,-64.40385,90.13750268126023,-0.027093973,-2.3902203e-07,1.1793062e-05,9.591937e-06,2.0,41,0.020413851,1.261197e-06,0,-7.25231158442262e-09,2.0
125,125,800039.0,7368.119,17447.066,18939.094,-67.10504,90.68950001415215,-0.02715054,4.3624227e-06,1.1402145e-05,9.6763815e-06,2.0,41,0.020883119,1.1026461e-06,0,-6.856360321068659e-09,2.0
126,126,692334.1,10239.898,17432.85,20217.809,-59.57041,91.24148460038123,-0.027059318,-2.358183e-06,1.3186697e-05,9.80403e-06,2.0,41,0.02035766,1.0069172e-06,0,-6.614569916429502e-09,2.0
127,127,599122.25,12470.256,18692.61,22470.445,-56.291866,91.79348643994308,-0.027194155,5.4517977e-06,1.4211331e-05,9.834477e-06,2.0,41,0.020744966,9.232112e-07,0,-6.953489214581054e-09,2.0
128,128,518454.94,14352.27,19490.523,24204.713,-53.63312,92.345501666161,-0.027057251,3.140461e-07,1.5750184e-05,1.0212516e-05,2.0,41,0.02034141,8.4039044e-07,0,-7.179642643970555e-09,2.0
129,129,448662.03,17084.494,20998.67,27070.725,-50.868237,92.89749502568156,-0.027065169,-1.5053039e-06,1.6893087e-05,1.0164659e-05,2.0,41,0.020310208,7.502647e-07,0,-6.728661178459087e-09,2.0
130,130,388258.97,20128.92,21480.299,29437.674,-46.86019,93.44950086527388,-0.027101723,2.5188667e-06,1.9083513e-05,1.0160896e-05,2.0,41,0.020888528,7.0958487e-07,0,-6.0174842349130444e-09,2.0
131,131,335983.9,23939.422,20613.193,31591.133,-40.73031,94.00149481146946,-0.027079571,-2.0099544e-06,2.2980335e-05,9.784001e-06,2.0,41,0.020427166,6.466107e-07,0,-5.6167004214755265e-09,2.0
132,132,290751.2,26467.197,21633.092,34183.375,-39.261013,94.55348715771106,-0.02714031,3.4685777e-06,2.5303467e-05,1.013415e-05,2.0,41,0.020423088,5.9745673e-07,0,-5.067501534853925e-09,2.0
133,133,251605.19,29544.049,21492.012,36534.332,-36.03426,95.10549710391206,-0.027053282,-3.7101242e-06,2.9432249e-05,1.0185334e-05,2.0,41,0.020411216,5.586859e-07,0,-4.883981322915195e-09,2.0
134,134,217729.38,31792.223,20159.3,37644.957,-32.378593,95.65750062346342,-0.02703627,-4.402855e-06,3.6259986e-05,1.0398363e-05,2.0,41,0.020241737,5.3770117e-07,0,-4.004944036953222e-09,2.0
135,135,188418.58,34706.906,18983.18,39559.203,-28.676754,96.2095064096793,-0.027146067,3.6994882e-06,4.449666e-05,1.0246376e-05,2.0,41,0.020749923,5.2452833e-07,0,-3.326793764989628e-09,2.0
136,136,163051.14,36782.86,17771.729,40851.11,-25.787624,96.76150128923473,-0.02711663,-3.8427217e-07,5.4924567e-05,1.03948505e-05,2.0,41,0.020262491,4.9600834e-07,0,-3.1972388367296705e-09,2.0
137,137,141098.2,38454.703,16188.511,41723.28,-22.829927,97.17750746899401,-0.027128758,3.4574064e-06,6.967737e-05,1.0489351e-05,2.0,41,0.02198185,5.2684857e-07,0,-3.3782726501014634e-09,2.0
138,138,122105.11,39307.383,15190.61,42140.54,-21.12937,97.72948250852642,-0.027126504,3.587758e-06,8.58047e-05,1.1149653e-05,2.0,41,0.020231925,4.80106e-07,0,-3.4687757341684587e-09,2.0
139,139,105663.59,40891.805,13301.212,43000.72,-18.018578,98.14550543497899,-0.02717137,4.645476e-06,0.00011324097,1.08351405e-05,2.0,41,0.021712288,5.049285e-07,0,-3.733674713488079e-09,2.0
140,140,91439.65,42038.066,12026.924,43724.66,-15.965615,98.69748655453441,-0.027072975,2.6957753e-06,0.00014472083,1.0949323e-05,2.0,41,0.020343661,4.6526745e-07,0,-3.6693005220161328e-09,2.0
141,141,79127.08,42813.17,10746.184,44141.23,-14.090254,99.1134930542612,-0.027096732,-1.1701103e-06,0.00018717194,1.1093291e-05,2.0,41,0.021336066,4.833591e-07,0,-3.6994125414974772e-09,2.0
142,142,68475.36,43625.688,9288.897,44603.633,-12.020068,99.66549972051871,-0.027128292,1.353142e-06,0.00025021977,1.08519935e-05,2.0,41,0.020192344,4.5270625e-07,0,-4.8955009557790024e-09,2.0
143,143,59252.523,44157.8,8388.584,44947.523,-10.756216,100.08248515365995,-0.027071653,-5.2579526e-07,0.00032020244,1.1152966e-05,2.0,41,0.02088023,4.6454682e-07,0,-4.675254444259893e-09,2.0
144,144,51282.285,45021.23,7376.3823,45621.51,-9.3048,100.49849370672018,-0.027079739,-2.0322984e-06,0.00042073568,1.0999092e-05,2.0,41,0.021426288,4.696532e-07,0,-4.896221722211614e-09,2.0
145,145,44369.8,44966.19,6243.389,45397.56,-7.9047685,100.91448756647878,-0.027065225,1.34942e-06,0.00057452935,1.0866459e-05,2.0,41,0.021866465,4.816661e-07,0,-4.556801924016282e-09,2.0
146,146,38403.727,45009.027,5930.098,45398.004,-7.5056896,101.46649985937984,-0.027132988,4.4253795e-07,0.0006988515,1.1924361e-05,2.0,41,0.020231862,4.4565533e-07,0,-3.5113098503537623e-09,2.0
147,147,33226.32,45515.93,4732.8936,45761.34,-5.9364657,101.88248958581244,-0.027082495,-1.9876065e-06,0.0010120714,1.0825978e-05,2.0,41,0.02047141,4.4735165e-07,0,-4.076548967286758e-09,2.0
148,148,28754.086,45498.285,4737.775,45744.293,-5.9448333,102.2985064589011,-0.027102282,-3.0605858e-07,0.0011682778,1.2532022e-05,2.0,41,0.020579165,4.4987394e-07,0,-3.4080558222424e-09,2.0
149,149,24884.947,45565.35,4139.084,45752.96,-5.190412,102.71449559865869,-0.027151527,6.1836363e-06,0.0015451803,1.2645885e-05,2.0,41,0.020618502,4.5064849e-07,0,-2.8498886630967175e-09,2.0
150,150,21553.963,48055.47,3897.8438,48213.29,-4.637186,103.29850602635997,-0.027083578,-3.22837e-07,0.0018943864,1.2381804e-05,2.0,42,0.01853652,3.8446908e-07,0,-3.011563539665474e-09,2.0
151,151,18631.234,47880.785,3337.7515,47996.98,-3.9876163,103.71449177947943,-0.027119331,-4.8301843e-08,0.0025593194,1.2376694e-05,2.0,42,0.018449923,3.8439757e-07,0,-2.904235290380086e-09,2.0
152,152,16126.037,48043.938,3148.6191,48147.0,-3.7495883,104.13048537258874,-0.027062802,-7.430178e-07,0.0031345293,1.3405226e-05,2.0,42,0.018378457,3.8171552e-07,0,-2.9726670513273587e-09,2.0
153,153,13954.87,47729.727,2678.0886,47804.8,-3.2114673,104.54648541900679,-0.027094662,-5.185845e-07,0.004258625,1.3365225e-05,2.0,42,0.018194046,3.8059036e-07,0,-2.823290815608775e-09,2.0
154,154,12080.609,48233.54,2242.041,48285.62,-2.6613655,104.96249669211102,-0.027178952,4.3911953e-07,0.00587608,1.2668908e-05,2.0,42,0.018112913,3.751202e-07,0,-2.7678866286835715e-09,2.0
155,155,10447.592,47984.63,2135.5042,48032.125,-2.5482054,105.51448605165933,-0.027030494,-7.8510925e-07,0.007133514,1.4100702e-05,2.0,42,0.01975891,4.1136863e-07,0,-2.670570829438014e-09,2.0
156,156,9045.586,47860.723,2207.0408,47911.582,-2.6402571,106.08726621218375,-0.027110072,-9.113664e-08,0.007972106,1.6916587e-05,2.0,42,0.02028286,4.233394e-07,0,-2.673901201574501e-09,2.0
157,157,7827.7437,47750.355,1906.753,47788.41,-2.286703,106.56793532837764,-0.027073963,1.3627724e-07,0.010663237,1.69759e-05,2.0,42,0.020463383,4.2820807e-07,0,-2.8977881993239093e-09,2.0
158,158,6770.8345,47638.754,2076.1548,47683.973,-2.4954407,107.10641940726782,-0.027079087,-1.1069054e-07,0.011321872,2.1463118e-05,2.0,42,0.020651132,4.330833e-07,0,-2.6599891771373526e-09,2.0
159,159,5860.798,47564.402,2172.4346,47613.99,-2.6150835,107.7119988760387,-0.027125573,4.054646e-08,0.012500192,2.6022017e-05,2.0,42,0.020851761,4.3793352e-07,0,-2.76767531545927e-09,2.0
160,160,5071.625,47572.418,2576.5884,47642.145,-3.10019,108.39270432173362,-0.027132038,-2.2908848e-09,0.012179458,3.5623405e-05,2.0,42,0.021038929,4.416033e-07,0,-3.0839090754683063e-09,2.0
161,161,4388.5933,47507.617,2738.9055,47586.504,-3.2995594,109.07284651402733,-0.027122535,-5.8352068e-08,0.013240908,4.3863598e-05,2.0,42,0.021170193,4.448781e-07,0,-2.8075480179830588e-09,2.0
162,162,3798.7827,47552.867,3053.7092,47650.816,-3.674326,109.75281417299993,-0.027136939,1.5248456e-07,0.013719807,5.6345947e-05,2.0,42,0.021295048,4.4689787e-07,0,-2.483583003850419e-09,2.0
163,163,3286.0488,47805.625,3470.5012,47931.434,-4.152165,110.43270631196356,-0.027122218,-2.2430137e-07,0.013955774,7.316401e-05,2.0,42,0.021470824,4.4794874e-07,0,-2.17394928179636e-09,2.0
164,164,2844.088,47755.39,3894.7717,47913.95,-4.662535,111.1128466642549,-0.027113685,-7.828022e-08,0.014367959,9.493693e-05,2.0,42,0.021503003,4.4878377e-07,0,-2.047286692330551e-09,2.0
165,165,2460.7852,47813.637,4519.8467,48026.793,-5.4001513,111.79269344322529,-0.027095836,-1.4123322e-07,0.014309442,0.00012673686,2.0,42,0.021536479,4.4842633e-07,0,-1.7163467824406414e-09,2.0
166,166,2129.3164,48205.867,5064.5205,48471.176,-5.9975076,112.47283262218116,-0.02710042,1.6335393e-08,0.014758479,0.00016112062,2.0,42,0.021643171,4.465163e-07,0,-1.87004876670866e-09,2.0
167,167,1843.2289,48455.184,5521.9756,48768.812,-6.5014067,113.15296348114498,-0.027085366,-1.4588959e-07,0.015636746,0.00020047073,2.0,42,0.021662459,4.4418672e-07,0,-1.447912144394239e-09,2.0
168,168,1594.4913,48983.543,6335.1763,49391.516,-7.3693137,113.83284548678785,-0.027120654,-2.6875e-08,0.015755758,0.00025921012,2.0,42,0.021765271,4.4066823e-07,0,-1.078377250857601e-09,2.0
169,169,1380.4436,49222.49,7188.2256,49744.586,-8.308481,114.51268141241599,-0.027080521,-3.1873032e-07,0.016039092,0.00033491262,2.0,42,0.021732703,4.3688578e-07,0,-8.852738034121899e-10,2.0
170,170,1194.6187,49677.324,7967.4126,50312.188,-9.111689,115.19284803137998,-0.027081136,-7.511445e-08,0.016721435,0.0004193356,2.0,42,0.02173912,4.3208456e-07,0,-7.413786021154401e-10,2.0
171,171,1033.3434,50340.387,8892.356,51119.746,-10.017648,115.87309038368403,-0.027078565,-2.6688745e-08,0.017320428,0.00052410096,2.0,42,0.021792969,4.2631214e-07,0,-7.014434629858279e-10,2.0
172,172,894.71045,51098.37,9579.043,51988.477,-10.617596,116.55284878931707,-0.027096825,2.241911e-07,0.018570153,0.00063044264,2.0,42,0.021808458,4.1948638e-07,0,-8.307704240522185e-10,2.0
173,173,774.2569,52336.027,10650.161,53408.668,-11.502392,117.23293810160249,-0.027101276,-8.573062e-08,0.019300958,0.0007674812,2.0,42,0.021960797,4.1118412e-07,0,-6.466435999443989e-10,2.0
174,174,669.7856,52427.113,11819.149,53742.855,-12.704357,117.9128117072396,-0.027104333,1.0933284e-08,0.020104725,0.0009723645,2.0,42,0.021775493,4.0517932e-07,0,-4.3219319529836436e-10,2.0
175,175,579.81464,53357.727,12866.318,54887.06,-13.557108,118.59284843287605,-0.027063623,-1.1143371e-07,0.021334216,0.0011723178,2.0,42,0.021772541,3.9667896e-07,0,-7.639652448692876e-10,2.0
176,176,501.44418,54176.465,14084.27,55977.28,-14.57262,119.27019459832809,-0.027117971,1.9997779e-07,0.022535292,0.0014266198,2.0,42,0.02171622,3.8794704e-07,0,-1.0560477312026645e-09,2.0
177,177,434.02762,55472.855,15499.927,57597.617,-15.61114,119.95019185732235,-0.027066994,1.5490478e-07,0.023657732,0.0017132604,2.0,42,0.021797031,3.7843634e-07,0,-7.628903870313921e-10,2.0
178,178,375.6009,56662.797,16612.945,59047.97,-16.340591,120.6294589562167,-0.027133845,-1.2162594e-08,0.025506267,0.0020189716,2.0,42,0.021782404,3.6889335e-07,0,-4.1521056586270155e-10,2.0
179,179,325.10385,57857.848,17811.95,60537.56,-17.111353,121.30872072187776,-0.027068429,-3.0923363e-07,0.027484419,0.0023793573,2.0,42,0.021733591,3.5901004e-07,0,-1.2668203345435183e-10,2.0
180,180,281.3503,59388.234,19414.664,62481.13,-18.103134,121.98579099403287,-0.027076477,-2.3152527e-08,0.029136868,0.0028132277,2.0,42,0.021769231,3.484129e-07,0,1.5448360210967848e-10,2.0
181,181,243.36427,60961.32,20798.307,64411.582,-18.838213,122.66911553309183,-0.027125629,3.2867575e-07,0.031443823,0.0032784108,2.0,42,0.021774175,3.380475e-07,0,8.638876105651308e-11,2.0
182,182,210.60631,62784.723,22277.838,66619.99,-19.53616,123.34620183196967,-0.027119312,-1.227978e-07,0.033921555,0.0037932603,2.0,42,0.021794995,3.2715397e-07,0,-2.560191623399217e-10,2.0
183,183,182.27473,64186.65,24103.049,68562.984,-20.58191,124.01828133055824,-0.027090285,3.1489182e-07,0.036226105,0.0044769906,2.0,42,0.021727597,3.1689981e-07,0,4.949207834788657e-11,2.0
184,184,157.72879,66122.81,25540.223,70883.914,-21.119268,124.70663885660542,-0.027103383,1.3366886e-07,0.039507948,0.0051290677,2.0,42,0.02169429,3.0605378e-07,0,-1.8195272379668066e-10,2.0
185,185,136.52892,68410.53,27519.463,73738.195,-21.913414,125.37851115511148,-0.027112773,7.052922e-08,0.04235996,0.0058999783,2.0,42,0.021784825,2.9543475e-07,0,1.6442601287833568e-10,2.0
186,186,118.14758,70516.25,29380.396,76392.08,-22.618912,126.06690726787201,-0.027104463,-3.731045e-08,0.045849822,0.0067819767,2.0,42,0.021766849,2.8493594e-07,0,-4.418907258083335e-12,2.0
187,187,102.25773,72702.99,31208.367,79118.19,-23.231833,126.73336348615703,-0.027116593,1.3068804e-07,0.049871556,0.0077596544,2.0,42,0.021753117,2.749446e-07,0,1.0024502236068619e-10,2.0
188,188,88.4436,75089.03,33430.1,82194.49,-23.998922,127.42330807892722,-0.027085403,5.991199e-08,0.053828962,0.008904426,2.0,42,0.021772131,2.6488553e-07,0,9.513688150125038e-11,2.0
189,189,76.54279,77421.516,35661.184,85239.73,-24.731306,128.09071869733452,-0.027141856,3.2680995e-07,0.058306918,0.01020534,2.0,42,0.021752452,2.5519148e-07,0,1.4054074328208168e-10,2.0
190,190,66.250786,79818.19,37885.84,88353.16,-25.391436,128.75897923571756,-0.027126467,8.76633e-08,0.06340919,0.011659016,2.0,42,0.021726469,2.4590483e-07,0,2.3540263885883187e-10,2.0
191,191,57.329906,82257.29,40711.42,91780.62,-26.332088,129.41363260017897,-0.027084732,3.094884e-07,0.06819031,0.013416933,2.0,42,0.021759814,2.3708508e-07,0,2.4556525807560723e-11,2.0
192,192,49.60321,85001.98,43971.473,95701.76,-27.352499,130.0993489526736,-0.027043873,-4.7368818e-08,0.07296916,0.015404284,2.0,42,0.021796733,2.2775687e-07,0,-7.165437463167261e-11,2.0
193,193,42.92585,87813.305,46380.137,99309.08,-27.84156,130.80743186632753,-0.027103998,5.078558e-08,0.07994094,0.017436342,2.0,42,0.021757321,2.1908694e-07,0,1.7596590495452504e-10,2.0
194,194,37.1518,90290.29,49841.73,103133.58,-28.899422,131.45115387023543,-0.02706936,-3.9659005e-07,0.08595026,0.020073969,2.0,42,0.021729907,2.1069673e-07,0,3.6326130975784643e-10,2.0
195,195,32.150223,93025.625,54027.95,107576.88,-30.147406,132.09036286061746,-0.027104743,2.1524495e-07,0.09162577,0.023110893,2.0,42,0.021760173,2.0227554e-07,0,-8.415952177248048e-11,2.0
196,196,27.835518,95353.59,57652.76,111427.77,-31.15803,132.81831262851483,-0.027074335,1.7911606e-08,0.099174656,0.026549358,2.0,42,0.021667095,1.9444968e-07,0,2.1310603178569132e-10,2.0
197,197,24.082958,98389.73,62346.5,116480.15,-32.36116,133.52040447518812,-0.027012069,-1.783043e-07,0.10599814,0.030368164,2.0,42,0.0217292,1.8654852e-07,0,4.588501177712108e-11,2.0
198,198,20.833313,100798.21,69060.99,122187.15,-34.416645,134.17476330630598,-0.027056802,1.1988355e-07,0.11061881,0.03533813,2.0,42,0.021744281,1.7795882e-07,0,-4.578099801319821e-10,2.0
199,199,18.021912,103091.04,75766.01,127938.46,-36.313755,134.92073003506812,-0.027113574,2.3480005e-07,0.116558746,0.04087817,2.0,42,0.021738717,1.6991542e-07,0,1.928720679392389e-10,2.0
200,200,15.604198,105540.66,83926.875,134842.69,-38.492035,135.57702411955688,-0.027061665,6.084112e-08,0.121528365,0.04707875,2.0,42,0.021783454,1.6154716e-07,0,1.319313498918796e-10,2.0
201,201,13.500899,107799.12,92832.9,142262.42,-40.733902,136.5979887547146,-0.027076421,6.962538e-09,0.12698591,0.054072812,2.0,43,0.021772949,1.530478e-07,0,1.8779164336003696e-10,2.0
202,202,11.686608,110513.51,103222.07,151221.8,-43.046154,137.1888894494623,-0.027062858,-9.978426e-08,0.13193472,0.06147173,2.0,43,0.021778176,1.4401479e-07,0,6.252945334574002e-11,2.0
203,203,10.113269,112496.86,115336.07,161114.72,-45.71397,137.86253286807914,-0.027051363,-7.030441e-08,0.13644683,0.06992352,2.0,43,0.021725804,1.348468e-07,0,-6.183721855769086e-10,2.0
204,204,8.748621,115108.516,129710.016,173420.47,-48.4132,138.62938061120803,-0.027073413,-1.0386373e-07,0.14025134,0.07846091,2.0,43,0.021762857,1.2549187e-07,0,-9.941683514426023e-10,2.0
205,205,7.570237,117807.555,146253.94,187799.98,-51.148556,139.50499726613634,-0.027069043,-4.8628227e-08,0.14374842,0.08718205,2.0,43,0.021757094,1.1585248e-07,0,1.982041231265441e-10,2.0
206,206,6.554112,121043.35,164832.97,204502.81,-53.708694,140.04131270493963,-0.02710843,-1.6332687e-07,0.14732017,0.09570879,2.0,43,0.021746062,1.0633625e-07,0,-1.0407570035953187e-09,2.0
207,207,5.669445,124081.46,186380.47,223905.98,-56.346596,140.6511347872147,-0.027071858,7.9422676e-08,0.1506188,0.104363486,2.0,43,0.021709263,9.6957045e-08,0,2.0183764207774383e-10,2.0
208,208,4.907347,127698.375,212215.72,247673.95,-58.963055,141.34356522010057,-0.027143702,-1.921368e-07,0.15282549,0.112199314,2.0,43,0.021770617,8.790031e-08,0,-1.2496701435845815e-09,2.0
209,209,4.245922,131510.97,240849.2,274414.78,-61.36412,142.13130605753395,-0.027075239,1.2184525e-07,0.15563343,0.119888715,2.0,43,0.021732377,7.919536e-08,0,-8.473012319025012e-11,2.0
210,210,3.6747382,136483.47,273982.16,306094.7,-63.51993,143.03093020693632,-0.027098408,-9.778432e-08,0.158078,0.12664977,2.0,43,0.02170512,7.090983e-08,0,-4.358918279400036e-11,2.0
211,211,3.180988,142104.16,312079.6,342910.0,-65.51805,144.06020361577976,-0.027066361,-1.2505802e-07,0.16032185,0.13278931,2.0,43,0.021741496,6.340292e-08,0,-1.320333347450939e-09,2.0
212,212,2.752818,148002.75,356358.6,385870.78,-67.44592,145.23914116513333,-0.027082942,2.187191e-08,0.16223904,0.1383713,2.0,43,0.021742642,5.6346952e-08,0,-8.479978818939236e-10,2.0
213,213,2.3804083,155854.27,406676.44,435518.4,-69.03122,146.59397173617617,-0.027088612,-3.6933134e-08,0.16440675,0.1433523,2.0,43,0.021756813,4.9956128e-08,0,2.3367058637665157e-10,2.0
