True,index,freq,Re(Z),Im(Z),Z,Phase(Z),time,Ewe_meas,I_meas,Cs,Cp,cycle_number,I_Range,Ewe,I,Ns,(QQo),cycle
110,110,7000018.5,742.9019,3184.8745,3270.3713,-76.869995,81.96149869295186,-0.021277817,-1.4699276e-06,7.138856e-06,6.770475e-06,2.0,41,0.009877261,3.0202261e-06,0,9.496368202720065e-09,2.0
111,111,6057573.0,969.71643,3149.2168,3295.1353,-72.88519,82.51349850583938,-0.021309491,2.1464257e-06,8.342937e-06,7.6203964e-06,2.0,41,0.013987987,4.245042e-06,0,9.9485732792625e-09,2.0
112,112,5242039.0,1171.5198,3635.7449,3819.8298,-72.13988,82.93048521896708,-0.021211581,-3.4363854e-06,8.350769e-06,7.5652842e-06,2.0,41,0.01942687,5.0857943e-06,0,9.642053915405945e-09,2.0
113,113,4536288.0,1253.7969,4401.0977,4576.2065,-74.09866,84.29848240394494,-0.021235708,-4.7752906e-06,7.971839e-06,7.3734254e-06,2.0,41,0.021201588,4.633005e-06,0,8.776055509088208e-09,2.0
114,114,3925558.5,1576.5577,4779.5854,5032.889,-71.744736,84.71449781037518,-0.02137159,4.0998552e-06,8.48259e-06,7.650225e-06,2.0,41,0.019129965,3.800991e-06,0,9.282745808306458e-09,2.0
115,115,3397055.0,1917.1294,5125.1113,5471.9424,-69.49089,85.13048503009486,-0.021318844,-6.0587206e-07,9.141432e-06,8.019325e-06,2.0,41,0.019998455,3.654727e-06,0,1.0276992961043637e-08,2.0
116,116,2939708.2,2243.3508,5707.7407,6132.775,-68.54336,85.54650310319266,-0.021316776,2.0980133e-06,9.485313e-06,8.216107e-06,2.0,41,0.021725915,3.5425912e-06,0,1.0451121322925398e-08,2.0
117,117,2543924.5,2716.1536,6362.346,6917.871,-66.88185,86.09848592945491,-0.021391675,3.3084293e-06,9.833285e-06,8.317414e-06,2.0,41,0.020725138,2.995884e-06,0,1.0868229926605484e-08,2.0
118,118,2201436.2,3154.03,7242.1016,7899.11,-66.46625,86.65049443565658,-0.021440398,9.570937e-06,9.982731e-06,8.391166e-06,2.0,41,0.020446267,2.5884267e-06,0,1.0667156946902247e-08,2.0
119,119,1905053.1,3718.8962,7816.21,8655.826,-64.55523,87.20249312851229,-0.021367641,5.217163e-06,1.0688502e-05,8.715498e-06,2.0,41,0.020708745,2.392463e-06,0,1.2003426966758626e-08,2.0
120,120,1648567.4,4288.6743,8900.266,9879.648,-64.272484,87.75448400809546,-0.021408984,8.870758e-06,1.0847021e-05,8.803056e-06,2.0,41,0.019968696,2.021195e-06,0,1.2110683440517454e-08,2.0
121,121,1426616.2,5700.998,9336.094,10939.105,-58.590065,88.3064825142792,-0.021411685,7.5225407e-06,1.1949445e-05,8.703913e-06,2.0,41,0.020382527,1.8632718e-06,0,1.225904816835705e-08,2.0
122,122,1234551.2,6759.38,10143.499,12189.331,-56.32148,88.8584938472195,-0.021361064,2.9397174e-06,1.2709345e-05,8.801142e-06,2.0,41,0.020498175,1.6816489e-06,0,1.2485931233789592e-08,2.0
123,123,1068345.5,7820.182,10839.832,13366.271,-54.19218,89.41049907341949,-0.021420648,4.1352373e-06,1.3743136e-05,9.038793e-06,2.0,41,0.020529851,1.5359445e-06,0,1.2558630085419193e-08,2.0
124,124,924510.06,9525.908,11515.828,14945.141,-50.4024,89.96248528631986,-0.021344965,9.378744e-07,1.49490415e-05,8.8757215e-06,2.0,41,0.020354982,1.36198e-06,0,1.2841502876147123e-08,2.0
125,125,800039.0,9311.445,10884.349,14323.828,-49.45336,90.5145052591979,-0.021390837,3.3140159e-06,1.8277067e-05,1.0553419e-05,2.0,41,0.020599557,1.4381321e-06,0,1.2760089385966782e-08,2.0
126,126,692334.1,12634.465,11730.008,17240.15,-42.874043,91.06650485875434,-0.021358548,4.0290934e-06,1.9597746e-05,9.072367e-06,2.0,41,0.020522758,1.1904049e-06,0,1.3370450648545152e-08,2.0
127,127,599122.25,14286.224,11804.378,18532.121,-39.56614,91.6185072582739,-0.021308336,-4.101182e-06,2.2504099e-05,9.130563e-06,2.0,41,0.020624885,1.1129263e-06,0,1.3804939637032751e-08,2.0
128,128,518454.94,16147.6,11445.291,19792.414,-35.328712,92.17048797782627,-0.021377888,3.1240731e-06,2.6821452e-05,8.968884e-06,2.0,41,0.020331334,1.0272287e-06,0,1.4959135447034742e-08,2.0
129,129,448662.03,17570.713,10899.918,20676.996,-31.813221,92.72250648404588,-0.021353927,2.025388e-06,3.2544496e-05,9.0437625e-06,2.0,41,0.020242497,9.789863e-07,0,1.512934038321529e-08,2.0
130,130,388258.97,18492.2,10144.823,21092.152,-28.749178,93.27449341691681,-0.02140088,4.2134493e-06,4.0406772e-05,9.3476265e-06,2.0,41,0.020789629,9.85657e-07,0,1.5614515149599762e-08,2.0
131,131,335983.9,19537.84,10099.363,21993.734,-27.335028,93.82648866981617,-0.0213472,-1.8386331e-06,4.6903755e-05,9.890032e-06,2.0,41,0.020373695,9.263409e-07,0,1.6124615978229586e-08,2.0
132,132,290751.2,21183.791,8720.3125,22908.445,-22.374527,94.37850496268948,-0.021386141,3.7665275e-06,6.277209e-05,9.095769e-06,2.0,41,0.020496363,8.947077e-07,0,1.6199641193079768e-08,2.0
133,133,251605.19,22034.553,8159.0205,23496.62,-20.318735,94.93048536227434,-0.021281598,-2.8330358e-06,7.7528704e-05,9.348196e-06,2.0,41,0.020176832,8.587121e-07,0,1.7277757438446567e-08,2.0
134,134,217729.38,22834.385,7052.7285,23898.746,-17.164057,95.48250189513783,-0.021395886,3.915503e-06,0.00010364443,9.026306e-06,2.0,41,0.020319007,8.502123e-07,0,1.7997902640979016e-08,2.0
135,135,188418.58,23329.357,6204.6797,24140.36,-14.893619,96.03448746804497,-0.021347405,1.5151546e-06,0.00013613727,8.993491e-06,2.0,41,0.020261897,8.39337e-07,0,1.7944433141871564e-08,2.0
136,136,163051.14,23755.404,5460.3364,24374.875,-12.944961,96.58649397423142,-0.02131236,-5.3696647e-07,0.0001787627,8.970795e-06,2.0,41,0.020479705,8.4019734e-07,0,1.7714671094725846e-08,2.0
137,137,141098.2,24195.438,4746.518,24656.615,-11.099001,97.13850178712164,-0.021394657,3.66411e-06,0.00023764218,8.806572e-06,2.0,41,0.020313203,8.2384395e-07,0,1.845444602015315e-08,2.0
138,138,122105.11,24242.13,3879.1692,24550.537,-9.091264,97.55449876686907,-0.021296859,-4.6598307e-06,0.00033600643,8.388862e-06,2.0,41,0.021783141,8.8727757e-07,0,1.9620484594957095e-08,2.0
139,139,105663.59,24633.475,3536.0852,24885.979,-8.168888,98.1064851131232,-0.021407476,5.5765695e-06,0.00042596317,8.60019e-06,2.0,41,0.02035385,8.1788426e-07,0,2.1018658635214076e-08,2.0
140,140,91439.65,24622.416,3122.0317,24819.559,-7.2263317,98.52249425285845,-0.021346511,2.7739904e-06,0.00055750436,8.821345e-06,2.0,41,0.021475209,8.6525347e-07,0,2.200436436332767e-08,2.0
141,141,79127.08,24653.775,2503.1216,24780.521,-5.797429,99.07449705243926,-0.021401215,4.3289097e-06,0.0008035503,8.198909e-06,2.0,41,0.020340275,8.208171e-07,0,2.153725741455206e-08,2.0
142,142,68475.36,24746.756,2210.4902,24845.285,-5.104367,99.49049176552217,-0.02139268,3.908059e-06,0.0010514708,8.323125e-06,2.0,41,0.021300115,8.573101e-07,0,2.2184099357916568e-08,2.0
143,143,59252.523,24671.371,1930.4249,24746.78,-4.4740243,100.04249208504916,-0.021361493,4.2019724e-07,0.0013914268,8.4669855e-06,2.0,41,0.020184815,8.1565423e-07,0,2.3226958602397947e-08,2.0
144,144,51282.285,24802.283,1629.4575,24855.752,-3.7588098,100.45850210482604,-0.021372763,2.3494163e-06,0.0019046261,8.18544e-06,2.0,41,0.020904338,8.410262e-07,0,2.390341629474493e-08,2.0
145,145,44369.8,24629.951,1320.6653,24665.332,-3.0692775,100.8744843112363,-0.021295927,-3.9652323e-06,0.0027160633,7.786664e-06,2.0,41,0.021458505,8.699865e-07,0,2.4129194777838987e-08,2.0
146,146,38403.727,24626.945,1094.5404,24651.256,-2.5448265,101.29050518435542,-0.021337159,6.9021763e-07,0.0037862996,7.4644954e-06,2.0,41,0.021914085,8.889643e-07,0,2.5150499752764216e-08,2.0
147,147,33226.32,24671.52,982.4098,24691.072,-2.2802896,101.84248897057842,-0.02139201,3.070081e-06,0.0048757927,7.718816e-06,2.0,41,0.020246334,8.1998604e-07,0,2.7479778779928033e-08,2.0
148,148,28754.086,24639.89,1013.62463,24660.73,-2.3556795,102.25849043033668,-0.02134437,-7.473865e-07,0.0054606386,9.225414e-06,2.0,41,0.02050171,8.313505e-07,0,2.8347871051247845e-08,2.0
149,149,24884.947,24470.055,803.05194,24483.229,-1.8796436,102.67449458342162,-0.02142879,5.5896103e-06,0.007964157,8.568201e-06,2.0,41,0.020558152,8.396831e-07,0,2.8656655434957658e-08,2.0
150,150,21553.963,24594.348,781.82745,24606.771,-1.820757,103.0914911365544,-0.021299466,-3.743632e-06,0.009444567,9.534428e-06,2.0,41,0.020663572,8.3975146e-07,0,2.885153814436434e-08,2.0
151,151,18631.234,24508.482,648.4997,24517.06,-1.5157049,103.50748632967588,-0.021297678,-5.523875e-06,0.013172516,9.216191e-06,2.0,41,0.02052535,8.371864e-07,0,2.8195530665729822e-08,2.0
152,152,16126.037,24641.484,603.1005,24648.863,-1.4020348,103.9234923227632,-0.021383775,1.520749e-06,0.0163645,9.796893e-06,2.0,41,0.020482063,8.309537e-07,0,2.8528274486613252e-08,2.0
153,153,13954.87,23935.275,744.9256,23946.865,-1.7826123,104.3404914358689,-0.021288736,-4.9074947e-06,0.015310221,1.4815281e-05,2.0,41,0.020018714,8.359638e-07,0,2.838280599494346e-08,2.0
154,154,12080.609,24655.95,531.00885,24661.666,-1.2337738,104.7565056689491,-0.02135089,2.219066e-06,0.024810158,1.1502393e-05,2.0,41,0.019855604,8.051201e-07,0,2.847750906374497e-08,2.0
155,155,10447.592,24639.506,728.2683,24650.266,-1.6929948,105.17249320875271,-0.02139855,9.531844e-06,0.020917632,1.8257955e-05,2.0,41,0.019358158,7.8531235e-07,0,2.9868044454082743e-08,2.0
156,156,9045.586,24608.477,669.0238,24617.568,-1.5573008,105.60426325592562,-0.021326352,9.434764e-07,0.02629916,1.9423822e-05,2.0,41,0.021972671,8.925606e-07,0,2.937347496185162e-08,2.0
157,157,7827.7437,24625.736,703.2438,24635.775,-1.6357665,106.24094928617706,-0.02132272,1.634343e-06,0.028911967,2.3559005e-05,2.0,41,0.020138111,8.174336e-07,0,3.0154563257156044e-08,2.0
158,158,6770.8345,24652.312,787.40283,24664.885,-1.8294237,106.77939616507501,-0.021370621,2.4276308e-06,0.029852517,3.042403e-05,2.0,41,0.020176,8.1800505e-07,0,2.973551557016031e-08,2.0
159,159,5860.798,24729.387,828.1437,24743.25,-1.9180181,107.3849992871692,-0.021485522,1.343311e-05,0.032791227,3.673293e-05,2.0,41,0.02017621,8.1542277e-07,0,3.054545175956807e-08,2.0
160,160,5071.625,24713.473,908.321,24730.16,-2.104906,108.06569006619975,-0.021342712,2.8056536e-06,0.034548856,4.6607787e-05,2.0,41,0.02020434,8.1699187e-07,0,3.1296877009054924e-08,2.0
161,161,4388.5933,24681.664,998.3431,24701.848,-2.3162813,108.74584655182844,-0.02138547,3.747916e-06,0.036325783,5.9335656e-05,2.0,41,0.020189334,8.173208e-07,0,3.2248806618232114e-08,2.0
162,162,3798.7827,24784.205,1072.505,24807.4,-2.477856,109.42584978413652,-0.02131739,-2.0735274e-07,0.039063968,7.301507e-05,2.0,41,0.020204538,8.144561e-07,0,3.283191093475788e-08,2.0
163,163,3286.0488,24809.93,1235.3324,24840.666,-2.8505087,110.10569162976026,-0.02130418,-4.4571232e-07,0.03920688,9.696243e-05,2.0,41,0.020215016,8.137872e-07,0,3.261088122792128e-08,2.0
164,164,2844.088,24835.248,1369.1232,24872.959,-3.1554205,110.78582763539453,-0.021357188,2.719993e-06,0.04087282,0.00012384108,2.0,41,0.020225585,8.1315557e-07,0,3.3742536782752925e-08,2.0
165,165,2460.7852,24921.041,1484.4955,24965.217,-3.4089642,111.4657201743612,-0.02138972,4.336364e-06,0.043567993,0.00015404749,2.0,41,0.020264316,8.1170197e-07,0,3.4472439195080115e-08,2.0
166,166,2129.3164,24964.531,1830.514,25031.553,-4.1936846,112.14585143330623,-0.02130936,8.931942e-07,0.040832583,0.00021836217,2.0,41,0.020239428,8.0855665e-07,0,3.5341410833976064e-08,2.0
167,167,1843.2289,24835.207,1867.6298,24905.332,-4.300599,112.82598141228664,-0.021358548,3.5300402e-06,0.04623279,0.00025998423,2.0,41,0.020168059,8.097888e-07,0,3.584626124390115e-08,2.0
168,168,1594.4913,25086.455,2095.4375,25173.818,-4.7747545,113.50581149791833,-0.021349642,2.984422e-06,0.04763468,0.00033004602,2.0,41,0.020225368,8.034287e-07,0,3.638876984524606e-08,2.0
169,169,1380.4436,25205.467,2193.3208,25300.715,-4.973218,114.18569046354969,-0.021397712,1.7032417e-06,0.052565318,0.00039503723,2.0,41,0.020230375,7.99597e-07,0,3.750931699922313e-08,2.0
170,170,1194.6187,25165.482,2569.019,25296.271,-5.8288493,114.86582588251622,-0.021369988,1.7795916e-06,0.051858928,0.0005348662,2.0,41,0.020163013,7.970745e-07,0,3.739796575387011e-08,2.0
171,171,1033.3434,25387.533,2735.3303,25534.465,-6.1495,115.54610164815676,-0.021376695,1.7237248e-06,0.05630743,0.0006461476,2.0,41,0.020198721,7.9103756e-07,0,3.715311584665216e-08,2.0
172,172,894.71045,25734.695,3051.2644,25914.953,-6.7617736,116.22582949377829,-0.021346847,1.8950462e-06,0.058298554,0.00080819585,2.0,41,0.02022712,7.8051926e-07,0,3.812232305314171e-08,2.0
173,173,774.2569,25878.604,4187.674,26215.238,-9.191919,116.90597867273027,-0.021351151,1.3531504e-06,0.04908652,0.0012525651,2.0,41,0.020317668,7.7503273e-07,0,3.909357898552616e-08,2.0
174,174,669.7856,25976.9,3960.8274,26277.129,-8.6694,117.58582499837212,-0.021388099,5.004885e-06,0.059992705,0.0013630583,2.0,41,0.020210948,7.6914597e-07,0,3.920166331253484e-08,2.0
175,175,579.81464,26319.205,4464.953,26695.25,-9.628342,118.26583572399977,-0.021294547,1.1371384e-06,0.0614772,0.0017198076,2.0,41,0.020254623,7.587351e-07,0,3.9256347124955504e-08,2.0
176,176,501.44418,26494.889,4894.7876,26943.238,-10.467069,118.9431873561407,-0.021373527,1.7907621e-06,0.06484309,0.0021400887,2.0,41,0.020226054,7.506913e-07,0,3.9922157949895026e-08,2.0
177,177,434.02762,26789.55,5406.4546,27329.65,-11.409729,119.62322800178663,-0.021343028,7.8146064e-07,0.067825064,0.0026542826,2.0,41,0.020206625,7.393664e-07,0,4.1011914863088234e-08,2.0
178,178,375.6009,27239.646,5998.937,27892.393,-12.419888,120.30243755402626,-0.021357933,3.887576e-06,0.07063488,0.0032673548,2.0,41,0.02023318,7.254014e-07,0,4.141886007779622e-08,2.0
179,179,325.10385,27687.346,6442.386,28426.984,-13.098702,121.23270359826711,-0.021355567,-2.3509573e-07,0.07598909,0.003902862,2.0,42,0.020263694,7.1283307e-07,0,4.197741144077208e-08,2.0
180,180,281.3503,28072.379,7161.585,28971.482,-14.311546,121.90882477704145,-0.021410791,2.8193747e-07,0.07898845,0.0048265904,2.0,42,0.02022705,6.9817105e-07,0,4.1300950333575654e-08,2.0
181,181,243.36427,28637.861,7812.2393,29684.309,-15.258682,122.592122889444,-0.021369597,1.780085e-07,0.08371201,0.0057980902,2.0,42,0.020253595,6.822997e-07,0,4.1615729875502634e-08,2.0
182,182,210.60631,29171.697,8615.58,30417.365,-16.453999,123.26916662827716,-0.02136153,2.4151893e-07,0.087713055,0.0070370412,2.0,42,0.020249758,6.6573017e-07,0,4.2349095906606453e-08,2.0
183,183,182.27473,29803.492,9609.705,31314.447,-17.871166,123.94027940681553,-0.021353554,1.839661e-07,0.09086227,0.008556856,2.0,42,0.020279128,6.4759655e-07,0,4.1674046433627355e-08,2.0
184,184,157.72879,30513.273,10286.631,32200.537,-18.629984,124.62865122623407,-0.021358361,2.2177365e-07,0.09809254,0.010010507,2.0,42,0.020273093,6.2958867e-07,0,4.154343061562354e-08,2.0
185,185,136.52892,31129.26,11174.481,33074.156,-19.746634,125.30052213810268,-0.02134491,1.0377862e-08,0.104320124,0.011908178,2.0,42,0.02019529,6.106064e-07,0,4.155650929495419e-08,2.0
186,186,118.14758,31999.803,12230.4375,34257.42,-20.917032,125.98889286414487,-0.021352343,4.5951438e-08,0.11014208,0.014038734,2.0,42,0.020235792,5.9069805e-07,0,4.191538359352087e-08,2.0
187,187,102.25773,32846.457,13288.367,35432.617,-22.026295,126.65536988244276,-0.021365143,1.7669981e-07,0.11712575,0.016473623,2.0,42,0.020218464,5.7061726e-07,0,4.186629858773176e-08,2.0
188,188,88.4436,33752.06,14449.7,36715.055,-23.176405,127.34530359521159,-0.021358361,1.156086e-07,0.12453598,0.01928964,2.0,42,0.020182831,5.497154e-07,0,4.179930796836927e-08,2.0
189,189,76.54279,34770.574,15677.685,38141.613,-24.270111,128.0127500269591,-0.021358604,3.003691e-07,0.13262759,0.02240782,2.0,42,0.020171748,5.288646e-07,0,4.18881187761762e-08,2.0
190,190,66.250786,36052.344,17110.844,39906.797,-25.389538,128.68099605868338,-0.02137513,3.123591e-08,0.14039695,0.025811115,2.0,42,0.020257354,5.076166e-07,0,4.152461011201108e-08,2.0
191,191,57.329906,37318.805,18417.74,41616.18,-26.267464,129.33563243647404,-0.021368964,2.8826196e-07,0.150731,0.029522344,2.0,42,0.020221427,4.85903e-07,0,4.203528697056136e-08,2.0
192,192,49.60321,38689.246,19933.531,43522.45,-27.258495,130.02137246899656,-0.021348283,1.4820108e-07,0.16096301,0.033765092,2.0,42,0.020243261,4.6512227e-07,0,4.220532178562407e-08,2.0
193,193,42.92585,39981.1,21526.72,45408.02,-28.299017,130.72942026265082,-0.021328142,2.1823158e-07,0.17223579,0.038709182,2.0,42,0.020174317,4.4428975e-07,0,4.1620026476891977e-08,2.0
194,194,37.1518,41421.652,23220.48,47486.25,-29.274467,131.37318495989894,-0.0213151,2.3722917e-07,0.18448842,0.04411393,2.0,42,0.020137008,4.2405978e-07,0,4.169457582219158e-08,2.0
195,195,32.150223,43192.625,25151.303,49981.906,-30.212479,132.01240373690962,-0.021337625,6.904372e-08,0.19682291,0.04983919,2.0,42,0.020169662,4.0353927e-07,0,4.2578188006757695e-08,2.0
196,196,27.835518,45031.785,27478.81,52753.64,-31.391928,132.73933750475408,-0.021355847,1.8423965e-07,0.20807643,0.05645649,2.0,42,0.020240158,3.8367318e-07,0,4.247406678670688e-08,2.0
197,197,24.082958,47054.477,29527.45,55551.723,-32.10894,133.44139745811117,-0.021357002,2.9012287e-07,0.22381252,0.06323262,2.0,42,0.020212982,3.638588e-07,0,4.300154403286823e-08,2.0
198,198,20.833313,49147.7,31512.916,58382.875,-32.667507,134.09576298255706,-0.021380516,2.1282784e-07,0.24242264,0.07062841,2.0,42,0.020176873,3.4559574e-07,0,4.260289974384889e-08,2.0
199,199,18.021912,51447.176,34241.727,61800.547,-33.64657,134.84173872465908,-0.021336377,1.9963723e-08,0.2579073,0.079175405,2.0,42,0.020216605,3.2712663e-07,0,4.281361090227974e-08,2.0
200,200,15.604198,53946.895,36893.832,65356.117,-34.3679,135.49703822244192,-0.021362275,1.3907042e-07,0.27645528,0.08809677,2.0,42,0.020243434,3.0974047e-07,0,4.196575912453228e-08,2.0
201,201,13.500899,56304.996,39851.105,68980.89,-35.289795,136.24499372462742,-0.021372465,2.337781e-07,0.29581288,0.09872797,2.0,42,0.020223927,2.9318159e-07,0,4.191857371119194e-08,2.0
202,202,11.686608,59061.14,42756.55,72913.24,-35.902176,136.83589185937308,-0.021365516,2.2530378e-07,0.31851435,0.10952708,2.0,42,0.020232365,2.7748547e-07,0,4.184923486210717e-08,2.0
203,203,10.113269,61491.055,46440.44,77057.54,-37.061523,137.50954021132202,-0.02138916,3.694617e-07,0.3388693,0.123082034,2.0,42,0.020223228,2.6244322e-07,0,4.281753371494486e-08,2.0
204,204,8.748621,64256.176,49773.402,81278.83,-37.76168,138.27640510108904,-0.021358864,2.9067675e-07,0.36549646,0.13706386,2.0,42,0.02019574,2.4847478e-07,0,4.439325270743212e-08,2.0
205,205,7.570237,67069.87,53715.344,85928.49,-38.69076,139.1520196760248,-0.021319384,1.3264307e-07,0.39139232,0.15294476,2.0,42,0.020190623,2.3497006e-07,0,4.2115974973991125e-08,2.0
206,206,6.554112,69625.47,58414.754,90884.484,-39.99616,139.6883027148142,-0.021376044,2.5603424e-07,0.41570356,0.17173126,2.0,42,0.02018916,2.2214088e-07,0,4.393420324845327e-08,2.0
207,207,5.669445,72653.15,63416.63,96437.28,-41.116676,140.52612739460892,-0.021332277,7.0509975e-07,0.44266626,0.19142243,2.0,43,0.020257354,2.1005728e-07,0,4.482846702985693e-08,2.0
208,208,4.907347,75492.15,69369.61,102524.18,-42.579853,141.2185358275019,-0.021372484,-3.9698605e-07,0.4675242,0.21403755,2.0,43,0.020228375,1.9730345e-07,0,4.252075111198906e-08,2.0
209,209,4.245922,78109.54,76116.5,109063.38,-44.259617,142.0063066649309,-0.021358324,3.3722222e-07,0.4924581,0.23986617,2.0,43,0.020210441,1.8530913e-07,0,4.273854187813875e-08,2.0
210,210,3.6747382,80800.2,83773.26,116390.0,-46.03495,142.9059193476569,-0.021335855,2.2067967e-07,0.51699734,0.2678353,2.0,43,0.020191988,1.7348559e-07,0,4.54743987258074e-08,2.0
211,211,3.180988,83585.055,93306.305,125269.82,-48.145584,143.93520590322441,-0.021356564,-1.559782e-07,0.536225,0.2974926,2.0,43,0.020216351,1.6138246e-07,0,4.290263462801969e-08,2.0
212,212,2.752818,86898.64,103664.55,135269.03,-50.027985,145.11414305251674,-0.021337412,1.2612803e-07,0.55771506,0.32754886,2.0,43,0.020209389,1.4940144e-07,0,4.128087739315382e-08,2.0
213,213,2.3804083,90129.84,116171.73,147034.89,-52.194515,146.46896149023087,-0.021339921,2.1093001e-07,0.57553035,0.3592761,2.0,43,0.020219274,1.3751344e-07,0,4.40460933397994e-08,2.0
214,214,2.060257,94116.695,129958.7,160459.39,-54.08777,148.02533081747242,-0.021367626,1.1906184e-07,0.59441996,0.3899185,2.0,43,0.020200375,1.2589089e-07,0,4.619260573769202e-08,2.0
