True,index,freq,Re(Z),Im(Z),Z,Phase(Z),time,Ewe_meas,I_meas,Cs,Cp,cycle_number,I_Range,Ewe,I,Ns,(QQo),cycle
0,0,7000018.5,1047.691,1938.6378,2203.6272,-61.61204,2.4654981704370584,-0.04049768,7.9331875e-07,1.1728009e-05,9.07698e-06,1.0,40,0.010139103,4.6010973e-06,0,9.764750315260547e-10,1.0
1,1,6057573.0,1221.9011,2060.5173,2395.5737,-59.331764,3.0175022232870106,-0.04058713,1.7872953e-05,1.2751028e-05,9.4336265e-06,1.0,40,0.014384902,6.0047837e-06,0,-2.8908328651419246e-09,1.0
2,2,5242039.0,1368.5481,2390.05,2754.1357,-60.20445,3.433485229703365,-0.040460825,-3.41663e-05,1.2703193e-05,9.566569e-06,1.0,40,0.020032313,7.2735384e-06,0,-4.5607373611270914e-09,1.0
3,3,4536288.0,1474.1649,2722.8157,3096.27,-61.568356,4.6654949682124425,-0.04043405,-4.8343612e-05,1.2885501e-05,9.964605e-06,1.0,40,0.018994417,6.1346127e-06,0,-8.660858520708341e-09,1.0
4,4,3925558.5,1788.4131,2950.17,3449.9165,-58.77547,5.082485788065242,-0.040550873,2.4905798e-05,1.3742687e-05,1.00495945e-05,1.0,40,0.018565232,5.381357e-06,0,-9.403157958102623e-09,1.0
5,5,3397055.0,2117.5754,3133.4233,3781.8604,-55.949074,5.498478367779171,-0.04058579,1.3035568e-05,1.4951971e-05,1.02642125e-05,1.0,40,0.019656558,5.1975894e-06,0,-1.2299582982633537e-08,1.0
6,6,2939708.2,2422.625,3368.0251,4148.82,-54.272484,5.914490360912168,-0.040526614,-2.2854225e-05,1.6074615e-05,1.0593563e-05,1.0,40,0.021613367,5.209522e-06,0,-1.4932752814022226e-08,1.0
7,7,2543924.5,2843.0837,3655.7207,4631.1357,-52.127502,6.466502413764829,-0.040532205,-4.3766686e-05,1.7113662e-05,1.0663847e-05,1.0,40,0.021197371,4.577143e-06,0,-1.861977724577299e-08,1.0
8,8,2201436.2,3390.4033,3697.716,5016.7656,-47.482563,7.018503266648622,-0.040547557,-3.3663957e-05,1.9551517e-05,1.0621845e-05,1.0,40,0.020595146,4.105264e-06,0,-2.1754922892430135e-08,1.0
9,9,1905053.1,4031.617,4087.8877,5741.4946,-45.39707,7.73749018079252,-0.040477093,-1.1142098e-05,2.0436855e-05,1.0360055e-05,1.0,41,0.01972317,3.4351976e-06,0,-2.715669765279374e-08,1.0
10,10,1648567.4,4559.5317,4162.506,6173.7983,-42.393703,8.289484420354711,-0.040560972,1.7032309e-06,2.3193088e-05,1.0542981e-05,1.0,41,0.019766109,3.2016123e-06,0,-2.775720129654739e-08,1.0
11,11,1426616.2,5173.898,4138.622,6625.512,-38.65646,8.841493753279792,-0.040643863,5.945277e-06,2.6956108e-05,1.0517919e-05,1.0,41,0.020639013,3.1150819e-06,0,-2.71015059272849e-08,1.0
12,12,1234551.2,5709.669,4113.8755,7037.3496,-35.77314,9.393483486113837,-0.040549923,-3.5946691e-06,3.1337175e-05,1.0708876e-05,1.0,41,0.020510307,2.914493e-06,0,-2.707924500336705e-08,1.0
13,13,1068345.5,6087.023,3931.309,7246.1743,-32.85643,9.945481512375409,-0.040479384,-7.2724724e-06,3.789407e-05,1.1153934e-05,1.0,41,0.020634871,2.8476918e-06,0,-2.6533255916051404e-08,1.0
14,14,924510.06,6752.4854,3671.4016,7686.0425,-28.533419,10.497488631895976,-0.040660877,5.602636e-06,4.6889607e-05,1.0698794e-05,1.0,41,0.020173037,2.6246325e-06,0,-2.7440239605100362e-08,1.0
15,15,800039.0,7194.3403,3453.6038,7980.345,-25.64308,11.049488684773678,-0.040485885,-6.294827e-06,5.7601854e-05,1.078793e-05,1.0,41,0.020640735,2.5864463e-06,0,-2.7716076429721664e-08,1.0
16,16,692334.1,7512.9067,3092.1748,8124.365,-22.371168,11.601480871002423,-0.04060062,1.6380583e-06,7.434304e-05,1.0769351e-05,1.0,41,0.020505182,2.523912e-06,0,-2.8043911442458755e-08,1.0
17,17,599122.25,7846.4863,2787.167,8326.803,-19.555655,12.153489030577475,-0.040535595,-3.158916e-06,9.5310716e-05,1.0678522e-05,1.0,41,0.02046665,2.4579242e-06,0,-2.7836209455501482e-08,1.0
18,18,518454.94,8066.0063,2476.7703,8437.704,-17.069773,12.705502950091613,-0.040432356,-6.9614844e-06,0.00012394339,1.0679385e-05,1.0,41,0.020520162,2.4319604e-06,0,-2.781282298634993e-08,1.0
19,19,448662.03,8284.32,2187.5422,8568.273,-14.791791,13.257502149645006,-0.04056779,-1.3451515e-06,0.00016216023,1.0569894e-05,1.0,41,0.020133588,2.3497837e-06,0,-2.7891570200959375e-08,1.0
20,20,388258.97,8482.949,1974.193,8709.643,-13.100953,13.809502229240024,-0.04063986,6.0030106e-06,0.00020763905,1.0668113e-05,1.0,41,0.021050246,2.4168899e-06,0,-2.5532337464330764e-08,1.0
21,21,335983.9,8577.397,1658.6405,8736.294,-10.944399,14.361499882099451,-0.040643826,7.362401e-06,0.0002855942,1.0294361e-05,1.0,41,0.020555642,2.352902e-06,0,-2.5310593465202184e-08,1.0
22,22,290751.2,8603.184,1497.0096,8732.457,-9.871003,14.913503508345457,-0.04048432,-5.7305806e-06,0.00036565712,1.07460855e-05,1.0,41,0.020057276,2.2968652e-06,0,-2.6824797055352986e-08,1.0
23,23,251605.19,8701.807,1262.7976,8792.957,-8.257066,15.329487501439871,-0.040539563,2.5074695e-07,0.0005009182,1.0331524e-05,1.0,41,0.02193275,2.4943542e-06,0,-2.6610928313500734e-08,1.0
24,24,217729.38,8749.536,1120.133,8820.945,-7.295436,15.881479740986833,-0.040658936,9.684549e-06,0.0006525796,1.052307e-05,1.0,41,0.02047217,2.320859e-06,0,-2.4320884059550154e-08,1.0
25,25,188418.58,8773.958,902.02264,8820.203,-5.8697743,16.43348587382934,-0.040624246,6.4424958e-06,0.0009364378,9.793923e-06,1.0,41,0.020330362,2.3049765e-06,0,-2.638747518927668e-08,1.0
26,26,163051.14,8794.709,803.04315,8831.296,-5.217199,16.849481600307627,-0.040491104,-4.5127026e-06,0.0012155069,1.00504685e-05,1.0,41,0.02173127,2.4607114e-06,0,-2.7005540291570342e-08,1.0
27,27,141098.2,8798.345,646.3137,8822.052,-4.2013187,17.401486986520467,-0.040613532,7.2581333e-06,0.0017452405,9.36705e-06,1.0,41,0.020279052,2.2986776e-06,0,-2.611746852404985e-08,1.0
28,28,122105.11,8785.016,494.2028,8798.905,-3.2197917,17.81749956627027,-0.040481042,-7.063884e-06,0.002637431,8.3202085e-06,1.0,41,0.021598285,2.454656e-06,0,-2.7202621756439763e-08,1.0
29,29,105663.59,8786.029,468.20612,8798.496,-3.0503976,18.36950068580336,-0.040522702,-4.471729e-06,0.0032170492,9.109928e-06,1.0,41,0.02043627,2.3227003e-06,0,-2.8387641523165837e-08,1.0
30,30,91439.65,8784.017,385.82288,8792.485,-2.5150025,18.785503398888977,-0.04049345,-3.4586903e-06,0.0045112576,8.686608e-06,1.0,41,0.021696195,2.467584e-06,0,-2.7713893720387104e-08,1.0
31,31,79127.08,8727.819,355.86017,8735.071,-2.3348327,19.33748513177852,-0.040592514,4.3159093e-06,0.0056521753,9.380835e-06,1.0,41,0.020227354,2.3156483e-06,0,-2.773781274225308e-08,1.0
32,32,68475.36,8738.338,310.13428,8743.84,-2.032644,19.75349181823549,-0.040565573,-1.6076759e-06,0.007494386,9.428252e-06,1.0,41,0.021490263,2.4577603e-06,0,-2.9434406873621e-08,1.0
33,33,59252.523,8712.776,275.96133,8717.1455,-1.814133,20.305489657766884,-0.040551953,-8.516303e-07,0.009733411,9.754677e-06,1.0,41,0.020266272,2.324875e-06,0,-2.7302891922557947e-08,1.0
34,34,51282.285,8707.79,251.16222,8711.411,-1.6521468,20.72148973084404,-0.040520355,-3.356258e-06,0.012356586,1.027141e-05,1.0,41,0.021416338,2.4584235e-06,0,-2.940561898511381e-08,1.0
35,35,44369.8,8686.269,277.4919,8690.7,-1.8297511,21.27350245040725,-0.040612917,3.202337e-06,0.01292654,1.31787265e-05,1.0,41,0.0202566,2.3308362e-06,0,-2.711542488973527e-08,1.0
36,36,38403.727,8667.119,266.56998,8671.218,-1.7616606,21.689496870181756,-0.04051933,-3.5573712e-06,0.015546603,1.4692571e-05,1.0,41,0.021166146,2.4409658e-06,0,-2.911985205485558e-08,1.0
37,37,33226.32,8662.812,287.99173,8667.598,-1.9040741,22.10547955657239,-0.0406423,5.7162824e-06,0.016632512,1.8362018e-05,1.0,41,0.022010645,2.539417e-06,0,-2.7051450477466056e-08,1.0
38,38,28754.086,8652.905,284.3099,8657.575,-1.8818996,22.65748942279606,-0.040573325,4.1818444e-06,0.019468324,2.09952e-05,1.0,41,0.02027345,2.3417008e-06,0,-2.815419390927016e-08,1.0
39,39,24884.947,8655.498,320.77896,8661.44,-2.1224513,23.073502535902662,-0.040572412,1.3494716e-06,0.019937813,2.734696e-05,1.0,41,0.020787347,2.3999874e-06,0,-2.9342057071769685e-08,1.0
40,40,21553.963,8656.515,359.89795,8663.993,-2.380723,23.49049306238885,-0.040541016,-1.3935188e-06,0.020516988,3.540268e-05,1.0,41,0.021138983,2.4398662e-06,0,-2.8981831873807096e-08,1.0
41,41,18631.234,8685.392,387.6001,8694.036,-2.5552244,23.90648542882991,-0.04054374,-3.5815783e-06,0.022039138,4.3804575e-05,1.0,41,0.021375798,2.4586736e-06,0,-3.073258528580583e-08,1.0
42,42,16126.037,8645.173,440.31445,8656.379,-2.9156592,24.322485901910113,-0.040631007,3.6511253e-06,0.022414524,5.7993977e-05,1.0,41,0.021359863,2.4675287e-06,0,-2.8107570581811263e-08,1.0
43,43,13954.87,8815.143,548.18524,8832.171,-3.5584574,24.73848848164198,-0.040646434,5.502131e-06,0.020804966,8.014691e-05,1.0,41,0.021497438,2.4339924e-06,0,-2.637566067472916e-08,1.0
44,44,12080.609,8761.205,544.0781,8778.083,-3.5535522,25.15450460810098,-0.040625103,7.0142223e-06,0.024214193,9.3023606e-05,1.0,41,0.021144634,2.4087985e-06,0,-2.3783819783476348e-08,1.0
45,45,10447.592,8734.61,644.5405,8758.359,-4.220296,25.57048868117272,-0.04057586,-3.238937e-06,0.023634898,0.0001279996,1.0,41,0.02064922,2.3576586e-06,0,-2.1841264916304226e-08,1.0
46,46,9045.586,8770.628,722.96564,8800.375,-4.7122555,26.143269001709996,-0.04058132,1.8503944e-06,0.024336929,0.00016424748,1.0,41,0.020410098,2.3192306e-06,0,-2.029753459432489e-08,1.0
47,47,7827.7437,8782.764,821.1289,8821.065,-5.341241,26.623919237899827,-0.040580552,1.6697659e-06,0.024761228,0.000214562,1.0,41,0.020454222,2.3187927e-06,0,-1.8693253948868005e-08,1.0
48,48,6770.8345,8810.375,918.3704,8858.11,-5.950871,27.162393743434222,-0.04055117,-1.1253663e-06,0.02559529,0.0002751146,1.0,41,0.020485952,2.3126775e-06,0,-1.6903809464868876e-08,1.0
49,49,5860.798,8892.385,1017.5838,8950.418,-6.5281415,27.768969105614815,-0.040594902,1.8001182e-06,0.026686596,0.00034494267,1.0,41,0.020584054,2.299787e-06,0,-1.438734901864791e-08,1.0
50,50,5071.625,8917.724,1148.2606,8991.346,-7.3371267,28.44969257797493,-0.040626816,2.8988038e-06,0.027329553,0.00044572202,1.0,41,0.020568464,2.2875847e-06,0,-1.3985646223646754e-08,1.0
51,51,4388.5933,9000.742,1315.6555,9096.39,-8.316138,29.12984639694332,-0.040567733,5.7666756e-07,0.027564658,0.0005766322,1.0,41,0.020638963,2.268918e-06,0,-1.4634188148622544e-08,1.0
52,52,3798.7827,9056.525,1420.3284,9167.224,-8.913055,29.80984706923482,-0.040574666,2.2954566e-06,0.029497618,0.00070809055,1.0,41,0.020597808,2.246897e-06,0,-1.5957593339723848e-08,1.0
53,53,3286.0488,9160.394,1601.2131,9299.284,-9.914984,30.48967864820588,-0.0405154,-3.4883467e-07,0.030248022,0.0008968013,1.0,41,0.020633744,2.2188528e-06,0,-1.6293956294159924e-08,1.0
54,54,2844.088,9254.28,1771.1508,9422.244,-10.834659,31.16980852049892,-0.040622346,-7.045145e-07,0.031595234,0.0011164106,1.0,41,0.020622045,2.1886553e-06,0,-1.663221704303079e-08,1.0
55,55,2460.7852,9408.132,1973.6012,9612.91,-11.847492,31.84970375279954,-0.04057893,3.2749645e-06,0.032770798,0.0013813257,1.0,41,0.020701168,2.1534756e-06,0,-1.799559978203686e-08,1.0
56,56,2129.3164,9518.971,2190.1313,9767.675,-12.957156,32.52884983838885,-0.040593445,8.299226e-07,0.034127917,0.0017158041,1.0,41,0.020673996,2.116573e-06,0,-1.6369827056842546e-08,1.0
57,57,1843.2289,9691.445,2392.8853,9982.485,-13.8693285,33.20894589734962,-0.040519442,-4.6095056e-06,0.036084358,0.002073411,1.0,41,0.020677324,2.0713603e-06,0,-1.7605363006572993e-08,1.0
58,58,1594.4913,9862.2705,2632.8904,10207.668,-14.947425,33.88882608964923,-0.04057828,1.6623148e-06,0.037910998,0.0025221894,1.0,41,0.020682942,2.0262162e-06,0,-1.8683089476101915e-08,1.0
59,59,1380.4436,9977.898,2879.6213,10385.118,-16.098139,34.56871140194562,-0.040616866,3.1725383e-06,0.04003742,0.0030783215,1.0,41,0.020579176,1.9816025e-06,0,-1.7923947779081574e-08,1.0
60,60,1194.6187,10199.907,3141.8628,10672.835,-17.120327,35.24882276757853,-0.04058346,9.3047294e-07,0.042403687,0.003674671,1.0,41,0.020601485,1.930273e-06,0,-1.9240937288032002e-08,1.0
61,61,1033.3434,10482.193,3495.062,11049.518,-18.439856,35.92909450651496,-0.0405238,-1.1886874e-06,0.04406772,0.0044090366,1.0,41,0.020675736,1.8711889e-06,0,-2.0394513396025912e-08,1.0
62,62,894.71045,10718.972,3777.7263,11365.191,-19.414173,36.60882901883451,-0.04058186,3.0831507e-06,0.047087666,0.0052025304,1.0,41,0.020645864,1.8165874e-06,0,-1.870301300673797e-08,1.0
63,63,774.2569,10918.072,4165.2515,11685.616,-20.881884,37.288972731126705,-0.04061029,3.2283983e-06,0.049350757,0.00627008,1.0,41,0.02060441,1.7632283e-06,0,-1.7632538656433403e-08,1.0
64,64,669.7856,11307.017,4443.098,12148.652,-21.452372,37.96882905677194,-0.04060634,3.3512983e-06,0.05348087,0.0071534254,1.0,41,0.020626897,1.6978753e-06,0,-1.8817304972306678e-08,1.0
65,65,579.81464,11664.781,4839.641,12628.905,-22.533241,38.64880759573134,-0.040541653,-1.1235842e-07,0.056717597,0.00832938,1.0,41,0.0206701,1.6367293e-06,0,-1.8181375234465552e-08,1.0
66,66,501.44418,11975.264,5181.137,13048.031,-23.39588,39.32618597455439,-0.040577274,3.099897e-06,0.061259355,0.009659011,1.0,41,0.020576932,1.5770142e-06,0,-1.6719523249258196e-08,1.0
67,67,434.02762,12384.551,5700.1914,13633.389,-24.715023,40.006204326840816,-0.04055348,1.5263543e-06,0.06432997,0.01124565,1.0,41,0.020623464,1.5127174e-06,0,-1.6232863292430012e-08,1.0
68,68,375.6009,12820.452,6062.1353,14181.448,-25.307068,40.68542657242506,-0.04057381,-4.1031623e-07,0.06989851,0.012772561,1.0,41,0.020619936,1.4540078e-06,0,-1.7046973910871324e-08,1.0
69,69,325.10385,13238.965,6520.478,14757.603,-26.221249,41.364720764737285,-0.04060673,2.4146066e-06,0.07507902,0.014657025,1.0,41,0.020606183,1.3963096e-06,0,-1.7523720252664256e-08,1.0
70,70,281.3503,13721.264,7059.8755,15430.973,-27.226763,42.041806823559455,-0.040606953,3.1967215e-06,0.08012641,0.016771935,1.0,41,0.02063272,1.3370978e-06,0,-1.7239081564810022e-08,1.0
71,71,243.36427,14154.173,7639.4487,16084.209,-28.357122,42.725119602662744,-0.040536955,2.5075374e-07,0.08560543,0.01931194,1.0,41,0.02063079,1.2826736e-06,0,-1.8038409396843413e-08,1.0
72,72,210.60631,14639.982,8153.0786,16757.14,-29.113651,43.402172354835784,-0.040590223,1.5915225e-06,0.09268877,0.021941714,1.0,41,0.02058436,1.2283933e-06,0,-1.7502744474086285e-08,1.0
73,73,182.27473,15137.428,8799.051,17508.998,-30.168488,44.073275560018374,-0.040557712,5.4311516e-07,0.09923339,0.025061488,1.0,41,0.020603776,1.1767536e-06,0,-1.8457845278078368e-08,1.0
74,74,157.72879,15709.476,9451.543,18333.557,-31.03305,44.761643112757156,-0.04057219,2.5673028e-06,0.10675947,0.02837386,1.0,41,0.020596325,1.1234223e-06,0,-1.9127189455149264e-08,1.0
75,75,136.52892,16125.942,10117.312,19036.965,-32.103893,45.43350879792706,-0.040600173,2.369912e-06,0.11522066,0.03254357,1.0,41,0.020523844,1.0781049e-06,0,-1.7707037850167733e-08,1.0
76,76,118.14758,16635.025,11226.124,20068.63,-34.01339,46.12189192400547,-0.04064325,1.8187042e-06,0.11999564,0.037548244,1.0,41,0.020648427,1.0288907e-06,0,-1.7470242844963323e-08,1.0
77,77,102.25773,17168.232,12106.671,21007.61,-35.190674,46.78835851562326,-0.040596895,2.0756847e-06,0.12855804,0.04269681,1.0,41,0.02059268,9.802486e-07,0,-1.6868509214298733e-08,1.0
78,78,88.4436,17705.912,13157.514,22059.453,-36.61656,47.73228370715515,-0.04057435,-2.302473e-07,0.13676654,0.04865618,1.0,42,0.020589221,9.333514e-07,0,-1.787883359845763e-08,1.0
79,79,76.54279,18252.174,14426.8125,23265.312,-38.323414,48.39875083217339,-0.040555906,-2.2857162e-07,0.14412703,0.055420242,1.0,42,0.02062056,8.863221e-07,0,-1.7968457460300315e-08,1.0
80,80,66.250786,18757.023,15859.773,24563.354,-40.215786,49.06696811722941,-0.040581897,-1.00059445e-07,0.15147191,0.06314672,1.0,42,0.020620834,8.394959e-07,0,-1.8092899204646075e-08,1.0
81,81,57.329906,19263.027,17579.45,26078.75,-42.383595,49.720617614963885,-0.040634178,1.253031e-07,0.15791872,0.071758054,1.0,42,0.02064784,7.9174964e-07,0,-1.759544696255312e-08,1.0
82,82,49.60321,19654.826,19523.016,27703.074,-44.807236,50.40638274079538,-0.04058933,-1.7027851e-07,0.16434763,0.08162089,1.0,42,0.020612841,7.440633e-07,0,-1.7205168926298914e-08,1.0
83,83,42.92585,20233.107,21783.78,29730.652,-47.113594,51.11441325445776,-0.040594473,1.10214344e-07,0.17020331,0.09137462,1.0,42,0.02063549,6.940813e-07,0,-1.787537315269895e-08,1.0
84,84,37.1518,20681.63,24260.342,31879.367,-49.55283,51.758181098353816,-0.04056373,2.1153176e-07,0.17658076,0.10226284,1.0,42,0.020575313,6.454116e-07,0,-1.8344386676472387e-08,1.0
85,85,32.150223,21134.941,27377.031,34585.945,-52.332024,52.39735878203646,-0.040534794,-1.7512858e-07,0.18082137,0.113298245,1.0,42,0.020602308,5.956844e-07,0,-1.730552503467998e-08,1.0
86,86,27.835518,21905.037,30958.291,37924.22,-54.71807,53.12432758990326,-0.040528543,-1.6479238e-07,0.18469019,0.12307349,1.0,42,0.020684674,5.4542124e-07,0,-1.7974496081576617e-08,1.0
87,87,24.082958,22453.842,35044.95,41621.19,-57.351685,53.826359436585335,-0.040511206,4.4831705e-08,0.18857533,0.1336924,1.0,42,0.020715043,4.977042e-07,0,-1.7479857842485243e-08,1.0
88,88,20.833313,22878.639,39554.77,45694.77,-59.95474,54.48077730771911,-0.040550984,-2.4639506e-08,0.19313586,0.1447197,1.0,42,0.020584114,4.504698e-07,0,-1.602004142291946e-08,1.0
89,89,18.021912,23476.83,45024.02,50777.2,-62.46116,55.22671478315169,-0.040543392,-9.020096e-08,0.196144,0.1542148,1.0,42,0.0205881,4.0545953e-07,0,-1.7702705555578292e-08,1.0
90,90,15.604198,24194.188,51288.2,56708.36,-64.74534,55.88200038758805,-0.040562257,-4.2149193e-08,0.19886631,0.16266795,1.0,42,0.0206024,3.6330445e-07,0,-1.7439076024615475e-08,1.0
91,91,13.500899,25148.547,58373.816,63560.617,-66.6927,56.629994423128664,-0.040591955,-1.5796674e-08,0.2019479,0.1703332,1.0,42,0.020598367,3.2407436e-07,0,-1.7079463460750807e-08,1.0
92,92,11.686608,25987.086,66527.01,71422.484,-68.66316,57.22086463784217,-0.040532354,-1.3173967e-07,0.20470746,0.17760687,1.0,42,0.020578077,2.8811763e-07,0,-1.7764010121766203e-08,1.0
93,93,10.113269,27317.613,76035.45,80793.83,-70.23792,57.89452125647222,-0.04056166,-7.4747454e-08,0.2069724,0.18331093,1.0,42,0.020617506,2.5518665e-07,0,-1.866475789544718e-08,1.0
94,94,8.748621,28388.139,86884.734,91404.836,-71.90606,58.66141569291358,-0.040582463,-5.584334e-08,0.20938088,0.18918455,1.0,42,0.020603556,2.2540992e-07,0,-1.7313411883088115e-08,1.0
95,95,7.570237,30029.129,99408.8,103845.35,-73.19163,59.536971174529754,-0.040535457,-2.7962457e-07,0.21148804,0.19380337,1.0,42,0.020632084,1.9868087e-07,0,-1.6784156680523035e-08,1.0
96,96,6.554112,31915.043,113196.42,117609.52,-74.254524,60.27930718308198,-0.040541388,2.2751436e-07,0.21452287,0.19872569,1.0,43,0.020602982,1.7518124e-07,0,-1.622921170166573e-08,1.0
97,97,5.669445,33728.06,129701.36,134015.02,-75.42342,60.889127558708424,-0.040529,-2.3364517e-07,0.21643876,0.20272961,1.0,43,0.020620957,1.538705e-07,0,-1.6054146148157143e-08,1.0
98,98,4.907347,36195.75,148362.67,152714.16,-76.28949,61.58155537824496,-0.040560525,3.37604e-08,0.21859927,0.20631908,1.0,43,0.020644635,1.3518482e-07,0,-1.711145568134419e-08,1.0
99,99,4.245922,39300.973,168966.62,173477.05,-76.906044,62.36931669569458,-0.04057978,7.883622e-08,0.22184373,0.21045779,1.0,43,0.020587213,1.18673995e-07,0,-1.5098866525049696e-08,1.0
100,100,3.6747382,42216.26,193473.0,198025.28,-77.690865,63.26895743177738,-0.04059096,-1.4221787e-07,0.22385837,0.2136844,1.0,43,0.020618662,1.0412136e-07,0,-1.6617208750417156e-08,1.0
101,101,3.180988,46304.523,220695.73,225501.03,-78.15056,64.2971840139071,-0.04056721,-1.840354e-08,0.22670658,0.21714756,1.0,43,0.020576276,9.1246925e-08,0,-1.7422040246281197e-08,1.0
102,102,2.752818,50737.54,252099.62,257154.66,-78.620674,65.47615481659886,-0.040593296,5.2706813e-08,0.22933504,0.22040732,1.0,43,0.020596232,8.009278e-08,0,-1.5782064212931995e-08,1.0
103,103,2.3804083,56008.426,288950.84,294328.97,-79.03018,66.83101946764509,-0.04053621,-3.025903e-08,0.23139006,0.22301117,1.0,43,0.020615976,7.0043995e-08,0,-1.5142815808972858e-08,1.0
104,104,2.060257,61922.668,329259.22,335031.4,-79.34898,68.38733423486701,-0.04057087,-7.889652e-08,0.23461771,0.226603,1.0,43,0.02058925,6.1454685e-08,0,-1.645161178758967e-08,1.0
105,105,1.7836765,69458.484,375593.0,381961.5,-79.52265,70.17563754652292,-0.0405613,-4.04527e-08,0.23756725,0.22971131,1.0,43,0.020576866,5.3871574e-08,0,-1.7606097103538035e-08,1.0
