True,index,freq,Re(Z),Im(Z),Z,Phase(Z),time,Ewe_meas,I_meas,Cs,Cp,cycle_number,I_Range,Ewe,I,Ns,(QQo),cycle
0,0,7000018.5,1157.4703,2299.0244,2573.9563,-63.276505,2.4664736904378515,-0.034827728,4.5143934e-06,9.889569e-06,7.889731e-06,1.0,40,0.010008158,3.8882395e-06,0,6.7592912130546915e-09,1.0
1,1,6057573.0,1298.4529,2409.6147,2737.1926,-61.681404,3.0184807299810927,-0.034708634,-3.6975733e-05,1.0903699e-05,8.4500325e-06,1.0,40,0.014172704,5.1778247e-06,0,2.4896248421681673e-09,1.0
2,2,5242039.0,1385.5576,2766.087,3093.7043,-63.393303,3.434493069740711,-0.034770787,1.725898e-05,1.0976252e-05,8.774616e-06,1.0,40,0.019692466,6.365335e-06,0,3.920176093528325e-09,1.0
3,3,4536288.0,1489.2299,3209.9062,3538.5454,-65.111145,4.802487588051008,-0.034785673,6.1329615e-06,1.0930175e-05,8.994195e-06,1.0,40,0.019740283,5.5786436e-06,0,2.5668910171942923e-09,1.0
4,4,3925558.5,1821.9995,3423.6365,3878.2688,-61.97887,5.218480327836005,-0.03483997,3.3129378e-05,1.1842163e-05,9.228487e-06,1.0,40,0.018769009,4.8395327e-06,0,4.5533648080512045e-09,1.0
5,5,3397055.0,2173.1716,3665.8467,4261.585,-59.33987,5.634502694272669,-0.034793463,-2.028669e-05,1.2780366e-05,9.456917e-06,1.0,40,0.019750468,4.634536e-06,0,5.198934739736513e-09,1.0
6,6,2939708.2,2479.6602,4083.5278,4777.438,-58.73242,6.050493780669058,-0.0348605,1.938e-05,1.3258072e-05,9.686375e-06,1.0,40,0.021595845,4.520382e-06,0,4.3552970872377095e-09,1.0
7,7,2543924.5,3012.0273,4673.2104,5559.7847,-57.19698,6.769478081521811,-0.034950342,7.846546e-06,1.3387534e-05,9.458348e-06,1.0,41,0.020071557,3.610132e-06,0,6.751817379564626e-09,1.0
8,8,2201436.2,3607.0874,5044.6055,6201.542,-54.43377,7.3214891210373025,-0.03475322,-5.4363663e-06,1.4331341e-05,9.482915e-06,1.0,41,0.020631209,3.326787e-06,0,6.961795540323439e-09,1.0
9,9,1905053.1,4263.8022,5291.6436,6795.6973,-51.139473,7.873502720583929,-0.034854464,2.2730567e-06,1.5787831e-05,9.572725e-06,1.0,41,0.020646984,3.0382437e-06,0,6.604562622158028e-09,1.0
10,10,1648567.4,5150.3096,5524.139,7552.602,-47.005733,8.425479333469411,-0.03487399,3.31029e-06,1.7476274e-05,9.349424e-06,1.0,41,0.019780114,2.61898e-06,0,6.915583471576762e-09,1.0
11,11,1426616.2,5774.5405,5660.2715,8086.0366,-44.427456,8.97748954637791,-0.03485357,5.1315023e-06,1.9709505e-05,9.657814e-06,1.0,41,0.020636555,2.5521224e-06,0,8.029741165223135e-09,1.0
12,12,1234551.2,6586.151,5692.875,8705.527,-40.83917,9.530483839305816,-0.0347611,-7.425174e-06,2.2645367e-05,9.6839485e-06,1.0,41,0.020530373,2.3583148e-06,0,7.950367418260384e-09,1.0
13,13,1068345.5,7344.196,5637.2407,9258.277,-37.50904,10.082489892170997,-0.03482046,1.4034198e-06,2.6426633e-05,9.797485e-06,1.0,41,0.020658445,2.2313486e-06,0,6.986658838303899e-09,1.0
14,14,924510.06,8047.6543,5394.528,9688.43,-33.834854,10.634497971768724,-0.034889452,2.5486595e-06,3.1912077e-05,9.893618e-06,1.0,41,0.020214267,2.0864338e-06,0,7.536766845621262e-09,1.0
15,15,800039.0,8776.931,4927.059,10065.308,-29.308317,11.186484211328207,-0.03492502,7.487161e-06,4.0375806e-05,9.674814e-06,1.0,41,0.020619359,2.0485572e-06,0,8.665966246427261e-09,1.0
16,16,692334.1,9406.516,4767.6597,10545.763,-26.878014,11.738482450862648,-0.034900278,2.5654201e-06,4.8216883e-05,9.854933e-06,1.0,41,0.020371584,1.9317317e-06,0,8.21589241439982e-09,1.0
17,17,599122.25,9930.678,4327.2075,10832.501,-23.544752,12.290496263740351,-0.034736656,-7.103014e-06,6.138991e-05,9.796139e-06,1.0,41,0.020624962,1.903989e-06,0,8.448316952631609e-09,1.0
18,18,518454.94,10303.381,3929.958,11027.431,-20.878057,12.842504316620762,-0.034921017,6.7907076e-06,7.8112615e-05,9.920837e-06,1.0,41,0.02044825,1.8543078e-06,0,9.020725098066704e-09,1.0
19,19,448662.03,10709.302,3608.2886,11300.836,-18.620232,13.394479036185658,-0.034958318,1.1321391e-05,9.831041e-05,1.00226125e-05,1.0,41,0.02023537,1.7906083e-06,0,9.00426822718714e-09,1.0
20,20,388258.97,11032.323,3195.967,11485.92,-16.155838,13.946498982404592,-0.034948926,1.094337e-05,0.00012826151,9.93046e-06,1.0,41,0.020931697,1.8223787e-06,0,1.0286320486128788e-08,1.0
21,21,335983.9,11183.607,2901.9346,11553.974,-14.546363,14.49849874197389,-0.03479091,-6.6917994e-07,0.00016323527,1.02973745e-05,1.0,41,0.020308979,1.7577485e-06,0,9.88147610737617e-09,1.0
22,22,290751.2,11419.804,2451.6418,11680.003,-12.116539,15.050490848167101,-0.03491416,2.4387969e-06,0.00022327578,9.83716e-06,1.0,41,0.020105226,1.7213374e-06,0,1.1139050370063487e-08,1.0
23,23,251605.19,11549.289,2185.1243,11754.185,-10.713716,15.602482181071537,-0.03493622,1.212958e-05,0.0002894839,1.0004414e-05,1.0,41,0.020370353,1.7330299e-06,0,1.1459760950142734e-08,1.0
24,24,217729.38,11644.431,1871.022,11793.79,-9.128237,16.1545000205806,-0.03486115,2.995591e-06,0.00039068275,9.832755e-06,1.0,41,0.020196043,1.7124303e-06,0,1.3570198492352069e-08,1.0
25,25,188418.58,11736.679,1624.3505,11848.55,-7.879652,16.570482307026396,-0.03474584,-6.810639e-06,0.00052001595,9.773402e-06,1.0,41,0.02194942,1.8524984e-06,0,1.3062169054690129e-08,1.0
26,26,163051.14,11788.531,1414.003,11873.031,-6.8397994,17.122481746569974,-0.034842893,-2.00994e-06,0.0006903129,9.790919e-06,1.0,41,0.020452963,1.7226404e-06,0,1.4348713018650174e-08,1.0
27,27,141098.2,11858.959,1205.2551,11920.048,-5.8031855,17.53849445967353,-0.03479201,-6.0061743e-06,0.00093587895,9.56801e-06,1.0,41,0.021971054,1.8432019e-06,0,1.3886658704763023e-08,1.0
28,28,122105.11,11857.479,1055.9672,11904.405,-5.0890474,18.090504725900246,-0.034891803,2.539368e-06,0.001234343,9.712283e-06,1.0,41,0.02060635,1.7309852e-06,0,1.5939400833212225e-08,1.0
29,29,105663.59,11837.62,866.83636,11869.315,-4.188137,18.506490505678812,-0.03481558,1.7256001e-06,0.0017376313,9.267883e-06,1.0,41,0.02184358,1.8403404e-06,0,1.6485609448033578e-08,1.0
30,30,91439.65,11853.316,757.88446,11877.5205,-3.658432,19.058494585187873,-0.034837525,1.5747612e-06,0.0022965854,9.350547e-06,1.0,41,0.020307228,1.7097194e-06,0,1.547583228341725e-08,1.0
31,31,79127.08,11835.662,665.65906,11854.366,-3.2190273,19.474493218265707,-0.034833018,1.2693654e-06,0.003021643,9.5277455e-06,1.0,41,0.02148196,1.8121558e-06,0,1.6624046807670034e-08,1.0
32,32,68475.36,11795.531,621.224,11811.879,-3.014757,20.02649607116473,-0.03482881,3.7982047e-06,0.00374143,1.0348945e-05,1.0,41,0.020279996,1.7169153e-06,0,1.9183514309294953e-08,1.0
33,33,59252.523,11814.419,566.1139,11827.975,-2.743355,20.44248854430043,-0.034828734,1.0123894e-06,0.0047447076,1.0869168e-05,1.0,41,0.021379711,1.8075547e-06,0,1.8899957500060002e-08,1.0
34,34,51282.285,11832.556,500.76416,11843.147,-2.4233615,20.994498677173397,-0.034840044,-1.6058347e-06,0.0061975424,1.1080306e-05,1.0,41,0.02027344,1.7118286e-06,0,2.0601180320413606e-08,1.0
35,35,44369.8,11764.994,498.3439,11775.544,-2.4254959,21.41050096359686,-0.034733243,-5.918636e-06,0.007197862,1.28913925e-05,1.0,41,0.02108225,1.790342e-06,0,2.196562606393589e-08,1.0
36,36,38403.727,11764.907,489.12274,11775.07,-2.380685,21.826493383356137,-0.03478517,-6.391623e-06,0.008472838,1.4619671e-05,1.0,41,0.021884844,1.8585744e-06,0,2.2069863385907084e-08,1.0
37,37,33226.32,11778.939,503.92386,11789.714,-2.449721,22.37849338291562,-0.03497218,1.16137835e-05,0.009505456,1.736586e-05,1.0,41,0.020239433,1.7167026e-06,0,1.914264439318774e-08,1.0
38,38,28754.086,11776.412,533.1058,11788.473,-2.5919502,22.794490975997178,-0.034946375,8.744168e-06,0.010382625,2.1233367e-05,1.0,41,0.02072179,1.757801e-06,0,2.1099441088592937e-08,1.0
39,39,24884.947,11782.218,575.9632,11796.287,-2.7986252,23.2104948090564,-0.034837935,2.9453458e-06,0.011104235,2.6472044e-05,1.0,41,0.021084746,1.7874054e-06,0,2.044798549288708e-08,1.0
40,40,21553.963,11782.1455,622.77905,11798.594,-3.0257168,23.627481548901414,-0.03480455,4.837322e-06,0.011856568,3.3034405e-05,1.0,41,0.021300368,1.8053311e-06,0,2.1757448578085813e-08,1.0
41,41,18631.234,11810.758,676.79047,11830.133,-3.2796268,24.0435042619647,-0.034870785,1.5263677e-06,0.012621886,4.130984e-05,1.0,41,0.021411533,1.8099148e-06,0,2.2999235835057005e-08,1.0
42,42,16126.037,11853.333,742.5786,11876.57,-3.5847378,24.459486468374962,-0.034967706,1.1366122e-05,0.013290767,5.1958046e-05,1.0,41,0.02143392,1.8047231e-06,0,2.201415294368303e-08,1.0
43,43,13954.87,11852.286,791.4445,11878.682,-3.8202934,24.875489234837005,-0.034888875,6.1017413e-06,0.014410329,6.397029e-05,1.0,41,0.021220587,1.786443e-06,0,2.083884107566784e-08,1.0
44,44,12080.609,11926.586,871.99176,11958.421,-4.1816416,25.29150213461253,-0.034889843,-1.5518525e-08,0.015108414,8.033337e-05,1.0,41,0.020954689,1.7522956e-06,0,2.0778800196811493e-08,1.0
45,45,10447.592,11942.247,990.64496,11983.265,-4.7419987,25.707496047689347,-0.034856867,2.252612e-06,0.015377506,0.000105092484,1.0,41,0.020465668,1.7078542e-06,0,2.1409745112341245e-08,1.0
46,46,9045.586,12007.57,1086.2393,12056.603,-5.1690707,26.280242608248955,-0.034845054,2.5393867e-06,0.01619787,0.0001314798,1.0,41,0.020275779,1.6817158e-06,0,2.1836663756753675e-08,1.0
47,47,7827.7437,12062.843,1226.9929,12125.085,-5.8079643,26.76094409773941,-0.034838475,1.7107162e-06,0.016570725,0.00016968991,1.0,41,0.020319289,1.6758058e-06,0,2.0739328877744532e-08,1.0
48,48,6770.8345,12110.338,1316.2296,12181.656,-6.2029266,27.299419003276853,-0.034898937,3.9304355e-06,0.017858554,0.00020849562,1.0,41,0.020331375,1.6690157e-06,0,2.2130973664439404e-08,1.0
49,49,5860.798,12201.342,1434.4874,12285.377,-6.705369,27.905966738791903,-0.034843825,-3.3209588e-07,0.018930698,0.0002580971,1.0,41,0.020393487,1.6599806e-06,0,2.3661918577232655e-08,1.0
50,50,5071.625,12296.373,1616.7455,12402.204,-7.490369,28.586696904487326,-0.034874752,2.3215118e-06,0.01941026,0.00032985033,1.0,41,0.020430129,1.6472983e-06,0,2.3243331103019374e-08,1.0
51,51,4388.5933,12362.891,1760.5844,12487.623,-8.104926,29.266828750114655,-0.03482396,6.138904e-07,0.020598613,0.0004094417,1.0,41,0.020415176,1.6348328e-06,0,2.330134106484631e-08,1.0
52,52,3798.7827,12461.303,1942.1969,12611.748,-8.8587475,29.946823475751444,-0.034873802,3.9136726e-06,0.021571605,0.0005115857,1.0,41,0.020423032,1.6193657e-06,0,2.4498380845298268e-08,1.0
53,53,3286.0488,12588.573,2122.3896,12766.233,-9.569872,30.626703028043266,-0.034835346,1.6697459e-06,0.022820283,0.0006307332,1.0,41,0.020428382,1.6001886e-06,0,2.6309807342793572e-08,1.0
54,54,2844.088,12725.541,2383.064,12946.752,-10.606715,31.306839087003027,-0.03482998,1.8317521e-06,0.023482341,0.00079559337,1.0,41,0.02044506,1.5791652e-06,0,2.5390500154897052e-08,1.0
55,55,2460.7852,12837.999,2619.364,13102.491,-11.531897,31.98668578597426,-0.034853105,1.0514993e-06,0.024691677,0.0009868123,1.0,41,0.0204368,1.5597644e-06,0,2.6734384213740883e-08,1.0
56,56,2129.3164,12999.068,2868.4854,13311.799,-12.443949,32.665831258229446,-0.034859326,1.870857e-06,0.026057174,0.0012099268,1.0,41,0.02045282,1.5364429e-06,0,2.6328936800537247e-08,1.0
57,57,1843.2289,13163.934,3128.6912,13530.627,-13.369516,33.3459489971865,-0.03487384,2.176252e-06,0.027598036,0.0014755968,1.0,41,0.020433368,1.5101568e-06,0,2.692494813252387e-08,1.0
58,58,1594.4913,13330.108,3490.6316,13779.561,-14.674031,34.02582241615164,-0.034875534,3.5412284e-06,0.028595256,0.0018349796,1.0,41,0.02042912,1.4825669e-06,0,2.7254272630629986e-08,1.0
59,59,1380.4436,13529.683,3816.0408,14057.542,-15.7510805,34.70568274179095,-0.03483272,2.8168395e-06,0.030212624,0.0022263615,1.0,41,0.0204258,1.4530136e-06,0,2.6371639782997786e-08,1.0
60,60,1194.6187,13706.706,4213.6733,14339.764,-17.088314,35.38580922741676,-0.03482998,1.883887e-06,0.03161768,0.002730032,1.0,41,0.020404935,1.4229618e-06,0,2.7935041783700222e-08,1.0
61,61,1033.3434,13989.731,4642.4272,14739.902,-18.358185,36.06609149966971,-0.03485888,2.19487e-06,0.03317648,0.0032910265,1.0,41,0.020449389,1.387349e-06,0,2.925882579244406e-08,1.0
62,62,894.71045,14179.526,5120.755,15075.845,-19.856539,36.74581627867883,-0.03481966,1.0645269e-06,0.034737907,0.004007821,1.0,41,0.020395517,1.3528606e-06,0,2.9234138840141414e-08,1.0
63,63,774.2569,14480.585,5732.2905,15573.904,-21.596651,37.42597844431293,-0.0348349,1.7889128e-06,0.03585972,0.0048581203,1.0,41,0.020435536,1.3121653e-06,0,2.8498208788325502e-08,1.0
64,64,669.7856,14822.803,6207.787,16070.224,-22.723927,38.10580287661287,-0.034836166,2.921119e-06,0.03827785,0.005711857,1.0,41,0.020395525,1.2691501e-06,0,2.944311491754724e-08,1.0
65,65,579.81464,15191.896,6905.8677,16687.861,-24.445395,38.785832695575664,-0.034821093,1.1185281e-06,0.039747763,0.006806876,1.0,41,0.020442309,1.2249808e-06,0,3.063846362908546e-08,1.0
66,66,501.44418,15548.925,7630.1567,17320.172,-26.138075,39.46320659437333,-0.034907248,2.1613496e-06,0.0415972,0.008072845,1.0,41,0.02043683,1.1799439e-06,0,3.126041586089754e-08,1.0
67,67,434.02762,15997.885,8515.757,18123.201,-28.026604,40.143207160028396,-0.03478674,-1.0993283e-06,0.043060545,0.009507278,1.0,41,0.020438334,1.1277441e-06,0,3.041733919476681e-08,1.0
68,68,375.6009,16393.043,9283.437,18839.162,-29.523027,40.8214232455648,-0.03482102,1.8075324e-06,0.04564411,0.011083556,1.0,41,0.020400366,1.0828701e-06,0,3.002801884882287e-08,1.0
69,69,325.10385,16919.03,10295.873,19805.518,-31.322104,41.50067997119913,-0.034843843,2.9993253e-06,0.047548283,0.012849576,1.0,41,0.02043651,1.0318595e-06,0,3.024630140404522e-08,1.0
70,70,281.3503,17468.736,11390.89,20854.475,-33.107285,42.17782429668296,-0.034833577,1.3715454e-07,0.04966096,0.014816031,1.0,41,0.020423403,9.793296e-07,0,3.1136260930351355e-08,1.0
71,71,243.36427,18082.086,12645.816,22065.324,-34.96725,42.861122809088556,-0.034825433,2.909939e-06,0.051714987,0.01698594,1.0,41,0.020433076,9.2602653e-07,0,3.041507317232512e-08,1.0
72,72,210.60631,18706.553,14036.483,23387.133,-36.88277,43.53819678790751,-0.034800675,3.5689084e-07,0.053838186,0.019393362,1.0,41,0.02039807,8.7219195e-07,0,3.0734765796388e-08,1.0
73,73,182.27473,19536.584,15155.514,24725.852,-37.802536,44.210261299827835,-0.03485441,2.284243e-06,0.05761333,0.021645209,1.0,41,0.020340566,8.226437e-07,0,3.0922284298352706e-08,1.0
74,74,157.72879,20427.787,17016.791,26586.945,-39.795033,45.15264801132798,-0.03485437,-6.560489e-08,0.05929683,0.024291253,1.0,42,0.020451877,7.692451e-07,0,3.143850280860742e-08,1.0
75,75,136.52892,21337.193,18785.12,28428.094,-41.36047,45.82452180320979,-0.034822937,-8.460359e-08,0.062055677,0.027096547,1.0,42,0.020404086,7.177437e-07,0,3.1230385992586205e-08,1.0
76,76,118.14758,22392.607,20803.12,30564.664,-42.892616,46.512916769250296,-0.034800526,-3.413162e-08,0.06475403,0.02999746,1.0,42,0.020419851,6.680869e-07,0,3.168293672775412e-08,1.0
77,77,102.25773,23564.645,23027.553,32947.848,-44.339554,47.179358800902264,-0.034851164,1.4671356e-07,0.06758902,0.033015482,1.0,42,0.020437801,6.203076e-07,0,3.15372103114713e-08,1.0
78,78,88.4436,24866.615,25457.283,35586.82,-45.672466,47.86930070028757,-0.034829628,6.252789e-08,0.07068734,0.036173236,1.0,42,0.020445384,5.745212e-07,0,3.1455068368310256e-08,1.0
79,79,76.54279,26215.75,28049.395,38393.152,-46.935314,48.53671326539188,-0.034952782,-2.5335453e-07,0.074129716,0.03956688,1.0,42,0.02041016,5.316094e-07,0,3.147909502422566e-08,1.0
80,80,66.250786,27794.74,31019.584,41650.477,-48.13844,49.20496276378981,-0.034857295,1.2609955e-08,0.077444956,0.04295613,1.0,42,0.020452227,4.9104426e-07,0,3.109898491407471e-08,1.0
81,81,57.329906,29422.225,34181.8,45100.586,-49.279545,49.85963495489705,-0.034831304,4.296942e-08,0.08121645,0.046651915,1.0,42,0.020421736,4.5280422e-07,0,3.160691965987341e-08,1.0
82,82,49.60321,31216.238,37757.406,48990.562,-50.417484,50.54335333398194,-0.03482089,7.0534036e-08,0.08497833,0.050476316,1.0,42,0.020436414,4.1715e-07,0,3.1663447151667394e-08,1.0
83,83,42.92585,33257.7,41656.945,53304.555,-51.397144,51.25142256761319,-0.03482989,8.096379e-08,0.08900488,0.05435757,1.0,42,0.020430777,3.832839e-07,0,3.125765691321034e-08,1.0
84,84,37.1518,35179.883,46025.363,57930.633,-52.607204,51.89614891822566,-0.03488716,7.6864985e-08,0.09307715,0.058751773,1.0,42,0.020405894,3.5224704e-07,0,3.1328815903533624e-08,1.0
85,85,32.150223,37292.406,50990.965,63172.793,-53.820007,52.53539454858401,-0.034876596,-4.2710123e-08,0.097082935,0.063251264,1.0,42,0.020398924,3.229068e-07,0,3.194797324616793e-08,1.0
86,86,27.835518,39736.4,56484.535,69061.45,-54.873936,53.263318956509465,-0.034833,-1.626424e-08,0.10122581,0.06771407,1.0,42,0.020412384,2.955684e-07,0,3.1839620327635504e-08,1.0
87,87,24.082958,42394.05,62045.73,75146.05,-55.656338,53.965395603183424,-0.034821596,5.1344852e-08,0.106511965,0.072612256,1.0,42,0.020295724,2.7008372e-07,0,3.2214040816956276e-08,1.0
88,88,20.833313,45176.92,69625.8,82998.23,-57.022346,54.619773554310086,-0.034833428,7.443923e-08,0.10972147,0.0772137,1.0,42,0.02041691,2.459921e-07,0,3.1911924715921535e-08,1.0
89,89,18.021912,48245.945,77388.89,91196.01,-58.059673,55.36573220307764,-0.0348373,2.090059e-07,0.11411445,0.08217624,1.0,42,0.020410988,2.238145e-07,0,3.20134343537859e-08,1.0
90,90,15.604198,51702.97,86077.03,100411.414,-59.008476,56.02002839415218,-0.034834564,1.279001e-08,0.11849264,0.08707626,1.0,42,0.020413022,2.0329385e-07,0,3.1448204354960456e-08,1.0
91,91,13.500899,55297.137,95847.37,110654.83,-60.0181,56.767970482993405,-0.03483531,-1.02127615e-07,0.12299211,0.09227773,1.0,42,0.02038049,1.8418075e-07,0,3.137958737259971e-08,1.0
92,92,11.686608,59658.812,107063.86,122563.63,-60.87229,57.35889659106033,-0.034843564,1.6141351e-08,0.12720048,0.09706246,1.0,42,0.0204154,1.6656979e-07,0,3.1356627300607914e-08,1.0
93,93,10.113269,64031.473,119178.34,135290.45,-61.752,58.28252836826141,-0.03484699,-4.8291476e-08,0.13204783,0.102468796,1.0,43,0.02037874,1.5062955e-07,0,3.238287707064084e-08,1.0
94,94,8.748621,69303.055,133191.06,150142.52,-62.510773,59.049365497980034,-0.03483733,-1.02549905e-07,0.13658576,0.10748509,1.0,43,0.020393243,1.358259e-07,0,3.1453947908091825e-08,1.0
95,95,7.570237,74999.43,148972.5,166786.45,-63.27727,59.9250111929432,-0.03484117,-4.4121748e-08,0.14112519,0.1125888,1.0,43,0.020403963,1.2233585e-07,0,3.262664481472181e-08,1.0
96,96,6.554112,81283.27,166572.7,185346.8,-63.988792,60.46132191174547,-0.03481478,-1.6578305e-08,0.14578152,0.11774432,1.0,43,0.020407971,1.1010695e-07,0,3.183769539065414e-08,1.0
97,97,5.669445,88371.6,186226.84,206130.97,-64.61391,61.071146554051666,-0.03485685,-6.5612454e-08,0.15074305,0.1230369,1.0,43,0.02039748,9.895398e-08,0,3.2605424174806705e-08,1.0
98,98,4.907347,96105.42,208250.31,229356.6,-65.22715,61.763562800275395,-0.034825712,-1.3075572e-07,0.15573552,0.12839158,1.0,43,0.020381719,8.886476e-08,0,3.1392093237602046e-08,1.0
99,99,4.245922,105114.69,233262.22,255852.22,-65.7423,62.55129123767256,-0.034846835,8.517662e-08,0.1606955,0.1335716,1.0,43,0.020403175,7.974594e-08,0,3.278887052326832e-08,1.0
100,100,3.6747382,115612.14,261062.61,285516.8,-66.11374,63.450962053757394,-0.0348465,-1.0816634e-07,0.165901,0.13869953,1.0,43,0.020405393,7.146827e-08,0,3.2293145791679794e-08,1.0
101,101,3.180988,126517.99,292357.88,318559.16,-66.599434,64.48020092930528,-0.034831554,-5.9589112e-08,0.17113675,0.14414272,1.0,43,0.020408247,6.406423e-08,0,3.124595490763434e-08,1.0
102,102,2.752818,139044.72,327459.9,355757.53,-66.99315,65.65914818531019,-0.034835707,3.3225753e-08,0.17655681,0.14958654,1.0,43,0.02040123,5.7345886e-08,0,3.2089000334992806e-08,1.0
103,103,2.3804083,153713.73,367139.28,398019.06,-67.28193,67.01400392965297,-0.034856077,-4.113569e-08,0.18211168,0.15495007,1.0,43,0.020401627,5.1257913e-08,0,3.2998423907761816e-08,1.0
104,104,2.060257,169516.89,411525.97,445072.56,-67.61212,68.57033744358341,-0.034840446,-6.079526e-08,0.1877161,0.16048497,1.0,43,0.020396007,4.582625e-08,0,3.24164859123207e-08,1.0
105,105,1.7836765,188113.84,460404.12,497351.75,-67.77585,70.35863096854882,-0.034843728,-4.6293547e-08,0.19380493,0.16607948,1.0,43,0.020391628,4.1000416e-08,0,3.1310165705276164e-08,1.0
106,106,1.5427545,209605.88,518399.6,559171.5,-67.98491,72.41728381297435,-0.034817003,-5.869176e-08,0.19900255,0.17104007,1.0,43,0.0204434,3.6560163e-08,0,3.1067921817677084e-08,1.0
