True,index,freq,Re(Z),Im(Z),Z,Phase(Z),time,Ewe_meas,I_meas,Cs,Cp,cycle_number,I_Range,Ewe,I,Ns,(QQo),cycle
220,220,7000018.5,1165.2593,3356.5457,3553.0588,-70.855034,160.9165051364398,-0.0067995624,-5.2811096e-08,6.7737383e-06,6.045173e-06,3.0,41,0.009801114,2.7585004e-06,0,3.406399568394273e-08,3.0
221,221,6057573.0,1404.4886,3243.107,3534.1663,-66.58407,161.46848822929314,-0.006833267,2.479755e-06,8.101402e-06,6.8219542e-06,3.0,41,0.013807487,3.906858e-06,0,3.420183211498361e-08,3.0
222,222,5242039.0,1672.9374,3721.2705,4080.0212,-65.79318,161.8845091823896,-0.006720564,-2.6449602e-06,8.158844e-06,6.787132e-06,3.0,41,0.019080382,4.67654e-06,0,3.366757063176391e-08,3.0
223,223,4536288.0,1852.7349,4244.936,4631.642,-66.42077,163.66050065340823,-0.006811114,2.9732346e-06,8.265105e-06,6.9425764e-06,3.0,41,0.016724411,3.6109031e-06,0,3.393941430243193e-08,3.0
224,224,3925558.5,2261.0305,4586.8794,5113.8755,-63.759727,164.2134893463517,-0.0067955004,4.6860404e-07,8.838963e-06,7.111082e-06,3.0,41,0.019667331,3.845876e-06,0,3.3998924811497726e-08,3.0
225,225,3397055.0,2721.2017,4842.6567,5554.8413,-60.66735,164.62950400609407,-0.0067982953,-1.6822133e-06,9.674619e-06,7.3528877e-06,3.0,41,0.020765398,3.7382522e-06,0,3.365223415147551e-08,3.0
226,226,2939708.2,3135.355,5217.9297,6087.466,-58.99914,165.18149381902185,-0.0067860167,-9.83896e-07,1.0375706e-05,7.6232654e-06,3.0,41,0.020767579,3.411531e-06,0,3.346437205566251e-08,3.0
227,227,2543924.5,3525.412,5707.9053,6708.8535,-58.298996,165.73349547191174,-0.0068066795,-7.827804e-07,1.0960722e-05,7.934071e-06,3.0,41,0.020159218,3.004868e-06,0,3.379866763759172e-08,3.0
228,228,2201436.2,4174.434,6214.372,7486.2754,-56.109215,166.28648656481528,-0.006795016,-3.2129242e-06,1.1633671e-05,8.016405e-06,3.0,41,0.020930283,2.7958206e-06,0,3.3520728294385314e-08,3.0
229,229,1905053.1,4947.1807,6647.7896,8286.598,-53.343956,166.83850845773122,-0.0068301368,2.2465886e-07,1.256712e-05,8.087937e-06,3.0,41,0.020579597,2.4834796e-06,0,3.2756637466870505e-08,3.0
230,230,1648567.4,5806.6104,7003.0723,9097.238,-50.33611,167.3904883506184,-0.00682084,-8.4050794e-07,1.3785573e-05,8.169263e-06,3.0,41,0.020015147,2.2001343e-06,0,3.272743621868557e-08,3.0
231,231,1426616.2,6712.2593,7359.9106,9961.06,-47.635094,167.94250211011968,-0.0068713874,3.883841e-06,1.515795e-05,8.275123e-06,3.0,41,0.020416291,2.0496104e-06,0,3.23287865186271e-08,3.0
232,232,1234551.2,7814.985,7530.5913,10852.824,-43.938282,168.4944948030461,-0.0067965253,-2.3470109e-06,1.7119139e-05,8.242416e-06,3.0,41,0.020443164,1.8836722e-06,0,3.189689602662524e-08,3.0
233,233,1068345.5,8860.38,7603.823,11675.807,-40.635616,169.0464965092542,-0.00686673,1.9546237e-06,1.9591893e-05,8.309342e-06,3.0,41,0.020558275,1.7607584e-06,0,3.2097800614085516e-08,3.0
234,234,924510.06,9848.088,7321.9595,12271.753,-36.63045,169.59850789545453,-0.0067982953,-4.406581e-06,2.3511544e-05,8.369945e-06,3.0,41,0.02025959,1.6509125e-06,0,3.2635838160897e-08,3.0
235,235,800039.0,10961.897,7178.3057,13103.102,-33.218445,170.15050960166263,-0.006857209,1.6417779e-06,2.7713222e-05,8.317306e-06,3.0,41,0.02076319,1.5846013e-06,0,3.276855385764597e-08,3.0
236,236,692334.1,11699.433,6803.0747,13533.608,-30.17747,170.70250418790965,-0.0068203923,5.915087e-07,3.3790853e-05,8.538516e-06,3.0,41,0.020272397,1.4979299e-06,0,3.380097405809776e-08,3.0
237,237,599122.25,12544.158,6321.8467,14047.122,-26.746614,171.25448680078262,-0.00686604,4.7665158e-06,4.2020456e-05,8.5108695e-06,3.0,41,0.020849803,1.4842758e-06,0,3.31161236001098e-08,3.0
238,238,518454.94,13259.585,5831.17,14485.135,-23.73846,171.8064944803191,-0.006845191,-1.3432946e-06,5.264455e-05,8.531389e-06,3.0,41,0.020456944,1.4122716e-06,0,3.3348590309518754e-08,3.0
239,239,448662.03,13831.685,5260.6714,14798.316,-20.823553,172.35849551987485,-0.00683595,1.4499752e-06,6.743101e-05,8.521526e-06,3.0,41,0.020181244,1.3637527e-06,0,3.423140566232874e-08,3.0
240,240,388258.97,14388.702,4767.0615,15157.824,-18.330336,172.91049994612695,-0.0067914017,-2.4959816e-06,8.598999e-05,8.505026e-06,3.0,41,0.020816686,1.3733294e-06,0,3.399451851977197e-08,3.0
241,241,335983.9,14668.65,4257.6294,15274.054,-16.185564,173.46250245234114,-0.0068523833,4.0886857e-06,0.00011125865,8.644918e-06,3.0,41,0.020318147,1.3302393e-06,0,3.4058530234710576e-08,3.0
242,242,290751.2,14942.034,3824.6943,15423.77,-14.357658,174.0145076252229,-0.006799879,5.7661686e-07,0.00014312052,8.800641e-06,3.0,41,0.02057269,1.3338303e-06,0,3.4341386486356306e-08,3.0
243,243,251605.19,15242.731,3381.403,15613.287,-12.507778,174.5664925047604,-0.006839602,2.8782713e-06,0.00018706977,8.7742255e-06,3.0,41,0.020289965,1.299532e-06,0,3.401192584809149e-08,3.0
244,244,217729.38,15480.574,2958.5605,15760.751,-10.81958,175.11848831767566,-0.006869431,3.7590814e-06,0.0002470715,8.706223e-06,3.0,41,0.020238468,1.2841056e-06,0,3.43744268680367e-08,3.0
245,245,188418.58,15642.282,2573.9653,15852.643,-9.344382,175.67049143722397,-0.006805394,-1.4587438e-06,0.0003281661,8.6515865e-06,3.0,41,0.020370118,1.2849667e-06,0,3.553984219193317e-08,3.0
246,246,163051.14,15715.501,2319.197,15885.706,-8.394768,176.22249717006343,-0.006834944,1.3177663e-06,0.00042088036,8.970588e-06,3.0,41,0.020093318,1.2648678e-06,0,3.61542099495268e-08,3.0
247,247,141098.2,15781.847,2043.5099,15913.599,-7.377884,176.63850406985148,-0.006878859,3.088702e-06,0.0005519782,9.1020365e-06,3.0,41,0.021636894,1.3596481e-06,0,3.5900607197557043e-08,3.0
248,248,122105.11,15867.962,1773.7732,15966.793,-6.378233,177.19049158939742,-0.0068066795,-2.9577927e-06,0.0007348323,9.068783e-06,3.0,41,0.020629654,1.2920349e-06,0,3.722355367422578e-08,3.0
249,249,105663.59,15861.579,1575.0787,15939.591,-5.670966,177.60649376918445,-0.006819461,-3.1908064e-07,0.0009562964,9.337759e-06,3.0,41,0.021930339,1.3758407e-06,0,3.702531683155562e-08,3.0
250,250,91439.65,15878.74,1430.2667,15943.025,-5.1469884,178.1584986220405,-0.0068243425,1.9565032e-06,0.0012169383,9.794024e-06,3.0,41,0.02030103,1.2733486e-06,0,3.6163729645406384e-08,3.0
251,251,79127.08,15860.571,1306.5985,15914.299,-4.709409,178.57449696180993,-0.006863842,4.690185e-06,0.0015394049,1.0376769e-05,3.0,41,0.021428378,1.3464859e-06,0,3.582037480471654e-08,3.0
252,252,68475.36,15866.53,1250.0284,15915.695,-4.504685,179.12650082804612,-0.006897565,5.690174e-06,0.0018593704,1.1469764e-05,3.0,41,0.020230431,1.2710994e-06,0,3.410176955313244e-08,3.0
253,253,59252.523,15884.68,1179.4656,15928.408,-4.24652,179.5424877544574,-0.006848638,4.9527553e-06,0.0022773407,1.2486876e-05,3.0,41,0.021203587,1.3311806e-06,0,3.4735383754483705e-08,3.0
254,254,51282.285,15928.967,1130.5835,15969.039,-4.0598497,180.09451124732732,-0.0068148216,1.1036292e-06,0.002745049,1.3759348e-05,3.0,41,0.020212121,1.2657068e-06,0,3.483497445589694e-08,3.0
255,255,44369.8,15899.555,1112.0768,15938.398,-4.000974,180.51050625377684,-0.006846756,-4.36392e-07,0.003225506,1.5702835e-05,3.0,41,0.020938551,1.3137173e-06,0,3.451519615361123e-08,3.0
256,256,38403.727,15935.229,1105.6271,15973.538,-3.968968,180.92649440685636,-0.006833509,2.75911e-06,0.0037483324,1.7957802e-05,3.0,41,0.021581993,1.3511091e-06,0,3.357391647522492e-08,3.0
257,257,33226.32,15992.502,1126.9513,16032.159,-4.030826,181.4784970197652,-0.00677726,6.3808625e-07,0.0042504286,2.100192e-05,3.0,41,0.020207634,1.2604437e-06,0,3.621842612186181e-08,3.0
258,258,28754.086,16015.835,1212.7324,16061.684,-4.330221,181.89451146617648,-0.006836695,1.3661991e-06,0.0045641046,2.6019768e-05,3.0,41,0.020564713,1.2803584e-06,0,3.6421863040077635e-08,3.0
259,259,24884.947,16093.432,1299.9517,16145.849,-4.618057,182.3105048192374,-0.0068692076,6.0533043e-06,0.004919899,3.1892523e-05,3.0,41,0.020854166,1.2916116e-06,0,3.582955292202309e-08,3.0
260,260,21553.963,16135.819,1354.0795,16192.535,-4.7968864,182.72749150570598,-0.0068709403,5.2134615e-06,0.0054531675,3.8133567e-05,3.0,41,0.020974087,1.2952936e-06,0,3.7179962974976474e-08,3.0
261,261,18631.234,16206.524,1434.0435,16269.847,-5.0566792,183.14350843217107,-0.0068114307,1.3121961e-06,0.0059568435,4.6277924e-05,3.0,41,0.02100043,1.2907577e-06,0,3.712467546306068e-08,3.0
262,262,16126.037,16276.714,1550.3813,16350.385,-5.441093,183.5595062119246,-0.006798947,-1.0155287e-06,0.006365814,5.723676e-05,3.0,41,0.020899214,1.2782093e-06,0,3.775807818863126e-08,3.0
263,263,13954.87,16444.854,1615.1545,16523.98,-5.6093955,183.9755044449994,-0.0068273423,1.6399388e-06,0.007061229,6.746509e-05,3.0,41,0.020725215,1.2542507e-06,0,3.7026138064129316e-08,3.0
264,264,12080.609,16463.22,1845.9856,16566.39,-6.39773,184.39149518476916,-0.0068574324,4.9602045e-06,0.0071367905,8.8614295e-05,3.0,41,0.020350344,1.2284115e-06,0,3.6827191240150054e-08,3.0
265,265,10447.592,16542.64,1999.14,16662.998,-6.890649,184.80749077783548,-0.006813275,1.4537201e-06,0.007620101,0.00010968339,3.0,41,0.019866306,1.1922408e-06,0,3.596904672187446e-08,3.0
266,266,9045.586,16652.031,2152.5437,16790.58,-7.36556,185.38026499174885,-0.0068439804,1.6157304e-06,0.00817394,0.00013433959,3.0,41,0.02021964,1.2042252e-06,0,3.377952945031263e-08,3.0
267,267,7827.7437,16768.428,2368.8306,16934.92,-8.040813,185.8609500012535,-0.0068147844,-5.650763e-08,0.008583206,0.00016793888,3.0,41,0.02023018,1.1945838e-06,0,3.405293611111778e-08,3.0
268,268,6770.8345,16970.201,2550.247,17160.754,-8.54634,186.39941304011154,-0.0068611586,2.2172142e-06,0.00921713,0.00020355768,3.0,41,0.020301523,1.1830205e-06,0,3.3058512698886886e-08,3.0
269,269,5860.798,17106.39,2844.771,17341.318,-9.44181,187.00699362903833,-0.006835223,2.94905e-06,0.009545881,0.00025688956,3.0,41,0.020300195,1.1706258e-06,0,3.244039398985758e-08,3.0
270,270,5071.625,17284.625,3099.925,17560.404,-10.167664,187.68768520804588,-0.0068185106,3.8482818e-07,0.010123294,0.0003154679,3.0,41,0.020327717,1.1575883e-06,0,3.228665749787475e-08,3.0
271,271,4388.5933,17489.441,3371.0945,17811.37,-10.909978,188.36783142700733,-0.006812884,6.77192e-07,0.01075781,0.000385364,3.0,41,0.020339008,1.1419115e-06,0,3.3274588246516855e-08,3.0
272,272,3798.7827,17672.24,3680.3389,18051.398,-11.764007,189.04781351263227,-0.0068102754,2.0663776e-06,0.011383817,0.0004731968,3.0,41,0.02032397,1.1258944e-06,0,3.446736887200588e-08,3.0
273,273,3286.0488,17903.572,4050.7637,18356.105,-12.748778,189.72771839827328,-0.006820933,1.1669453e-06,0.011956642,0.00058226666,3.0,41,0.02032105,1.1070458e-06,0,3.4974473452637355e-08,3.0
274,274,2844.088,18178.258,4413.852,18706.447,-13.647837,190.40784149723186,-0.0068379436,1.2935727e-06,0.012678251,0.0007058497,3.0,41,0.02034881,1.0877966e-06,0,3.599132755027491e-08,3.0
275,275,2460.7852,18409.086,4817.843,19029.084,-14.665953,191.0877260095367,-0.006799432,1.6120035e-06,0.013424367,0.0008605246,3.0,41,0.020323642,1.0680304e-06,0,3.671875347643589e-08,3.0
276,276,2129.3164,18727.445,5256.788,19451.248,-15.679415,191.76784329516522,-0.0068244915,2.8054413e-07,0.014218686,0.0010384975,3.0,41,0.02032635,1.0449895e-06,0,3.76141311151979e-08,3.0
277,277,1843.2289,19023.412,5755.0244,19874.871,-16.831787,192.44794562077732,-0.0068167592,7.702967e-07,0.015003538,0.0012579964,3.0,41,0.0202945,1.0211136e-06,0,3.7885804618456676e-08,3.0
278,278,1594.4913,19402.338,6317.239,20404.857,-18.034815,193.12785557308234,-0.0068125483,1.6175868e-06,0.015800495,0.0015144611,3.0,41,0.020307217,9.952148e-07,0,3.852692832650659e-08,3.0
279,279,1380.4436,19799.357,6938.137,20979.807,-19.311602,193.80770763206237,-0.0068261125,1.7944935e-06,0.016617227,0.0018173618,3.0,41,0.020318141,9.684618e-07,0,3.965878416296873e-08,3.0
280,280,1194.6187,20200.512,7588.9736,21578.998,-20.59031,194.48784542435897,-0.006850539,2.0309903e-06,0.017555282,0.0021712575,3.0,41,0.020299273,9.406958e-07,0,3.953241316702716e-08,3.0
281,281,1033.3434,20726.2,8283.118,22320.066,-21.783865,195.16807377664372,-0.006818883,8.950598e-07,0.018594377,0.002560816,3.0,41,0.020334603,9.1104584e-07,0,3.9114755922712715e-08,3.0
282,282,894.71045,21085.955,9125.0205,22975.715,-23.400717,195.8478317289555,-0.006842788,4.444119e-07,0.019494127,0.0030749172,3.0,41,0.020271946,8.823206e-07,0,3.981720739570823e-08,3.0
283,283,774.2569,21723.006,9943.376,23890.578,-24.595217,196.5279664012487,-0.006836211,1.3028765e-06,0.020672891,0.0035810932,3.0,41,0.020299798,8.496989e-07,0,4.0781867879960746e-08,3.0
284,284,669.7856,22332.709,10906.481,24853.596,-26.029198,197.20784235355677,-0.0068497,1.4071553e-06,0.021787113,0.0041955663,3.0,41,0.020283531,8.161206e-07,0,4.055029288999437e-08,3.0
285,285,579.81464,22997.01,12003.356,25941.145,-27.562439,197.88783011918713,-0.0068438128,1.4127406e-06,0.022868004,0.004896158,3.0,41,0.020300396,7.825559e-07,0,4.025185744647667e-08,3.0
286,286,501.44418,23675.408,13134.277,27074.604,-29.01996,198.5651697779831,-0.0067882715,1.6622713e-06,0.024165254,0.0056869513,3.0,41,0.020301083,7.498201e-07,0,4.046337815300226e-08,3.0
287,287,434.02762,24475.654,14483.223,28439.785,-30.6145,199.24521399693913,-0.006814393,2.1985777e-06,0.025318475,0.006566219,3.0,41,0.020313513,7.1426393e-07,0,4.1196233519749844e-08,3.0
288,288,375.6009,25285.383,15810.362,29821.438,-32.016785,200.17545577444253,-0.006840384,-1.0105117e-08,0.026801042,0.0075331773,3.0,42,0.020348888,6.823577e-07,0,4.170187929000906e-08,3.0
289,289,325.10385,26233.332,17342.104,31447.357,-33.46755,200.85472644677793,-0.006828609,9.661469e-08,0.028229048,0.008584825,3.0,42,0.020348165,6.4705483e-07,0,4.1086103619117786e-08,3.0
290,290,281.3503,27227.773,19158.21,33292.473,-35.13127,201.53179973225633,-0.006855625,-2.1982913e-07,0.029526895,0.009777674,3.0,42,0.02036212,6.1161336e-07,0,4.0610682584682045e-08,3.0
291,291,243.36427,28374.492,21064.064,35338.457,-36.588684,202.21512325803633,-0.006818939,6.86739e-08,0.03104711,0.011030884,3.0,42,0.02036306,5.7622947e-07,0,4.074747899165448e-08,3.0
292,292,210.60631,29551.045,23213.25,37578.176,-38.15072,202.89217673017993,-0.006856538,-1.06962105e-07,0.032554634,0.012422623,3.0,42,0.020342162,5.4132914e-07,0,4.132039620638316e-08,3.0
293,293,182.27473,30731.352,25691.742,40055.98,-39.89599,203.56427694877493,-0.0068399184,1.3311542e-07,0.033986002,0.013981458,3.0,42,0.020308642,5.0700646e-07,0,4.08207227486008e-08,3.0
294,294,157.72879,32324.254,28267.363,42940.67,-41.1695,204.2526534081735,-0.0067996555,1.1784203e-07,0.035696354,0.015468805,3.0,42,0.020320956,4.732333e-07,0,4.1195016982597346e-08,3.0
295,295,136.52892,34054.406,31205.65,46189.773,-42.50049,204.92553584006964,-0.0068059713,-1.8680021e-08,0.03735616,0.017050497,3.0,42,0.020347841,4.4052697e-07,0,4.056773804145111e-08,3.0
296,296,118.14758,35796.63,34374.926,49628.965,-43.839325,205.61391144615482,-0.006848228,1.7706967e-07,0.03918804,0.01880038,3.0,42,0.020307343,4.091833e-07,0,4.064383452401464e-08,3.0
297,297,102.25773,37869.336,37795.92,53503.44,-44.94441,206.28033611775027,-0.006828665,-1.8835624e-07,0.04117931,0.0205497,3.0,42,0.020289116,3.792114e-07,0,4.054757068792843e-08,3.0
298,298,88.4436,40140.664,41711.816,57889.105,-46.099655,206.9702964971948,-0.006814169,9.4372226e-08,0.043141432,0.02239851,3.0,42,0.020301485,3.5069613e-07,0,4.063466744827693e-08,3.0
299,299,76.54279,42717.188,45828.723,62650.06,-47.012566,207.6377393022849,-0.0067036087,2.1562029e-07,0.04537097,0.024277871,3.0,42,0.020299602,3.240157e-07,0,4.0569255857509034e-08,3.0
300,300,66.250786,45437.594,50410.59,67866.06,-47.970074,208.30597778732772,-0.0068586064,7.8351796e-08,0.047654875,0.026293328,3.0,42,0.02029552,2.9905254e-07,0,4.06422003409739e-08,3.0
301,301,57.329906,48448.863,55345.848,73555.8,-48.80162,208.95961715174417,-0.0068262615,-7.510444e-09,0.050159577,0.028398156,3.0,42,0.020296581,2.759345e-07,0,4.071363237148636e-08,3.0
302,302,49.60321,51713.66,60907.5,79900.1,-49.666996,209.64437019752222,-0.0068322984,1.3646122e-07,0.05267925,0.030611629,3.0,42,0.020294916,2.5400362e-07,0,4.093442994139885e-08,3.0
303,303,42.92585,55347.227,66769.945,86726.82,-50.34384,210.35242980453768,-0.00681961,1.6123248e-07,0.055529047,0.032913603,3.0,42,0.02027779,2.3381223e-07,0,4.074180775785447e-08,3.0
304,304,37.1518,59109.375,73275.56,94144.71,-51.10784,210.99620036841952,-0.0068132193,-1.0194046e-07,0.058463007,0.035416663,3.0,42,0.020290567,2.1552529e-07,0,4.056572236781501e-08,3.0
305,305,32.150223,63114.945,80543.07,102326.35,-51.917137,211.635388612136,-0.0068047605,-1.3341743e-07,0.06146218,0.038079333,3.0,42,0.020271532,1.9810666e-07,0,4.089835792562132e-08,3.0
306,306,27.835518,67627.336,88914.77,111710.76,-52.743885,212.36334966003778,-0.006833714,1.2882379e-07,0.06430532,0.040738475,3.0,42,0.020323042,1.8192556e-07,0,4.063444465418126e-08,3.0
307,307,24.082958,72647.984,96705.66,120953.35,-53.085106,213.06538209339487,-0.0068419864,1.3124449e-07,0.068337396,0.0436844,3.0,42,0.020239417,1.6733242e-07,0,4.0797955656608785e-08,3.0
308,308,20.833313,77697.47,106843.586,132107.72,-53.975067,213.71974833782588,-0.006823299,-1.9433605e-08,0.0715012,0.046768546,3.0,42,0.020266242,1.5340696e-07,0,4.1295946469375424e-08,3.0
309,309,18.021912,83384.23,118023.46,144507.67,-54.758583,214.73873379956058,-0.0068539297,-7.498346e-09,0.07482573,0.0499121,3.0,43,0.020298813,1.4046876e-07,0,4.105356780703041e-08,3.0
310,310,15.604198,89273.19,130201.914,157867.8,-55.563442,215.3940076973231,-0.0068577677,-3.6802383e-08,0.078335986,0.053285487,3.0,43,0.020286229,1.2850137e-07,0,4.094875534014895e-08,3.0
311,311,13.500899,95774.95,143908.95,172865.92,-56.355255,216.14196799951605,-0.0068364064,-6.3170833e-09,0.08191617,0.05677099,3.0,43,0.020301241,1.17439235e-07,0,4.102769770816295e-08,3.0
312,312,11.686608,102383.914,159319.5,189381.02,-57.273876,216.73287032093504,-0.006846514,-6.019202e-09,0.08547965,0.060496148,3.0,43,0.020288931,1.0713287e-07,0,4.0815563286177476e-08,3.0
313,313,10.113269,110411.35,176438.66,208137.61,-57.96259,217.40654643290327,-0.006822647,-4.1011523e-09,0.089193836,0.064094566,3.0,43,0.020309761,9.757853e-08,0,4.0723253589016095e-08,3.0
314,314,8.748621,118512.31,195500.2,228616.48,-58.775738,218.17337785600103,-0.006829634,-1.7705245e-08,0.093053624,0.068047576,3.0,43,0.020277724,8.8697554e-08,0,4.1436577630461515e-08,3.0
315,315,7.570237,127857.945,217049.34,251908.86,-59.498802,219.049018617603,-0.0068356707,3.76884e-08,0.09686171,0.07190883,3.0,43,0.020295834,8.0568164e-08,0,4.1182300285079123e-08,3.0
316,316,6.554112,138270.19,240652.31,277546.72,-60.119873,219.58532045639004,-0.006812455,-1.7757391e-07,0.10090583,0.075861976,3.0,43,0.020303825,7.3154624e-08,0,4.0948362248377476e-08,3.0
317,317,5.669445,149273.72,267692.88,306499.78,-60.85463,220.19513195203035,-0.00682805,1.8737884e-07,0.10486795,0.079993755,3.0,43,0.020295713,6.621771e-08,0,4.1222370895878176e-08,3.0
318,318,4.907347,161476.7,297918.75,338866.22,-61.541603,220.88754459822667,-0.0068331924,-7.1089076e-08,0.1088618,0.08414235,3.0,43,0.02028295,5.985533e-08,0,4.136040492929243e-08,3.0
319,319,4.245922,175303.92,332093.03,375522.62,-62.171505,221.67529599563568,-0.0068475762,-2.1097593e-09,0.112872556,0.088274576,3.0,43,0.020288814,5.4028206e-08,0,4.0610050460499124e-08,3.0
320,320,3.6747382,190091.16,369916.9,415900.44,-62.80249,222.57496083842125,-0.0068453867,9.7150334e-08,0.117081836,0.09262306,3.0,43,0.020276964,4.875437e-08,0,4.147492005020423e-08,3.0
321,321,3.180988,208099.75,413089.03,462545.2,-63.262638,223.6032496605476,-0.006852523,-1.8172086e-08,0.1211196,0.096603625,3.0,43,0.020303298,4.3894733e-08,0,4.1572520711521497e-08,3.0
322,322,2.752818,226730.75,459726.5,512596.62,-63.748123,224.78216067657922,-0.006854246,-4.0084966e-09,0.12576015,0.101155765,3.0,43,0.02027867,3.956068e-08,0,4.072135277030339e-08,3.0
323,323,2.3804083,249520.97,513893.72,571268.3,-64.10112,226.13697231427068,-0.006824398,1.8022126e-08,0.13010542,0.105283834,3.0,43,0.020287357,3.5512834e-08,0,4.0664688782901516e-08,3.0
324,324,2.060257,272194.5,572085.5,633539.0,-64.55521,227.69332214814494,-0.006848098,9.142324e-08,0.13503234,0.110106505,3.0,43,0.020291638,3.202903e-08,0,4.144586919976846e-08,3.0
