True,index,freq,Re(Z),Im(Z),Z,Phase(Z),time,Ewe_meas,I_meas,Cs,Cp,cycle_number,I_Range,Ewe,I,Ns,(QQo),cycle
110,110,7000018.5,1245.6387,1621.253,2044.5237,-52.46426,83.12149704134208,0.08019588,7.509861e-06,1.4023944e-05,8.818353e-06,2.0,40,0.0099840835,4.88333e-06,0,1.5572814995347488e-07,2.0
111,111,6057573.0,1449.6311,1686.9808,2224.2605,-49.327366,83.67348688092898,0.080227226,-1.6919126e-05,1.55744e-05,8.959017e-06,2.0,40,0.014158138,6.3653238e-06,0,1.5253685143505378e-07,2.0
112,112,5242039.0,1616.7775,1920.197,2510.2043,-49.90312,84.08950623401324,0.08027086,-8.6583195e-06,1.5811538e-05,9.252253e-06,2.0,40,0.019546792,7.786933e-06,0,1.504697561217417e-07,2.0
113,113,4536288.0,1793.1621,2174.0996,2818.1802,-50.48474,85.45748216562788,0.080216266,-5.327956e-06,1.6137643e-05,9.604206e-06,2.0,40,0.019694962,6.988539e-06,0,1.510169239352324e-07,2.0
114,114,3925558.5,2060.8235,2236.7678,3041.4016,-47.34439,85.87350109204999,0.08019896,-9.272301e-06,1.8125824e-05,9.803745e-06,2.0,40,0.018493257,6.080505e-06,0,1.5096343015382907e-07,2.0
115,115,3397055.0,2372.9922,2318.1006,3317.3306,-44.3296,86.28949665851542,0.08020984,-1.5095787e-05,2.0210884e-05,9.868982e-06,2.0,40,0.019346625,5.8319856e-06,0,1.4907127444135267e-07,2.0
116,116,2939708.2,2655.1382,2372.1118,3560.4316,-41.77774,86.70549771827064,0.08018802,-6.4070628e-06,2.2823422e-05,1.0130847e-05,2.0,40,0.021036575,5.9084336e-06,0,1.4734862328991168e-07,2.0
117,117,2543924.5,2950.6072,2436.494,3826.5632,-39.54854,87.25748854447738,0.08019115,-1.0928172e-05,2.5677373e-05,1.0410305e-05,2.0,40,0.020473631,5.350397e-06,0,1.4944092122196178e-07,2.0
118,118,2201436.2,3281.274,2401.6414,4066.2808,-36.201275,87.80948710403754,0.08019186,-4.6953655e-06,3.0102727e-05,1.0500922e-05,2.0,40,0.020415554,5.0206945e-06,0,1.5072781608559815e-07,2.0
119,119,1905053.1,3646.9219,2367.9897,4348.2656,-32.996143,88.36148166356725,0.080211066,-1.4760877e-05,3.5280376e-05,1.0463108e-05,2.0,40,0.020581638,4.7332983e-06,0,1.494673503699728e-07,2.0
120,120,1648567.4,3952.9695,2216.2258,4531.8457,-29.277098,88.91349926314433,0.0801815,-5.8116857e-06,4.356116e-05,1.0417829e-05,2.0,40,0.020078659,4.43057e-06,0,1.4638535075614337e-07,2.0
121,121,1426616.2,4238.409,2127.5017,4742.402,-26.65471,89.46549544934533,0.080175616,-9.569971e-06,5.2437634e-05,1.0553249e-05,2.0,40,0.020398252,4.301249e-06,0,1.4482481770640417e-07,2.0
122,122,1234551.2,4465.243,1961.1315,4876.9287,-23.711044,90.01750030225958,0.080186084,-8.323405e-06,6.573615e-05,1.0629795e-05,2.0,40,0.020521548,4.2078836e-06,0,1.4383275033727392e-07,2.0
123,123,1068345.5,4683.142,1807.2216,5019.748,-21.101568,90.56949835512205,0.08018804,-7.895482e-06,8.243223e-05,1.0684544e-05,2.0,40,0.020770136,4.137685e-06,0,1.4434889778561436e-07,2.0
124,124,924510.06,4853.882,1653.9448,5127.9336,-18.816381,91.1215026480204,0.0801981,-4.2488227e-06,0.000104084844,1.0827912e-05,2.0,40,0.020251382,3.949229e-06,0,1.412327263924848e-07,2.0
125,125,800039.0,5104.532,1466.1984,5310.9307,-16.025898,91.67349016756634,0.080172814,-1.0611867e-05,0.00013568012,1.0340949e-05,2.0,40,0.020714961,3.900439e-06,0,1.4265268443011948e-07,2.0
126,126,692334.1,5102.1475,1336.9609,5274.407,-14.683583,92.22550470047281,0.08019024,-1.0425813e-05,0.00017194348,1.10478e-05,2.0,40,0.020467851,3.8805974e-06,0,1.4448664706535416e-07,2.0
127,127,599122.25,5367.547,1233.779,5507.5195,-12.945092,92.94450732125551,0.08020436,2.0044426e-07,0.00021531153,1.080513e-05,2.0,41,0.019306235,3.505432e-06,0,1.400084243049046e-07,2.0
128,128,518454.94,5465.3403,1106.9921,5576.3228,-11.450221,93.36048976771417,0.08018817,3.9676484e-06,0.00027730942,1.0928431e-05,2.0,41,0.02158005,3.8699427e-06,0,1.4003611478941932e-07,2.0
129,129,448662.03,5512.3687,985.20593,5599.718,-10.133277,93.9125025672547,0.080169484,3.6566669e-06,0.00036005912,1.1145397e-05,2.0,41,0.020540547,3.6681395e-06,0,1.3987947011764688e-07,2.0
130,130,388258.97,5567.0693,859.4706,5633.0234,-8.776305,94.4645036867878,0.08018668,5.358703e-06,0.00047694423,1.1103159e-05,2.0,41,0.020212002,3.5881267e-06,0,1.4031633526918103e-07,2.0
131,131,335983.9,5607.922,732.8598,5655.6055,-7.445389,95.01650003300165,0.08021679,4.649215e-06,0.0006463693,1.0853363e-05,2.0,41,0.020699825,3.6600547e-06,0,1.4231987166218275e-07,2.0
132,132,290751.2,5642.475,651.0202,5679.9077,-6.581598,95.56848451253609,0.08018191,5.753491e-06,0.0008408222,1.104614e-05,2.0,41,0.020306597,3.575163e-06,0,1.437975899356587e-07,2.0
133,133,251605.19,5662.623,566.54706,5690.894,-5.7134457,95.98448285230552,0.08022316,4.39224e-06,0.001116515,1.1065615e-05,2.0,41,0.021794735,3.8297558e-06,0,1.4335906618828334e-07,2.0
134,134,217729.38,5708.7544,476.5276,5728.6084,-4.7715964,96.53650714518153,0.08019804,4.9769637e-06,0.0015339636,1.0614337e-05,2.0,41,0.020221666,3.5299438e-06,0,1.4183514230547207e-07,2.0
135,135,188418.58,5697.519,415.32526,5712.6367,-4.1692476,96.9525036716077,0.08017789,7.287941e-06,0.0020337992,1.07500755e-05,2.0,41,0.021499425,3.7634854e-06,0,1.412443272966723e-07,2.0
136,136,163051.14,5710.562,352.84695,5721.4526,-3.5357242,97.50450444451417,0.08022478,5.4685975e-06,0.0027663677,1.0521316e-05,2.0,41,0.020360649,3.5586502e-06,0,1.4145308393239494e-07,2.0
137,137,141098.2,5731.298,305.64844,5739.442,-3.0526752,97.92048723759945,0.08019348,6.8112395e-06,0.0036904255,1.04660185e-05,2.0,41,0.021617273,3.7664415e-06,0,1.4399007536813713e-07,2.0
138,138,122105.11,5727.362,256.43045,5733.0996,-2.5635846,98.47249529047986,0.0801785,7.738609e-06,0.0050829602,1.0168969e-05,2.0,41,0.02038198,3.5551413e-06,0,1.474085918493277e-07,2.0
139,139,105663.59,5697.6074,218.77116,5701.806,-2.1989071,98.88848685691482,0.08015553,6.332664e-06,0.006885011,1.0135845e-05,2.0,41,0.021548294,3.779205e-06,0,1.4622804908792996e-07,2.0
140,140,91439.65,5692.7373,183.52687,5695.695,-1.8465062,99.44049597645062,0.080182135,7.1967156e-06,0.009483878,9.846725e-06,2.0,41,0.020251095,3.5555092e-06,0,1.4614246974660075e-07,2.0
141,141,79127.08,5681.014,161.67123,5683.314,-1.6300927,99.85649231626303,0.08017062,5.8727105e-06,0.012441199,1.0067565e-05,2.0,41,0.021585671,3.7980783e-06,0,1.4426491747379404e-07,2.0
142,142,68475.36,5672.827,150.83212,5674.832,-1.5230516,100.40848858244135,0.08019763,6.0216857e-06,0.0154096205,1.0886133e-05,2.0,41,0.020391434,3.5933106e-06,0,1.4578860004107164e-07,2.0
143,143,59252.523,5664.5806,143.52345,5666.3984,-1.4513924,100.82448438889696,0.08018606,6.494687e-06,0.018715024,1.20066525e-05,2.0,41,0.021789066,3.8453113e-06,0,1.478578998130347e-07,2.0
144,144,51282.285,5656.0093,147.77652,5657.9395,-1.4966462,101.37649972175132,0.080160074,5.7013926e-06,0.021001356,1.432655e-05,2.0,41,0.0203621,3.5988544e-06,0,1.4944385383809727e-07,2.0
145,145,44369.8,5647.0986,142.72017,5648.902,-1.4477386,101.79249400817207,0.08019069,4.7349467e-06,0.02513317,1.6043161e-05,2.0,41,0.021690713,3.8398107e-06,0,1.474114672451729e-07,2.0
146,146,38403.727,5636.4355,149.711,5638.4233,-1.5214921,102.34450624775491,0.080205314,4.474233e-06,0.02768172,1.9515743e-05,2.0,41,0.020276265,3.5960877e-06,0,1.4530230517728488e-07,2.0
147,147,33226.32,5630.967,172.08034,5633.5957,-1.7503937,102.76049357416923,0.080186956,6.284283e-06,0.027835988,2.5971545e-05,2.0,41,0.021371184,3.7935245e-06,0,1.4759224776227755e-07,2.0
148,148,28754.086,5643.5723,177.98894,5646.3784,-1.8064153,103.31249922703137,0.08015523,6.1148216e-06,0.031097649,3.0901076e-05,2.0,41,0.020277262,3.5911978e-06,0,1.507390141841556e-07,2.0
149,149,24884.947,5644.3267,207.45607,5648.1377,-2.104947,103.72848812679877,0.08017688,6.5654763e-06,0.030828847,4.1590967e-05,2.0,41,0.021042952,3.7256443e-06,0,1.5411056044395682e-07,2.0
150,150,21553.963,5656.207,221.81747,5660.5547,-2.2457976,104.14550307995523,0.08018415,6.081312e-06,0.033288732,5.1117637e-05,2.0,41,0.021680092,3.8300295e-06,0,1.560385301905711e-07,2.0
151,151,18631.234,5666.088,243.3939,5671.313,-2.4596999,104.69748265281669,0.08019465,5.731222e-06,0.035096902,6.464292e-05,2.0,41,0.020187318,3.5595494e-06,0,1.6124941101117448e-07,2.0
152,152,16126.037,5674.269,280.82242,5681.214,-2.833285,105.11350627258071,0.08019721,6.3140806e-06,0.03514477,8.5870095e-05,2.0,41,0.02042106,3.5944888e-06,0,1.6081594591929459e-07,2.0
153,153,13954.87,5682.2363,330.4897,5691.8394,-3.3286817,105.5294978923339,0.08016479,5.5822466e-06,0.034509324,0.0001163448,2.0,41,0.02044792,3.5924977e-06,0,1.5835896519825275e-07,2.0
154,154,12080.609,5706.9604,352.6124,5717.8433,-3.535604,105.94550532542053,0.08018109,6.0366137e-06,0.037362307,0.00014209027,2.0,41,0.020345105,3.5581782e-06,0,1.5558583039571753e-07,2.0
155,155,10447.592,5718.6787,385.14902,5731.634,-3.853012,106.36149779855623,0.0801855,6.265663e-06,0.03955261,0.0001785977,2.0,41,0.020005489,3.490364e-06,0,1.5312148036867906e-07,2.0
156,156,9045.586,5734.641,413.79623,5749.551,-4.127156,106.93426195907523,0.08017886,6.334563e-06,0.042520355,0.000220243,2.0,41,0.02022511,3.5176852e-06,0,1.522583110171717e-07,2.0
157,157,7827.7437,5763.2607,475.08878,5782.8096,-4.7124662,107.414941475261,0.080176264,5.243328e-06,0.042796552,0.00028885543,2.0,41,0.02036915,3.5223622e-06,0,1.54854097475826e-07,2.0
158,158,6770.8345,5781.6895,523.4522,5805.337,-5.1732383,107.95340062081232,0.08016304,6.321527e-06,0.04490564,0.00036509015,2.0,41,0.020443574,3.5215137e-06,0,1.5387786871948587e-07,2.0
159,159,5860.798,5826.392,570.6026,5854.266,-5.593375,108.56000256966217,0.0801526,6.844799e-06,0.047591526,0.00045211843,2.0,41,0.020565523,3.5129121e-06,0,1.519732983767107e-07,2.0
160,160,5071.625,5852.3433,639.5258,5887.182,-6.236359,109.24069273534406,0.08017021,6.7479687e-06,0.049069874,0.0005790501,2.0,41,0.020601844,3.4994407e-06,0,1.5586443202389136e-07,2.0
161,161,4388.5933,5888.252,696.76886,5929.3335,-6.7485447,109.92083311430179,0.08019506,5.608312e-06,0.052048244,0.00071874,2.0,41,0.020632882,3.4797977e-06,0,1.5460863316173996e-07,2.0
162,162,3798.7827,5936.4155,773.74554,5986.628,-7.426003,110.60081445326796,0.08020438,6.94536e-06,0.05414739,0.00090450153,2.0,41,0.020689625,3.4559732e-06,0,1.531023686490632e-07,2.0
163,163,3286.0488,5969.4272,860.0868,6031.0703,-8.198864,111.28069352557213,0.08018914,6.9490825e-06,0.05631238,0.0011452482,2.0,41,0.020670589,3.42735e-06,0,1.5346895248785428e-07,2.0
164,164,2844.088,6015.143,953.9004,6090.3096,-9.011107,111.96083353120775,0.080166355,7.13157e-06,0.058664326,0.0014391346,2.0,41,0.0206715,3.3941624e-06,0,1.5524913094298636e-07,2.0
165,165,2460.7852,6097.255,1065.7994,6189.7046,-9.91512,112.6406902568342,0.08020911,5.215384e-06,0.060683545,0.0017992109,2.0,41,0.020784572,3.3579263e-06,0,1.532157185121324e-07,2.0
166,166,2129.3164,6168.0034,1166.7478,6277.3853,-10.711582,113.32082498246746,0.08017664,6.0664015e-06,0.064062364,0.0022130914,2.0,41,0.020816121,3.3160497e-06,0,1.5496901604702234e-07,2.0
167,167,1843.2289,6198.6206,1280.8163,6329.5645,-11.674682,114.00097013474442,0.08017176,4.666036e-06,0.06741461,0.002760451,2.0,41,0.020694194,3.26945e-06,0,1.5346919529208e-07,2.0
168,168,1594.4913,6274.6875,1405.6165,6430.199,-12.626588,114.68083392706467,0.08019134,6.237714e-06,0.0710119,0.0033932508,2.0,41,0.020688131,3.217339e-06,0,1.5197108476372042e-07,2.0
169,169,1380.4436,6352.117,1552.38,6539.0576,-13.733206,115.36071531935886,0.08019415,5.3811073e-06,0.07426829,0.0041857106,2.0,41,0.020681467,3.1627596e-06,0,1.5115720631193596e-07,2.0
170,170,1194.6187,6443.1675,1709.731,6666.1523,-14.861265,116.04084887166391,0.08019516,4.7069893e-06,0.07792254,0.0051258765,2.0,41,0.020678138,3.1019601e-06,0,1.5126685232856434e-07,2.0
171,171,1033.3434,6552.9053,1896.3218,6821.7744,-16.139725,116.72108549062978,0.08017121,6.530062e-06,0.08122008,0.0062761423,2.0,41,0.020707877,3.035556e-06,0,1.5228319089136418e-07,2.0
172,172,894.71045,6667.14,2095.9548,6988.833,-17.45163,117.40083570958814,0.08015873,5.762846e-06,0.084870294,0.0076332632,2.0,41,0.02069942,2.9617847e-06,0,1.5465718735700464e-07,2.0
173,173,774.2569,6771.5737,2298.735,7151.1113,-18.750725,118.08095187522122,0.080169745,5.7516686e-06,0.08942236,0.009240106,2.0,41,0.020635981,2.8857028e-06,0,1.543087387430783e-07,2.0
174,174,669.7856,6918.446,2523.9612,7364.46,-20.042791,118.76083505418501,0.080174886,5.5188966e-06,0.09414595,0.01105822,2.0,41,0.02064431,2.8032348e-06,0,1.5436009598641774e-07,2.0
175,175,579.81464,7080.1646,2790.2485,7610.139,-21.509089,119.44083052648057,0.0801651,7.2283738e-06,0.09837575,0.013224786,2.0,41,0.02068183,2.7176677e-06,0,1.577999420535229e-07,2.0
176,176,501.44418,7249.7866,3071.8477,7873.732,-22.96313,120.11820101193734,0.08022374,5.524482e-06,0.1033232,0.01572664,2.0,41,0.02067147,2.6253713e-06,0,1.6088508911682533e-07,2.0
177,177,434.02762,7437.2173,3368.737,8164.5938,-24.368465,120.79821512426133,0.08015486,6.857801e-06,0.108851805,0.01853108,2.0,41,0.020673811,2.5321299e-06,0,1.6007379143179574e-07,2.0
178,178,375.6009,7635.3325,3697.847,8483.653,-25.841244,121.47742315652431,0.08016479,6.714409e-06,0.11458944,0.021770911,2.0,41,0.020644944,2.4334968e-06,0,1.5910452488916052e-07,2.0
179,179,325.10385,7854.4243,4064.2869,8843.665,-27.359392,122.15669526882266,0.08018368,5.857807e-06,0.120451905,0.025440041,2.0,41,0.020658594,2.3359764e-06,0,1.5814192186396132e-07,2.0
180,180,281.3503,8090.0576,4440.9414,9228.813,-28.764065,122.83278655426693,0.08015899,7.360587e-06,0.12737896,0.029495519,2.0,41,0.02065298,2.2378804e-06,0,1.6114195277594313e-07,2.0
181,181,243.36427,8345.718,4869.7383,9662.575,-30.263622,123.51610922670807,0.08014256,8.0831105e-06,0.13429433,0.034110114,2.0,41,0.020664655,2.1386281e-06,0,1.5972332506014198e-07,2.0
182,182,210.60631,8611.005,5338.184,10131.417,-31.795841,124.19319392551552,0.08013363,7.0272527e-06,0.14156479,0.039300848,2.0,41,0.020668771,2.040067e-06,0,1.6008352374917617e-07,2.0
183,183,182.27473,8889.654,5829.718,10630.689,-33.256336,124.86528902410646,0.08017153,8.142693e-06,0.14977734,0.045042068,2.0,41,0.020641927,1.9417298e-06,0,1.6180222204927476e-07,2.0
184,184,157.72879,9150.869,6412.538,11174.035,-35.02113,125.5536377768367,0.08017783,6.3922453e-06,0.1573545,0.05182258,2.0,41,0.020638106,1.8469699e-06,0,1.6170543131744193e-07,2.0
185,185,136.52892,9450.439,7042.864,11786.125,-36.695023,126.22550748867798,0.08014953,6.837301e-06,0.16551837,0.05910207,2.0,41,0.020640936,1.7512912e-06,0,1.6419952917928052e-07,2.0
186,186,118.14758,9740.526,7760.5645,12454.084,-38.54537,126.91388050810201,0.08011057,7.604513e-06,0.17358093,0.0674008,2.0,41,0.020637235,1.6570656e-06,0,1.6584767600491544e-07,2.0
187,187,102.25773,10060.658,8580.241,13222.608,-40.459232,127.58035717971507,0.080207735,7.487191e-06,0.18139465,0.07638168,2.0,41,0.020653136,1.5619563e-06,0,1.6724495265302942e-07,2.0
188,188,88.4436,10333.421,9513.761,14046.04,-42.63511,128.27029705248424,0.080192156,5.256296e-06,0.18914786,0.0867757,2.0,41,0.020631481,1.4688468e-06,0,1.6803544174250995e-07,2.0
189,189,76.54279,10672.422,10593.816,15037.604,-44.78822,128.93771380423277,0.08031682,4.2637507e-06,0.19627428,0.09741168,2.0,41,0.020662406,1.3740491e-06,0,1.6899572609875533e-07,2.0
190,190,66.250786,10958.122,11883.037,16164.375,-47.31883,129.60597852928913,0.08017593,6.865213e-06,0.202163,0.109254345,2.0,41,0.020691784,1.2800856e-06,0,1.6940030505267128e-07,2.0
191,191,57.329906,11347.526,13167.84,17382.703,-49.246532,130.2606261870751,0.08016682,6.770243e-06,0.2108261,0.12098146,2.0,41,0.020614684,1.1859308e-06,0,1.7126054815829012e-07,2.0
192,192,49.60321,11744.526,14821.326,18910.463,-51.60644,130.94635477961856,0.08016633,5.9732292e-06,0.21648273,0.13298208,2.0,41,0.020652799,1.0921361e-06,0,1.7245501041032836e-07,2.0
193,193,42.92585,12176.871,16657.389,20633.584,-53.832478,131.9154519456497,0.08018159,4.747127e-06,0.22258419,0.14506373,2.0,42,0.020662237,1.0013887e-06,0,1.7143315818428087e-07,2.0
194,194,37.1518,12618.744,18735.844,22589.035,-56.03941,132.5591836028907,0.08018383,4.7275716e-06,0.22864781,0.1572962,2.0,42,0.02061864,9.12772e-07,0,1.7172753021665224e-07,2.0
195,195,32.150223,13125.041,21218.459,24949.744,-58.26043,133.1983732865483,0.08015516,4.5072347e-06,0.23330405,0.1687399,2.0,42,0.020644499,8.2744333e-07,0,1.7441383735849392e-07,2.0
196,196,27.835518,13734.152,23986.607,27640.266,-60.20559,133.92632580114878,0.08017281,4.6294135e-06,0.23837021,0.17951685,2.0,42,0.020652546,7.4719054e-07,0,1.7422087873170887e-07,2.0
197,197,24.082958,14490.758,27097.959,30729.162,-61.86415,134.62839690115652,0.08019663,4.841737e-06,0.24387862,0.18964677,2.0,42,0.020638563,6.716279e-07,0,1.75957242545626e-07,2.0
198,198,20.833313,15301.073,30698.262,34300.234,-63.506752,135.28275597226457,0.08016905,4.685095e-06,0.24885593,0.19933401,2.0,42,0.020626023,6.0133766e-07,0,1.7827299776775698e-07,2.0
199,199,18.021912,16271.72,34796.074,38412.703,-64.93776,136.02871454104024,0.08015382,4.698784e-06,0.25379848,0.2082571,2.0,42,0.020629203,5.3704116e-07,0,1.7729464803210408e-07,2.0
200,200,15.604198,17364.225,39461.02,43112.508,-66.24883,136.6840030788153,0.08015316,4.5511783e-06,0.25847015,0.21654114,2.0,42,0.020649437,4.789663e-07,0,1.7805027400515568e-07,2.0
201,201,13.500899,18679.11,44736.227,48479.266,-67.33757,137.43097514094552,0.080163896,4.566636e-06,0.26351058,0.22439063,2.0,42,0.020639798,4.2574484e-07,0,1.7927995316087852e-07,2.0
202,202,11.686608,20246.252,50723.953,54615.293,-68.2408,138.0218981290236,0.080203675,4.473324e-06,0.26848412,0.23158808,2.0,42,0.02065606,3.782102e-07,0,1.792562405692482e-07,2.0
203,203,10.113269,21954.143,57415.82,61470.0,-69.0746,138.6955430410162,0.08017461,4.6117066e-06,0.2740924,0.23912983,2.0,42,0.020644533,3.358473e-07,0,1.7965073562918596e-07,2.0
204,204,8.748621,24149.168,64994.973,69336.34,-69.617226,139.462405930768,0.08016998,4.7510202e-06,0.2798986,0.24594523,2.0,42,0.020617254,2.9735133e-07,0,1.8299497399526862e-07,2.0
205,205,7.570237,26666.084,73640.66,78320.02,-70.094124,140.33801007902366,0.08016479,4.7142353e-06,0.28549135,0.2523961,2.0,42,0.020637393,2.6350085e-07,0,1.8350268215963202e-07,2.0
206,206,6.554112,29757.32,83097.46,88264.87,-70.297485,140.8743308778212,0.08019007,4.2399465e-06,0.2922258,0.25901106,2.0,42,0.02064335,2.3387958e-07,0,1.832138014030278e-07,2.0
207,207,5.669445,33371.195,93885.836,99640.29,-70.432526,141.71214345094631,0.08018519,4.7567173e-06,0.29900572,0.26546648,2.0,43,0.020624561,2.0699018e-07,0,1.851454378937834e-07,2.0
208,208,4.907347,37366.676,106078.586,112467.484,-70.59495,142.40454329716158,0.0801597,4.4959033e-06,0.30573532,0.27198634,2.0,43,0.020628832,1.8342041e-07,0,1.8303897088793005e-07,2.0
209,209,4.245922,42203.625,119650.47,126875.45,-70.571014,143.19233202791656,0.080194525,4.855679e-06,0.31328073,0.2786168,2.0,43,0.020636978,1.626554e-07,0,1.8651834815425952e-07,2.0
210,210,3.6747382,47916.953,134549.77,142827.42,-70.39776,144.09195785733755,0.08008901,4.674412e-06,0.3218924,0.28566265,2.0,43,0.0205882,1.4414739e-07,0,1.8782816940531195e-07,2.0
211,211,3.180988,55047.414,151290.56,160993.95,-70.00597,145.12117478621076,0.08017748,4.5064703e-06,0.33070916,0.29204568,2.0,43,0.020615222,1.2804966e-07,0,1.8657861925141125e-07,2.0
212,212,2.752818,62934.277,170283.45,181541.12,-69.71642,146.3001218555437,0.0801836,4.683524e-06,0.33952376,0.29872048,2.0,43,0.02064056,1.1369633e-07,0,1.8883883865162293e-07,2.0
213,213,2.3804083,72530.33,190687.94,204016.03,-69.17512,147.65496861323481,0.080163755,4.6991977e-06,0.35062706,0.3063115,2.0,43,0.02063125,1.0112563e-07,0,1.928804007751547e-07,2.0
214,214,2.060257,83459.44,213476.14,229210.69,-68.64677,149.2113592204696,0.0801782,4.5880233e-06,0.36186737,0.31389064,2.0,43,0.020624546,8.998074e-08,0,1.9480014122156715e-07,2.0
215,215,1.7836765,96250.3,238200.33,256911.5,-67.9977,150.99959394536563,0.08018867,4.575311e-06,0.37459478,0.3220174,2.0,43,0.020635463,8.032129e-08,0,1.9502555013246772e-07,2.0
