True,index,freq,Re(Z),Im(Z),Z,Phase(Z),time,Ewe_meas,I_meas,Cs,Cp,cycle_number,I_Range,Ewe,I,Ns,(QQo),cycle
110,110,7000018.5,482.30798,2268.088,2318.8022,-77.9949,82.73650115643977,0.008440544,5.593506e-06,1.0024462e-05,9.590769e-06,2.0,40,0.010015491,4.319252e-06,0,-3.5441921319013485e-08,2.0
111,111,6057573.0,549.19543,2534.0085,2592.839,-77.771416,83.28850398262148,0.008465362,-1.2267778e-05,1.036844e-05,9.903266e-06,2.0,40,0.014154956,5.4592497e-06,0,-4.037542753584154e-08,2.0
112,112,5242039.0,465.01123,2966.5935,3002.8174,-81.09142,83.70449408239801,0.008469759,1.1467147e-06,1.0234387e-05,9.988956e-06,2.0,40,0.019620208,6.533933e-06,0,-4.028453961900564e-08,2.0
113,113,4536288.0,378.13345,3396.2563,3417.242,-83.64695,85.07248990735388,0.008494707,-3.161737e-05,1.0330446e-05,1.0203955e-05,2.0,40,0.02015476,5.897961e-06,0,-4.1235608301808685e-08,2.0
114,114,3925558.5,512.2761,3843.95,3877.9348,-82.40903,85.48849475380848,0.008435961,-2.397056e-05,1.0547292e-05,1.0363236e-05,2.0,40,0.01893099,4.8817196e-06,0,-4.226262719209867e-08,2.0
115,115,3397055.0,617.7974,4350.38,4394.028,-81.91747,85.90449642689782,0.008403486,1.5932447e-06,1.0769371e-05,1.055648e-05,2.0,40,0.01991577,4.5324637e-06,0,-4.193132751403223e-08,2.0
116,116,2939708.2,682.1029,4967.758,5014.3677,-82.18183,86.32048897995264,0.008453922,-2.7319522e-05,1.0898218e-05,1.0696555e-05,2.0,40,0.021748262,4.3371892e-06,0,-4.284134745762932e-08,2.0
117,117,2543924.5,407.05997,5930.896,5944.8486,-86.07373,87.0394897874503,0.00839948,-3.4922648e-06,1.0548619e-05,1.0499161e-05,2.0,41,0.019949041,3.3556853e-06,0,-4.227858397246741e-08,2.0
118,118,2201436.2,460.27554,6846.052,6861.507,-86.15366,87.59149269366753,0.008389102,-1.0509337e-06,1.0560241e-05,1.0512722e-05,2.0,41,0.020689623,3.0153178e-06,0,-4.2033356592568796e-08,2.0
119,119,1905053.1,501.9506,7729.548,7745.8286,-86.28448,88.143482479878,0.008376135,1.2823772e-06,1.0808339e-05,1.0762951e-05,2.0,41,0.020497909,2.6463158e-06,0,-4.1758411321102545e-08,2.0
120,120,1648567.4,613.6474,8830.184,8851.48,-86.02466,88.69548709280207,0.008406206,-1.5164787e-06,1.093311e-05,1.08805625e-05,2.0,41,0.019813346,2.2384218e-06,0,-4.189859870437355e-08,2.0
121,121,1426616.2,508.0766,10405.926,10418.322,-87.20471,89.24750247897464,0.008385786,-1.0341743e-06,1.0720925e-05,1.0695427e-05,2.0,41,0.020562448,1.9736813e-06,0,-4.226313298555024e-08,2.0
122,122,1234551.2,591.73505,12065.241,12079.743,-87.1922,89.79948858523858,0.008393015,1.7348866e-06,1.0685011e-05,1.0659372e-05,2.0,41,0.020434182,1.6916073e-06,0,-4.313687985286584e-08,2.0
123,123,1068345.5,588.51556,13742.84,13755.436,-87.5479,90.35148309145006,0.008387947,-1.9060661e-07,1.0840066e-05,1.0820223e-05,2.0,41,0.02049855,1.4902145e-06,0,-4.349772078144001e-08,2.0
124,124,924510.06,814.71234,16046.919,16067.587,-87.09355,90.90348698434536,0.00840343,9.453225e-07,1.0727952e-05,1.0700371e-05,2.0,41,0.020355668,1.2668777e-06,0,-4.342077374271803e-08,2.0
125,125,800039.0,1130.5896,19036.75,19070.293,-86.601204,91.45550562386052,0.008395325,1.3475536e-06,1.0449997e-05,1.0413268e-05,2.0,41,0.0207261,1.0868265e-06,0,-4.280416267646419e-08,2.0
126,126,692334.1,1122.7253,21452.129,21481.488,-87.00408,92.00749757009908,0.008424223,-1.17981905e-07,1.0716032e-05,1.068676e-05,2.0,41,0.020312618,9.4558715e-07,0,-4.321065038509017e-08,2.0
127,127,599122.25,1382.8292,24909.668,24948.021,-86.822556,92.55950695628417,0.008377532,1.9080694e-06,1.0664408e-05,1.0631644e-05,2.0,41,0.020672843,8.286366e-07,0,-4.2681744059401516e-08,2.0
128,128,518454.94,1806.6597,28514.74,28571.916,-86.37466,93.11150095585617,0.008415056,4.816398e-07,1.0765636e-05,1.0722592e-05,2.0,41,0.020389399,7.1361677e-07,0,-4.2863453113431165e-08,2.0
129,129,448662.03,1925.0148,32812.06,32868.477,-86.642426,93.66349508872372,0.008396592,-2.5268252e-09,1.0811036e-05,1.0773954e-05,2.0,41,0.020347286,6.1905166e-07,0,-4.266084707931681e-08,2.0
130,130,388258.97,2844.911,37955.4,38061.867,-85.71346,94.21548767495551,0.008417907,6.8834214e-07,1.0800034e-05,1.0739696e-05,2.0,41,0.020893738,5.489415e-07,0,-4.2245680797434043e-08,2.0
131,131,335983.9,3923.3079,42474.527,42655.336,-84.72265,94.76748514120118,0.008364117,3.7479024e-06,1.1152521e-05,1.1058175e-05,2.0,41,0.02020492,4.736786e-07,0,-4.1595095379296116e-08,2.0
132,132,290751.2,4281.251,50534.78,50715.81,-85.15753,95.31949210076709,0.008456176,-1.2557734e-06,1.083199e-05,1.0754799e-05,2.0,41,0.020626415,4.0670582e-07,0,-4.063748540555818e-08,2.0
133,133,251605.19,3750.39,56835.293,56958.9,-86.2247,96.03849328155047,0.008404939,-7.7919424e-08,1.1129674e-05,1.1081422e-05,2.0,42,0.01991623,3.496597e-07,0,-4.122179375490198e-08,2.0
134,134,217729.38,5376.444,65240.94,65462.1,-85.288956,96.59148576113512,0.008393387,-4.1227985e-08,1.1204253e-05,1.11286745e-05,2.0,42,0.020176398,3.0821494e-07,0,-4.122194045126884e-08,2.0
135,135,188418.58,6334.0254,75366.625,75632.32,-85.19599,97.14448530742084,0.008419435,1.0553797e-07,1.1207721e-05,1.1129115e-05,2.0,42,0.02075817,2.7446163e-07,0,-4.118166078573478e-08,2.0
136,136,163051.14,7580.7046,86883.03,87213.12,-85.013466,97.69649088030565,0.008425956,-1.6694752e-07,1.1234697e-05,1.1149815e-05,2.0,42,0.020398546,2.3389309e-07,0,-4.1171471991830404e-08,2.0
137,137,141098.2,11706.561,99429.43,100116.21,-83.28506,98.24849722653744,0.008417795,-2.9713706e-07,1.1344457e-05,1.1189348e-05,2.0,42,0.02016396,2.0140556e-07,0,-4.110702809197046e-08,2.0
138,138,122105.11,12048.326,117607.57,118223.11,-84.150734,98.66449135294533,0.008446413,-4.5805803e-07,1.108284e-05,1.0967732e-05,2.0,42,0.021803861,1.8442978e-07,0,-4.113521537739078e-08,2.0
139,139,105663.59,17485.543,131016.88,132178.55,-82.39822,99.21649177916697,0.008431545,-2.7907075e-07,1.1496549e-05,1.129536e-05,2.0,42,0.020434251,1.5459582e-07,0,-4.118518567531954e-08,2.0
140,140,91439.65,22629.496,150851.27,152539.17,-81.46857,99.63248766559991,0.008419006,-2.8428568e-07,1.1538163e-05,1.1284226e-05,2.0,42,0.021612192,1.4168289e-07,0,-4.12225624855053e-08,2.0
141,141,79127.08,30418.273,173712.03,176355.16,-80.06778,100.1844978517911,0.008410659,-6.0264744e-09,1.1578841e-05,1.1234366e-05,2.0,42,0.0202546,1.148512e-07,0,-4.130487485990445e-08,2.0
142,142,68475.36,39377.88,198481.53,202350.03,-78.77848,100.60050075154868,0.008440433,-3.9175262e-07,1.1710237e-05,1.12667685e-05,2.0,42,0.021070205,1.0412751e-07,0,-4.1302596198943594e-08,2.0
143,143,59252.523,52061.184,213240.86,219504.06,-76.28005,101.01649178468506,0.008432365,-2.6081798e-07,1.2596295e-05,1.188772e-05,2.0,42,0.02174355,9.905762e-08,0,-4.1303986985267135e-08,2.0
144,144,51282.285,56982.477,264344.44,270416.3,-77.83537,101.56850485087489,0.0083991075,-2.9639213e-07,1.1740392e-05,1.1219078e-05,2.0,42,0.020283736,7.50093e-08,0,-4.135303820742149e-08,2.0
145,145,44369.8,85590.195,292827.44,305079.66,-73.70695,101.98450655062334,0.008398828,4.6496336e-08,1.224957e-05,1.1285425e-05,2.0,42,0.020588208,6.74847e-08,0,-4.133277101231848e-08,2.0
146,146,38403.727,112700.96,328570.38,347361.47,-71.067825,102.4004909703799,0.008391227,-3.9551697e-08,1.2612998e-05,1.1285268e-05,2.0,42,0.02087941,6.01086e-08,0,-4.134035839721071e-08,2.0
147,147,33226.32,146152.42,362482.4,390837.6,-68.04077,102.81648899018182,0.00842903,-9.1702e-08,1.3214508e-05,1.1366641e-05,2.0,42,0.021085456,5.3949407e-08,0,-4.134646067361677e-08,2.0
148,148,28754.086,184284.81,399714.44,440150.56,-65.24835,103.23348772994359,0.008424596,-8.9466994e-08,1.384748e-05,1.1420047e-05,2.0,42,0.021185217,4.8131753e-08,0,-4.1313816442227117e-08,2.0
149,149,24884.947,238098.95,459305.97,517352.0,-62.598293,103.81550333093037,0.008400244,-4.384495e-08,1.3924556e-05,1.097522e-05,2.0,43,0.021007294,4.0605418e-08,0,-4.129766973133512e-08,2.0
150,150,21553.963,290245.72,497558.5,576026.94,-59.743282,104.23250473741791,0.008382414,-3.7550407e-08,1.4840511e-05,1.107265e-05,2.0,43,0.020973766,3.6411087e-08,0,-4.129843378023502e-08,2.0
151,151,18631.234,342396.16,524797.9,626616.25,-56.87819,104.6484958238143,0.008427205,-4.5092683e-08,1.6277452e-05,1.1417401e-05,2.0,43,0.020859815,3.3289616e-08,0,-4.130352701979836e-08,2.0
152,152,16126.037,409752.28,547255.44,683655.94,-53.17632,105.06448923025164,0.008398083,8.671652e-09,1.8034427e-05,1.1555996e-05,2.0,43,0.020664528,3.0226502e-08,0,-4.131017310184267e-08,2.0
153,153,13954.87,457046.66,575349.5,734791.6,-51.53704,105.48049546338734,0.008423888,2.7890492e-08,1.982269e-05,1.2153398e-05,2.0,43,0.020323563,2.7658949e-08,0,-4.131680145320971e-08,2.0
154,154,12080.609,537546.6,589334.7,797666.44,-47.631287,105.89649446980911,0.008394337,8.0407084e-08,2.2354723e-05,1.2202551e-05,2.0,43,0.01997762,2.504508e-08,0,-4.132309185106722e-08,2.0
155,155,10447.592,609801.6,589169.44,847926.06,-44.014137,106.31249595622648,0.0083876485,4.969791e-08,2.5856141e-05,1.2483264e-05,2.0,43,0.019454101,2.2943157e-08,0,-4.132589614110543e-08,2.0
156,156,9045.586,641930.44,590904.44,872492.25,-42.62993,106.88526795673533,0.008405275,-1.1925276e-08,2.9775987e-05,1.3657698e-05,2.0,43,0.020142118,2.3085727e-08,0,-4.132652477554129e-08,2.0
157,157,7827.7437,732473.75,588020.56,939300.75,-38.75705,107.36493576623616,0.008396219,2.0478582e-08,3.4577297e-05,1.3550855e-05,2.0,43,0.020169165,2.1472532e-08,0,-4.133320390722152e-08,2.0
158,158,6770.8345,786544.25,593302.44,985220.6,-37.027813,107.90341824511415,0.008398754,-2.151607e-08,3.9618844e-05,1.4367694e-05,2.0,43,0.020159852,2.0462272e-08,0,-4.1330606019213885e-08,2.0
159,159,5860.798,837017.4,593359.75,1025998.94,-35.332745,108.50999104729271,0.008386065,1.986043e-09,4.5766246e-05,1.5306914e-05,2.0,43,0.020160904,1.9650024e-08,0,-4.1334770358549575e-08,2.0
160,160,5071.625,894835.8,587202.2,1070297.9,-33.273376,109.19071331963642,0.008401493,-2.5389626e-08,5.3442323e-05,1.6086122e-05,2.0,43,0.020218035,1.8890102e-08,0,-4.134386225338341e-08,2.0
161,161,4388.5933,927480.9,595732.7,1102324.0,-32.713146,109.87084433859854,0.008361509,-1.5910558e-08,6.087562e-05,1.7779834e-05,2.0,43,0.020198302,1.832338e-08,0,-4.135018198006751e-08,2.0
162,162,3798.7827,966295.75,596951.2,1135816.1,-31.706644,110.55082293089072,0.008396443,-6.971561e-09,7.01838e-05,1.9386458e-05,2.0,43,0.020212797,1.7795836e-08,0,-4.1349050273562556e-08,2.0
163,163,3286.0488,1002057.9,612863.7,1174615.6,-31.450169,111.23070920319878,0.008396611,-1.8316224e-09,7.902822e-05,2.1513866e-05,2.0,43,0.020231122,1.7223611e-08,0,-4.134495205276679e-08,2.0
164,164,2844.088,1029284.06,635582.6,1209707.0,-31.695318,111.91082544882374,0.008396164,5.803773e-09,8.8045075e-05,2.4304614e-05,2.0,43,0.02020917,1.670584e-08,0,-4.1351912947111085e-08,2.0
165,165,2460.7852,1051144.2,666849.9,1244826.5,-32.391197,112.59069046779041,0.008388488,-1.0509879e-08,9.698808e-05,2.7832797e-05,2.0,43,0.02023469,1.6255028e-08,0,-4.13524249551737e-08,2.0
166,166,2129.3164,1086435.4,703705.06,1294427.5,-32.931908,113.27081516676117,0.008389624,-1.0882327e-08,0.00010621583,3.1391723e-05,2.0,43,0.020255884,1.5648528e-08,0,-4.1359784415109776e-08,2.0
167,167,1843.2289,1116579.5,750002.8,1345085.1,-33.889126,113.95096314570401,0.008420347,-1.4625517e-08,0.00011512721,3.5793502e-05,2.0,43,0.020298641,1.5090972e-08,0,-4.135373951656618e-08,2.0
168,168,1594.4913,1139341.2,803019.25,1393893.2,-35.17657,114.63084587134654,0.008421484,-2.0193749e-08,0.00012430026,4.125389e-05,2.0,43,0.02024475,1.4523888e-08,0,-4.135059956605517e-08,2.0
169,169,1380.4436,1175917.1,872285.1,1464125.1,-36.567703,115.31068387698906,0.008399033,-7.455664e-09,0.00013217308,4.6914116e-05,2.0,43,0.02027937,1.3850845e-08,0,-4.135723903340312e-08,2.0
170,170,1194.6187,1194842.1,955623.3,1529988.1,-38.652485,115.99082230927888,0.008393033,-7.083198e-09,0.00013941327,5.4387798e-05,2.0,43,0.02028091,1.32556e-08,0,-4.1352882530991033e-08,2.0
171,171,1033.3434,1231041.9,1057126.9,1622646.4,-40.653526,116.67109490153962,0.0083766375,-1.2465208e-08,0.00014569625,6.183791e-05,2.0,43,0.020337984,1.2533836e-08,0,-4.134909368604209e-08,2.0
172,172,894.71045,1262664.0,1155968.5,1711894.8,-42.47409,117.35080754722003,0.008453307,-1.8499032e-08,0.00015388336,7.0166454e-05,2.0,43,0.02026175,1.1835862e-08,0,-4.1358805255915706e-08,2.0
173,173,774.2569,1309188.2,1289468.1,1837580.5,-44.565216,118.0309682461666,0.008432831,-2.1311093e-08,0.00015941328,7.8496974e-05,2.0,43,0.020342669,1.1070355e-08,0,-4.136358489478395e-08,2.0
174,174,669.7856,1352739.4,1439684.9,1975499.0,-46.783398,118.7108256118081,0.008403989,-7.455657e-09,0.00016505053,8.765933e-05,2.0,43,0.02033219,1.0292179e-08,0,-4.1360116572614044e-08,2.0
175,175,579.81464,1395084.4,1604736.2,2126367.5,-48.997795,119.3908195374388,0.00842208,-1.4122667e-08,0.00017105167,9.7422206e-05,2.0,43,0.020294633,9.544273e-09,0,-4.1369666896010456e-08,2.0
176,176,501.44418,1452183.1,1805370.1,2316937.0,-51.18789,120.06820146294194,0.008410677,-1.9672312e-08,0.00017580502,0.000106742,2.0,43,0.020317625,8.769175e-09,0,-4.137788746286001e-08,2.0
177,177,434.02762,1510388.6,2022984.9,2524627.0,-53.25447,120.74820648189052,0.008369595,-2.470051e-08,0.0001812634,0.00011638606,2.0,43,0.020273026,8.030107e-09,0,-4.138028717161804e-08,2.0
178,178,375.6009,1584370.5,2270496.0,2768642.8,-55.092354,121.4274695541535,0.008394804,-1.13479e-08,0.00018662628,0.0001255106,2.0,43,0.020289749,7.32841e-09,0,-4.137759870066186e-08,2.0
179,179,325.10385,1664457.5,2558392.8,3052178.2,-56.952488,122.10671913310944,0.008446879,-1.6152617e-08,0.00019135102,0.00013444525,2.0,43,0.020315187,6.6559633e-09,0,-4.1373426763081864e-08,2.0
180,180,281.3503,1760586.2,2888034.0,3382366.8,-58.632927,122.78282735188259,0.008446245,-1.935578e-08,0.00019587114,0.00014280179,2.0,43,0.020298464,6.0012604e-09,0,-4.1380190776744127e-08,2.0
181,181,243.36427,1872553.8,3254255.2,3754548.5,-60.083145,123.46612781097065,0.008417684,-5.667954e-09,0.00020096096,0.00015097308,2.0,43,0.020296393,5.4058145e-09,0,-4.137649525405335e-08,2.0
182,182,210.60631,1997285.2,3670077.0,4178350.5,-61.444614,124.1431806164619,0.008421391,-1.2837781e-08,0.00020590817,0.00015885987,2.0,43,0.020285964,4.8550173e-09,0,-4.137875640630003e-08,2.0
183,183,182.27473,2169510.5,4100232.5,4638823.5,-62.115837,124.81528307506233,0.008435365,-3.3900303e-08,0.00021295367,0.00016637438,2.0,43,0.020238591,4.3628714e-09,0,-4.1381494617669525e-08,2.0
184,184,157.72879,2332748.2,4650781.5,5203026.5,-63.362484,125.50363588113032,0.008410659,-4.978932e-09,0.00021696177,0.00017334966,2.0,43,0.020286918,3.899061e-09,0,-4.1378448972939484e-08,2.0
185,185,136.52892,2533941.8,5230825.0,5812262.0,-64.1533,126.1755165529612,0.008434638,-1.999277e-09,0.0002228565,0.0001804992,2.0,43,0.020302366,3.4930234e-09,0,-4.1385760759909885e-08,2.0
186,186,118.14758,2802440.5,5886874.5,6519890.0,-64.54327,126.86391159903724,0.0084082745,-8.4467083e-10,0.0002288287,0.00018655184,2.0,43,0.020264555,3.1081129e-09,0,-4.138865167934163e-08,2.0
187,187,102.25773,2914150.0,6629512.0,7241733.0,-66.271034,127.53036307069124,0.0084121125,-2.2912825e-08,0.0002347699,0.00019675262,2.0,43,0.020315029,2.8052718e-09,0,-4.1391228545253984e-08,2.0
188,188,88.4436,3427240.8,7472319.0,8220798.5,-65.36105,128.22027603679453,0.008423254,1.1371939e-08,0.00024082317,0.00019896701,2.0,43,0.020279614,2.4668667e-09,0,-4.139029277069501e-08,2.0
189,189,76.54279,3697882.0,8207725.0,9002282.0,-65.74668,128.88671846847865,0.008329462,-6.6603134e-12,0.00025333374,0.0002105879,2.0,43,0.020267464,2.2513695e-09,0,-4.139114852524796e-08,2.0
190,190,66.250786,4077300.0,9521865.0,10358103.0,-66.8192,129.55500492686406,0.008447569,1.213546e-08,0.0002522941,0.00021320171,2.0,43,0.020305194,1.9603197e-09,0,-4.139265620144824e-08,2.0
191,191,57.329906,7199872.0,8165535.0,10886419.0,-48.59611,130.20962706465252,0.008443805,-1.4979499e-08,0.0003399807,0.0001912729,2.0,43,0.020276409,1.8625417e-09,0,-4.139649369876253e-08,2.0
192,192,49.60321,5614149.5,11792335.0,13060545.0,-64.5416,130.89537776386715,0.008409373,-2.02684e-08,0.0002720887,0.00022181329,2.0,43,0.020304542,1.5546474e-09,0,-4.14005371917029e-08,2.0
193,193,42.92585,7367774.0,12643418.0,14633527.0,-59.769108,131.6034112374473,0.008454518,6.8651707e-09,0.00029324915,0.00021891107,2.0,43,0.02027087,1.3852347e-09,0,-4.140234508673214e-08,2.0
194,194,37.1518,6881963.0,14848028.0,16365371.0,-65.13259,132.24715588139952,0.008402107,-5.216945e-08,0.0002885171,0.00023749658,2.0,43,0.020294728,1.2401019e-09,0,-4.140845015591626e-08,2.0
195,195,32.150223,7688167.0,15995581.0,17747296.0,-64.32905,132.88539796500118,0.008434247,1.6847046e-08,0.0003094825,0.00025140375,2.0,43,0.020300413,1.1438595e-09,0,-4.140923556570206e-08,2.0
196,196,27.835518,9122548.0,17673778.0,19889276.0,-62.698895,133.6133500795986,0.008440638,-1.9914577e-08,0.00032351277,0.00025545375,2.0,43,0.0202709,1.0191875e-09,0,-4.141583069078535e-08,2.0
197,197,24.082958,8305405.0,20249352.0,21886434.0,-67.69869,134.3154025929689,0.008437005,-6.094085e-08,0.00032636168,0.00027936464,2.0,43,0.020247305,9.251075e-10,0,-4.141893752765657e-08,2.0
198,198,20.833313,11817482.0,22307574.0,25244420.0,-62.087505,134.96976657073537,0.008460686,-3.8057593e-09,0.00034245968,0.0002674135,2.0,43,0.020298997,8.0409834e-10,0,-4.1416476731692886e-08,2.0
199,199,18.021912,11773356.0,23590724.0,26365398.0,-63.477722,135.7157442861644,0.0084503265,-4.9636743e-08,0.00037435014,0.00029970356,2.0,43,0.020276524,7.6905815e-10,0,-4.142396090935316e-08,2.0
200,200,15.604198,15637078.0,27126728.0,31310982.0,-60.0389,136.3710286639398,0.008419714,6.8465407e-09,0.0003759943,0.0002822167,2.0,43,0.020293748,6.4813516e-10,0,-4.1424428470081175e-08,2.0
201,201,13.500899,18878858.0,26609992.0,32626722.0,-54.645634,137.11898328614188,0.008422416,-1.0966274e-08,0.00044300914,0.00029468315,2.0,43,0.020269532,6.2125555e-10,0,-4.142899889703017e-08,2.0
202,202,11.686608,19260752.0,31698616.0,37091492.0,-58.716248,137.7098961408774,0.00847097,-1.2633023e-08,0.0004296268,0.0003137786,2.0,43,0.020273507,5.4658106e-10,0,-4.143103813892147e-08,2.0
203,203,10.113269,21523804.0,31603078.0,38236484.0,-55.742527,138.38350979951792,0.008458636,-3.3770025e-08,0.00049796543,0.00034017474,2.0,43,0.020277916,5.30329e-10,0,-4.1437630508648325e-08,2.0
204,204,8.748621,22867556.0,34972530.0,41785200.0,-56.820454,139.1504100226157,0.008432589,-3.956175e-08,0.0005201798,0.00036438674,2.0,43,0.020266714,4.8502136e-10,0,-4.143774135753513e-08,2.0
205,205,7.570237,26320812.0,37945468.0,46180556.0,-55.252953,140.02599881088827,0.008436091,-1.0491389e-08,0.00055405224,0.00037406944,2.0,43,0.0202897,4.393559e-10,0,-4.1438620880740805e-08,2.0
206,206,6.554112,32635506.0,41619844.0,52889390.0,-51.898823,140.56130787628354,0.008430819,-3.6079268e-08,0.000583453,0.00036130135,2.0,43,0.020304516,3.8390527e-10,0,-4.14457094461823e-08,2.0
207,207,5.669445,33005326.0,43107804.0,54292120.0,-52.56066,141.17112438523327,0.008420291,-2.9300525e-08,0.000651214,0.00041054605,2.0,43,0.020290818,3.7373413e-10,0,-4.144360263130621e-08,2.0
208,208,4.907347,40595360.0,43684788.0,59635090.0,-47.09933,141.86356380479992,0.008428397,-3.3155466e-08,0.0007424088,0.0003983821,2.0,43,0.020306751,3.4051684e-10,0,-4.144866720002405e-08,2.0
209,209,4.245922,44929360.0,44964110.0,63564290.0,-45.02215,142.65133757554577,0.008421959,-2.2028287e-08,0.00083364674,0.0004171457,2.0,43,0.020289352,3.191942e-10,0,-4.145621640309674e-08,2.0
210,210,3.6747382,44628930.0,51049850.0,67807290.0,-48.839314,143.55091359163634,0.008415606,-3.5762675e-08,0.00084839726,0.00048087857,2.0,43,0.020283658,2.9913683e-10,0,-4.145524176725557e-08,2.0
211,211,3.180988,52314604.0,56471890.0,76979816.0,-47.188496,144.5791925204394,0.008457667,-1.1757747e-08,0.00088598375,0.00047680043,2.0,43,0.0202941,2.6362884e-10,0,-4.1460299852767534e-08,2.0
212,212,2.752818,58353240.0,59679628.0,83467110.0,-45.643833,145.758129883121,0.008421665,-1.7580472e-08,0.00096876064,0.00049526535,2.0,43,0.020287143,2.4305552e-10,0,-4.147203236827846e-08,2.0
