True,index,freq,Re(Z),Im(Z),Z,Phase(Z),time,Ewe_meas,I_meas,Cs,Cp,cycle_number,I_Range,Ewe,I,Ns,(QQo),cycle
110,110,7000018.5,771.2776,2774.541,2879.7478,-74.46493,82.99849215554423,-0.07662457,2.743623e-05,8.194638e-06,7.606821e-06,2.0,40,0.010063146,3.494454e-06,0,8.092072120201849e-09,2.0
111,111,6057573.0,929.4629,3008.4895,3148.7952,-72.83164,83.55049396838876,-0.07658336,-1.7371292e-06,8.733192e-06,7.972255e-06,2.0,40,0.014255028,4.527137e-06,0,8.059810378621406e-09,2.0
112,112,5242039.0,860.9845,3572.931,3675.2046,-76.45149,83.96650508148014,-0.07652797,-5.9605445e-06,8.49758e-06,8.031219e-06,2.0,40,0.019765705,5.3781237e-06,0,9.193596216876691e-09,2.0
113,113,4536288.0,691.8,4095.247,4153.268,-80.41169,85.4704944062687,-0.07653399,8.862481e-07,8.56721e-06,8.3295145e-06,2.0,40,0.021825433,5.255002e-06,0,8.752613899148178e-09,2.0
114,114,3925558.5,873.2584,4595.8096,4678.0386,-79.24138,85.88648434603238,-0.07660846,-7.3001306e-06,8.8217885e-06,8.514381e-06,2.0,40,0.020007607,4.276922e-06,0,8.537176472782478e-09,2.0
115,115,3397055.0,853.5299,5515.847,5581.4946,-81.203735,86.46848528031842,-0.076665916,-2.539346e-07,8.493865e-06,8.2952365e-06,2.0,41,0.020243255,3.626852e-06,0,8.904857278030785e-09,2.0
116,116,2939708.2,906.42,6203.4087,6269.2803,-81.68697,87.02049418658135,-0.076642774,1.6063957e-06,8.727412e-06,8.544977e-06,2.0,41,0.020474097,3.265781e-06,0,8.804992454872589e-09,2.0
117,117,2543924.5,1030.4908,7123.581,7197.73,-81.768745,87.57250087943976,-0.07666722,-9.936042e-08,8.782487e-06,8.60247e-06,2.0,41,0.020688433,2.8742998e-06,0,9.257822441954537e-09,2.0
118,118,2201436.2,1085.8615,8118.9165,8191.2085,-82.3822,88.12449869231205,-0.07664352,1.8838606e-06,8.904632e-06,8.7481485e-06,2.0,41,0.020331178,2.4820731e-06,0,9.202562171224048e-09,2.0
119,119,1905053.1,1348.0133,9262.081,9359.663,-81.71925,88.67649687852827,-0.076627016,-4.5357268e-08,9.019957e-06,8.832857e-06,2.0,41,0.02074188,2.2160925e-06,0,9.863917843617633e-09,2.0
120,120,1648567.4,1752.738,10935.795,11075.364,-80.89434,89.22848533143406,-0.07663691,1.7665434e-06,8.828016e-06,8.60692e-06,2.0,41,0.019963501,1.8025142e-06,0,1.0400933695588193e-08,2.0
121,121,1426616.2,1922.4543,12352.615,12501.317,-81.153946,89.7804893576249,-0.07663413,1.1334021e-06,9.031379e-06,8.817802e-06,2.0,41,0.020383855,1.6305365e-06,0,1.0694323708151278e-08,2.0
122,122,1234551.2,2459.5178,14249.844,14460.542,-80.20725,90.33249437055201,-0.07667063,2.6976331e-06,9.046923e-06,8.785206e-06,2.0,41,0.02048588,1.4166744e-06,0,1.0742662008910534e-08,2.0
123,123,1068345.5,2771.614,16212.48,16447.686,-80.29875,90.88450183675741,-0.07668537,1.5114247e-06,9.188803e-06,8.927879e-06,2.0,41,0.020628223,1.2541718e-06,0,1.1596178156536229e-08,2.0
124,124,924510.06,3575.882,18592.67,18933.418,-79.11338,91.43648196963477,-0.076655984,1.0030496e-06,9.259056e-06,8.928781e-06,2.0,41,0.020264398,1.0702979e-06,0,1.1780698981939045e-08,2.0
125,125,800039.0,3709.6333,19601.578,19949.518,-79.28342,91.98849492918816,-0.076644994,2.6305947e-06,1.0148875e-05,9.797949e-06,2.0,41,0.020628039,1.0340119e-06,0,1.2405170680278873e-08,2.0
126,126,692334.1,5653.812,24093.78,24748.248,-76.79399,92.54049684872734,-0.07666033,2.1501519e-06,9.541122e-06,9.043164e-06,2.0,41,0.020209027,8.1658413e-07,0,1.1706629612958085e-08,2.0
127,127,599122.25,6982.074,27530.057,28401.645,-75.768906,93.09348863500054,-0.07661936,-5.8392043e-08,9.6493395e-06,9.066191e-06,2.0,41,0.020745592,7.304363e-07,0,1.2180798741906103e-08,2.0
128,128,518454.94,8728.082,31283.14,32477.904,-74.41075,93.64548239458236,-0.076658726,1.2544442e-06,9.812931e-06,9.104235e-06,2.0,41,0.020372326,6.2726724e-07,0,1.178485521469039e-08,2.0
129,129,448662.03,11429.513,34096.223,35960.9,-71.468155,94.19749095410225,-0.07665202,1.5077005e-06,1.0403861e-05,9.352894e-06,2.0,41,0.02028703,5.641413e-07,0,1.2226929686055963e-08,2.0
130,130,388258.97,14985.585,39354.07,42110.695,-69.15373,94.74950098033878,-0.0766321,1.7404732e-06,1.0416192e-05,9.097111e-06,2.0,41,0.020989096,4.9842674e-07,0,1.185911615726054e-08,2.0
131,131,335983.9,19442.5,41933.035,46221.1,-65.12492,95.30148463320802,-0.07662955,-5.5000794e-07,1.1296537e-05,9.297739e-06,2.0,41,0.0202166,4.3738896e-07,0,1.277926180347988e-08,2.0
132,132,290751.2,22721.635,47909.164,53024.152,-64.626656,95.8535044460732,-0.076674454,7.926236e-07,1.1425626e-05,9.327597e-06,2.0,41,0.020591682,3.8834534e-07,0,1.2990830750780792e-08,2.0
133,133,251605.19,26280.615,52391.902,58613.84,-63.360928,96.57148976021563,-0.07665972,-2.697582e-07,1.2073589e-05,9.64638e-06,2.0,42,0.019777797,3.3742538e-07,0,1.2829329469176611e-08,2.0
134,134,217729.38,31841.332,56757.695,65079.23,-60.70737,96.98748759328737,-0.076663926,-1.889251e-07,1.2878888e-05,9.795871e-06,2.0,42,0.022019833,3.3835423e-07,0,1.2801798677502962e-08,2.0
135,135,188418.58,39892.23,61749.836,73514.84,-57.136337,97.53949343282147,-0.07664589,-2.898732e-07,1.3679196e-05,9.651218e-06,2.0,42,0.020971702,2.8527168e-07,0,1.2854890963987398e-08,2.0
136,136,163051.14,48085.69,65347.277,81132.61,-53.652565,98.09249345908756,-0.07666538,-2.8205073e-07,1.4937187e-05,9.690204e-06,2.0,42,0.020229798,2.4934238e-07,0,1.2811176399831018e-08,2.0
137,137,141098.2,57144.633,66809.68,87914.97,-49.45848,98.64449788533966,-0.07663263,-2.5690684e-07,1.6883374e-05,9.750174e-06,2.0,42,0.020226412,2.3006788e-07,0,1.283841695754257e-08,2.0
138,138,122105.11,66741.26,70845.48,97331.79,-46.70863,99.06048769174959,-0.07668269,-1.1870839e-07,1.839815e-05,9.747405e-06,2.0,42,0.021722997,2.2318501e-07,0,1.2825028183119209e-08,2.0
139,139,105663.59,77160.914,69644.49,103943.07,-42.069023,99.61248817128944,-0.0766245,-4.9609287e-08,2.1627582e-05,9.709356e-06,2.0,42,0.020435657,1.9660433e-07,0,1.2771297726132847e-08,2.0
140,140,91439.65,85067.74,68359.06,109130.57,-38.784794,100.02848864442785,-0.0766847,-1.5338985e-08,2.5461824e-05,9.990537e-06,2.0,42,0.021501014,1.97021e-07,0,1.2756685889351329e-08,2.0
141,141,79127.08,95335.15,66051.12,115980.77,-34.715405,100.58049805727205,-0.076650955,-2.7329688e-07,3.045193e-05,9.876502e-06,2.0,42,0.020243077,1.7453821e-07,0,1.2760401778646656e-08,2.0
142,142,68475.36,103478.66,63495.254,121406.26,-31.533579,100.9965046903526,-0.07666534,1.1187061e-07,3.660535e-05,1.0012555e-05,2.0,42,0.020997249,1.729503e-07,0,1.2737721182357485e-08,2.0
143,143,59252.523,110195.46,58459.98,124742.17,-27.946472,101.41249980349676,-0.076649524,-1.7570113e-07,4.594673e-05,1.0091258e-05,2.0,42,0.021676352,1.7376924e-07,0,1.2752653392426113e-08,2.0
144,144,51282.285,117352.97,57168.645,130537.25,-25.973085,101.96450374971027,-0.07664374,-1.362159e-07,5.4286877e-05,1.0412182e-05,2.0,42,0.020130021,1.5420902e-07,0,1.2708531157796454e-08,2.0
145,145,44369.8,122553.71,50272.996,132464.28,-22.304024,102.38050624946482,-0.07660425,-1.3137333e-07,7.135064e-05,1.0277083e-05,2.0,42,0.02046221,1.5447341e-07,0,1.2723463479306406e-08,2.0
146,146,38403.727,127256.16,45775.293,135238.7,-19.784159,102.7965011758788,-0.07662292,-2.50238e-08,9.053481e-05,1.037232e-05,2.0,42,0.020729925,1.5328396e-07,0,1.2708415251745425e-08,2.0
147,147,33226.32,130668.72,41252.395,137025.81,-17.521019,103.21248340894817,-0.07666852,-1.5614451e-07,0.00011611511,1.0524035e-05,2.0,42,0.020921834,1.5268535e-07,0,1.275094963640555e-08,2.0
148,148,28754.086,134456.16,37140.72,139491.55,-15.441707,103.62850409539533,-0.076617435,-1.7774956e-07,0.00014902883,1.0565136e-05,2.0,42,0.021067137,1.5102805e-07,0,1.2705044954156758e-08,2.0
149,149,24884.947,136693.17,33264.746,140682.5,-13.677266,104.04450371515122,-0.0766343,-4.402115e-08,0.00019226455,1.0749481e-05,2.0,42,0.021079397,1.4983667e-07,0,1.2664727865194002e-08,2.0
150,150,21553.963,137589.95,30455.033,140920.2,-12.480976,104.46148957495461,-0.07665293,1.9642926e-07,0.00024245656,1.13241485e-05,2.0,42,0.02100618,1.4906436e-07,0,1.2730441112327165e-08,2.0
151,151,18631.234,139345.94,28143.443,142159.58,-11.418321,104.87748386137537,-0.07664712,-1.02317486e-07,0.00030352973,1.1896069e-05,2.0,42,0.020965537,1.4747889e-07,0,1.2749871643953902e-08,2.0
152,152,16126.037,140885.81,24338.959,142972.72,-9.801482,105.29350577449077,-0.076661445,-2.8298092e-07,0.00040549962,1.1751359e-05,2.0,42,0.020797182,1.454626e-07,0,1.2679063358488365e-08,2.0
153,153,13954.87,141961.17,23303.008,143861.06,-9.3220005,105.70948960757232,-0.076644,3.473592e-09,0.0004894207,1.28416195e-05,2.0,42,0.020567436,1.4296735e-07,0,1.2671170025360902e-08,2.0
154,154,12080.609,141753.72,21794.865,143419.44,-8.740871,106.12548325399985,-0.076694034,-7.2144054e-08,0.0006044733,1.3959486e-05,2.0,42,0.020190973,1.4078267e-07,0,1.261664681163034e-08,2.0
155,155,10447.592,142740.55,19881.22,144118.45,-7.9292707,106.54150071376353,-0.07665144,2.8431751e-08,0.0007662331,1.45816875e-05,2.0,42,0.019712025,1.3677655e-07,0,1.25355274989679e-08,2.0
156,156,9045.586,143658.45,19195.424,144935.22,-7.6106944,107.11424650097615,-0.07668388,3.1598333e-08,0.00091661233,1.6078046e-05,2.0,42,0.020238519,1.3963837e-07,0,1.2539088109688142e-08,2.0
157,157,7827.7437,143449.75,19411.115,144757.11,-7.706256,107.59493497715448,-0.076652855,-3.7686963e-08,0.0010474494,1.8834506e-05,2.0,42,0.020250695,1.398943e-07,0,1.2621082187468208e-08,2.0
158,158,6770.8345,143641.66,19070.053,144902.02,-7.5624375,108.13342569602537,-0.07667005,6.53099e-08,0.001232611,2.134917e-05,2.0,42,0.020318754,1.4022409e-07,0,1.2579591123251059e-08,2.0
159,159,5860.798,143996.0,19748.61,145343.92,-7.8092217,108.73896655149292,-0.076599605,-4.5172317e-07,0.0013750765,2.5386693e-05,2.0,42,0.020381901,1.4023223e-07,0,1.26416737388008e-08,2.0
160,160,5071.625,144495.31,20530.857,145946.61,-8.086836,109.41969210384559,-0.07666087,-1.9993067e-08,0.0015285016,3.024768e-05,2.0,42,0.020443657,1.4007628e-07,0,1.2692802230526625e-08,2.0
161,161,4388.5933,145015.52,21649.576,146622.66,-8.491058,110.09983256280248,-0.07663484,1.9065712e-07,0.0016751181,3.652095e-05,2.0,42,0.02047218,1.3962494e-07,0,1.2687933919220345e-08,2.0
162,162,3798.7827,145621.36,23186.785,147455.78,-9.047062,110.77985126175918,-0.07664919,2.515612e-07,0.0018069043,4.4677887e-05,2.0,42,0.02049938,1.3902053e-07,0,1.2641954125465796e-08,2.0
163,163,3286.0488,146911.27,24818.219,148992.83,-9.588639,111.45971897407435,-0.07663946,7.499518e-08,0.0019515312,5.4148448e-05,2.0,42,0.02056454,1.3802368e-07,0,1.2607378978116578e-08,2.0
164,164,2844.088,147415.56,26914.398,149852.38,-10.346816,112.13982647303783,-0.07667531,2.2697616e-07,0.0020791816,6.707096e-05,2.0,42,0.020541398,1.3707756e-07,0,1.2640038050717327e-08,2.0
165,165,2460.7852,148568.66,29716.223,151511.39,-11.310856,112.81967719866952,-0.076660514,8.505272e-08,0.0021764706,8.3723906e-05,2.0,42,0.020561835,1.3571147e-07,0,1.255038407779215e-08,2.0
166,166,2129.3164,150007.52,32743.934,153539.64,-12.313493,113.4998454976303,-0.07666733,8.207287e-08,0.0022827012,0.0001038173,2.0,42,0.02058238,1.3405254e-07,0,1.2617846341142701e-08,2.0
167,167,1843.2289,152184.83,35863.63,156353.52,-13.260294,114.17994014325086,-0.07668336,9.8835294e-08,0.0024076127,0.00012667176,2.0,42,0.020651162,1.3207993e-07,0,1.2536368660353977e-08,2.0
168,168,1594.4913,153199.52,39118.016,158114.86,-14.32386,114.85983273555757,-0.07666799,2.601104e-08,0.0025516504,0.00015618144,2.0,42,0.020598095,1.3027298e-07,0,1.2432463733997028e-08,2.0
169,169,1380.4436,154793.31,43458.78,160778.22,-15.682279,115.5396853278653,-0.07669591,1.735221e-07,0.0026529185,0.0001938316,2.0,42,0.020607643,1.2817435e-07,0,1.2424489682204233e-08,2.0
170,170,1194.6187,156662.83,48151.438,163895.7,-17.085184,116.219808693495,-0.07665962,8.17002e-08,0.0027668246,0.00023881685,2.0,42,0.020603135,1.2570882e-07,0,1.2399483377482214e-08,2.0
171,171,1033.3434,159146.98,52814.586,167681.67,-18.358963,116.9000648324436,-0.07664173,1.7743335e-07,0.0029162287,0.00028930648,2.0,42,0.020598471,1.228427e-07,0,1.2416764574739306e-08,2.0
172,172,894.71045,160710.95,58858.715,171150.11,-20.11473,117.57981382476282,-0.07663322,-1.4738883e-07,0.0030222256,0.00035743252,2.0,42,0.020593746,1.2032564e-07,0,1.2472953153194214e-08,2.0
173,173,774.2569,163289.08,65515.008,175941.86,-21.861694,118.25996687039151,-0.076692246,1.129902e-07,0.003137576,0.00043504834,2.0,42,0.020565487,1.16887975e-07,0,1.2472742892002643e-08,2.0
174,174,669.7856,165786.22,72760.56,181050.19,-23.695799,118.93984359601745,-0.07666117,-4.3274483e-08,0.0032657904,0.0005274514,2.0,42,0.020590242,1.13726706e-07,0,1.2406839323370476e-08,2.0
175,175,579.81464,169446.2,81133.914,187868.9,-25.585945,119.6198450949887,-0.07665304,-2.4090642e-08,0.0033832067,0.0006309916,2.0,42,0.020624518,1.0978143e-07,0,1.2511248238512548e-08,2.0
176,176,501.44418,172814.38,90188.24,194932.62,-27.559124,120.29719291380025,-0.0766833,1.3345696e-08,0.0035192296,0.0007533181,2.0,42,0.02062496,1.0580558e-07,0,1.2616505180996008e-08,2.0
177,177,434.02762,174592.77,100745.67,201574.61,-29.986338,120.97721209275187,-0.07669983,-4.9793478e-08,0.0036397905,0.000909196,2.0,42,0.02062255,1.02307276e-07,0,1.253376285185897e-08,2.0
178,178,375.6009,180232.94,111999.82,212197.72,-31.857521,121.65545783165726,-0.07666256,1.0032484e-07,0.003783347,0.0010539729,2.0,42,0.020613477,9.714278e-08,0,1.2445270407179107e-08,2.0
179,179,325.10385,184545.61,125660.01,223265.58,-34.251564,122.33470738393953,-0.076656565,-1.3640057e-07,0.0038958387,0.0012341035,2.0,42,0.020616224,9.233946e-08,0,1.2513434818335235e-08,2.0
180,180,281.3503,188972.48,140249.38,235330.6,-36.58163,123.01182957609126,-0.076655224,3.9606608e-08,0.004033405,0.0014325734,2.0,42,0.02059481,8.751437e-08,0,1.2593422405914052e-08,2.0
181,181,243.36427,194532.62,157512.05,250305.78,-38.99691,123.69508790186956,-0.07668399,9.380541e-08,0.0041519254,0.001644127,2.0,42,0.020612981,8.23512e-08,0,1.2515273332188394e-08,2.0
182,182,210.60631,203127.4,174973.84,268098.1,-40.741592,124.62321109257755,-0.076631464,-1.1412564e-07,0.0043189246,0.0018396467,2.0,43,0.020637035,7.697569e-08,0,1.2334289756028324e-08,2.0
183,183,182.27473,209450.84,196643.02,287294.5,-43.193542,125.2942665911105,-0.07666445,-1.17142854e-07,0.0044403286,0.0020802596,2.0,43,0.020636039,7.1828865e-08,0,1.2391424295764688e-08,2.0
184,184,157.72879,215932.33,221205.73,309125.78,-45.69115,125.98266553054782,-0.076636404,-1.02859296e-07,0.0045615537,0.0023357968,2.0,43,0.020606361,6.666012e-08,0,1.2398060947074186e-08,2.0
185,185,136.52892,224043.4,249329.5,335202.4,-48.057655,126.65454398907605,-0.07665818,-1.0295278e-07,0.004675433,0.0025867526,2.0,43,0.020614594,6.1498945e-08,0,1.2369831320567768e-08,2.0
186,186,118.14758,232652.39,281828.62,365451.1,-50.45998,127.34292351512704,-0.076616354,-1.2852196e-07,0.0047798054,0.00284264,2.0,43,0.020629425,5.6449206e-08,0,1.2315774458148749e-08,2.0
187,187,102.25773,242992.16,317198.7,399575.03,-52.54584,128.00935520007624,-0.0766349,-9.697486e-08,0.004906735,0.0030921367,2.0,43,0.02061845,5.1600946e-08,0,1.2304724862306197e-08,2.0
188,188,88.4436,254036.45,358782.34,439612.66,-54.69953,128.69927213955089,-0.07668649,-9.663974e-08,0.0050155967,0.003340753,2.0,43,0.020613909,4.689107e-08,0,1.2293916812334357e-08,2.0
189,189,76.54279,269501.88,405152.88,486600.56,-56.368717,129.36673505126964,-0.076603554,-1.2237666e-07,0.005132121,0.0035578655,2.0,43,0.020654265,4.2446036e-08,0,1.2268939371959596e-08,2.0
190,190,66.250786,281077.28,456693.2,536258.44,-58.389286,130.0349946563365,-0.076615945,-1.3334564e-07,0.0052602277,0.003815095,2.0,43,0.020579051,3.8375248e-08,0,1.2278601714690948e-08,2.0
191,191,57.329906,295810.8,519273.22,597619.2,-60.33143,130.6886150340706,-0.07665345,-6.851946e-08,0.005346173,0.004036322,2.0,43,0.02061015,3.4487094e-08,0,1.2221753443253232e-08,2.0
192,192,49.60321,320861.5,582058.6,664638.5,-61.13412,131.37438501327415,-0.07669293,-1.297332e-07,0.005512437,0.004227719,2.0,43,0.020604366,3.1000862e-08,0,1.219592026327317e-08,2.0
193,193,42.92585,344954.72,658286.44,743192.3,-62.3446,132.0824116335425,-0.07664523,-1.5949264e-07,0.0056323074,0.0044188956,2.0,43,0.020595543,2.7712266e-08,0,1.2208229221843207e-08,2.0
194,194,37.1518,373571.66,740242.0,829164.6,-63.22168,132.7261856107798,-0.07665077,-1.4517164e-07,0.005787174,0.004612459,2.0,43,0.02060793,2.4853845e-08,0,1.2180243016417611e-08,2.0
195,195,32.150223,407014.06,832635.44,926791.4,-63.9494,133.36440292108455,-0.07664061,-1.2824349e-07,0.005945402,0.0047987383,2.0,43,0.020600399,2.2227654e-08,0,1.2123104895156642e-08,2.0
196,196,27.835518,445809.3,933949.56,1034895.06,-64.4831,134.0913086356304,-0.07667269,-1.0480657e-07,0.0061220573,0.0049859923,2.0,43,0.020595616,1.9901163e-08,0,1.2098088416165492e-08,2.0
197,197,24.082958,490294.34,1039647.06,1149458.4,-64.75158,134.79340413564933,-0.07669716,-1.2310365e-07,0.0063565928,0.0052000764,2.0,43,0.020438455,1.7780945e-08,0,1.2059088159516494e-08,2.0
198,198,20.833313,539716.1,1184316.4,1301498.6,-65.50032,135.44774286010943,-0.07664326,-1.6530323e-07,0.00645051,0.00534124,2.0,43,0.020611305,1.5836594e-08,0,1.2082133473906668e-08,2.0
199,199,18.021912,612017.8,1319708.2,1454715.0,-65.12038,136.1937265755405,-0.076656975,-1.493528e-07,0.0066917753,0.0055073337,2.0,43,0.020602932,1.4162865e-08,0,1.2025326548848162e-08,2.0
200,200,15.604198,677572.5,1483690.6,1631086.2,-65.45475,136.84799783327617,-0.07667237,-1.7169101e-07,0.0068744086,0.0056881127,2.0,43,0.02058771,1.2622086e-08,0,1.204110771463333e-08,2.0
201,201,13.500899,756298.7,1658988.2,1823247.0,-65.49273,137.59498826874187,-0.07668113,-1.5957683e-07,0.007105819,0.0058831475,2.0,43,0.020591207,1.1293701e-08,0,1.202404771468224e-08,2.0
202,202,11.686608,859575.0,1840603.2,2031425.5,-64.96709,138.18587624348584,-0.0766205,-7.6527996e-08,0.007398973,0.0060742134,2.0,43,0.020600967,1.0141139e-08,0,1.1993518332473604e-08,2.0
203,203,10.113269,966749.9,2054585.9,2270667.0,-64.80148,138.85952312880545,-0.076694965,-9.6882864e-08,0.007659568,0.0062711327,2.0,43,0.020580592,9.063677e-09,0,1.1921550567338062e-08,2.0
204,204,8.748621,1082716.8,2285986.5,2529428.8,-64.65626,139.62639204520383,-0.076681264,-9.1919894e-08,0.007958054,0.006499939,2.0,43,0.020573583,8.1336875e-09,0,1.1887825783994179e-08,2.0
205,205,7.570237,1228604.0,2527627.8,2810403.8,-64.077,140.5020075268112,-0.07666784,-1.2925884e-07,0.00831759,0.006728005,2.0,43,0.020593809,7.3277047e-09,0,1.1930289703733e-08,2.0
206,206,6.554112,1389031.1,2802119.8,3127504.2,-63.63205,141.03831483228714,-0.07671112,-1.10216945e-07,0.008666018,0.006956602,2.0,43,0.020624468,6.5945454e-09,0,1.1826896418040504e-08,2.0
207,207,5.669445,1546235.8,3087873.0,3453375.8,-63.40083,141.6481399545737,-0.07667499,-1.6953092e-07,0.009091178,0.0072686095,2.0,43,0.020584727,5.960755e-09,0,1.1893498659019538e-08,2.0
208,208,4.907347,1757828.6,3406658.5,3833442.8,-62.70636,142.34052601412986,-0.076670595,-1.0801946e-07,0.009520171,0.007518375,2.0,43,0.020582926,5.3693054e-09,0,1.1788047073054376e-08,2.0
209,209,4.245922,1996317.6,3757280.8,4254696.5,-62.017406,143.12831562486826,-0.07665309,-1.390173e-07,0.009976414,0.0077800895,2.0,43,0.020599663,4.8416293e-09,0,1.180132886179698e-08,2.0
210,210,3.6747382,2203258.0,4126082.8,4677489.0,-61.89854,144.02795446763048,-0.07667164,-1.2718245e-07,0.010496773,0.008167819,2.0,43,0.020612724,4.4067927e-09,0,1.181896733059245e-08,2.0
211,211,3.180988,2505883.2,4538698.0,5184518.5,-61.096252,145.05618638309534,-0.07666661,-1.2136282e-07,0.011023685,0.008448361,2.0,43,0.020590363,3.9715093e-09,0,1.1710180835781989e-08,2.0
212,212,2.752818,2794550.5,4967395.0,5699520.0,-60.63882,146.23513811911107,-0.076681234,-1.2838045e-07,0.011638953,0.0088408645,2.0,43,0.020601684,3.6146348e-09,0,1.1650865911009191e-08,2.0
213,213,2.3804083,3104191.5,5411165.5,6238326.5,-60.158653,147.59001429015188,-0.076672666,-1.004461e-07,0.012355998,0.009296581,2.0,43,0.020600628,3.3022685e-09,0,1.168220301034421e-08,2.0
