True,index,freq,Re(Z),Im(Z),Z,Phase(Z),time,Ewe_meas,I_meas,Cs,Cp,cycle_number,I_Range,Ewe,I,Ns,(QQo),THD_Ewe,NSD_Ewe,NSR_Ewe,Ewe_h2,Ewe_h3,Ewe_h4,Ewe_h5,Ewe_h6,Ewe_h7,THD_I,NSD_I,NSR_I,I_h2,I_h3,I_h4,I_h5,I_h6,I_h7,cycle
0,0,7000018.5,147.02959,401.94632,427.99362,-69.907776,2.457476330018835,-0.016403737,-5.042193e-05,5.6565666e-05,4.9890106e-05,1.0,40,0.01048274,2.4492747e-05,0,-1.5506656325581188e-08,6.8542047,0.107056834,5.121735,0.00018735642,3.370042e-05,0.00021112224,0.0006595842,1.2505062e-05,8.998037e-06,16.247261,0.57294524,18.663357,9.925438e-07,2.1905204e-07,6.237427e-07,3.793375e-06,1.342444e-07,6.347145e-08,1.0
1,1,4765894.0,266.49106,517.56604,582.1444,-62.756386,4.438482157449471,-0.016349496,-8.7681314e-05,6.452232e-05,5.100116e-05,1.0,40,0.021396888,3.6755293e-05,0,-6.306904645723282e-08,4.0807295,0.10855263,1.6206536,0.00086406333,8.75112e-05,4.085392e-06,1.8736993e-05,8.2306404e-05,3.0492696e-05,10.462299,0.21111834,5.583829,3.7724676e-06,5.271118e-07,5.4760903e-08,1.7439964e-07,4.4629928e-07,1.9239293e-07,1.0
2,2,3244822.5,410.88004,666.5186,782.98755,-58.347958,5.117500696360366,-0.016405694,-9.077538e-05,7.3589676e-05,5.3325108e-05,1.0,40,0.01977328,2.5253634e-05,0,-8.345893578722199e-08,4.092011,0.08727618,1.694489,0.0007950075,0.00014973783,9.211444e-06,5.8371174e-06,8.848293e-06,3.0133465e-06,11.062342,0.15827791,5.6276984,2.7665096e-06,3.7900122e-07,2.6916856e-08,2.3805343e-08,3.7954685e-08,2.2006775e-08,1.0
3,3,2209211.8,612.3328,801.0763,1008.3029,-52.60615,5.932501295086695,-0.01643675,-9.571463e-05,8.9930894e-05,5.6764213e-05,1.0,40,0.021135312,2.0961272e-05,0,-9.755626008424972e-08,1.9252471,0.042163853,1.5748124,0.00034928857,0.00020224917,4.4760112e-05,2.0212467e-05,4.641561e-06,7.9544725e-06,3.932863,0.14370528,4.680592,5.675616e-07,5.3385344e-07,2.021733e-07,1.6109192e-07,4.9023246e-08,4.89067e-08,1.0
4,4,1504119.6,878.3816,908.7426,1263.87,-45.97329,6.746494107093895,-0.016442867,-9.405577e-05,0.00011643857,6.0196864e-05,1.0,40,0.02127759,1.6835267e-05,0,-1.1854919811523562e-07,1.0244071,0.064492755,1.5638062,0.0001772972,9.209255e-05,8.053613e-05,2.5582294e-05,1.8681047e-05,6.1125106e-06,2.303093,0.19500256,4.019162,1.937973e-07,2.3884422e-07,1.6096138e-07,7.6637654e-08,5.081628e-08,6.757621e-08,1.0
5,5,1024068.44,1194.9421,948.76544,1525.7925,-38.449028,7.5615005724539515,-0.016448537,-9.467086e-05,0.00016380694,6.3337226e-05,1.0,40,0.02117208,1.3876121e-05,0,-1.2803516476047762e-07,0.65448195,0.04755202,1.5428834,0.0001111284,4.5125507e-05,5.2945114e-05,2.9125029e-05,3.1602154e-05,9.118265e-06,1.8367077,0.15027618,3.5950184,1.111741e-07,5.9888784e-08,1.3739977e-07,4.3725215e-08,1.0687032e-07,6.137706e-08,1.0
6,6,697233.1,1512.5665,899.53076,1759.8333,-30.740158,8.375496637803735,-0.01643481,-0.00010309559,0.0002537617,6.6300236e-05,1.0,40,0.021008264,1.1937645e-05,0,-1.3937918959135864e-07,0.357413,0.04766276,1.5585179,6.3634274e-05,2.0952735e-05,2.1169346e-05,1.6156222e-05,1.6615026e-05,1.1899693e-05,0.8314924,0.07844979,2.9473107,6.0207235e-08,2.1002645e-08,4.01069e-08,3.735708e-08,2.8747914e-08,3.4872564e-08,1.0
7,7,474706.8,1784.0457,775.8527,1945.4476,-23.503447,9.189491103141336,-0.016444359,-9.500635e-05,0.00043213097,6.8728186e-05,1.0,40,0.020983636,1.078602e-05,0,-1.6539683285903568e-07,0.27582186,0.04570649,1.5514215,5.2415853e-05,1.5985595e-05,1.1587144e-05,1.0629405e-05,4.865268e-06,7.20863e-06,0.7187046,0.06735272,2.5764363,3.3248572e-08,3.236569e-08,2.4117979e-08,3.1794205e-08,2.4390365e-08,3.7341714e-08,1.0
8,8,323198.12,1973.7389,616.67426,2067.8328,-17.350872,10.003484688437311,-0.016441282,-9.4913084e-05,0.00079853775,7.101928e-05,1.0,40,0.021106025,1.0206833e-05,0,-1.7846148277264244e-07,0.21055995,0.063920975,1.5335479,3.5470843e-05,1.4691619e-05,1.4391533e-05,1.3760694e-05,5.0501694e-06,7.59883e-06,0.4845402,0.10819539,2.3654222,1.6949443e-08,1.8216543e-08,1.2281573e-08,2.24441e-08,2.3447663e-08,1.9129558e-08,1.0
9,9,220049.0,2095.6013,463.3527,2146.2153,-12.467917,10.81747654042556,-0.016433373,-0.00010098933,0.0015609502,7.27555e-05,1.0,40,0.0211815,9.8692335e-06,0,-2.2527586036908866e-07,0.14576764,0.07513426,1.5524858,2.4319534e-05,1.2274527e-05,7.1095305e-06,7.3204133e-06,4.1972967e-06,5.416302e-06,0.37107736,0.0763497,2.206463,1.09749685e-08,1.4972215e-08,6.3936594e-09,1.581805e-08,1.2972245e-08,2.0263244e-08,1.0
10,10,149820.0,2163.7266,337.24228,2189.8503,-8.858945,11.631497219117591,-0.016429905,-9.806303e-05,0.003149984,7.470738e-05,1.0,40,0.020964518,9.573493e-06,0,-2.389128549357843e-07,0.1714498,0.062146805,1.5402061,2.6306197e-05,1.350536e-05,1.1616854e-05,8.523287e-06,1.0095478e-05,7.965302e-06,0.21570176,0.092569575,2.1569185,7.286825e-09,9.0722665e-09,7.2456654e-09,8.12348e-10,5.9942478e-09,1.2696931e-08,1.0
11,11,101998.59,2200.8835,239.70793,2213.899,-6.215835,12.445492884406121,-0.016431862,-9.988963e-05,0.0065094386,7.631199e-05,1.0,40,0.020874487,9.428834e-06,0,-2.7160595669382325e-07,0.111198574,0.04273269,1.5659468,1.4835203e-05,1.2114248e-05,4.4546996e-06,7.654259e-06,4.4434582e-06,6.038305e-06,0.1835046,0.08345023,2.1084116,4.346569e-09,7.917163e-09,2.8271792e-09,3.5475578e-09,1.0105899e-08,8.712125e-09,1.0
12,12,69449.59,2219.0918,171.49724,2225.7087,-4.4191847,13.259490149765043,-0.01643354,-0.00010421384,0.013362671,7.933611e-05,1.0,40,0.0205992,9.255119e-06,0,-2.9800197213681816e-07,0.1145128,0.05262036,1.5768708,9.76295e-06,1.2968317e-05,4.9606324e-06,8.5312e-06,5.3038693e-06,1.1639495e-05,0.15144119,0.07275269,2.1511455,4.797099e-09,5.7650786e-09,5.6351857e-09,6.3510135e-09,6.80823e-09,3.4940728e-09,1.0
13,13,47283.254,2227.7666,122.438774,2231.1287,-3.1458297,14.073491361777997,-0.016442904,-0.00010203311,0.027491206,8.279089e-05,1.0,40,0.02037782,9.133413e-06,0,-3.1414310193824554e-07,0.12469595,0.05464373,1.5918183,9.679925e-06,1.004287e-05,9.186416e-06,1.437887e-05,3.509498e-06,9.957148e-06,0.12627733,0.0616531,2.1298025,2.7610054e-09,6.149364e-09,2.8371077e-09,6.7836012e-09,4.0107087e-09,3.3429666e-09,1.0
14,14,32196.41,2233.283,92.00811,2235.1775,-2.3591712,14.752490647340892,-0.016432405,-0.00010475433,0.053726252,9.103633e-05,1.0,40,0.021803444,9.754682e-06,0,-3.2642267487184047e-07,0.12527227,0.04637454,1.4752084,8.080666e-06,1.6099133e-05,5.130893e-06,1.5922611e-05,7.363493e-06,7.404766e-06,0.16916224,0.07649691,2.0036924,5.919231e-09,1.028176e-08,5.738793e-09,5.5415668e-09,4.2186072e-09,6.4081256e-09,1.0
15,15,21915.822,2236.0815,74.6753,2237.3281,-1.9127166,15.566484979324741,-0.01643384,-0.00010059792,0.09724906,0.000108337794,1.0,40,0.02018712,9.02287e-06,0,-3.6216697304123753e-07,0.14036278,0.0818665,1.5944587,9.884459e-06,1.6618682e-05,8.923333e-06,1.4728973e-05,5.7573743e-06,7.817885e-06,0.10307951,0.07258767,2.1944966,3.2184515e-09,3.689865e-09,2.410478e-09,6.4042114e-09,1.5658522e-09,3.149475e-09,1.0
16,16,14919.832,2238.5938,67.32318,2239.606,-1.7225868,16.245483624952612,-0.01643742,-0.000101660335,0.15844975,0.00014317843,1.0,40,0.019961622,8.913006e-06,0,-3.7885171700807203e-07,0.17490406,0.041882336,1.6337897,9.130676e-06,2.2240778e-05,1.4063596e-05,1.6556023e-05,7.799008e-06,6.5506483e-06,0.1320186,0.070679635,2.1675954,2.784859e-09,5.517084e-09,3.175351e-09,3.4282333e-09,7.3480932e-09,4.1479957e-09,1.0
17,17,10159.962,2240.7588,67.69689,2241.7812,-1.7304704,16.924479257169878,-0.016440928,-0.00010013197,0.23139785,0.00021101354,1.0,40,0.018991169,8.471464e-06,0,-4.048926641151209e-07,0.15889047,0.05142447,1.7262381,4.679919e-06,1.7359347e-05,1.18556e-05,1.1951377e-05,1.3343027e-05,9.707843e-06,0.1641736,0.070256285,2.3483975,3.3728031e-09,5.8392216e-09,3.1213183e-09,6.264957e-09,7.2259687e-09,5.0924953e-09,1.0
18,18,6916.754,2243.027,76.20585,2244.3213,-1.9458503,17.64620915814885,-0.016402692,-9.893905e-05,0.30194616,0.00034812567,1.0,40,0.021523831,9.590352e-06,0,-4.2016424313571105e-07,0.1940804,0.046919473,1.5360814,1.1559676e-05,2.7134107e-05,6.256605e-06,2.602565e-05,7.723762e-06,5.7101543e-06,0.1372531,0.0533506,2.0237257,4.574384e-09,6.234109e-09,4.6176343e-09,7.1615083e-09,2.4839077e-09,2.1617677e-09,1.0
19,19,4708.491,2246.5693,94.16545,2248.542,-2.4001603,18.41083460781374,-0.016400006,-0.00010029968,0.3589606,0.0006295467,1.0,40,0.021558283,9.587672e-06,0,-4.4001760381145987e-07,0.16654159,0.07092819,1.5204484,3.7347404e-06,2.2813656e-05,8.91391e-06,2.4240166e-05,5.2061237e-06,5.668312e-06,0.12467246,0.10550194,2.02926,3.2413514e-09,4.9672195e-09,5.1133315e-09,6.294924e-09,3.0888156e-09,3.1570448e-09,1.0
20,20,3206.0295,2252.6284,125.670296,2256.131,-3.1931238,19.152698376390617,-0.016392153,-0.00010354283,0.3950208,0.001225622,1.0,40,0.021574624,9.562664e-06,0,-4.531310447713016e-07,0.17236258,0.12616418,1.5147424,6.4618803e-06,2.425824e-05,7.890672e-06,2.1453603e-05,7.765264e-06,1.0268904e-05,0.1541293,0.115545385,2.0817375,2.9212264e-09,7.625744e-09,5.074002e-09,1.0086952e-08,2.5615954e-09,2.5226412e-09,1.0
21,21,2182.901,2262.09,172.6658,2268.6704,-4.3649344,19.89694262505509,-0.01639719,-0.000103020946,0.42225987,0.0024459616,1.0,40,0.021577984,9.511291e-06,0,-4.677130662664947e-07,0.17979586,0.10803855,1.5067291,8.143873e-06,2.452699e-05,3.2589078e-06,2.3086275e-05,1.2206759e-05,7.912753e-06,0.12386816,0.122503005,2.0778577,4.584415e-09,3.8758063e-09,4.5486033e-09,6.171694e-09,4.0636334e-09,3.9336343e-09,1.0
22,22,1486.4281,2276.918,237.05458,2289.2249,-5.9437666,20.63955220693606,-0.01639081,-0.000108034794,0.45167693,0.0048433705,1.0,40,0.021580484,9.426983e-06,0,-4.81892145177628e-07,0.16098687,0.03935897,1.5287635,5.11755e-06,2.5525133e-05,2.1855255e-06,2.0396732e-05,7.358976e-06,5.145832e-06,0.13947456,0.07537467,2.0819519,3.7053698e-09,6.9205406e-09,4.6166537e-09,6.2753784e-09,5.1925793e-09,2.796203e-09,1.0
23,23,1012.2657,2301.9226,328.99786,2325.3145,-8.133804,21.382331842236454,-0.016400285,-0.000104288396,0.47789508,0.009566549,1.0,40,0.021580143,9.280527e-06,0,-5.093716913363298e-07,0.17620836,0.04701236,1.5330453,4.992661e-06,2.0586316e-05,6.237788e-06,2.3661138e-05,8.263191e-06,1.524213e-05,0.138761,0.110054955,2.049961,3.2507446e-09,6.3417733e-09,3.0132368e-09,8.124723e-09,4.1201216e-09,2.6992577e-09,1.0
24,24,688.8978,2342.5918,453.39774,2386.065,-10.953895,22.127100090991007,-0.016372737,-8.786761e-05,0.509549,0.018398404,1.0,40,0.021589596,9.048201e-06,0,-5.195364173847944e-07,0.14237057,0.03492938,1.5047313,5.130302e-06,2.1601692e-05,4.5884817e-06,1.851947e-05,3.0208773e-06,8.244268e-06,0.16421595,0.06436696,2.1678867,3.3310992e-09,6.0667573e-09,8.001746e-09,7.3767734e-09,5.157198e-09,3.3399028e-09,1.0
25,25,468.94922,2399.5554,617.7583,2477.7998,-14.437116,22.87218652633601,-0.016363764,-7.8044955e-05,0.54938364,0.034149196,1.0,40,0.021588413,8.712735e-06,0,-5.44323811127509e-07,0.17797625,0.03524715,1.5323732,6.973726e-06,2.6981208e-05,5.8298947e-06,2.138417e-05,1.1038514e-05,6.4461947e-06,0.15315135,0.055912014,2.2785528,4.585301e-09,5.257459e-09,5.411549e-09,6.8885444e-09,2.1036208e-09,4.692486e-09,1.0
26,26,319.28494,2475.0776,837.6389,2612.9768,-18.697329,23.617219681764254,-0.016353581,-8.680522e-05,0.595093,0.06115436,1.0,40,0.021582756,8.259834e-06,0,-5.531366522605165e-07,0.21856245,0.04817753,1.5213335,4.552275e-06,2.626459e-05,1.5556616e-05,3.240032e-05,1.0474105e-05,1.0239174e-05,0.19417584,0.05113023,2.3549094,3.4073093e-09,9.869529e-09,7.822456e-09,4.9526627e-09,4.9064512e-09,4.906269e-09,1.0
27,27,217.43552,2578.7205,1127.8237,2814.5667,-23.622543,24.608499728812603,-0.016381428,-1.2753977e-05,0.6490056,0.10420962,1.0,41,0.021631494,7.68555e-06,0,-5.581956825498462e-07,0.18841605,0.034773543,1.4774663,2.1752248e-06,2.5925372e-05,6.184185e-06,2.5732064e-05,1.4437616e-05,7.996499e-06,0.12486383,0.010950533,0.3940956,7.419394e-10,7.0496498e-09,6.4581224e-10,6.377198e-09,5.9189537e-10,3.540871e-10,1.0
28,28,148.05719,2703.1416,1516.4492,3099.4504,-29.292212,25.358383097773185,-0.016354028,-7.725897e-06,0.70886374,0.16968721,1.0,41,0.021613173,6.9732278e-06,0,-5.608692600454061e-07,0.14453804,0.04480854,1.4945006,9.626428e-06,1.7063545e-05,7.920022e-06,1.8631838e-05,8.931824e-06,8.730985e-06,0.13937035,0.013419726,0.43548355,6.312006e-10,6.808054e-09,9.329357e-10,6.753722e-09,7.257498e-10,5.403926e-10,1.0
29,29,100.80636,2852.326,2049.9658,3512.5664,-35.70479,26.098163959599333,-0.016394597,-9.243495e-06,0.77016824,0.262319,1.0,41,0.021598665,6.14897e-06,0,-5.680098871680962e-07,0.17303962,0.04327229,1.4962288,7.9448055e-06,2.077004e-05,1.4078444e-05,2.5451513e-05,4.0632303e-06,3.1593406e-06,0.16449252,0.016887626,0.49726322,4.684438e-10,7.196764e-09,1.3557035e-09,6.8983064e-09,6.523315e-10,5.2203397e-10,1.0
30,30,68.616714,3030.467,2796.0881,4123.3286,-42.69646,26.836816608032677,-0.016371692,-8.072726e-06,0.8295439,0.38145664,1.0,41,0.021591,5.2363034e-06,0,-5.704259787971751e-07,0.17499295,0.028791372,1.4972844,3.3547421e-06,1.9248711e-05,8.275687e-06,2.578232e-05,1.2745075e-05,9.081623e-06,0.1838164,0.014778788,0.58460385,7.2183814e-10,7.1682043e-09,6.0160527e-10,6.2609287e-09,8.352799e-10,4.1853834e-10,1.0
31,31,46.71924,3243.862,3850.4612,5034.7485,-49.88718,27.54041282806429,-0.01637322,-6.9560147e-06,0.8847318,0.5174657,1.0,41,0.021584593,4.2871243e-06,0,-5.752167800329113e-07,0.15768388,0.052245267,1.4572109,8.996492e-06,1.7089942e-05,3.7079042e-06,2.2888999e-05,4.901953e-06,1.1315248e-05,0.1852567,0.01869856,0.71772504,3.6616188e-10,5.1678026e-09,8.1901536e-10,5.9119896e-09,5.547718e-10,3.9703943e-10,1.0
32,32,31.801239,3514.049,5355.7773,6405.692,-56.730194,28.240443128015613,-0.01636121,-7.677525e-06,0.93444467,0.6532306,1.0,41,0.021583216,3.369381e-06,0,-5.737002526815615e-07,0.18279105,0.05009992,1.4770162,7.263426e-06,2.6894137e-05,5.053282e-06,2.4743838e-05,8.68265e-06,4.7888448e-06,0.22988515,0.04868047,0.9175145,1.0425697e-09,5.6790377e-09,1.2130947e-09,4.9430575e-09,5.074354e-10,4.144709e-10,1.0
33,33,21.656305,3871.4514,7504.7627,8444.501,-62.71233,28.934471427608514,-0.016362758,-6.072386e-06,0.97926176,0.7734367,1.0,41,0.02158402,2.5559852e-06,0,-5.735086710708906e-07,0.18166047,0.039587002,1.4898365,7.980759e-06,2.4665074e-05,2.6291561e-06,2.3611732e-05,3.6878646e-06,1.653961e-05,0.25678155,0.040838774,1.1966918,8.980852e-10,4.5022395e-09,4.6084692e-10,4.4326183e-09,6.346223e-10,1.0430058e-09,1.0
34,34,14.74984,4375.889,10561.258,11431.91,-67.4941,29.662142155546462,-0.016354924,-6.894561e-06,1.0216854,0.8719887,1.0,41,0.021577764,1.887503e-06,0,-5.667367348584284e-07,0.1728128,0.032065872,1.4884005,4.1034746e-06,2.758115e-05,5.876344e-06,1.9836818e-05,7.74414e-06,7.055952e-06,0.32407737,0.09677654,1.6397831,1.2754316e-09,4.158978e-09,7.2003414e-10,4.197196e-09,3.1063574e-10,4.102704e-10,1.0
35,35,10.041743,5098.307,14920.225,15767.239,-71.134476,30.6429329488019,-0.016369399,-1.0830045e-06,1.0622718,0.95120704,1.0,42,0.0215868,1.3690919e-06,0,-5.686525148722986e-07,0.1788532,0.053031053,1.493499,9.111039e-06,1.87067e-05,7.7140585e-06,2.7759303e-05,8.697007e-06,9.741854e-06,0.3326041,0.024883015,0.62705034,4.78442e-10,2.9571865e-09,2.6797103e-10,3.3816219e-09,3.3148626e-10,3.3815495e-10,1.0
36,36,6.8350806,6155.5264,21076.598,21957.082,-73.71929,31.550396378530422,-0.016369818,-1.6933737e-06,1.1047804,1.017953,1.0,42,0.021579035,9.827825e-07,0,-5.680255432232625e-07,0.15400171,0.03198075,1.0430831,2.464632e-06,2.4689978e-05,4.1784024e-06,1.9971705e-05,4.171065e-06,6.576752e-06,0.42819473,0.24090414,0.93270516,1.4028466e-09,2.3938618e-09,6.685131e-10,2.828074e-09,6.6124306e-10,7.132849e-10,1.0
37,37,4.6544523,7772.8037,29744.037,30742.873,-75.3548,32.70161861993802,-0.016369447,-3.4802272e-07,1.1496129,1.0761245,1.0,42,0.021581996,7.020162e-07,0,-5.792749878274905e-07,0.14938253,0.026817255,0.858187,2.8755835e-06,1.9872907e-05,2.6612743e-06,2.3680666e-05,3.1367447e-06,7.0727524e-06,0.4403741,0.19529882,1.1045324,8.661055e-10,1.9898394e-09,3.8486386e-10,2.0635376e-09,4.1083528e-10,3.155358e-10,1.0
38,38,3.1693728,10192.569,41918.027,43139.418,-76.33347,34.255059760354925,-0.0163627,-9.4900145e-07,1.19797,1.1310949,1.0,42,0.021576492,5.001572e-07,0,-5.774728441443797e-07,0.1523061,0.027602613,0.6619193,4.893551e-06,2.3584555e-05,2.557097e-06,2.0765423e-05,3.1685256e-06,6.901802e-06,0.37889418,0.14690065,1.3775076,3.6315276e-10,1.2077154e-09,2.0103785e-10,1.349663e-09,1.6437161e-10,1.6979342e-10,1.0
39,39,2.1581502,13741.673,58816.934,60400.87,-76.84961,37.38396326897782,-0.016363496,3.0371417e-08,1.2538226,1.1889249,1.0,43,0.021576172,3.5721624e-07,0,-5.684292113916314e-07,0.15249565,0.024400495,0.5264866,2.5519003e-06,2.3929957e-05,2.7860685e-06,2.0941832e-05,4.446612e-06,6.0015386e-06,0.4321389,0.055562384,1.0692408,2.2399807e-10,1.0045446e-09,1.7317522e-10,1.1220188e-09,1.4395127e-10,5.527034e-11,1.0
40,40,1.4679656,19018.43,82465.64,84630.27,-77.01337,40.423915653373115,-0.016370118,-1.1756231e-07,1.3147137,1.2483196,1.0,43,0.02157406,2.549213e-07,0,-5.801137858147875e-07,0.14440027,0.026925486,0.42463943,1.8940241e-06,2.261533e-05,3.108235e-06,2.0348416e-05,2.9128335e-06,4.6073114e-06,0.41375247,0.15354896,1.3539963,2.575915e-10,6.97995e-10,4.6871625e-11,7.3645484e-10,7.42835e-11,6.857028e-11,1.0
41,41,1.0000616,26711.72,114942.08,118005.07,-76.91709,44.7665501262818,-0.016367463,-9.001048e-08,1.3845681,1.313624,1.0,43,0.02157367,1.8281986e-07,0,-5.666054367205977e-07,0.1529594,0.037857592,0.36089677,1.0091339e-06,2.3293043e-05,3.4577774e-06,2.203188e-05,2.9896642e-06,6.216184e-06,0.46292555,0.20171537,1.7934273,1.863922e-10,5.5320354e-10,1.00401534e-10,5.938848e-10,7.0911006e-11,5.4138923e-11,1.0
