True,index,freq,Re(Z),Im(Z),Z,Phase(Z),time,Ewe_meas,I_meas,Cs,Cp,cycle_number,I_Range,Ewe,I,Ns,(QQo),cycle
110,110,7000018.5,152.06767,1235.4735,1244.7969,-82.98307,83.17048040367081,-0.037285343,-2.1137126e-07,1.8402952e-05,1.8128314e-05,2.0,40,0.009500411,7.632098e-06,0,2.0571602888007216e-08,2.0
111,111,6057573.0,217.72392,1425.7103,1442.2391,-81.3173,83.7224831499334,-0.037260357,-1.9375037e-05,1.8428509e-05,1.8008528e-05,2.0,40,0.013201363,9.15338e-06,0,1.502574705802504e-08,2.0
112,112,5242039.0,215.70734,1644.2722,1658.3608,-82.526215,84.138481143018,-0.03723988,-1.2044492e-05,1.8464867e-05,1.8152463e-05,2.0,40,0.018209409,1.0980366e-05,0,1.1743252412110827e-08,2.0
113,113,4536288.0,172.01073,1920.1099,1927.7992,-84.88089,85.77848799424828,-0.037252568,-2.0063404e-05,1.8272309e-05,1.8126835e-05,2.0,40,0.019661989,1.0199189e-05,0,-9.83657439798829e-10,2.0
114,114,3925558.5,244.53488,2208.4976,2221.9944,-83.68169,86.19448710730649,-0.03728594,-1.2788703e-05,1.8357847e-05,1.8135506e-05,2.0,40,0.018280046,8.226864e-06,0,-3.1949578525237103e-09,2.0
115,115,3397055.0,272.28088,2520.8633,2535.5254,-83.83533,86.6104900870996,-0.037287988,-1.3551522e-05,1.8585244e-05,1.837092e-05,2.0,40,0.019383725,7.644855e-06,0,-4.224429305389046e-09,2.0
116,116,2939708.2,342.76456,2870.2012,2890.5955,-83.18989,87.02649210681557,-0.037291545,-2.2072787e-05,1.8862687e-05,1.8597459e-05,2.0,40,0.021361828,7.3901133e-06,0,-4.778973981192042e-09,2.0
117,117,2543924.5,362.96017,3310.9766,3330.8115,-83.744026,87.5784963463957,-0.037295196,-2.7598586e-05,1.8895562e-05,1.8671186e-05,2.0,40,0.020635134,6.195227e-06,0,-6.4475223040225925e-09,2.0
118,118,2201436.2,429.91443,3800.3542,3824.594,-83.54586,88.13048413259094,-0.03732033,-6.2582044e-06,1.9023479e-05,1.8783106e-05,2.0,40,0.020837283,5.448234e-06,0,-1.2145083438168768e-08,2.0
119,119,1905053.1,449.29718,4352.257,4375.3867,-84.10606,88.6825041588454,-0.03732652,-1.23607715e-05,1.919546e-05,1.8993047e-05,2.0,40,0.020678572,4.7261133e-06,0,-1.7688723306059e-08,2.0
120,120,1648567.4,530.97626,5048.2334,5076.0806,-83.995674,89.23449031836935,-0.037315413,-1.6677226e-05,1.9123792e-05,1.8914543e-05,2.0,40,0.019903468,3.921031e-06,0,-1.885034654073545e-08,2.0
121,121,1426616.2,481.7219,5935.4053,5954.922,-85.36,89.95349189921399,-0.037313998,-2.2203926e-06,1.8795878e-05,1.8672876e-05,2.0,41,0.019468322,3.2692826e-06,0,-1.4024980390875877e-08,2.0
122,122,1234551.2,573.138,6819.135,6843.178,-85.19567,90.50549928544206,-0.037332386,6.026855e-07,1.8905219e-05,1.8772605e-05,2.0,41,0.020478636,2.992562e-06,0,-1.3878663072483001e-08,2.0
123,123,1068345.5,707.8418,7840.5303,7872.4175,-84.84133,91.05749624499003,-0.037305053,9.2111856e-07,1.900041e-05,1.88468e-05,2.0,41,0.020830862,2.6460566e-06,0,-1.4734768326472074e-08,2.0
124,124,924510.06,924.932,9071.415,9118.446,-84.17818,91.60950691116159,-0.037306245,1.9486778e-07,1.8977258e-05,1.8782e-05,2.0,41,0.020088803,2.203095e-06,0,-1.4808655551187538e-08,2.0
125,125,800039.0,1191.9642,10216.413,10285.712,-83.3453,92.16150632404606,-0.037321616,1.7516509e-06,1.9471998e-05,1.9210502e-05,2.0,41,0.020873688,2.029387e-06,0,-1.5088516316134085e-08,2.0
126,126,692334.1,1421.3914,11970.8955,12054.986,-83.22856,92.71350651027751,-0.037325513,1.9080728e-06,1.9203384e-05,1.8936407e-05,2.0,41,0.020251613,1.6799366e-06,0,-1.4583180067252874e-08,2.0
127,127,599122.25,1833.0267,13764.913,13886.426,-82.41474,93.26550725652487,-0.037292775,2.2838762e-07,1.9298841e-05,1.8962572e-05,2.0,41,0.020641755,1.48647e-06,0,-1.541222190717099e-08,2.0
128,128,518454.94,2309.4985,15717.618,15886.388,-81.64095,93.81750648273737,-0.037337307,3.137112e-06,1.9530906e-05,1.9118135e-05,2.0,41,0.02045793,1.2877648e-06,0,-1.5667984277696433e-08,2.0
129,129,448662.03,2977.8,18014.836,18259.29,-80.614044,94.3695044023043,-0.037308164,3.51291e-07,1.9691122e-05,1.9167408e-05,2.0,41,0.02038952,1.1166655e-06,0,-1.4822870783013365e-08,2.0
130,130,388258.97,3856.2192,20578.078,20936.277,-79.386185,94.92149370847619,-0.03731221,1.5598457e-06,1.9920206e-05,1.9244408e-05,2.0,41,0.020762727,9.917105e-07,0,-1.5022569446958517e-08,2.0
131,131,335983.9,4938.2197,23634.639,24145.023,-78.1984,95.47348664139281,-0.03729697,8.6711435e-07,2.0042535e-05,1.920416e-05,2.0,41,0.020460138,8.473853e-07,0,-1.4751394894834766e-08,2.0
132,132,290751.2,6203.0244,26691.756,27403.053,-76.916985,96.02549752095365,-0.0373333,2.7646756e-06,2.0507914e-05,1.945709e-05,2.0,41,0.020572957,7.5075417e-07,0,-1.4651488641743901e-08,2.0
133,133,251605.19,8022.0913,30215.455,31262.24,-75.13121,96.57748597380123,-0.0373025,2.0104924e-06,2.0934924e-05,1.9556426e-05,2.0,41,0.020382514,6.519851e-07,0,-1.3450275271202904e-08,2.0
134,134,217729.38,10232.053,34318.703,35811.566,-73.398155,97.12950621338678,-0.037340734,2.7255687e-06,2.1299638e-05,1.9560834e-05,2.0,41,0.020295342,5.6672593e-07,0,-1.2795093081826359e-08,2.0
135,135,188418.58,12710.588,38296.797,40351.008,-71.63915,97.68149570628884,-0.037300285,3.1032246e-07,2.2056365e-05,1.9867814e-05,2.0,41,0.020690735,5.1276874e-07,0,-1.2882993824256752e-08,2.0
136,136,163051.14,16143.634,42752.344,45698.793,-69.31306,98.23350381248747,-0.03734968,3.7274206e-06,2.2831602e-05,1.9982359e-05,2.0,41,0.020354655,4.4540903e-07,0,-1.2509614649653204e-08,2.0
137,137,141098.2,20351.906,47542.887,51715.82,-66.825455,98.78550853204797,-0.03733,2.9639264e-06,2.3725375e-05,2.005106e-05,2.0,41,0.020296052,3.9245344e-07,0,-1.2141140617752338e-08,2.0
138,138,122105.11,23938.043,54260.1,59305.89,-66.19427,99.50449696616852,-0.037328623,9.658321e-07,2.4021809e-05,2.010811e-05,2.0,42,0.01879707,3.1695114e-07,0,-1.2513716966549855e-08,2.0
139,139,105663.59,28787.922,58941.164,65595.77,-63.96829,99.92050298591494,-0.037306655,8.881657e-07,2.5555011e-05,2.063297e-05,2.0,42,0.020048006,3.0562953e-07,0,-1.242421320959814e-08,2.0
140,140,91439.65,35556.54,64419.188,73580.56,-61.10325,100.33650369904353,-0.03732773,9.729099e-07,2.7019065e-05,2.0709738e-05,2.0,42,0.021256445,2.888867e-07,0,-1.2314908211759068e-08,2.0
141,141,79127.08,43734.938,69447.03,82070.914,-57.79893,100.88850676527363,-0.03730807,8.5966917e-07,2.896285e-05,2.0738156e-05,2.0,42,0.020282377,2.4713233e-07,0,-1.2191925464612218e-08,2.0
142,142,68475.36,51964.645,73549.66,90054.85,-54.75785,101.30450601168559,-0.037313607,1.1185584e-06,3.1601317e-05,2.1079108e-05,2.0,42,0.0210908,2.3419948e-07,0,-1.2050234651307612e-08,2.0
143,143,59252.523,61661.668,77240.24,98834.29,-51.39928,101.72050245807623,-0.037302893,8.136653e-07,3.47752e-05,2.123937e-05,2.0,42,0.021832593,2.2090099e-07,0,-1.1970956441232496e-08,2.0
144,144,51282.285,71416.31,81024.98,108006.19,-48.606693,102.27248384433915,-0.037337717,1.2182027e-06,3.8303097e-05,2.155631e-05,2.0,42,0.020241514,1.8741069e-07,0,-1.1742977101948603e-08,2.0
145,145,44369.8,83648.74,80720.31,116244.914,-43.979317,102.6884965574427,-0.03731085,8.7028565e-07,4.4437522e-05,2.1427306e-05,2.0,42,0.02061586,1.773485e-07,0,-1.1601569569442817e-08,2.0
146,146,38403.727,94414.21,80365.67,123986.63,-40.404533,103.10449337717728,-0.037306245,8.1739034e-07,5.1567513e-05,2.1665444e-05,2.0,42,0.020911284,1.6865756e-07,0,-1.1513061855640494e-08,2.0
147,147,33226.32,105351.28,78900.98,131621.64,-36.830727,103.52049150361563,-0.037318636,9.604312e-07,6.0709343e-05,2.1815526e-05,2.0,42,0.021149822,1.6068651e-07,0,-1.145719836124442e-08,2.0
148,148,28754.086,115836.56,75732.305,138396.14,-33.17609,103.93648723003571,-0.037299763,8.211154e-07,7.308687e-05,2.1885364e-05,2.0,42,0.02126666,1.5366513e-07,0,-1.1295782158428105e-08,2.0
149,149,24884.947,124997.21,71841.64,144171.86,-29.887962,104.35250879646628,-0.037300825,7.732489e-07,8.902401e-05,2.2105414e-05,2.0,42,0.021312065,1.4782403e-07,0,-1.121204402217963e-08,2.0
150,150,21553.963,133864.31,67283.82,149822.45,-26.685339,104.76950361623312,-0.037322473,7.406551e-07,0.00010974439,2.2133487e-05,2.0,42,0.021313632,1.4225927e-07,0,-1.1095739880439067e-08,2.0
151,151,18631.234,140361.84,62217.27,153533.17,-23.905958,105.18549158269889,-0.037338164,9.136825e-07,0.00013729907,2.2546805e-05,2.0,42,0.021231204,1.3828415e-07,0,-1.0999121721879273e-08,2.0
152,152,16126.037,146895.81,57219.18,157646.48,-21.282017,105.60149938912946,-0.03731504,8.3247716e-07,0.0001724848,2.2722992e-05,2.0,42,0.021044968,1.3349468e-07,0,-1.0818929204806032e-08,2.0
153,153,13954.87,151138.17,51326.016,159615.5,-18.757315,106.01750010219985,-0.037313364,6.810551e-07,0.00022220652,2.2976388e-05,2.0,42,0.020757746,1.3004843e-07,0,-1.0676214310168458e-08,2.0
154,154,12080.609,155837.48,46474.22,162619.72,-16.605755,106.43348454861552,-0.037316438,6.844078e-07,0.0002834779,2.315245e-05,2.0,42,0.020400276,1.2544774e-07,0,-1.0513569875447024e-08,2.0
155,155,10447.592,159797.3,41273.438,165041.42,-14.482203,106.84949030171265,-0.03731601,6.411977e-07,0.00036909088,2.3082808e-05,2.0,42,0.019923326,1.2071712e-07,0,-1.0379298502667241e-08,2.0
156,156,9045.586,161993.95,37100.312,166188.06,-12.899578,107.42226040890091,-0.037306357,7.3059846e-07,0.00047424834,2.3635312e-05,2.0,42,0.020239139,1.2178455e-07,0,-1.0203434205982119e-08,2.0
157,157,7827.7437,164379.45,32393.549,167540.88,-11.148185,107.9029314184445,-0.03729848,8.1813675e-07,0.0006276608,2.3463917e-05,2.0,42,0.020291321,1.2111266e-07,0,-1.0071099435180721e-08,2.0
158,158,6770.8345,165899.19,28805.57,168381.42,-9.850231,108.44140352398972,-0.0373055,1.0567245e-06,0.0008160213,2.3881747e-05,2.0,42,0.020346262,1.2083436e-07,0,-9.84222781594774e-09,2.0
159,159,5860.798,167580.12,26202.12,169616.19,-8.886575,109.04800123284804,-0.037316047,9.511204e-07,0.0010363989,2.4732339e-05,2.0,42,0.02040352,1.2029228e-07,0,-9.591636874939012e-09,2.0
160,160,5071.625,168712.69,22929.447,170263.7,-7.7395496,109.72868678518716,-0.037348576,1.0066232e-06,0.0013686091,2.4821182e-05,2.0,42,0.020433068,1.2000837e-07,0,-9.332993334846544e-09,2.0
161,161,4388.5933,169143.7,20176.562,170342.84,-6.802471,110.40882884415623,-0.037332572,1.1120413e-06,0.001797412,2.5217045e-05,2.0,42,0.020425342,1.1990726e-07,0,-9.207954758963311e-09,2.0
162,162,3798.7827,170143.75,18323.717,171127.6,-6.146807,111.08882676978828,-0.037285045,8.58181e-07,0.002286452,2.6214959e-05,2.0,42,0.020475455,1.1965022e-07,0,-9.103130767458426e-09,2.0
163,163,3286.0488,170776.64,16393.037,171561.62,-5.483085,111.76868026875309,-0.037325326,1.0861525e-06,0.0029545184,2.6975235e-05,2.0,42,0.020489033,1.1942667e-07,0,-9.027641977368618e-09,2.0
164,164,2844.088,171384.03,14979.211,172037.39,-4.9950404,112.44882486104325,-0.03730701,9.0083256e-07,0.003735839,2.8321767e-05,2.0,42,0.020508671,1.1921054e-07,0,-8.822820453379935e-09,2.0
165,165,2460.7852,171734.56,13651.567,172276.31,-4.5450134,113.12871332001669,-0.037327133,9.749605e-07,0.0047376603,2.9749373e-05,2.0,42,0.020519262,1.19106694e-07,0,-8.737571440279683e-09,2.0
166,166,2129.3164,172251.08,12549.883,172707.66,-4.1670976,113.8088509523077,-0.037313625,9.878119e-07,0.005955802,3.1448246e-05,2.0,42,0.020519244,1.1880911e-07,0,-8.489146905125465e-09,2.0
167,167,1843.2289,172667.28,11584.051,173055.42,-3.838157,114.48893869126914,-0.037305705,9.710493e-07,0.007453846,3.3398803e-05,2.0,42,0.02054235,1.1870387e-07,0,-8.379682861540733e-09,2.0
168,168,1594.4913,172938.23,11086.39,173293.22,-3.6679878,115.16884453690727,-0.03730457,9.596879e-07,0.009003427,3.6848938e-05,2.0,42,0.020542867,1.1854397e-07,0,-8.302393221954733e-09,2.0
169,169,1380.4436,173284.97,10464.252,173600.64,-3.4557543,115.84868267587444,-0.037331287,1.0373547e-06,0.011017759,4.0031973e-05,2.0,42,0.020552982,1.18392315e-07,0,-8.145942429626728e-09,2.0
170,170,1194.6187,173473.62,10214.526,173774.1,-3.3698163,116.52884878817713,-0.03729272,9.4758167e-07,0.013042853,4.5064964e-05,2.0,42,0.020541728,1.1820938e-07,0,-8.045451921360069e-09,2.0
171,171,1033.3434,174087.4,10184.326,174385.05,-3.3480573,117.20906242047204,-0.037328474,9.481403e-07,0.015123182,5.1580944e-05,2.0,42,0.020564847,1.1792781e-07,0,-7.923605620276497e-09,2.0
172,172,894.71045,174502.86,10094.347,174794.58,-3.3106601,117.88881010610203,-0.037298236,8.008157e-07,0.017622171,5.8770576e-05,2.0,42,0.020563543,1.17644056e-07,0,-7.63665371646728e-09,2.0
173,173,774.2569,174725.12,10109.459,175017.34,-3.311397,118.56895213839016,-0.037276547,8.2707714e-07,0.020333268,6.784234e-05,2.0,42,0.020569056,1.17525815e-07,0,-7.443948412876544e-09,2.0
174,174,669.7856,175212.47,10347.536,175517.75,-3.3797956,119.24882331736444,-0.037293743,7.909444e-07,0.022963993,7.9814025e-05,2.0,42,0.02056721,1.1718023e-07,0,-7.392092052273252e-09,2.0
175,175,579.81464,175535.6,10674.356,175859.84,-3.4798834,119.92885057631065,-0.03729529,8.822075e-07,0.025715161,9.474129e-05,2.0,42,0.020562857,1.1692753e-07,0,-7.179938021822115e-09,2.0
176,176,501.44418,175936.83,11133.951,176288.78,-3.6210659,120.60621292845462,-0.037299074,1.0131421e-06,0.028506784,0.00011370969,2.0,42,0.020560974,1.1663234e-07,0,-6.89733685666807e-09,2.0
177,177,434.02762,176456.44,11908.234,176857.8,-3.860775,121.28623424077523,-0.03731057,9.948893e-07,0.03079324,0.00013960524,2.0,42,0.020552345,1.16208305e-07,0,-6.724524625193733e-09,2.0
178,178,375.6009,176795.03,12663.452,177247.98,-4.0969777,121.96543104635202,-0.037302446,9.3081894e-07,0.03346119,0.0001707981,2.0,42,0.020539446,1.15879715e-07,0,-6.601819512878847e-09,2.0
179,179,325.10385,177474.05,13754.867,178006.28,-4.431766,122.64468249199854,-0.037322532,9.4329783e-07,0.035591118,0.00021251215,2.0,42,0.020541165,1.1539573e-07,0,-6.493255384036802e-09,2.0
180,180,281.3503,178495.4,14973.254,179122.33,-4.7950835,123.32182172415196,-0.037300024,8.7717876e-07,0.03777953,0.0002639912,2.0,42,0.020563565,1.1480179e-07,0,-6.307133740122496e-09,2.0
181,181,243.36427,179242.4,16509.447,180001.11,-5.262484,124.00509004993364,-0.037306227,9.635993e-07,0.039612364,0.00033323106,2.0,42,0.02055989,1.1422091e-07,0,-6.210314133774178e-09,2.0
182,182,210.60631,180245.36,17864.145,181128.45,-5.6601086,124.68217197540798,-0.03732814,1.0241307e-06,0.042302553,0.00041148844,2.0,42,0.02056541,1.13540466e-07,0,-5.984983397110374e-09,2.0
183,183,182.27473,180956.6,19804.592,182037.11,-6.2458143,125.35426430063671,-0.037311856,1.0464811e-06,0.044088744,0.0005218428,2.0,42,0.020555466,1.129191e-07,0,-5.856629722341762e-09,2.0
184,184,157.72879,182493.66,21426.953,183747.23,-6.696555,126.0426308400638,-0.037298944,9.613641e-07,0.047092173,0.0006403655,2.0,42,0.020563418,1.1191144e-07,0,-5.682193429122092e-09,2.0
185,185,136.52892,183718.31,23213.377,185179.05,-7.2013373,126.71452361860429,-0.03729039,7.9913946e-07,0.050217737,0.00078913284,2.0,42,0.020561129,1.1103378e-07,0,-5.541650392866298e-09,2.0
186,186,118.14758,185100.56,25570.73,186858.45,-7.865347,127.40292237131507,-0.037304197,8.4439847e-07,0.05268078,0.000986536,2.0,42,0.02055555,1.10006e-07,0,-5.295038922270024e-09,2.0
187,187,102.25773,186769.48,28112.053,188873.31,-8.559754,128.06934760292643,-0.037316903,9.593155e-07,0.055364504,0.001226522,2.0,42,0.02055403,1.0882443e-07,0,-5.140303957994499e-09,2.0
188,188,88.4436,188537.9,30569.387,191000.08,-9.209745,128.75831035568262,-0.037279416,9.889293e-07,0.058866326,0.0015079026,2.0,42,0.02055882,1.0763775e-07,0,-4.998278202221762e-09,2.0
189,189,76.54279,190434.8,33484.473,193356.2,-9.972476,129.42574502741627,-0.037322305,9.770093e-07,0.062097248,0.0018622718,2.0,42,0.020544715,1.062532e-07,0,-4.7955163972695935e-09,2.0
190,190,66.250786,192526.58,36274.344,195914.05,-10.670134,130.0939948458108,-0.03734953,9.922819e-07,0.066226155,0.0022703747,2.0,42,0.020533223,1.048073e-07,0,-4.69055371292774e-09,2.0
191,191,57.329906,203612.39,39995.35,207503.33,-11.113057,130.99265056851073,-0.037325084,9.001901e-07,0.06941117,0.002578685,2.0,43,0.020547554,9.902277e-08,0,-4.338757400160296e-09,2.0
192,192,49.60321,206095.19,44855.074,210919.9,-12.278517,131.67834532100824,-0.037318636,8.3487953e-07,0.071531735,0.003235093,2.0,43,0.020553047,9.74448e-08,0,-4.170295301042219e-09,2.0
193,193,42.92585,209481.33,48609.934,215047.33,-13.064216,132.38642266133684,-0.037294954,7.8761457e-07,0.07627395,0.0038972492,2.0,43,0.020558527,9.560001e-08,0,-4.098953340391059e-09,2.0
194,194,37.1518,212615.53,53585.2,219264.08,-14.145586,133.03019418523763,-0.037339766,8.598528e-07,0.079945765,0.004774745,2.0,43,0.020555224,9.374643e-08,0,-3.906511083687509e-09,2.0
195,195,32.150223,216388.9,58476.156,224150.89,-15.122197,133.66940098893247,-0.03731791,7.765897e-07,0.08465591,0.0057614795,2.0,43,0.02055637,9.170773e-08,0,-3.6363391722862045e-09,2.0
196,196,27.835518,220325.94,63666.18,229340.14,-16.11737,134.3973506235343,-0.037324496,8.602159e-07,0.08980738,0.0069210096,2.0,43,0.020545214,8.9584034e-08,0,-3.445074264511128e-09,2.0
197,197,24.082958,224423.97,69293.47,234878.06,-17.158672,135.0993776168616,-0.037321225,8.9069204e-07,0.095371366,0.008300757,2.0,43,0.020515963,8.7347296e-08,0,-3.1830103318133654e-09,2.0
198,198,20.833313,229746.2,75576.66,241857.7,-18.20899,135.7537527946406,-0.037321653,7.9428133e-07,0.101082064,0.009870283,2.0,43,0.020541534,8.493231e-08,0,-3.2258432038056267e-09,2.0
199,199,18.021912,235262.52,82044.57,249158.11,-19.225515,136.4997331767372,-0.037297983,8.913624e-07,0.10763895,0.011671295,2.0,43,0.020559266,8.251494e-08,0,-2.9075711381478796e-09,2.0
200,200,15.604198,241062.44,89019.87,256974.0,-20.268248,137.1550080878369,-0.03732352,8.0696344e-07,0.11457549,0.013749511,2.0,43,0.020546988,7.995746e-08,0,-3.0022152943290298e-09,2.0
201,201,13.500899,247649.84,96855.586,265916.25,-21.360415,137.90299812337616,-0.037334353,7.9915094e-07,0.12171183,0.01614702,2.0,43,0.020553036,7.729139e-08,0,-2.882101237832045e-09,2.0
202,202,11.686608,254599.81,104584.83,275243.62,-22.331938,138.49389908477315,-0.037285417,7.8824735e-07,0.13021559,0.018800344,2.0,43,0.02056134,7.470233e-08,0,-2.7402136854091096e-09,2.0
203,203,10.113269,262386.88,114106.08,286124.22,-23.503124,139.16850269012502,-0.03733889,8.221223e-07,0.13791764,0.02193452,2.0,43,0.020593321,7.197336e-08,0,-2.2889998014481192e-09,2.0
204,204,8.748621,270138.56,122720.79,296707.3,-24.431744,139.9354106732353,-0.037302192,8.723853e-07,0.14823897,0.025359586,2.0,43,0.020555269,6.927793e-08,0,-1.7668765681200485e-09,2.0
205,205,7.570237,278622.44,133264.36,308852.47,-25.561665,140.81100786148454,-0.0373141,8.16889e-07,0.15775989,0.029371254,2.0,43,0.020551914,6.654282e-08,0,-2.256114042136363e-09,2.0
206,206,6.554112,287724.2,143875.2,321691.28,-26.56714,141.34730514025432,-0.03733179,8.0564047e-07,0.16877975,0.03376087,2.0,43,0.02054119,6.385373e-08,0,-1.5130216990158175e-09,2.0
207,207,5.669445,297582.9,155073.58,335564.3,-27.52449,141.95712298256694,-0.03729749,8.372061e-07,0.18102634,0.03866036,2.0,43,0.020537108,6.12017e-08,0,-2.040047990302934e-09,2.0
208,208,4.907347,308331.78,167963.9,351113.03,-28.579365,142.64954821547144,-0.03732758,8.7525274e-07,0.19308893,0.04418709,2.0,43,0.020541646,5.8504366e-08,0,-9.87810151158255e-10,2.0
209,209,4.245922,319855.22,181773.86,367898.22,-29.609587,143.43730561286793,-0.037293084,7.3702415e-07,0.20621331,0.05034127,2.0,43,0.020556904,5.587661e-08,0,-1.6855465436015472e-09,2.0
210,210,3.6747382,331017.25,196086.02,384736.47,-30.641397,144.33691896230448,-0.03731378,8.8394023e-07,0.22087528,0.057373803,2.0,43,0.020525511,5.3349535e-08,0,-1.4088645252751972e-09,2.0
211,211,3.180988,343153.66,212263.84,403497.7,-31.739605,145.36620629116078,-0.037302155,8.180989e-07,0.2357122,0.0652307,2.0,43,0.020552458,5.0935753e-08,0,-2.344164151644179e-10,2.0
212,212,2.752818,356184.75,230850.69,424452.12,-32.948105,146.5451687205059,-0.037318233,7.707485e-07,0.25044444,0.07408262,2.0,43,0.020560749,4.844068e-08,0,-4.4509597373466725e-10,2.0
213,213,2.3804083,368793.88,249393.58,445203.4,-34.068172,147.90002705153893,-0.037317704,7.8050056e-07,0.2680917,0.08412731,2.0,43,0.02054991,4.6158476e-08,0,-1.109689664227926e-09,2.0
