True,index,freq,Re(Z),Im(Z),Z,Phase(Z),time,Ewe_meas,I_meas,Cs,Cp,cycle_number,I_Range,Ewe,I,Ns,(QQo),cycle
110,110,7000018.5,196.47055,1310.4307,1325.077,-81.47326,82.73049808948417,0.055729326,-6.9837292e-06,1.7350296e-05,1.6968863e-05,2.0,40,0.00994786,7.507382e-06,0,-2.4376164803793502e-08,2.0
111,111,6057573.0,235.90271,1512.5627,1530.8481,-81.13544,83.28249526236323,0.055762228,-3.0240582e-05,1.7370332e-05,1.6957845e-05,2.0,40,0.014027685,9.163342e-06,0,-2.767138191130019e-08,2.0
112,112,5242039.0,209.77296,1759.9341,1772.3918,-83.202774,83.69848208207986,0.055766422,-1.9765723e-05,1.7251366e-05,1.7009706e-05,2.0,40,0.019405732,1.0948895e-05,0,-2.8719457446152477e-08,2.0
113,113,4536288.0,181.42705,2040.2954,2048.346,-84.91851,85.06648212039727,0.055731542,-1.4407368e-05,1.7195962e-05,1.7061058e-05,2.0,40,0.01877166,9.164301e-06,0,-3.769801723455559e-08,2.0
114,114,3925558.5,257.46664,2369.8896,2383.8342,-83.79966,85.482501926861,0.055720028,-2.240769e-05,1.7107657e-05,1.6908096e-05,2.0,40,0.01829759,7.675698e-06,0,-4.1570716146788e-08,2.0
115,115,3397055.0,332.60324,2686.102,2706.6157,-82.94135,85.89850562662468,0.05571781,-2.7914884e-05,1.744195e-05,1.7178565e-05,2.0,40,0.019420924,7.1753534e-06,0,-4.315867820151453e-08,2.0
116,116,2939708.2,349.11526,3057.5466,3077.4133,-83.48609,86.31448273968999,0.055717327,-3.6287303e-05,1.770691e-05,1.747903e-05,2.0,40,0.021311564,6.925155e-06,0,-4.92324890710931e-08,2.0
117,117,2543924.5,395.9277,3568.0051,3589.9053,-83.668015,86.86648676588084,0.055730704,-4.238987e-05,1.7534381e-05,1.7321097e-05,2.0,40,0.020687483,5.762682e-06,0,-5.90265385560108e-08,2.0
118,118,2201436.2,418.65784,4097.8994,4119.23,-84.16667,87.41849327212549,0.055694185,-2.9124227e-05,1.7642198e-05,1.7459959e-05,2.0,40,0.020920599,5.0787644e-06,0,-6.393222969573348e-08,2.0
119,119,1905053.1,463.31747,4696.41,4719.209,-84.3658,87.9704977516958,0.05573076,-4.7804042e-05,1.7788814e-05,1.7617353e-05,2.0,40,0.02038799,4.3202135e-06,0,-6.811131175771913e-08,2.0
120,120,1648567.4,430.18314,5452.956,5469.8984,-85.48928,88.68948802581872,0.055706464,-5.093737e-06,1.770441e-05,1.7594904e-05,2.0,41,0.019062344,3.4849538e-06,0,-6.569204054600104e-08,2.0
121,121,1426616.2,455.7623,6310.065,6326.503,-85.86883,89.10548332557664,0.055679746,-1.363775e-06,1.7679873e-05,1.7588118e-05,2.0,41,0.021962108,3.471445e-06,0,-6.63355995531821e-08,2.0
122,122,1234551.2,527.7321,7264.8125,7283.955,-85.84521,89.65749308516388,0.05568539,1.6879778e-07,1.7745431e-05,1.7652283e-05,2.0,41,0.021040866,2.8886595e-06,0,-6.687520970371708e-08,2.0
123,123,1068345.5,669.581,8354.25,8381.04,-85.417625,90.20949215136352,0.055666722,1.3885245e-06,1.7832037e-05,1.771822e-05,2.0,41,0.020680519,2.467536e-06,0,-6.69601882494667e-08,2.0
124,124,924510.06,821.7488,9679.929,9714.746,-85.14768,90.76149977758178,0.055681292,-8.758856e-07,1.7784281e-05,1.7657034e-05,2.0,41,0.020297393,2.0893385e-06,0,-6.692936839572481e-08,2.0
125,125,800039.0,1328.5857,10841.716,10922.817,-83.01359,91.31348919044831,0.05572422,-3.360032e-06,1.8348937e-05,1.807747e-05,2.0,41,0.020710658,1.8960912e-06,0,-6.749822437338003e-08,2.0
126,126,692334.1,1318.4465,12788.737,12856.52,-84.11392,91.8654850833409,0.055687442,-6.189048e-07,1.7975324e-05,1.7786284e-05,2.0,41,0.020483311,1.5932237e-06,0,-6.81144641711179e-08,2.0
127,127,599122.25,1641.0244,14745.363,14836.397,-83.649635,92.4175013762142,0.055682186,7.2186447e-07,1.801562e-05,1.7795215e-05,2.0,41,0.020426042,1.3767522e-06,0,-6.81713022465489e-08,2.0
128,128,518454.94,2111.5337,16957.613,17088.57,-82.90216,92.96950598913827,0.05569875,-1.6971069e-06,1.8102743e-05,1.7826347e-05,2.0,41,0.020506833,1.2000321e-06,0,-6.740525667544341e-08,2.0
129,129,448662.03,2922.6033,19245.627,19466.273,-81.36515,93.5214849220065,0.055671044,7.702805e-07,1.8431841e-05,1.8016368e-05,2.0,41,0.02023231,1.039352e-06,0,-6.771015299612692e-08,2.0
130,130,388258.97,3636.4958,22363.469,22657.203,-80.764046,94.07349038819666,0.055681087,1.1665647e-07,1.8329874e-05,1.7857687e-05,2.0,41,0.020914445,9.230815e-07,0,-6.789159795049137e-08,2.0
131,131,335983.9,4587.7637,25298.818,25711.434,-79.72151,94.62550172113697,0.055682633,5.300601e-07,1.872412e-05,1.8127974e-05,2.0,41,0.020282835,7.888644e-07,0,-6.74752089889002e-08,2.0
132,132,290751.2,5956.611,29252.81,29853.11,-78.490486,95.17749721396831,0.055702217,-1.1663861e-06,1.8712466e-05,1.7967477e-05,2.0,41,0.020512957,6.8712967e-07,0,-6.739535143328842e-08,2.0
133,133,251605.19,7735.0337,33295.652,34182.324,-76.9214,95.72950681354268,0.055702552,-1.2594951e-06,1.8998226e-05,1.80254e-05,2.0,41,0.020413978,5.972086e-07,0,-6.714305816075634e-08,2.0
134,134,217729.38,10144.963,37865.574,39201.047,-75.00153,96.2814845997782,0.055678498,-2.1667516e-07,1.93045e-05,1.8011602e-05,2.0,41,0.020283382,5.174194e-07,0,-6.6847410696922e-08,2.0
135,135,188418.58,13219.547,42771.91,44768.21,-72.82515,96.83350609263289,0.055712238,-1.8218739e-06,1.9748666e-05,1.8026672e-05,2.0,41,0.020865606,4.6608088e-07,0,-6.61976222302335e-08,2.0
136,136,163051.14,16390.9,47583.043,50327.008,-70.99274,97.38550145222689,0.055667598,1.3382438e-06,2.0513704e-05,1.833776e-05,2.0,41,0.02026851,4.0273622e-07,0,-6.578876234643774e-08,2.0
137,137,141098.2,18949.68,53062.414,56344.566,-70.347305,98.10448524632375,0.055646937,8.262925e-08,2.1257472e-05,1.8853047e-05,2.0,42,0.018953092,3.3637835e-07,0,-6.552660593545074e-08,2.0
138,138,122105.11,24006.93,59005.062,63701.883,-67.86045,98.52050283944118,0.05570151,-5.4637773e-08,2.2090067e-05,1.8952698e-05,2.0,42,0.02046509,3.212635e-07,0,-6.556993664718705e-08,2.0
139,139,105663.59,29580.133,65747.1,72094.836,-65.77665,98.93649243252003,0.05571336,-1.7309345e-07,2.2909635e-05,1.9052986e-05,2.0,42,0.021932691,3.0422e-07,0,-6.559381534159868e-08,2.0
140,140,91439.65,36319.387,71158.445,79891.31,-62.96016,99.48850195211708,0.05568653,-5.463776e-08,2.4460152e-05,1.9404968e-05,2.0,42,0.020433867,2.5577083e-07,0,-6.557508896446151e-08,2.0
141,141,79127.08,46191.445,77080.97,89861.7,-59.067482,99.90449063849519,0.055691484,9.175569e-08,2.6094433e-05,1.9199631e-05,2.0,42,0.021479107,2.3902405e-07,0,-6.557276521358289e-08,2.0
142,142,68475.36,53682.06,82704.92,98599.53,-57.01323,100.45650290473714,0.055670597,2.2976774e-07,2.8103113e-05,1.9772768e-05,2.0,42,0.02018033,2.0466963e-07,0,-6.559260948339979e-08,2.0
143,143,59252.523,63138.312,87487.195,107890.945,-54.182533,100.87248353785253,0.055698525,1.4204355e-07,3.0702147e-05,2.0187743e-05,2.0,42,0.020864373,1.9338391e-07,0,-6.557371250308898e-08,2.0
144,144,51282.285,72391.61,92652.73,117580.07,-51.998707,101.28848675757763,0.055727668,6.5121895e-08,3.3496126e-05,2.0799052e-05,2.0,42,0.02144234,1.8236373e-07,0,-6.560970097971799e-08,2.0
145,145,44369.8,86210.32,93366.94,127081.09,-47.282177,101.70450272402377,0.05571336,1.3422108e-07,3.841842e-05,2.0737856e-05,2.0,42,0.021836318,1.718298e-07,0,-6.556939648985013e-08,2.0
146,146,38403.727,96644.12,95572.32,135919.66,-44.680523,102.25648403025116,0.055683937,2.4653048e-07,4.3362532e-05,2.1439486e-05,2.0,42,0.020271359,1.4914221e-07,0,-6.562418957868645e-08,2.0
147,147,33226.32,107703.1,96472.12,144591.94,-41.85153,102.67250823663198,0.055681888,3.1246347e-07,4.9651924e-05,2.2103017e-05,2.0,42,0.020486657,1.4168602e-07,0,-6.558874604963331e-08,2.0
148,148,28754.086,119832.24,96690.93,153976.95,-38.899567,103.08849881638889,0.055703558,1.198798e-07,5.724464e-05,2.257329e-05,2.0,42,0.02061457,1.3388087e-07,0,-6.559735842914864e-08,2.0
149,149,24884.947,130247.195,96250.734,161952.27,-36.46385,103.50450467618066,0.055710394,1.0423475e-07,6.644761e-05,2.3470016e-05,2.0,42,0.020667482,1.2761465e-07,0,-6.560061863530701e-08,2.0
150,150,21553.963,140593.42,95738.33,170095.08,-34.25325,103.92148442930193,0.055719245,-7.2890025e-08,7.712713e-05,2.4434043e-05,2.0,42,0.020662574,1.2147662e-07,0,-6.566250200751374e-08,2.0
151,151,18631.234,149613.94,94899.5,177172.92,-32.386787,104.33749866238213,0.055691484,1.6737403e-07,9.001493e-05,2.582544e-05,2.0,42,0.020563692,1.1606566e-07,0,-6.569944270810504e-08,2.0
152,152,16126.037,160509.6,92663.445,185337.11,-29.998177,104.75350654884824,0.05569288,2.2511192e-07,0.000106508436,2.6624173e-05,2.0,42,0.020416707,1.10159846e-07,0,-6.573866734472646e-08,2.0
153,153,13954.87,168857.92,91203.91,191914.44,-28.374466,105.16950411527068,0.055703744,7.704225e-08,0.00012504919,2.8241808e-05,2.0,42,0.02014231,1.0495464e-07,0,-6.575332884097386e-08,2.0
154,154,12080.609,178149.78,87612.21,198527.69,-26.18748,105.5854892016796,0.055687685,1.7072668e-07,0.00015037188,2.9285575e-05,2.0,42,0.019779293,9.9629894e-08,0,-6.580596714835865e-08,2.0
155,155,10447.592,188240.72,86570.06,207193.02,-24.697237,106.0014910614409,0.05569193,4.649714e-08,0.000175969,3.0720017e-05,2.0,42,0.019306391,9.318071e-08,0,-6.576544476830688e-08,2.0
156,156,9045.586,196352.95,84079.89,213597.55,-23.180992,106.4332520152966,0.055695415,3.0293762e-08,0.00020926243,3.242523e-05,2.0,42,0.021916507,1.0260655e-07,0,-6.571813481831906e-08,2.0
157,157,7827.7437,200431.48,72504.83,213142.52,-19.887272,106.9139406781469,0.0556828,1.4427968e-07,0.00028042492,3.244967e-05,2.0,42,0.022009099,1.03260014e-07,0,-6.567580354095841e-08,2.0
158,158,6770.8345,213818.11,77637.02,227476.8,-19.95588,107.62742628532578,0.055721425,1.7333453e-07,0.00030276738,3.5267334e-05,2.0,42,0.020197308,8.878843e-08,0,-6.547877116892033e-08,2.0
159,159,5860.798,221287.95,74086.41,233360.56,-18.51036,108.23399778082967,0.055694837,9.771648e-08,0.00036654292,3.694426e-05,2.0,42,0.02024557,8.675661e-08,0,-6.541006737669462e-08,2.0
160,160,5071.625,227975.36,70222.74,238545.6,-17.120285,108.91468935985904,0.055743802,1.6883536e-08,0.00044688443,3.8726477e-05,2.0,42,0.020247802,8.488022e-08,0,-6.536249394030591e-08,2.0
161,161,4388.5933,235074.44,65581.1,244050.97,-15.588047,109.5948139254906,0.055695154,1.059115e-07,0.0005529885,3.993121e-05,2.0,42,0.020264436,8.303362e-08,0,-6.539971732390448e-08,2.0
162,162,3798.7827,240240.34,63221.312,248419.72,-14.7436,110.27485259779496,0.055699926,1.4018175e-07,0.00066269265,4.292073e-05,2.0,42,0.020257177,8.154416e-08,0,-6.542401267807089e-08,2.0
163,163,3286.0488,245996.78,58813.14,252929.64,-13.445932,110.95468980342412,0.05567207,1.2584042e-07,0.00082351547,4.4526754e-05,2.0,42,0.020276736,8.0167496e-08,0,-6.536915321334528e-08,2.0
164,164,2844.088,251238.73,55698.25,257338.69,-12.499991,111.63482767571986,0.055725638,1.800101e-08,0.0010046981,4.706613e-05,2.0,42,0.020302437,7.889384e-08,0,-6.540034999054869e-08,2.0
165,165,2460.7852,255064.67,52908.848,260494.4,-11.718844,112.31470832134801,0.055717364,2.5509868e-07,0.0012224134,5.0428716e-05,2.0,42,0.020272959,7.782493e-08,0,-6.539562738231474e-08,2.0
166,166,2129.3164,259528.58,49253.617,264160.94,-10.745861,112.99382206026348,0.055703092,1.2025286e-07,0.0015175458,5.2757096e-05,2.0,42,0.020286443,7.679577e-08,0,-6.534258244862596e-08,2.0
167,167,1843.2289,263309.84,46620.812,267405.25,-10.040553,113.67394625255838,0.055709854,2.3870862e-07,0.0018520855,5.6296427e-05,2.0,42,0.02030382,7.592902e-08,0,-6.538056703434986e-08,2.0
168,168,1594.4913,266133.38,43118.566,269603.75,-9.203014,114.35384273820091,0.055723976,2.603137e-07,0.0023149075,5.9212096e-05,2.0,42,0.02029095,7.526212e-08,0,-6.540405210977261e-08,2.0
169,169,1380.4436,269222.88,41456.43,272396.03,-8.753963,115.03369194382685,0.05567134,1.9344951e-07,0.002781055,6.441571e-05,2.0,42,0.020286027,7.447255e-08,0,-6.540636705290244e-08,2.0
170,170,1194.6187,271281.44,38995.223,274069.78,-8.179922,115.71380642945587,0.055710375,1.7817685e-07,0.0034164842,6.916397e-05,2.0,42,0.020288099,7.40253e-08,0,-6.541424762343853e-08,2.0
171,171,1033.3434,273360.25,37319.617,275895.97,-7.774059,116.39407667508931,0.055725,2.5547106e-07,0.0041270363,7.551304e-05,2.0,42,0.0202795,7.3504154e-08,0,-6.538113989146766e-08,2.0
172,172,894.71045,276326.2,36410.883,278714.75,-7.5064917,117.0738415340602,0.05569197,3.2755023e-07,0.004885471,8.337751e-05,2.0,42,0.02030095,7.2837736e-08,0,-6.527970686732666e-08,2.0
173,173,774.2569,282015.28,38521.266,284634.0,-7.778057,117.75395591300912,0.055703875,1.05352576e-07,0.0053362297,9.773769e-05,2.0,42,0.020393228,7.164719e-08,0,-6.524706707668987e-08,2.0
174,174,669.7856,279537.94,33850.21,281580.0,-6.9045258,118.43385111863608,0.05573318,2.6776357e-07,0.0070197717,0.00010144768,2.0,42,0.020260634,7.195339e-08,0,-6.52537211684972e-08,2.0
175,175,579.81464,281578.53,34653.207,283702.88,-7.0159774,119.1138331242837,0.055719674,2.2753339e-07,0.007921137,0.0001181808,2.0,42,0.020276027,7.146923e-08,0,-6.515887099236245e-08,2.0
176,176,501.44418,283538.16,34990.137,285688.97,-7.0350404,119.79118347642361,0.055721574,1.4409285e-07,0.009070931,0.00013606808,2.0,42,0.02028065,7.098856e-08,0,-6.510579305493004e-08,2.0
177,177,434.02762,292090.06,29681.488,293594.28,-5.802342,120.72320650736219,0.055737503,9.834229e-08,0.012354271,0.00012626799,2.0,43,0.020209588,6.8835085e-08,0,-6.509963035869109e-08,2.0
178,178,375.6009,293037.44,30735.797,294644.9,-5.987685,121.40146693956922,0.055733554,1.10354144e-07,0.013786341,0.00015001687,2.0,43,0.020214977,6.860793e-08,0,-6.510783878044297e-08,2.0
179,179,325.10385,294882.3,31625.78,296573.38,-6.1215057,122.0806778518745,0.055723455,1.0499086e-07,0.015479495,0.00017602523,2.0,43,0.020255253,6.829761e-08,0,-6.511721395376944e-08,2.0
180,180,281.3503,295781.53,33756.812,297701.6,-6.5108547,122.7577943107026,0.05570216,1.2022448e-07,0.01675758,0.00021546258,2.0,43,0.020230275,6.795487e-08,0,-6.508441039276826e-08,2.0
181,181,243.36427,297754.06,35855.33,299905.12,-6.866454,123.4411352231109,0.055722393,1.2143495e-07,0.018239362,0.00026070492,2.0,43,0.02024846,6.751622e-08,0,-6.51208779339368e-08,2.0
182,182,210.60631,300613.2,38126.95,303021.38,-7.2282643,124.11819512196234,0.055696998,1.1487967e-07,0.019820595,0.00031378653,2.0,43,0.020303866,6.7004734e-08,0,-6.507329686279719e-08,2.0
183,183,182.27473,302880.88,40903.633,305630.38,-7.6911817,124.7902682472195,0.05575852,8.1302666e-08,0.02134675,0.00038235122,2.0,43,0.020314083,6.646618e-08,0,-6.508787572792585e-08,2.0
184,184,157.72879,305325.97,44253.633,308516.34,-8.246963,125.47862643994267,0.055705756,1.2137909e-07,0.022801332,0.0004691392,2.0,43,0.02029549,6.5784164e-08,0,-6.507018637213136e-08,2.0
185,185,136.52892,307351.62,48120.67,311095.84,-8.898307,126.15050217843964,0.055737894,1.1117371e-07,0.024225002,0.00057961384,2.0,43,0.020253403,6.510342e-08,0,-6.506991933352246e-08,2.0
186,186,118.14758,311094.47,52047.99,315418.4,-9.497962,126.83892101119272,0.055725485,1.322547e-07,0.025881615,0.00070473395,2.0,43,0.020286024,6.431465e-08,0,-6.50058871294872e-08,2.0
187,187,102.25773,315188.3,56112.46,320144.16,-10.094515,127.50535968280747,0.055718947,6.260498e-08,0.027737333,0.0008521031,2.0,43,0.020289162,6.337508e-08,0,-6.500068042592311e-08,2.0
188,188,88.4436,318849.06,61328.87,324693.62,-10.887563,128.19527832893073,0.055705197,1.2366945e-07,0.029341932,0.0010468179,2.0,43,0.02029855,6.251601e-08,0,-6.498710154042856e-08,2.0
189,189,76.54279,323445.7,66043.53,330119.47,-11.540438,128.86271137400763,0.055738658,1.4234823e-07,0.031483684,0.0012600966,2.0,43,0.020282462,6.143976e-08,0,-6.496188262569586e-08,2.0
190,190,66.250786,327855.34,71307.234,335520.25,-12.270503,129.53099401906366,0.055710804,1.3730134e-07,0.033689573,0.0015216866,2.0,43,0.020268053,6.0407835e-08,0,-6.498579435481844e-08,2.0
191,191,57.329906,330936.12,78053.96,340016.38,-13.271133,130.18565653017868,0.055729084,5.165455e-08,0.035566732,0.0018742788,2.0,43,0.020272965,5.9623495e-08,0,-6.490273795026308e-08,2.0
192,192,49.60321,339264.2,82956.586,349259.2,-13.740307,130.87037186932866,0.055736367,1.0145225e-07,0.038677596,0.002182054,2.0,43,0.020280723,5.8067826e-08,0,-6.486197094065619e-08,2.0
193,193,42.92585,345582.47,90322.88,357191.06,-14.647406,131.57843795625377,0.055708606,1.7028253e-07,0.04104908,0.00262481,2.0,43,0.020305961,5.6849018e-08,0,-6.491305668741947e-08,2.0
194,194,37.1518,353177.47,96874.56,366222.62,-15.338654,132.22216873351135,0.055724014,9.3742415e-08,0.044221204,0.0030942808,2.0,43,0.020301627,5.543521e-08,0,-6.488803226277421e-08,2.0
195,195,32.150223,360696.88,103726.83,375315.2,-16.043827,132.8613890305569,0.05572914,1.2476814e-07,0.0477249,0.0036453141,2.0,43,0.020294547,5.4073343e-08,0,-6.47555979839763e-08,2.0
196,196,27.835518,368749.6,111740.58,385307.97,-16.858154,133.58932591843768,0.0557238,1.13519874e-07,0.051169347,0.00430344,2.0,43,0.020287951,5.265386e-08,0,-6.475783711324467e-08,2.0
197,197,24.082958,377273.22,119263.12,395675.1,-17.542719,134.29140704512247,0.055734113,1.1357578e-07,0.05541204,0.005034299,2.0,43,0.020265732,5.1218112e-08,0,-6.466118163224266e-08,2.0
198,198,20.833313,386783.84,128885.58,407692.56,-18.4293,134.94577454292448,0.055687442,1.6968657e-07,0.059273075,0.005923802,2.0,43,0.020288024,4.9763045e-08,0,-6.468114849820496e-08,2.0
199,199,18.021912,397460.53,136803.67,420345.25,-18.993174,135.69173721836705,0.055710766,1.4176148e-07,0.06455376,0.0068376167,2.0,43,0.020276807,4.823846e-08,0,-6.465842871534812e-08,2.0
200,200,15.604198,408424.62,146105.62,433771.28,-19.68364,136.34600338275777,0.055739053,1.641741e-07,0.06980905,0.007919979,2.0,43,0.020286355,4.67674e-08,0,-6.47613959959246e-08,2.0
201,201,13.500899,418835.22,156543.61,447134.03,-20.493702,137.09396480495343,0.055719722,1.4004809e-07,0.0753047,0.009230332,2.0,43,0.020275928,4.534642e-08,0,-6.475672069441174e-08,2.0
202,202,11.686608,430946.84,166288.11,461916.56,-21.09995,137.68487197969807,0.055736404,2.8170998e-08,0.08189747,0.010613675,2.0,43,0.020278879,4.3901604e-08,0,-6.476673586530484e-08,2.0
203,203,10.113269,442917.84,178280.39,477451.7,-21.92545,138.35850395829766,0.055716675,5.8600733e-08,0.088272415,0.012307598,2.0,43,0.02027808,4.247148e-08,0,-6.460684333373834e-08,2.0
204,204,8.748621,455866.44,189645.5,493740.44,-22.587852,139.12538991475594,0.055713583,9.840727e-08,0.09592637,0.014152256,2.0,43,0.020284085,4.1082487e-08,0,-6.432412858047106e-08,2.0
205,205,7.570237,468822.0,202115.17,510533.66,-23.321493,140.00098006302142,0.055711262,1.3228228e-07,0.10401877,0.016302748,2.0,43,0.020287141,3.9737127e-08,0,-6.467884882772987e-08,2.0
206,206,6.554112,480687.75,216084.38,527022.94,-24.205427,140.53732598180068,0.055749465,4.8246402e-08,0.112378426,0.018891681,2.0,43,0.020263746,3.8449457e-08,0,-6.437356117898614e-08,2.0
207,207,5.669445,494230.28,230957.81,545531.94,-25.047066,141.147114677442,0.055714943,1.9527421e-07,0.12154774,0.021785717,2.0,43,0.02028855,3.7190397e-08,0,-6.466284502408273e-08,2.0
208,208,4.907347,508467.3,248300.38,565855.2,-26.027693,141.83953185696737,0.05571017,1.3609045e-07,0.13061588,0.025150122,2.0,43,0.020292204,3.5861124e-08,0,-6.415169897761943e-08,2.0
209,209,4.245922,522042.22,268041.56,586834.2,-27.178144,142.6272813610558,0.055707835,8.1357754e-08,0.13984469,0.029175576,2.0,43,0.020291042,3.457713e-08,0,-6.47075310510754e-08,2.0
210,210,3.6747382,534858.44,288825.75,607860.06,-28.369228,143.52692809715518,0.055702988,1.842958e-07,0.14995392,0.03385497,2.0,43,0.020275036,3.3354777e-08,0,-6.449982344747538e-08,2.0
211,211,3.180988,547896.3,312765.78,630882.56,-29.71982,144.55523569267825,0.055718414,1.0831423e-07,0.1599701,0.03931699,2.0,43,0.020291947,3.216438e-08,0,-6.394370613867532e-08,2.0
212,212,2.752818,560808.44,342418.94,657082.06,-31.407444,145.7341211620078,0.055715032,9.321494e-08,0.16884369,0.045852304,2.0,43,0.020288188,3.0876187e-08,0,-6.432182710102078e-08,2.0
213,213,2.3804083,573371.94,373231.72,684147.1,-33.061783,147.08896607969655,0.055704765,1.0190553e-07,0.17913899,0.05331485,2.0,43,0.020284645,2.9649536e-08,0,-6.482140047085356e-08,2.0
214,214,2.060257,586368.6,413205.22,717333.06,-35.171783,148.64530028690933,0.055724133,1.5066723e-07,0.18695322,0.06203301,2.0,43,0.020282064,2.8274263e-08,0,-6.4437034888233e-08,2.0
