True,index,freq,Re(Z),Im(Z),Z,Phase(Z),time,Ewe_meas,I_meas,Cs,Cp,cycle_number,I_Range,Ewe,I,Ns,(QQo),cycle
0,0,7000018.5,147.39986,1191.5068,1200.5896,-82.94784,2.468498463887954,0.038540468,2.9129325e-05,1.9082023e-05,1.8794395e-05,1.0,40,0.009927803,8.269106e-06,0,4.85548345513583e-09,1.0
1,1,6057573.0,197.91554,1374.1346,1388.3143,-81.8041,3.0204935301153455,0.038578402,-9.142071e-06,1.912019e-05,1.8731613e-05,1.0,40,0.013980865,1.0070388e-05,0,3.924110561469105e-09,1.0
2,2,5242039.0,186.17604,1601.3885,1612.1746,-83.368614,3.4364920031803194,0.038590215,2.4863239e-06,1.8959337e-05,1.8706498e-05,1.0,40,0.019331241,1.1990786e-05,0,4.63834477339257e-09,1.0
3,3,4536288.0,152.68301,1861.6764,1867.927,-85.311455,4.80449873485486,0.038584348,-6.258208e-06,1.8845833e-05,1.8719917e-05,1.0,40,0.019099122,1.0224769e-05,0,5.9700984316906316e-09,1.0
4,4,3925558.5,212.44229,2161.104,2171.5208,-84.38571,5.220493581291521,0.0385477,2.8584293e-06,1.8760438e-05,1.8580884e-05,1.0,40,0.018407365,8.476716e-06,0,8.063961408962447e-09,1.0
5,5,3397055.0,268.3552,2442.7417,2457.438,-83.73073,5.636480001005111,0.03854647,-4.248826e-06,1.917962e-05,1.8950905e-05,1.0,40,0.019469196,7.922558e-06,0,8.517381638714344e-09,1.0
6,6,2939708.2,278.7892,2786.522,2800.4336,-84.28662,6.052484794141492,0.038544606,-9.756019e-06,1.9429133e-05,1.9236577e-05,1.0,40,0.021345327,7.622151e-06,0,9.832453101087897e-09,1.0
7,7,2543924.5,328.38947,3231.8823,3248.5232,-84.19813,6.604494313680334,0.038532104,-8.788536e-06,1.9357994e-05,1.9160178e-05,1.0,40,0.020594647,6.339695e-06,0,8.788520270349586e-09,1.0
8,8,2201436.2,349.43713,3694.7642,3711.2517,-84.597244,7.156488553242525,0.038493276,-1.3703355e-07,1.9567136e-05,1.9393667e-05,1.0,40,0.020975178,5.65178e-06,0,1.0385546959595457e-08,1.0
9,9,1905053.1,402.995,4251.929,4270.9844,-84.58572,7.70849353945232,0.038539443,5.0352646e-06,1.9648392e-05,1.9473458e-05,1.0,40,0.020537537,4.808619e-06,0,4.428575010017255e-09,1.0
10,10,1648567.4,446.76575,4900.6323,4920.955,-84.79103,8.260481219011126,0.03851522,3.4352022e-06,1.9699777e-05,1.95374e-05,1.0,40,0.019876923,4.039241e-06,0,2.77457083004467e-09,1.0
11,11,1426616.2,349.36316,5735.2656,5745.8965,-86.51414,8.979493946448201,0.038516488,-8.0513684e-07,1.9451783e-05,1.9379873e-05,1.0,41,0.01941271,3.3785345e-06,0,1.9471793754980302e-09,1.0
12,12,1234551.2,454.15674,6598.675,6614.285,-86.062805,9.531498239346547,0.038519844,2.1929873e-06,1.9536837e-05,1.944473e-05,1.0,41,0.020550901,3.1070479e-06,0,2.4176246579372674e-09,1.0
13,13,1068345.5,544.78296,7645.271,7664.6562,-85.92413,10.083489598910091,0.03851254,2.535628e-06,1.9485678e-05,1.9387238e-05,1.0,41,0.020593116,2.686763e-06,0,2.644550118249119e-09,1.0
14,14,924510.06,597.31726,8806.504,8826.737,-86.11975,10.635498878458748,0.038505066,2.5374902e-06,1.9548117e-05,1.9458601e-05,1.0,41,0.020213913,2.2900776e-06,0,2.7184768646798653e-09,1.0
15,15,800039.0,738.1407,10170.579,10197.33,-85.848976,11.187482344656019,0.038505536,3.1259392e-06,1.9559748e-05,1.945726e-05,1.0,41,0.020760868,2.035912e-06,0,3.858686049535246e-09,1.0
16,16,692334.1,922.07306,11613.931,11650.477,-85.460594,11.739496930880705,0.03849838,4.1371018e-06,1.9793617e-05,1.9669633e-05,1.0,41,0.020421904,1.7528814e-06,0,4.610600427213285e-09,1.0
17,17,599122.25,1166.5116,13362.267,13413.088,-85.01079,12.291501037107082,0.03851429,3.5505157e-06,1.9880374e-05,1.9730009e-05,1.0,41,0.020602461,1.5359968e-06,0,4.9942905243527646e-09,1.0
18,18,518454.94,1464.6776,15397.454,15466.961,-84.56611,12.843483863311121,0.038528506,3.2451185e-06,1.9937017e-05,1.975823e-05,1.0,41,0.020502798,1.3255867e-06,0,4.481462764474031e-09,1.0
19,19,448662.03,1783.3801,17668.844,17758.617,-84.23645,13.39549687624094,0.03853341,1.6827499e-06,2.0076717e-05,1.9874245e-05,1.0,41,0.02021216,1.1381608e-06,0,4.845052495574641e-09,1.0
20,20,388258.97,2274.4263,20302.701,20429.701,-83.60805,13.94749895579298,0.03854943,1.4831484e-07,2.0190395e-05,1.9940151e-05,1.0,41,0.020849997,1.0205728e-06,0,5.380616121000357e-09,1.0
21,21,335983.9,2835.5984,23277.023,23449.104,-83.054474,14.499490768677788,0.038514774,2.5114196e-06,2.0350459e-05,2.0052872e-05,1.0,41,0.020418482,8.7075745e-07,0,5.52235894133446e-09,1.0
22,22,290751.2,3509.9583,26596.016,26826.625,-82.48194,15.05148436818854,0.038495287,2.9806888e-06,2.0581738e-05,2.0229407e-05,1.0,41,0.02058532,7.6734665e-07,0,5.342946471006687e-09,1.0
23,23,251605.19,4618.154,30627.86,30974.072,-81.42538,15.603501621080795,0.038512614,2.7963324e-06,2.0653037e-05,2.0193916e-05,1.0,41,0.020323545,6.56147e-07,0,5.0285681770611115e-09,1.0
24,24,217729.38,5654.299,34858.76,35314.363,-80.78653,16.15548284733086,0.038541157,3.2041496e-06,2.0969648e-05,2.0432068e-05,1.0,41,0.020295717,5.747156e-07,0,6.197103434190233e-09,1.0
25,25,188418.58,7341.177,39617.566,40291.99,-79.502106,16.707492846850073,0.038528934,1.4760471e-06,2.1321051e-05,2.0613264e-05,1.0,41,0.020821074,5.167547e-07,0,6.670004765531701e-09,1.0
26,26,163051.14,9239.121,45182.438,46117.395,-78.44321,17.25949775308254,0.03849622,2.1780877e-06,2.1603626e-05,2.0736547e-05,1.0,41,0.020330645,4.408455e-07,0,6.863011607609653e-09,1.0
27,27,141098.2,11745.121,51020.15,52354.594,-77.03605,17.811478632647777,0.038517866,3.5467888e-06,2.210838e-05,2.099572e-05,1.0,41,0.020219639,3.8620564e-07,0,7.636920743212587e-09,1.0
28,28,122105.11,12884.07,58002.035,59415.785,-77.47615,18.53048456014949,0.038536593,9.0079325e-08,2.247207e-05,2.1415384e-05,1.0,42,0.018850654,3.1726677e-07,0,7.357381077135412e-09,1.0
29,29,105663.59,15058.947,66443.15,68128.29,-77.22999,18.946480553218862,0.038546972,-2.986633e-08,2.2669637e-05,2.1562048e-05,1.0,42,0.020221442,2.968142e-07,0,7.360036380950458e-09,1.0
30,30,91439.65,19692.887,75810.53,78326.54,-75.43842,19.362481826305157,0.038517457,2.5416674e-07,2.2959164e-05,2.1507863e-05,1.0,42,0.021472389,2.7413938e-07,0,7.362391575565002e-09,1.0
31,31,79127.08,23870.912,86070.4,89319.28,-74.499084,19.914491265866673,0.038517606,2.9700442e-07,2.3369057e-05,2.1699932e-05,1.0,42,0.020268342,2.2692012e-07,0,7.468185022870067e-09,1.0
32,32,68475.36,29972.664,97031.52,101555.29,-72.83428,20.331486032315297,0.03851332,2.9774944e-07,2.3953718e-05,2.186722e-05,1.0,42,0.021135198,2.0811518e-07,0,7.494991155282134e-09,1.0
33,33,59252.523,37152.637,108570.36,114751.21,-71.10912,20.747503065416822,0.038502924,2.308854e-07,2.4740131e-05,2.2146749e-05,1.0,42,0.021881267,1.9068442e-07,0,7.482107927452199e-09,1.0
34,34,51282.285,44103.51,122155.414,129873.266,-70.14817,21.299481438327348,0.038540486,5.0594203e-08,2.540622e-05,2.2476359e-05,1.0,42,0.020287681,1.5621137e-07,0,7.460416544921935e-09,1.0
35,35,44369.8,59332.836,136509.92,148846.72,-66.50825,21.71548263137811,0.038520124,1.3571095e-07,2.6276555e-05,2.2101325e-05,1.0,42,0.020689297,1.3899734e-07,0,7.4444613221543595e-09,1.0
36,36,38403.727,74024.73,149561.98,166878.55,-63.66719,22.131487451173598,0.038544454,1.2412773e-08,2.7709299e-05,2.2257016e-05,1.0,42,0.0210177,1.2594609e-07,0,7.479849347092424e-09,1.0
37,37,33226.32,90102.5,163278.52,186489.5,-61.10863,22.54750237756525,0.038532756,3.4282226e-07,2.9336536e-05,2.2488379e-05,1.0,42,0.021216266,1.1376654e-07,0,7.4485234918148085e-09,1.0
38,38,28754.086,110090.805,176490.3,208011.56,-58.044983,22.963490984024247,0.03853164,2.290229e-07,3.136171e-05,2.257701e-05,1.0,42,0.02135139,1.026452e-07,0,7.4010821847545726e-09,1.0
39,39,24884.947,133823.83,186857.55,229835.94,-54.39048,23.38049292381038,0.03851483,1.8413637e-07,3.422731e-05,2.2623415e-05,1.0,42,0.02141791,9.318782e-08,0,7.384258755487612e-09,1.0
40,40,21553.963,158483.97,194853.75,251167.58,-50.876877,23.797504276939435,0.038525414,-2.0181211e-08,3.7895203e-05,2.2807339e-05,1.0,42,0.02136389,8.505831e-08,0,7.366210330259687e-09,1.0
41,41,18631.234,185285.94,201441.31,273695.97,-47.392117,24.213487683358835,0.03850445,3.7951378e-07,4.2406256e-05,2.2971546e-05,1.0,42,0.021299481,7.782168e-08,0,7.4438215470449516e-09,1.0
42,42,16126.037,212884.98,202609.02,293888.47,-43.583252,24.629479036462726,0.038532775,1.07773324e-07,4.8711747e-05,2.3151873e-05,1.0,42,0.021070182,7.169449e-08,0,7.421607802482713e-09,1.0
43,43,13954.87,240496.62,199756.3,312635.9,-39.712994,25.04548228290514,0.03851172,2.4522672e-07,5.7094447e-05,2.330865e-05,1.0,42,0.020783164,6.647721e-08,0,7.410611735113568e-09,1.0
44,44,12080.609,265836.84,195159.83,329782.62,-36.283657,25.461483102670172,0.03850928,3.3984225e-07,6.750576e-05,2.3641018e-05,1.0,42,0.020375319,6.1784085e-08,0,7.478246640597695e-09,1.0
45,45,10447.592,293029.1,187923.56,348111.06,-32.67261,25.877500055736164,0.038518745,6.4376735e-08,8.1063e-05,2.3623787e-05,1.0,42,0.019843448,5.700321e-08,0,7.479427222119818e-09,1.0
46,46,9045.586,316619.62,178741.44,363588.34,-29.446056,26.45024600296165,0.038534228,1.0144078e-07,9.8436954e-05,2.378969e-05,1.0,42,0.020269364,5.5748114e-08,0,7.469529541581544e-09,1.0
47,47,7827.7437,319530.2,144671.98,350755.66,-24.359337,26.930917305813637,0.038528264,2.9139373e-09,0.00014053973,2.3908846e-05,1.0,42,0.020268671,5.778573e-08,0,7.512021051230672e-09,1.0
48,48,6770.8345,353791.6,153080.17,385489.34,-23.39739,27.46942250468419,0.038556192,-1.4407489e-08,0.00015355325,2.4214312e-05,1.0,42,0.020276109,5.2598363e-08,0,7.511633917433851e-09,1.0
49,49,5860.798,368754.4,140006.16,394438.25,-20.790426,28.07596781355096,0.03850669,7.871809e-08,0.00019396182,2.4437257e-05,1.0,42,0.02026581,5.1378915e-08,0,7.551273502918103e-09,1.0
50,50,5071.625,399086.53,132824.98,420609.72,-18.408604,29.007717617816525,0.038508125,1.4274703e-09,0.00023626164,2.3561024e-05,1.0,43,0.020004578,4.7560903e-08,0,7.59518587047397e-09,1.0
51,51,4388.5933,411744.47,118536.6,428467.53,-16.060514,29.68782541011751,0.038514923,7.722037e-09,0.00030594427,2.3415932e-05,1.0,43,0.020048466,4.6791097e-08,0,7.60355535674252e-09,1.0
52,52,3798.7827,419750.75,105173.805,432726.5,-14.066573,30.367829202412395,0.03852832,1.388625e-08,0.00039835303,2.3531862e-05,1.0,43,0.020018745,4.626189e-08,0,7.611188435225705e-09,1.0
53,53,3286.0488,426605.53,93189.35,436665.25,-12.322345,31.04771643471031,0.038539946,2.3905395e-08,0.0005197324,2.367092e-05,1.0,43,0.020037577,4.5887727e-08,0,7.6065443541653e-09,1.0
54,54,2844.088,432567.12,80683.13,440027.38,-10.565495,31.726832226951956,0.03852627,1.7312937e-08,0.00069357647,2.3318493e-05,1.0,43,0.020021576,4.550075e-08,0,7.61096805639003e-09,1.0
55,55,2460.7852,435102.97,71488.03,440936.66,-9.330415,32.406709619259345,0.03853801,1.1893709e-08,0.0009047177,2.3780849e-05,1.0,43,0.020040289,4.5449358e-08,0,7.600699984990813e-09,1.0
56,56,2129.3164,439582.9,60463.617,443721.75,-7.8317585,33.08683653155458,0.03852223,3.774197e-09,0.0012361917,2.2953696e-05,1.0,43,0.02005231,4.5191182e-08,0,7.614511590996168e-09,1.0
57,57,1843.2289,441571.1,52761.176,444712.0,-6.81369,33.766949657176156,0.038529884,6.7912023e-09,0.0016365391,2.30355e-05,1.0,43,0.020072775,4.513657e-08,0,7.601575672921475e-09,1.0
58,58,1594.4913,442877.47,44612.707,445118.8,-5.7522144,34.446818276148406,0.038525544,9.491563e-09,0.0022373782,2.2475257e-05,1.0,43,0.020077767,4.5106535e-08,0,7.585327671778626e-09,1.0
59,59,1380.4436,443125.62,37062.72,444672.88,-4.781051,35.12669508178078,0.038513396,1.9138254e-08,0.0031107436,2.1610134e-05,1.0,43,0.020092525,4.5184958e-08,0,7.581741304915191e-09,1.0
60,60,1194.6187,442489.5,32436.133,443676.75,-4.192496,35.80680602074426,0.038532943,1.4203219e-08,0.0041073505,2.195263e-05,1.0,43,0.020103201,4.531047e-08,0,7.570202814282507e-09,1.0
61,61,1033.3434,443531.1,27066.896,444356.22,-3.4921973,36.48706762638176,0.038511552,1.4203244e-08,0.005690324,2.111307e-05,1.0,43,0.020139454,4.5322768e-08,0,7.562726463613877e-09,1.0
62,62,894.71045,442929.66,23275.54,443540.78,-3.0080729,37.16680923201784,0.038513396,2.202498e-08,0.0076425434,2.1046035e-05,1.0,43,0.020151248,4.5432685e-08,0,7.589049736128296e-09,1.0
63,63,774.2569,442022.78,20053.156,442477.4,-2.597545,37.846956197638065,0.038534265,4.910693e-09,0.010250672,2.1054047e-05,1.0,43,0.020169476,4.5583064e-08,0,7.592270178729482e-09,1.0
64,64,669.7856,440764.2,17720.584,441120.25,-2.3022928,38.52683310993598,0.03853408,3.5415123e-08,0.013409306,2.1639558e-05,1.0,43,0.020171251,4.572733e-08,0,7.562932175804171e-09,1.0
65,65,579.81464,440090.53,16498.678,440399.7,-2.1469722,39.206808902235935,0.038546413,6.4032446e-07,0.01663726,2.3349958e-05,1.0,43,0.020197934,4.5862734e-08,0,7.63480811838107e-09,1.0
66,66,501.44418,439623.88,15025.824,439880.6,-1.9575399,39.884207707684254,0.038521335,1.0817487e-07,0.021123176,2.4647123e-05,1.0,43,0.020223252,4.5974414e-08,0,7.647433240229922e-09,1.0
67,67,434.02762,438241.47,15179.969,438504.28,-1.9838392,40.56421325998963,0.038509186,9.251308e-08,0.024156382,2.8948494e-05,1.0,43,0.020204615,4.607621e-08,0,7.643454186326911e-09,1.0
68,68,375.6009,438649.84,15335.036,438917.8,-2.002224,41.24345190558233,0.03853855,-4.0994554e-08,0.02763177,3.3729655e-05,1.0,43,0.020245688,4.6126377e-08,0,7.602167227149397e-09,1.0
69,69,325.10385,438941.88,16090.133,439236.7,-2.0993307,41.92267556457955,0.03851962,6.4466995e-08,0.030425545,4.0828218e-05,1.0,43,0.020275537,4.6160846e-08,0,7.582167975708111e-09,1.0
70,70,281.3503,438326.53,17110.473,438660.38,-2.2354574,42.5987949300179,0.038514588,1.5656337e-08,0.0330606,5.030115e-05,1.0,43,0.020262484,4.6191733e-08,0,7.632407922749589e-09,1.0
71,71,243.36427,438916.6,17814.246,439277.97,-2.32418,43.282091709115775,0.03853216,3.468899e-08,0.03671097,6.0374274e-05,1.0,43,0.020279475,4.616547e-08,0,7.58477268731994e-09,1.0
72,72,210.60631,439519.75,19667.713,439959.56,-2.5621731,43.95917014128645,0.038542032,3.502423e-08,0.038423322,7.678512e-05,1.0,43,0.020292725,4.6124068e-08,0,7.549241315267055e-09,1.0
73,73,182.27473,439185.56,21657.732,439719.25,-2.8231626,44.63026974644163,0.038514532,-4.8425054e-08,0.0403163,9.7803786e-05,1.0,43,0.020267338,4.609154e-08,0,7.569756560515135e-09,1.0
74,74,157.72879,440580.5,23892.277,441227.84,-3.1040573,45.318637219214,0.038517922,3.9083986e-08,0.042232968,0.00012383428,1.0,43,0.020289239,4.5983587e-08,0,7.537158012376348e-09,1.0
75,75,136.52892,441110.25,27012.475,441936.56,-3.5042725,45.99053077105782,0.038529288,-8.925848e-09,0.043155,0.00016122783,1.0,43,0.020269273,4.5864667e-08,0,7.584440988717331e-09,1.0
76,76,118.14758,442547.06,29169.736,443507.34,-3.771099,46.67989656384452,0.03852059,2.2975234e-08,0.046180945,0.00019976811,1.0,43,0.02027306,4.5710763e-08,0,7.570598676368925e-09,1.0
77,77,102.25773,443244.0,32640.918,444444.22,-4.2117143,47.34633574212785,0.038538158,-1.8795976e-08,0.047682784,0.00025718866,1.0,43,0.020279206,4.5628237e-08,0,7.586012884243271e-09,1.0
78,78,88.4436,445885.25,36624.496,447386.88,-4.6956677,48.03627758825314,0.038498137,-5.4247593e-09,0.049133986,0.00032927506,1.0,43,0.020294312,4.5361887e-08,0,7.581883976769178e-09,1.0
79,79,76.54279,447887.4,40274.867,449694.56,-5.1383233,48.703714579991356,0.038521353,5.1579956e-08,0.051627573,0.000414109,1.0,43,0.020297872,4.5137018e-08,0,7.59543752502228e-09,1.0
80,80,66.250786,449848.62,45000.645,452093.84,-5.712583,49.3719738383661,0.038505312,4.3441744e-08,0.05338391,0.0005289208,1.0,43,0.020286256,4.4871783e-08,0,7.594352255614309e-09,1.0
81,81,57.329906,455962.22,51649.445,458878.22,-6.4626727,50.02663354949618,0.038528394,-4.0193736e-08,0.053749353,0.00068094133,1.0,43,0.020285804,4.420738e-08,0,7.57667504421475e-09,1.0
82,82,49.60321,455142.62,55337.27,458494.3,-6.9321265,50.712387662002584,0.038505964,8.253122e-08,0.05798192,0.00084461767,1.0,43,0.02027864,4.422877e-08,0,7.570931862872104e-09,1.0
83,83,42.92585,459928.5,61594.42,464034.6,-7.6277647,51.42041038899333,0.038515016,8.891891e-08,0.06019492,0.0010605763,1.0,43,0.0202811,4.370601e-08,0,7.590697728326705e-09,1.0
84,84,37.1518,462814.03,68284.11,467824.28,-8.392934,52.06418385959114,0.038529996,6.912274e-08,0.062736556,0.0013365784,1.0,43,0.02028802,4.3366754e-08,0,7.633148344970507e-09,1.0
85,85,32.150223,466227.47,75717.6,472335.9,-9.224574,52.703399783262284,0.03851444,1.7444153e-08,0.06537915,0.0016800843,1.0,43,0.02028048,4.2936563e-08,0,7.608379128827479e-09,1.0
86,86,27.835518,471208.1,83297.84,478513.94,-10.024898,53.43133267117082,0.03850178,-2.6685756e-09,0.06864154,0.0020800098,1.0,43,0.020286407,4.23946e-08,0,7.667494014405622e-09,1.0
87,87,24.082958,475565.12,92814.945,484537.72,-11.043465,54.133372491196496,0.03850561,3.9009468e-08,0.07120203,0.0026126006,1.0,43,0.020285051,4.186475e-08,0,7.664792581968172e-09,1.0
88,88,20.833313,483506.44,101056.94,493954.44,-11.805357,54.78773940229439,0.038511664,4.9214815e-08,0.075595446,0.0031641286,1.0,43,0.020298898,4.1094676e-08,0,7.51607091509908e-09,1.0
89,89,18.021912,488472.34,110780.984,500876.88,-12.778002,55.53372290440166,0.038485914,3.87953e-08,0.07971757,0.0038996222,1.0,43,0.02028505,4.0499074e-08,0,7.68490779890839e-09,1.0
90,90,15.604198,497157.06,121956.445,511896.97,-13.78293,56.1890211221762,0.038520757,1.636398e-08,0.08363228,0.0047469903,1.0,43,0.020289417,3.9635744e-08,0,7.606280098178628e-09,1.0
91,91,13.500899,505329.88,132587.16,522434.34,-14.701735,56.93700830437592,0.03850599,4.6244395e-08,0.0889111,0.0057265814,1.0,43,0.020283818,3.8825583e-08,0,7.565202270905797e-09,1.0
92,92,11.686608,513699.72,146231.84,534107.8,-15.889749,57.52789145242423,0.038513135,1.0558399e-09,0.09313002,0.0069809696,1.0,43,0.020271484,3.7953917e-08,0,7.640256653962e-09,1.0
93,93,10.113269,524444.06,159680.33,548214.75,-16.934202,58.20150007106713,0.038511384,3.8394813e-08,0.09855466,0.008361392,1.0,43,0.020297507,3.7024737e-08,0,7.829969467957751e-09,1.0
94,94,8.748621,535068.44,174205.69,562712.94,-18.03403,58.96841594748548,0.038508832,2.7360626e-08,0.1044283,0.010008501,1.0,43,0.020285321,3.6049148e-08,0,7.746884633735876e-09,1.0
95,95,7.570237,547884.4,190345.34,580007.44,-19.15819,59.84400729576009,0.0385147,3.50053e-08,0.11045068,0.011895584,1.0,43,0.020290507,3.4983184e-08,0,7.505474648868452e-09,1.0
96,96,6.554112,561864.94,206123.25,598480.56,-20.145842,60.38031876125024,0.038510174,-6.7011115e-08,0.11780923,0.0139744,1.0,43,0.020290034,3.3902577e-08,0,7.920408084753768e-09,1.0
97,97,5.669445,577463.2,224731.2,619651.4,-21.264482,60.99011681685806,0.038509298,-2.0251134e-07,0.124915466,0.0164304,1.0,43,0.020304117,3.2767e-08,0,7.447575828076067e-09,1.0
98,98,4.907347,595134.2,244506.69,643403.6,-22.334965,61.68254738303949,0.038516022,9.592069e-08,0.13264246,0.019155657,1.0,43,0.020296784,3.154596e-08,0,7.859710218553042e-09,1.0
99,99,4.245922,610325.44,265924.5,665742.44,-23.543205,62.4702869404864,0.038510405,-1.9736985e-08,0.14095801,0.022490233,1.0,43,0.020285383,3.0470318e-08,0,7.778171480641898e-09,1.0
100,100,3.6747382,628853.9,289200.3,692166.2,-24.696981,63.369965863239486,0.03850003,1.9715618e-08,0.1497597,0.026143981,1.0,43,0.020295516,2.9321738e-08,0,7.3578384006945325e-09,1.0
101,101,3.180988,648991.06,314358.9,721117.8,-25.844664,64.39817924538511,0.038520124,-5.2856515e-09,0.1591594,0.030246241,1.0,43,0.020287858,2.8133902e-08,0,7.814278755476541e-09,1.0
102,102,2.752818,672688.06,339083.72,753317.3,-26.751429,65.57711583471973,0.03852449,9.840018e-09,0.17050444,0.03454567,1.0,43,0.020289887,2.6934051e-08,0,8.098634669791474e-09,1.0
103,103,2.3804083,696596.1,368415.1,788020.2,-27.873425,66.93197792576393,0.038525093,2.7184116e-08,0.18148103,0.039667185,1.0,43,0.020280404,2.5735893e-08,0,7.608427043121837e-09,1.0
104,104,2.060257,722979.0,396900.78,824759.9,-28.765892,68.48831501297536,0.038518045,7.3883527e-10,0.19463314,0.045073953,1.0,43,0.020285137,2.4595204e-08,0,7.204588947590709e-09,1.0
105,105,1.7836765,750765.75,430877.94,865624.06,-29.852287,70.27668131131941,0.03850629,-6.0429475e-09,0.20708555,0.051309723,1.0,43,0.02028652,2.3435716e-08,0,7.52577054381535e-09,1.0
106,106,1.5427545,781850.25,461809.88,908051.9,-30.568768,72.33629751575063,0.038508143,2.9763271e-08,0.22338812,0.05777836,1.0,43,0.020290509,2.2345098e-08,0,8.18482476858969e-09,1.0
