True,index,freq,Re(Z),Im(Z),Z,Phase(Z),time,Ewe_meas,I_meas,Cs,Cp,cycle_number,I_Range,Ewe,I,Ns,(QQo),cycle
0,0,7000018.5,127.37705,1122.0729,1129.2797,-83.523544,2.4644754770270083,-0.02079421,2.881304e-05,2.026282e-05,2.000502e-05,1.0,40,0.010013556,8.867207e-06,0,8.088981896264613e-09,1.0
1,1,6057573.0,213.65564,1303.451,1320.8457,-80.691124,3.016500756581081,-0.02077364,7.90047e-06,2.015704e-05,1.9629628e-05,1.0,40,0.014138948,1.0704466e-05,0,9.121069629360237e-09,1.0
2,2,5242039.0,202.14032,1515.8623,1529.2806,-82.40442,3.4324888296832796,-0.020742971,-1.0835131e-05,2.002904e-05,1.96791e-05,1.0,40,0.019527845,1.2769301e-05,0,7.795336242210738e-09,1.0
3,3,4536288.0,191.18036,1757.5524,1767.9198,-83.79198,4.800493561342591,-0.020788116,8.402842e-06,1.996233e-05,1.972889e-05,1.0,40,0.018891338,1.06856305e-05,0,7.73097024409708e-09,1.0
4,4,3925558.5,244.43443,2037.8259,2052.4333,-83.160126,5.2164869410626125,-0.020783981,-4.304643e-06,1.9895351e-05,1.9613162e-05,1.0,40,0.018107112,8.822266e-06,0,9.673510496017773e-09,1.0
5,5,3397055.0,291.7328,2307.0488,2325.421,-82.79304,5.6325019474898,-0.02076015,-9.532755e-06,2.0307702e-05,1.9988085e-05,1.0,40,0.018995196,8.1684975e-06,0,8.615921391664313e-09,1.0
6,6,2939708.2,361.9655,2662.3772,2686.87,-82.25778,6.0484961006150115,-0.020785453,-2.398914e-05,2.0335101e-05,1.9966048e-05,1.0,40,0.020711686,7.708481e-06,0,5.705108402038503e-09,1.0
7,7,2543924.5,384.87863,3043.392,3067.632,-82.79243,6.600498526793672,-0.020784577,-2.326353e-05,2.0556918e-05,2.0233327e-05,1.0,40,0.020689921,6.7445903e-06,0,-2.688115512796685e-09,1.0
8,8,2201436.2,449.50522,3480.2383,3509.1472,-82.64046,7.1524933263717685,-0.020791993,5.7608795e-06,2.077328e-05,2.043242e-05,1.0,40,0.020324301,5.7918064e-06,0,-1.6710123114652081e-09,1.0
9,9,1905053.1,560.8662,3972.0645,4011.467,-81.962814,7.704495912563289,-0.020790279,-2.3765875e-05,2.1032783e-05,2.0621625e-05,1.0,40,0.02061477,5.13896e-06,0,-6.028841586536752e-09,1.0
10,10,1648567.4,663.6138,4639.438,4686.6587,-81.85977,8.256499592127511,-0.02079583,-1.208169e-05,2.080885e-05,2.039164e-05,1.0,40,0.01996833,4.2606753e-06,0,-9.708058204992654e-09,1.0
11,11,1426616.2,682.23083,5360.4316,5403.6714,-82.746864,8.975479732936947,-0.020768609,-4.8293055e-06,2.081197e-05,2.0480233e-05,1.0,41,0.019359015,3.5825672e-06,0,-9.161252101343898e-09,1.0
12,12,1234551.2,848.7654,6169.271,6227.384,-82.16645,9.527482825826155,-0.020807344,7.3303937e-07,2.0896672e-05,2.0508485e-05,1.0,41,0.020477183,3.288248e-06,0,-1.036910065976018e-08,1.0
13,13,1068345.5,1063.5863,7109.586,7188.701,-81.491714,10.079502985376166,-0.020785825,-3.6750768e-07,2.0953865e-05,2.0495187e-05,1.0,41,0.020956956,2.9152632e-06,0,-1.0084315774333971e-08,1.0
14,14,924510.06,1294.0597,8152.0415,8254.112,-80.980095,10.631503198266728,-0.02082728,3.3996796e-06,2.1117481e-05,2.059843e-05,1.0,41,0.02011472,2.436933e-06,0,-9.632242322248253e-09,1.0
15,15,800039.0,1733.8082,9312.138,9472.17,-79.45298,11.183489704475505,-0.02082033,3.5579658e-06,2.136287e-05,2.0647116e-05,1.0,41,0.020756997,2.1913665e-06,0,-8.516795181340816e-09,1.0
16,16,692334.1,2195.5022,10636.031,10860.267,-78.336754,11.735496584064094,-0.020831715,3.608245e-06,2.1613485e-05,2.0730178e-05,1.0,41,0.020694368,1.9055119e-06,0,-7.892731200262422e-09,1.0
17,17,599122.25,2796.859,12145.227,12463.104,-77.031746,12.288482476986246,-0.020795997,2.2134723e-06,2.1872533e-05,2.0771024e-05,1.0,41,0.020530913,1.6473355e-06,0,-8.649675657510317e-09,1.0
18,18,518454.94,3476.59,13749.673,14182.39,-75.81023,12.84048148986767,-0.020802239,2.133399e-06,2.23263e-05,2.0984695e-05,1.0,41,0.020579055,1.4510288e-06,0,-8.220064173668915e-09,1.0
19,19,448662.03,4442.888,15602.455,16222.696,-74.10539,13.392500076064607,-0.020796334,-1.3823959e-06,2.2735676e-05,2.1030406e-05,1.0,41,0.020183155,1.2441308e-06,0,-8.446925379877889e-09,1.0
20,20,388258.97,5600.2515,17568.842,18439.822,-72.31978,13.944491808972089,-0.020813456,3.4983761e-06,2.333219e-05,2.1180114e-05,1.0,41,0.020864574,1.1314954e-06,0,-7.67235238426325e-09,1.0
21,21,335983.9,7325.4546,19726.264,21042.523,-69.62725,14.496498421853175,-0.020783776,2.2618885e-06,2.4013574e-05,2.1103322e-05,1.0,41,0.020384625,9.687348e-07,0,-7.600025446262432e-09,1.0
22,22,290751.2,8919.369,21921.37,23666.465,-67.859566,15.049483888113173,-0.020841142,3.8056353e-06,2.4970714e-05,2.1423948e-05,1.0,41,0.020485979,8.656121e-07,0,-6.517270758258241e-09,1.0
23,23,251605.19,11349.241,24475.637,26978.92,-65.12306,15.601488554355456,-0.0208349,3.2805003e-06,2.5844405e-05,2.1270878e-05,1.0,41,0.020206558,7.4897576e-07,0,-6.441363893890816e-09,1.0
24,24,217729.38,13960.1455,26599.672,30040.443,-62.308434,16.153496767248726,-0.020764958,-1.8144225e-06,2.748064e-05,2.1546002e-05,1.0,41,0.020442761,6.80508e-07,0,-6.584268373941882e-09,1.0
25,25,188418.58,17158.672,28796.928,33521.383,-59.21137,16.70550327343517,-0.020773882,-4.3827168e-07,2.933258e-05,2.1647049e-05,1.0,41,0.020762999,6.193957e-07,0,-7.149410033231243e-09,1.0
26,26,163051.14,20880.438,30738.055,37159.395,-55.811634,17.25747924632742,-0.020799259,1.3140378e-06,3.175557e-05,2.1728783e-05,1.0,41,0.020247832,5.4489135e-07,0,-7.096231652717222e-09,1.0
27,27,141098.2,25250.475,32327.805,41020.402,-52.007458,17.809500152565306,-0.020837193,5.1035727e-06,3.4891724e-05,2.1670803e-05,1.0,41,0.020342495,4.9591165e-07,0,-7.141974893771577e-09,1.0
28,28,122105.11,29391.133,32633.047,43917.586,-47.992043,18.225491452292772,-0.0207524,-3.1477425e-06,3.9941897e-05,2.2052967e-05,1.0,41,0.021995356,5.008325e-07,0,-7.261244043707254e-09,1.0
29,29,105663.59,34109.21,33909.12,48096.43,-44.83145,18.777480865159305,-0.020794693,2.9881355e-06,4.441997e-05,2.2079315e-05,1.0,41,0.020451214,4.2521273e-07,0,-6.50098739580724e-09,1.0
30,30,91439.65,38782.484,33610.188,51319.836,-40.91329,19.193478671630146,-0.020818226,2.8205407e-06,5.178627e-05,2.2211914e-05,1.0,41,0.021752669,4.2386475e-07,0,-6.216008455027122e-09,1.0
31,31,79127.08,43328.273,34882.91,55625.145,-38.83699,19.91248907908448,-0.020829648,4.2399243e-08,5.7661015e-05,2.2675946e-05,1.0,42,0.018597253,3.3433176e-07,0,-5.200987524226658e-09,1.0
32,32,68475.36,48270.55,33686.355,58862.695,-34.909863,20.328482378885383,-0.020810941,8.747203e-08,6.899725e-05,2.2597456e-05,1.0,42,0.019334197,3.2846265e-07,0,-5.254205300299742e-09,1.0
33,33,59252.523,52475.098,32054.486,61490.86,-31.41873,20.74450341195916,-0.020786626,4.5904716e-09,8.379622e-05,2.277094e-05,1.0,42,0.019899422,3.2361595e-07,0,-5.21197557144188e-09,1.0
34,34,51282.285,56454.6,30539.273,64185.43,-28.411295,21.160490631737048,-0.020792086,1.9419421e-07,0.00010162348,2.3005865e-05,1.0,42,0.020437371,3.1841137e-07,0,-5.167596781374487e-09,1.0
35,35,44369.8,60071.94,27501.473,66067.914,-24.59873,21.57649195814156,-0.020765051,-4.6457592e-07,0.00013042976,2.2599947e-05,1.0,42,0.020801203,3.1484578e-07,0,-5.191843023135393e-09,1.0
36,36,38403.727,62760.48,25072.162,67583.22,-21.776197,21.99249131124816,-0.020783832,2.9148133e-09,0.0001652932,2.274892e-05,1.0,42,0.021083014,3.1195634e-07,0,-5.12506088180626e-09,1.0
37,37,33226.32,64825.016,22671.545,68675.19,-19.276495,22.40848834431381,-0.020847086,1.4614237e-07,0.00021127921,2.3026043e-05,1.0,42,0.02127184,3.0974564e-07,0,-5.199061693511611e-09,1.0
38,38,28754.086,67028.54,19972.83,69940.97,-16.592743,22.824483404081548,-0.020815263,8.486613e-08,0.00027712836,2.2599399e-05,1.0,42,0.021421961,3.0628632e-07,0,-5.220662299639479e-09,1.0
39,39,24884.947,68722.125,17744.361,70976.0,-14.477814,23.24050398383406,-0.020795811,-2.3231941e-07,0.00036043173,2.2527902e-05,1.0,42,0.021515964,3.0314422e-07,0,-5.160904898559298e-09,1.0
40,40,21553.963,69574.92,15550.715,71291.62,-12.599119,23.657483950286405,-0.020818915,8.747394e-08,0.0004748349,2.259261e-05,1.0,42,0.02146077,3.0102797e-07,0,-5.043706113071207e-09,1.0
41,41,18631.234,70097.48,13442.588,71374.78,-10.855811,24.07349447676097,-0.02075322,-4.375679e-07,0.00063547085,2.2540928e-05,1.0,42,0.02136328,2.9931132e-07,0,-4.952278889075185e-09,1.0
42,42,16126.037,71095.11,11587.566,72033.23,-9.25706,24.489497963135364,-0.020813903,2.5266285e-08,0.00085172657,2.2040374e-05,1.0,42,0.021274924,2.9534877e-07,0,-5.0488608760410615e-09,1.0
43,43,13954.87,71706.055,9576.789,72342.75,-7.6071897,24.905502756271744,-0.020797135,-1.6955181e-07,0.0011908975,2.0870086e-05,1.0,42,0.021151058,2.9237287e-07,0,-5.189150906574803e-09,1.0
44,44,12080.609,71366.85,8574.372,71880.09,-6.850964,25.32149554931675,-0.020766485,-3.043967e-07,0.0015364873,2.186333e-05,1.0,42,0.020718528,2.8823735e-07,0,-5.3106334913353395e-09,1.0
45,45,10447.592,72012.12,7293.4136,72380.516,-5.7832174,25.737496822461253,-0.020827523,4.1378811e-07,0.0020886858,2.1207596e-05,1.0,42,0.020321319,2.8075675e-07,0,-5.3875708646250095e-09,1.0
46,46,9045.586,72020.16,6310.169,72296.06,-5.007281,26.310246982990066,-0.020787707,-1.434749e-07,0.0027883188,2.1241985e-05,1.0,42,0.020322308,2.810984e-07,0,-5.557169318829362e-09,1.0
47,47,7827.7437,72116.555,5252.659,72307.59,-4.1658216,26.790938872494735,-0.020758213,-1.3565219e-07,0.0038708318,2.0426545e-05,1.0,42,0.020422336,2.8243693e-07,0,-5.5519912574766295e-09,1.0
48,48,6770.8345,71936.35,4491.838,72076.45,-3.5730147,27.329402284725802,-0.020788563,1.5770423e-08,0.0052330378,2.0324282e-05,1.0,42,0.020560164,2.8525494e-07,0,-5.493926373981298e-09,1.0
49,49,5860.798,71999.34,3993.1191,72109.99,-3.1744,27.93598388688406,-0.020779416,6.8303048e-09,0.0068006604,2.0853779e-05,1.0,42,0.020702628,2.8709792e-07,0,-5.623497194835952e-09,1.0
50,50,5071.625,71921.65,3537.9966,72008.62,-2.816245,28.616716052572883,-0.02080127,1.8749357e-07,0.008869836,2.1412208e-05,1.0,42,0.020813081,2.89036e-07,0,-5.81300000667579e-09,1.0
51,51,4388.5933,71730.64,3295.727,71806.31,-2.6306546,29.29681635153247,-0.020791546,1.6644763e-07,0.011003823,2.3180393e-05,1.0,42,0.020871604,2.906653e-07,0,-5.746195461556327e-09,1.0
52,52,3798.7827,71696.59,2859.1838,71753.58,-2.2836847,29.976845717174,-0.020807419,4.0355904e-08,0.0146532385,2.3266479e-05,1.0,42,0.02094988,2.9196983e-07,0,-5.5182059819445486e-09,1.0
53,53,3286.0488,71659.34,2616.9075,71707.11,-2.0914392,30.656705136134406,-0.020786775,3.4023664e-08,0.018507926,2.4649611e-05,1.0,42,0.021010898,2.9300998e-07,0,-5.4661819330179796e-09,1.0
54,54,2844.088,71841.56,2472.673,71884.1,-1.9712522,31.336832075103302,-0.020809375,1.9829723e-07,0.022631347,2.6777998e-05,1.0,42,0.021124197,2.9386467e-07,0,-5.298143977916601e-09,1.0
55,55,2460.7852,71702.68,2488.56,71745.85,-1.9877468,32.01670928073145,-0.020832721,9.6417736e-08,0.025989523,3.126806e-05,1.0,42,0.021132873,2.9455185e-07,0,-5.0614469715036924e-09,1.0
56,56,2129.3164,71642.68,2480.5762,71685.61,-1.983033,32.696829553024145,-0.020775018,1.3646202e-07,0.030131958,3.6080168e-05,1.0,42,0.02114921,2.950273e-07,0,-5.149560247039473e-09,1.0
57,57,1843.2289,71677.04,2553.3394,71722.5,-2.0401757,33.376958945329534,-0.02081476,1.0237809e-07,0.033816785,4.2858657e-05,1.0,42,0.021181142,2.9532075e-07,0,-5.00192158110223e-09,1.0
58,58,1594.4913,71733.125,2613.2068,71780.71,-2.0863378,34.05684273762745,-0.020803098,1.6924206e-07,0.038196553,5.0623974e-05,1.0,42,0.02120358,2.9539385e-07,0,-4.781552858008335e-09,1.0
59,59,1380.4436,71754.07,2649.407,71802.97,-2.1145964,34.73667727659631,-0.020792179,-1.1739843e-07,0.043516383,5.924686e-05,1.0,42,0.021216145,2.9547726e-07,0,-4.534742750341615e-09,1.0
60,60,1194.6187,71846.63,2994.4055,71909.01,-2.3865776,35.4168396822206,-0.020790633,1.1113171e-07,0.044491827,7.714981e-05,1.0,42,0.021233328,2.952805e-07,0,-4.487667142519827e-09,1.0
61,61,1033.3434,71918.6,3142.9307,71987.24,-2.5023034,36.09706630118308,-0.020788768,1.6253716e-07,0.049005028,9.3411254e-05,1.0,42,0.021241263,2.950698e-07,0,-4.527568627276916e-09,1.0
62,62,894.71045,71977.92,3914.4348,72084.28,-3.1128974,36.77682489348808,-0.020798588,2.3238144e-07,0.045443162,0.0001340064,1.0,42,0.02123859,2.9463553e-07,0,-4.526921591271894e-09,1.0
63,63,774.2569,72098.7,3691.8792,72193.164,-2.9313219,37.45693857912556,-0.020818878,1.1597455e-07,0.05567851,0.00014560972,1.0,42,0.021243045,2.9425286e-07,0,-4.308693690135436e-09,1.0
64,64,669.7856,72218.67,4249.1753,72343.57,-3.3672657,38.136814611410955,-0.020784726,1.3329591e-07,0.055921614,0.00019292528,1.0,42,0.021244273,2.9365805e-07,0,-4.2207761281582e-09,1.0
65,65,579.81464,72286.03,4605.921,72432.625,-3.645843,38.816843150387285,-0.02077634,7.146034e-08,0.05959564,0.00024097889,1.0,42,0.021236122,2.9318448e-07,0,-4.451904595755865e-09,1.0
66,66,501.44418,72521.94,5119.1895,72702.39,-4.0377054,39.49419174253126,-0.020786216,1.7222223e-07,0.062000662,0.0003073982,1.0,42,0.021238439,2.9212848e-07,0,-4.636897395730305e-09,1.0
67,67,434.02762,72707.32,5927.171,72948.516,-4.6605015,40.174223321460886,-0.02079803,1.5490083e-07,0.061866466,0.00040842968,1.0,42,0.021225937,2.9097146e-07,0,-4.306639716351886e-09,1.0
68,68,375.6009,73088.35,6541.139,73380.47,-5.114137,40.85244092703215,-0.020760467,2.2232368e-07,0.06477988,0.0005147377,1.0,42,0.0212735,2.8990684e-07,0,-3.986770002062675e-09,1.0
69,69,325.10385,73380.22,7204.51,73733.04,-5.60736,41.531704986002296,-0.020827783,2.424388e-07,0.06795064,0.0006487512,1.0,42,0.021259246,2.8832727e-07,0,-4.099729378853883e-09,1.0
70,70,281.3503,73632.59,8117.0864,74078.65,-6.2907534,42.20880051149288,-0.020758735,-7.2511874e-08,0.06969034,0.0008367328,1.0,42,0.02123411,2.8664277e-07,0,-4.407302588410921e-09,1.0
71,71,243.36427,74117.59,9085.308,74672.35,-6.988433,42.89212209059042,-0.020789906,7.72342e-08,0.07198196,0.0010655732,1.0,42,0.021261752,2.8473391e-07,0,-4.020433480522772e-09,1.0
72,72,210.60631,74494.56,10094.531,75175.39,-7.7169724,43.56916302940226,-0.020778857,1.18022825e-07,0.074862204,0.0013498438,1.0,42,0.021222534,2.8230693e-07,0,-3.794669453370937e-09,1.0
73,73,182.27473,75107.02,11384.434,75964.93,-8.619064,44.24125359466416,-0.020807102,8.0027476e-08,0.07669768,0.0017225775,1.0,42,0.0212469,2.7969355e-07,0,-3.94578231664866e-09,1.0
74,74,157.72879,75774.94,12505.237,76799.88,-9.371131,44.929642214068735,-0.02082115,2.1263835e-07,0.080689535,0.0021393409,1.0,42,0.021246048,2.7664166e-07,0,-3.6766196679328306e-09,1.0
75,75,136.52892,76593.695,13867.092,77838.875,-10.262093,45.602524485992035,-0.020823332,1.9587571e-07,0.08406401,0.002668012,1.0,42,0.021262102,2.731553e-07,0,-3.726692653013212e-09,1.0
76,76,118.14758,77269.414,15398.064,78788.72,-11.27013,46.290895585378166,-0.02083192,8.859513e-08,0.08748411,0.0033414376,1.0,42,0.021230638,2.6946293e-07,0,-3.85793485357766e-09,1.0
77,77,102.25773,78213.84,17083.28,80057.75,-12.3209095,46.95736577702337,-0.0208014,2.1785313e-07,0.091107205,0.004148475,1.0,42,0.021231992,2.6520846e-07,0,-3.816517712596439e-09,1.0
78,78,88.4436,79283.96,18767.096,81474.84,-13.31722,47.647309116407996,-0.02084282,1.8283782e-07,0.09588631,0.005087491,1.0,42,0.021230536,2.605778e-07,0,-3.75304761895576e-09,1.0
79,79,76.54279,80550.375,20701.338,83167.95,-14.413022,48.3137444814638,-0.020791825,-2.7440086e-08,0.10044248,0.0062230346,1.0,42,0.021250917,2.555181e-07,0,-3.783385461031704e-09,1.0
80,80,66.250786,81917.586,22910.672,85061.09,-15.625218,48.981962139863754,-0.02082048,1.02935644e-07,0.104855515,0.007606853,1.0,42,0.021276897,2.5013665e-07,0,-3.6123343515583882e-09,1.0
81,81,57.329906,83117.125,25264.86,86872.15,-16.907537,49.63664131764017,-0.020822698,-6.5435174e-08,0.10988086,0.009293829,1.0,42,0.021232322,2.4440885e-07,0,-3.720198665997524e-09,1.0
82,82,49.60321,84830.29,27578.488,89200.625,-18.009441,50.322354976815404,-0.020787241,-4.5309987e-09,0.1163429,0.01112103,1.0,42,0.021275131,2.3850876e-07,0,-3.7097139383159097e-09,1.0
83,83,42.92585,86434.5,30213.994,91563.14,-19.267553,51.03045341043617,-0.02079749,-3.7683428e-08,0.12271371,0.0133618945,1.0,42,0.021266347,2.3225881e-07,0,-3.500437762934578e-09,1.0
84,84,37.1518,88140.055,33094.37,94148.32,-20.579893,51.67417306770221,-0.020826833,3.9610526e-08,0.12944527,0.015994448,1.0,42,0.021246664,2.2567225e-07,0,-3.608173330469021e-09,1.0
85,85,32.150223,89950.3,36462.883,97059.766,-22.06601,52.31239784465288,-0.02079149,1.670061e-07,0.13576417,0.01916058,1.0,42,0.021248592,2.1892276e-07,0,-3.762036265386984e-09,1.0
86,86,27.835518,92016.09,40027.76,100345.32,-23.50944,53.03933470588527,-0.020809554,1.5769345e-07,0.14284319,0.022729395,1.0,42,0.021259429,2.1186268e-07,0,-3.908333686302513e-09,1.0
87,87,24.082958,93959.64,43676.832,103615.055,-24.931208,53.74137012587744,-0.020816736,-4.736922e-08,0.15130705,0.026885351,1.0,42,0.02122227,2.0481839e-07,0,-4.017952657929887e-09,1.0
88,88,20.833313,96361.31,47969.34,107640.88,-26.464445,54.39573565033788,-0.020792253,-1.38441525e-08,0.15925683,0.03162795,1.0,42,0.021252023,1.9743449e-07,0,-3.363898021330019e-09,1.0
89,89,18.021912,98747.57,52730.832,111944.734,-28.10205,55.14170851244853,-0.020787716,-3.2749004e-08,0.1674768,0.037160072,1.0,42,0.021257726,1.8989483e-07,0,-4.041564771171519e-09,1.0
90,90,15.604198,100865.21,57776.37,116240.695,-29.804415,55.797006463544676,-0.020790726,-1.8873282e-08,0.17653403,0.043612655,1.0,42,0.021195771,1.8234381e-07,0,-3.5195172467486676e-09,1.0
91,91,13.500899,103432.67,63984.11,121623.53,-31.741201,56.54396935235127,-0.020822072,1.6467673e-07,0.18424058,0.050991096,1.0,42,0.021249292,1.7471366e-07,0,-3.349321252152827e-09,1.0
92,92,11.686608,105804.805,70337.73,127051.375,-33.61547,57.358898804406635,-0.020788694,-1.1429051e-07,0.19361694,0.059341874,1.0,43,0.021206861,1.6691564e-07,0,-4.8698792610583695e-09,1.0
93,93,10.113269,108465.75,78242.86,133741.4,-35.805172,58.03250059633865,-0.020854948,-3.933368e-08,0.20113325,0.06884011,1.0,43,0.021242281,1.58831e-07,0,-4.300924430934414e-09,1.0
94,94,8.748621,111119.22,86994.88,141122.61,-38.057278,58.799381192802684,-0.020805072,-7.0418182e-09,0.20911579,0.07946594,1.0,43,0.02126188,1.5066246e-07,0,-3.413901981393587e-09,1.0
95,95,7.570237,113510.18,96968.08,149289.55,-40.506195,59.67500235440093,-0.020819595,-6.110423e-08,0.21681125,0.091470405,1.0,43,0.021242635,1.4229151e-07,0,-4.825427007697651e-09,1.0
96,96,6.554112,116065.53,108435.13,158837.61,-43.053364,60.21129827320692,-0.020798607,-1.227838e-07,0.22394237,0.104368545,1.0,43,0.021243393,1.3374284e-07,0,-3.798347632757289e-09,1.0
97,97,5.669445,118574.1,122408.98,170422.34,-45.911697,60.82113840882084,-0.02083926,-2.2574351e-09,0.22933288,0.118315,1.0,43,0.021301694,1.2499355e-07,0,-4.83017908712608e-09,1.0
98,98,4.907347,121819.16,136729.52,183125.28,-48.30056,61.51352782835602,-0.020822193,4.9384127e-08,0.23719802,0.13223274,1.0,43,0.021251174,1.1604718e-07,0,-3.2734863298102824e-09,1.0
99,99,4.245922,124901.055,154125.55,198380.84,-50.979206,62.301292559102876,-0.020799212,-2.8489734e-07,0.24320555,0.14679906,1.0,43,0.02123644,1.0704884e-07,0,-5.1666553084185945e-09,1.0
100,100,3.6747382,128220.19,174773.7,216763.16,-53.73491,63.20092502856278,-0.020818906,9.4209085e-08,0.24780932,0.16110124,1.0,43,0.021249054,9.80289e-08,0,-4.400776847119579e-09,1.0
101,101,3.180988,132161.98,197650.08,237765.31,-56.23068,64.23020929077757,-0.02079392,-1.7174644e-08,0.25314018,0.17492749,1.0,43,0.021256616,8.9401674e-08,0,-3.076182586193848e-09,1.0
102,102,2.752818,135712.9,224788.28,262579.06,-58.879086,65.40914356007124,-0.020821238,-1.7727974e-07,0.25719878,0.18849337,1.0,43,0.021256456,8.0952596e-08,0,-4.481309571013349e-09,1.0
103,103,2.3804083,140818.53,255479.56,291718.47,-61.136757,66.7640036244411,-0.020808723,-5.834835e-08,0.26170528,0.20072293,1.0,43,0.021248458,7.283892e-08,0,-5.614910825387466e-09,1.0
104,104,2.060257,145828.73,290799.88,325316.12,-63.3674,68.32026313836104,-0.02080496,-1.12439125e-08,0.26564676,0.21226667,1.0,43,0.021253178,6.5330845e-08,0,-4.530004313019494e-09,1.0
105,105,1.7836765,152104.0,330598.0,363910.25,-65.293434,70.10864367667455,-0.020808574,-4.0083957e-08,0.2699006,0.22274897,1.0,43,0.021248652,5.8389816e-08,0,-3.109785401460267e-09,1.0
