True,index,freq,Re(Z),Im(Z),Z,Phase(Z),time,Ewe_meas,I_meas,Cs,Cp,cycle_number,I_Range,Ewe,I,Ns,(QQo),cycle
0,0,7000018.5,163.44038,1331.3055,1341.3005,-83.00099,2.4664885438105557,-0.017755244,-6.2581216e-06,1.7078244e-05,1.6824668e-05,1.0,40,0.009961421,7.426688e-06,0,1.0813330295920625e-09,1.0
1,1,6057573.0,229.0237,1548.255,1565.1024,-81.58561,3.0184788100013975,-0.017746374,-1.3718997e-05,1.6969889e-05,1.6606513e-05,1.0,40,0.014113857,9.017849e-06,0,-3.553534721176119e-09,1.0
2,2,5242039.0,229.07999,1811.5155,1825.9425,-82.79276,3.434479389776243,-0.01771567,-1.2900336e-05,1.6760147e-05,1.6496346e-05,1.0,40,0.019470077,1.0663029e-05,0,-3.539572295949256e-09,1.0
3,3,4536288.0,190.34895,2097.0342,2105.6555,-84.813446,4.803484094765736,-0.01771988,-3.2882526e-05,1.6730695e-05,1.6593973e-05,1.0,40,0.01830494,8.693227e-06,0,5.62792809104293e-10,1.0
4,4,3925558.5,262.37134,2434.5813,2448.6782,-83.84905,5.35550236099516,-0.01779534,-1.41282835e-05,1.6653074e-05,1.6461883e-05,1.0,40,0.020466924,8.358355e-06,0,2.3600512569904214e-09,1.0
5,5,3397055.0,324.25403,2737.7656,2756.9006,-83.2455,5.771483047428774,-0.017776875,-2.858467e-05,1.7112809e-05,1.687608e-05,1.0,40,0.02126619,7.713804e-06,0,-1.4476164016312193e-09,1.0
6,6,2939708.2,376.43677,3154.6655,3177.0457,-83.195244,6.323480860301061,-0.017801842,-1.0667684e-05,1.716179e-05,1.6920854e-05,1.0,40,0.0202751,6.381746e-06,0,-4.986955992661832e-09,1.0
7,7,2543924.5,404.96338,3610.2478,3632.8892,-83.59985,6.875489153229864,-0.017778104,-3.703152e-05,1.7329216e-05,1.7113885e-05,1.0,40,0.020770028,5.7172206e-06,0,-1.1890901469769232e-08,1.0
8,8,2201436.2,488.89062,4104.0522,4133.069,-83.20672,7.427487686072709,-0.017795488,-1.3402676e-05,1.761575e-05,1.7369272e-05,1.0,40,0.020732041,5.0161375e-06,0,-1.2314580021021963e-08,1.0
9,9,1905053.1,544.2601,4760.258,4791.2705,-83.477455,7.979501738998806,-0.017808288,-2.1347181e-05,1.755022e-05,1.7323759e-05,1.0,40,0.020338655,4.2449396e-06,0,-1.3187447489675227e-08,1.0
10,10,1648567.4,476.784,5631.978,5652.1235,-85.16107,8.698493906442309,-0.017811883,-2.8144295e-06,1.7141645e-05,1.7019669e-05,1.0,41,0.01892471,3.3482477e-06,0,-1.2957371102198559e-08,1.0
11,11,1426616.2,604.86536,6456.8784,6485.148,-84.648285,9.114496272901306,-0.017843949,-2.8907627e-06,1.7277876e-05,1.7127571e-05,1.0,41,0.021808013,3.3627628e-06,0,-1.327210751970319e-08,1.0
12,12,1234551.2,721.4035,7514.765,7549.3125,-84.51652,9.666499979124637,-0.017805679,-5.2669043e-06,1.7155193e-05,1.699854e-05,1.0,41,0.0211113,2.7964534e-06,0,-1.3741717731036828e-08,1.0
13,13,1068345.5,871.96655,8575.865,8620.081,-84.1943,10.218499418668216,-0.0178122,-2.7119947e-06,1.7371225e-05,1.7193475e-05,1.0,41,0.020699717,2.4013368e-06,0,-1.497071076424719e-08,1.0
14,14,924510.06,1190.7847,9779.45,9851.681,-83.05762,10.770486964873271,-0.017812368,-3.3227896e-06,1.7603299e-05,1.7346118e-05,1.0,41,0.020244174,2.0548955e-06,0,-1.4276050998559084e-08,1.0
15,15,800039.0,1655.2544,11429.871,11549.1045,-81.75981,11.322491417784477,-0.017784141,-5.4456746e-06,1.7404744e-05,1.7047223e-05,1.0,41,0.02053263,1.7778548e-06,0,-1.4637189968332285e-08,1.0
16,16,692334.1,1930.3259,13029.315,13171.53,-81.572784,11.874493390641874,-0.017817678,-5.146226e-07,1.7643422e-05,1.7264481e-05,1.0,41,0.02051517,1.5575388e-06,0,-1.4674538945308137e-08,1.0
17,17,599122.25,2405.714,14929.77,15122.351,-80.846306,12.426500723551726,-0.017821219,-6.1890506e-07,1.7793098e-05,1.73428e-05,1.0,41,0.020406354,1.3494168e-06,0,-1.4552075592759037e-08,1.0
18,18,518454.94,3109.0422,17248.293,17526.26,-79.782036,12.978501683071954,-0.017824944,-6.729083e-07,1.7797664e-05,1.7237599e-05,1.0,41,0.020542473,1.1720967e-06,0,-1.496266818422972e-08,1.0
19,19,448662.03,4050.222,19570.947,19985.652,-78.307655,13.530478855973342,-0.017780751,-3.266924e-06,1.8125456e-05,1.738105e-05,1.0,41,0.020316739,1.0165662e-06,0,-1.50602638513896e-08,1.0
20,20,388258.97,5180.0664,22270.377,22864.88,-76.90589,14.082478855532827,-0.01782854,-1.7362123e-06,1.8406494e-05,1.7461773e-05,1.0,41,0.021018157,9.192332e-07,0,-1.6043294192538978e-08,1.0
21,21,335983.9,6235.8696,24772.023,25544.848,-75.87048,14.634494588390226,-0.017836776,1.6045366e-06,1.91223e-05,1.7982766e-05,1.0,41,0.020197015,7.9064927e-07,0,-1.6982159141858213e-08,1.0
22,22,290751.2,8664.372,28534.727,29821.166,-73.10945,15.18648693463183,-0.017816896,-2.5164666e-06,1.918337e-05,1.7563987e-05,1.0,41,0.020518146,6.8803973e-07,0,-1.73555803552663e-08,1.0
23,23,251605.19,11204.873,32141.783,34038.85,-70.78105,15.738497707498027,-0.017825726,8.5221626e-07,1.9680248e-05,1.7547722e-05,1.0,41,0.020454833,6.0092606e-07,0,-1.7236885128302976e-08,1.0
24,24,217729.38,14005.35,35678.426,38328.84,-68.56781,16.29049858704093,-0.017839681,5.188857e-07,2.0487898e-05,1.7752414e-05,1.0,41,0.020288918,5.293382e-07,0,-1.6287521808509256e-08,1.0
25,25,188418.58,17886.002,39572.582,43426.93,-65.678,16.842504346597707,-0.017823175,-2.5406746e-06,2.1345286e-05,1.772444e-05,1.0,41,0.020728823,4.7732647e-07,0,-1.638305411011566e-08,1.0
26,26,163051.14,22211.193,43164.547,48543.953,-62.770996,17.39448642617208,-0.01784352,2.4890708e-06,2.2613569e-05,1.787941e-05,1.0,41,0.020375537,4.1973377e-07,0,-1.63642353851543e-08,1.0
27,27,141098.2,25864.26,47563.812,54141.26,-61.463528,18.112502006959403,-0.017851792,-1.5889749e-06,2.3714938e-05,1.8302842e-05,1.0,42,0.019030692,3.5150072e-07,0,-1.660069299066554e-08,1.0
28,28,122105.11,31706.785,51121.875,60156.184,-58.192,18.52848645337508,-0.017821964,-1.6429877e-06,2.5496438e-05,1.8413339e-05,1.0,42,0.020496562,3.4072244e-07,0,-1.679221764758972e-08,1.0
29,29,105663.59,38208.176,54944.61,66923.65,-55.185463,18.944500686455285,-0.017829677,-1.4725678e-06,2.7413827e-05,1.847824e-05,1.0,42,0.02193194,3.2771584e-07,0,-1.6950538791281883e-08,1.0
30,30,91439.65,45598.312,57512.6,73395.54,-51.591198,19.496480045985663,-0.017824478,-1.6878741e-06,3.0263738e-05,1.858272e-05,1.0,42,0.020425765,2.7829708e-07,0,-1.7180711180373503e-08,1.0
31,31,79127.08,53938.684,59289.098,80153.47,-47.705414,19.912503932457184,-0.017807879,-1.6709253e-06,3.3925025e-05,1.856202e-05,1.0,42,0.021432789,2.673969e-07,0,-1.7419946109222274e-08,1.0
32,32,68475.36,62018.965,59531.94,85967.46,-43.82785,20.464484545314917,-0.017831838,-1.6612402e-06,3.9042334e-05,1.8722665e-05,1.0,42,0.020184275,2.3478971e-07,0,-1.7769229923419535e-08,1.0
33,33,59252.523,69773.38,59118.055,91450.914,-40.27416,20.880480591760715,-0.017843893,-1.4612065e-06,4.5435274e-05,1.8987042e-05,1.0,42,0.02082644,2.2773354e-07,0,-1.7991273259532844e-08,1.0
34,34,51282.285,77914.45,58965.06,97711.516,-37.118153,21.29650063815643,-0.017771658,-2.0102748e-06,5.263299e-05,1.9167082e-05,1.0,42,0.021376528,2.1877183e-07,0,-1.8224810849079946e-08,1.0
35,35,44369.8,86582.66,55331.0,102752.5,-32.580776,21.71249732459546,-0.017862413,-1.2706714e-06,6.482822e-05,1.8798204e-05,1.0,42,0.021773485,2.1190225e-07,0,-1.8393939224135952e-08,1.0
36,36,38403.727,92735.33,51749.414,106197.19,-29.16298,22.26449927079375,-0.017865691,-1.3850296e-06,8.008318e-05,1.9016306e-05,1.0,42,0.020237945,1.905695e-07,0,-1.8674216640550295e-08,1.0
37,37,33226.32,98530.52,48032.594,109614.75,-25.988747,22.68048782387632,-0.017833535,-1.561968e-06,9.972449e-05,1.9148552e-05,1.0,42,0.020431107,1.8639012e-07,0,-1.8897050076429857e-08,1.0
38,38,28754.086,103447.86,44523.17,112622.26,-23.286676,23.096502536995104,-0.017799791,-1.4748025e-06,0.00012431813,1.9429346e-05,1.0,42,0.020524798,1.8224459e-07,0,-1.902622835559558e-08,1.0
39,39,24884.947,108146.016,40357.81,115430.99,-20.464512,23.512486930092564,-0.017849091,-1.3423778e-06,0.0001584732,1.9371628e-05,1.0,42,0.020591654,1.783893e-07,0,-1.916447290523651e-08,1.0
40,40,21553.963,111273.95,37125.137,117303.74,-18.45062,23.9295004165906,-0.01780199,-1.5187574e-06,0.00019889549,1.9922201e-05,1.0,42,0.02055785,1.7525315e-07,0,-1.9323754695599427e-08,1.0
41,41,18631.234,114228.11,32747.895,118829.65,-15.996993,24.3454808096576,-0.017801004,-1.9700437e-06,0.00026085257,1.9811267e-05,1.0,42,0.020503066,1.7254168e-07,0,-1.9483816722384974e-08,1.0
42,42,16126.037,116957.984,28890.215,120473.3,-13.875089,24.76150010942365,-0.017806947,-1.6733453e-06,0.00034161875,1.9645435e-05,1.0,42,0.020358767,1.6898987e-07,0,-1.9746781340091187e-08,1.0
43,43,13954.87,118802.07,25445.438,121496.51,-12.089155,25.177484609157545,-0.01779411,-1.8098671e-06,0.00044821296,1.965969e-05,1.0,42,0.020150235,1.6585032e-07,0,-2.0024300643960657e-08,1.0
44,44,12080.609,119111.69,22688.797,121253.35,-10.784696,25.59349929561722,-0.017815256,-1.4379235e-06,0.0005806572,2.0330835e-05,1.0,42,0.019729087,1.6270963e-07,0,-2.0274611365289036e-08,1.0
45,45,10447.592,121065.97,19877.459,122686.93,-9.324032,26.0094853953633,-0.017799456,-1.7741069e-06,0.00076637807,2.0117232e-05,1.0,42,0.019297283,1.5728882e-07,0,-2.0573368950863023e-08,1.0
46,46,9045.586,121576.65,17583.264,122841.58,-8.229453,26.44125866921968,-0.017803388,-1.5344011e-06,0.001000654,2.0501806e-05,1.0,42,0.021921774,1.7845565e-07,0,-2.0739383715808106e-08,1.0
47,47,7827.7437,122331.11,15604.776,123322.38,-7.2694926,26.921930132055422,-0.017830571,-1.4280516e-06,0.0013029447,2.0862064e-05,1.0,42,0.021974655,1.781887e-07,0,-2.104728376390123e-08,1.0
48,48,6770.8345,122922.14,13677.482,123680.74,-6.349155,27.63540165926679,-0.017837334,-1.5703476e-06,0.0017185882,2.1017446e-05,1.0,42,0.020203976,1.6335588e-07,0,-2.1365405773275528e-08,1.0
49,49,5860.798,123248.71,12409.438,123871.87,-5.749515,28.240994968044106,-0.017781831,-1.7836052e-06,0.0021883221,2.196191e-05,1.0,42,0.020252064,1.6349203e-07,0,-2.1515379686212396e-08,1.0
50,50,5071.625,123276.88,11079.808,123773.8,-5.135797,28.921683373730048,-0.017824702,-1.5975402e-06,0.00283231,2.269592e-05,1.0,42,0.020290848,1.6393493e-07,0,-2.190181196215314e-08,1.0
51,51,4388.5933,123438.76,10190.458,123858.68,-4.719338,29.601829272694886,-0.01783793,-1.481878e-06,0.0035587798,2.4089935e-05,1.0,42,0.02032767,1.6411987e-07,0,-2.2245959823521843e-08,1.0
52,52,3798.7827,123770.15,9326.485,124121.04,-4.3092804,30.281820611664443,-0.017801562,-1.5628971e-06,0.0044921855,2.5363133e-05,1.0,42,0.020374995,1.6415424e-07,0,-2.2443462752458664e-08,1.0
53,53,3286.0488,124077.14,8692.939,124381.28,-4.007638,30.96170536395948,-0.017820958,-1.4785253e-06,0.0055715945,2.7214648e-05,1.0,42,0.02042916,1.6424626e-07,0,-2.2581859740509142e-08,1.0
54,54,2844.088,124242.86,8051.3545,124503.46,-3.7077746,31.641847582912305,-0.01782338,-1.6204484e-06,0.0069503738,2.9065863e-05,1.0,42,0.020449447,1.6424802e-07,0,-2.2990496367068006e-08,1.0
55,55,2460.7852,124355.805,7987.384,124612.055,-3.6750643,32.32171174855466,-0.017848905,-1.3515016e-06,0.00809733,3.326832e-05,1.0,42,0.02046081,1.6419608e-07,0,-2.3137964007812824e-08,1.0
56,56,2129.3164,124586.51,7551.314,124815.14,-3.4685118,33.00183287418622,-0.017839963,-1.4090532e-06,0.009898227,3.6229965e-05,1.0,42,0.020464566,1.63959e-07,0,-2.3544680428806764e-08,1.0
57,57,1843.2289,124946.08,7645.3726,125179.766,-3.5015273,33.68193527980475,-0.017804114,-1.6310645e-06,0.0112938555,4.212804e-05,1.0,42,0.020494841,1.6372327e-07,0,-2.3704514584125035e-08,1.0
58,58,1594.4913,125338.11,7567.8096,125566.37,-3.4552763,34.36184488545405,-0.01783126,-1.5191275e-06,0.0131894825,4.7909485e-05,1.0,42,0.02051583,1.6338635e-07,0,-2.38835205027191e-08,1.0
59,59,1380.4436,125493.77,7871.3467,125740.39,-3.5890617,35.041713611077284,-0.017840987,-1.4708885e-06,0.014647125,5.7398545e-05,1.0,42,0.02050966,1.6311115e-07,0,-2.415043583065805e-08,1.0
60,60,1194.6187,125679.68,8312.303,125954.266,-3.7839627,35.721815776705625,-0.017803797,-1.5725815e-06,0.016027637,6.9804984e-05,1.0,42,0.020500502,1.6276147e-07,0,-2.4356548541018382e-08,1.0
61,61,1033.3434,126053.164,8594.239,126345.8,-3.9003603,36.40210274231504,-0.017790494,-1.5928829e-06,0.01792124,8.2920385e-05,1.0,42,0.020486481,1.6214612e-07,0,-2.4569253663055215e-08,1.0
62,62,894.71045,126832.555,9064.541,127156.055,-4.087897,37.08181957463967,-0.017793512,-1.6334858e-06,0.019624194,9.9726225e-05,1.0,42,0.0205329,1.6147796e-07,0,-2.4960154703851996e-08,1.0
63,63,774.2569,127407.375,10264.444,127820.18,-4.6060276,37.76195208693389,-0.017780807,-1.4733099e-06,0.02002625,0.00012914324,1.0,42,0.020552523,1.6079248e-07,0,-2.5257726279138618e-08,1.0
64,64,669.7856,127670.92,10346.627,128089.484,-4.6332035,38.4418214259058,-0.017803704,-1.4602723e-06,0.022966012,0.0001498498,1.0,42,0.020532714,1.6029976e-07,0,-2.541051809788048e-08,1.0
65,65,579.81464,128210.69,10963.682,128678.6,-4.8876443,39.12181004487502,-0.017773706,-1.4842988e-06,0.025036553,0.00018175012,1.0,42,0.020542461,1.5964163e-07,0,-2.578115101690506e-08,1.0
66,66,501.44418,128684.01,11818.35,129225.57,-5.2473288,39.7991698103433,-0.017785892,-1.4874649e-06,0.026855962,0.00022462467,1.0,42,0.02052526,1.588328e-07,0,-2.6204583397724295e-08,1.0
67,67,434.02762,129549.27,13152.286,130215.195,-5.797002,40.47919458927936,-0.017773204,-1.5465065e-06,0.027880562,0.00028443345,1.0,42,0.020571932,1.5798412e-07,0,-2.6448870580133467e-08,1.0
68,68,375.6009,130187.15,14244.22,130964.086,-6.244089,41.15744464818272,-0.017804096,-1.3963883e-06,0.029747799,0.00035190687,1.0,42,0.020539545,1.5683341e-07,0,-2.6592347004713208e-08,1.0
69,69,325.10385,130760.414,15452.571,131670.3,-6.739653,41.836675400489185,-0.017808158,-1.508139e-06,0.031680882,0.0004363381,1.0,42,0.020497799,1.556752e-07,0,-2.7043487882098797e-08,1.0
70,70,281.3503,132068.73,16937.545,133150.4,-7.3081737,42.51381924598536,-0.017815238,-1.4844851e-06,0.03339814,0.00054042845,1.0,42,0.020548318,1.543241e-07,0,-2.744423183222327e-08,1.0
71,71,243.36427,132964.89,18545.299,134251.97,-7.9401145,43.19709207842243,-0.017786078,-1.4325212e-06,0.03526383,0.0006729082,1.0,42,0.02054536,1.5303581e-07,0,-2.7640769805765487e-08,1.0
72,72,210.60631,133958.1,20538.426,135523.42,-8.716699,43.87416725725052,-0.017793456,-1.4748002e-06,0.03679439,0.00084505935,1.0,42,0.020519964,1.5141268e-07,0,-2.7776061153585847e-08,1.0
73,73,182.27473,135965.25,22278.342,137778.34,-9.3054085,44.5462687824911,-0.017795637,-1.549487e-06,0.039193206,0.0010247421,1.0,42,0.020584166,1.4940059e-07,0,-2.821079419712073e-08,1.0
74,74,157.72879,137482.62,24714.867,139686.42,-10.191053,45.23465374855732,-0.017828112,-1.3136932e-06,0.04082732,0.001278083,1.0,42,0.020578988,1.4732275e-07,0,-2.835091796409718e-08,1.0
75,75,136.52892,138336.84,27148.963,140975.7,-11.103332,45.90751290044864,-0.017840689,-1.4606455e-06,0.042938042,0.0015924295,1.0,42,0.02051491,1.4552089e-07,0,-2.882638736076358e-08,1.0
76,76,118.14758,140196.64,29233.92,143212.16,-11.7785845,46.5958961865108,-0.017842738,-1.4289827e-06,0.046079554,0.0019200945,1.0,42,0.020524677,1.4331658e-07,0,-2.9087482660754165e-08,1.0
77,77,102.25773,142546.28,31793.2,146048.8,-12.573326,47.2623460314644,-0.017819056,-1.3718038e-06,0.048954174,0.0023198626,1.0,42,0.020556629,1.4075178e-07,0,-2.936465608528316e-08,1.0
78,78,88.4436,144366.77,34847.316,148512.95,-13.570497,47.95126299755066,-0.017816132,-1.4237679e-06,0.051639777,0.0028431145,1.0,42,0.020520654,1.3817417e-07,0,-2.9575365941716294e-08,1.0
79,79,76.54279,146362.38,37590.383,151112.48,-14.404007,48.61874302927754,-0.017812032,-1.4734969e-06,0.055314507,0.0034228817,1.0,42,0.020475814,1.3550049e-07,0,-2.987730901433751e-08,1.0
80,80,66.250786,149541.2,41509.105,155195.28,-15.513398,49.28697498101974,-0.017823417,-1.5481838e-06,0.057874296,0.004140144,1.0,42,0.020541023,1.3235598e-07,0,-3.017020524537411e-08,1.0
81,81,57.329906,152049.42,44874.324,158533.06,-16.442904,49.941640638793615,-0.017815033,-1.5060908e-06,0.061864424,0.004956751,1.0,42,0.020526832,1.2947982e-07,0,-3.037138630900257e-08,1.0
82,82,49.60321,155761.06,48917.37,163261.81,-17.435099,50.62637640457251,-0.017795805,-1.5383124e-06,0.06559145,0.0058884937,1.0,42,0.020524323,1.2571417e-07,0,-3.057264791233156e-08,1.0
83,83,42.92585,159419.12,54093.06,168346.42,-18.742767,51.33443049158086,-0.017816616,-1.4142691e-06,0.06854246,0.0070767687,1.0,42,0.020557381,1.2211356e-07,0,-3.0983637309567965e-08,1.0
84,84,37.1518,163033.89,57722.28,172950.61,-19.49655,51.978163695457624,-0.017845029,-1.4870934e-06,0.074215874,0.008266841,1.0,42,0.020532811,1.1872066e-07,0,-3.1289334896513406e-08,1.0
85,85,32.150223,174355.75,64968.367,186066.7,-20.436378,52.85639288384118,-0.017809704,-1.5063738e-06,0.07619635,0.00928968,1.0,43,0.020523444,1.10301535e-07,0,-3.147881835404161e-08,1.0
86,86,27.835518,178952.58,70350.41,192284.17,-21.460941,53.584302865114296,-0.017812721,-1.4662415e-06,0.08127449,0.010879285,1.0,43,0.020506151,1.06645025e-07,0,-3.170068704629811e-08,1.0
87,87,24.082958,184672.53,76557.336,199912.4,-22.516806,54.28640564510715,-0.01782964,-1.47032e-06,0.0863224,0.012659531,1.0,43,0.020554785,1.0281895e-07,0,-3.191245623774197e-08,1.0
88,88,20.833313,189933.44,82372.73,207026.52,-23.446022,54.94076276956184,-0.017846333,-1.5238608e-06,0.0927424,0.014682272,1.0,43,0.020507565,9.905767e-08,0,-3.2481487574892714e-08,1.0
89,89,18.021912,196427.06,89173.07,215720.72,-24.416883,55.686744271661155,-0.017770344,-1.544821e-06,0.09903429,0.016922686,1.0,43,0.0205255,9.5148486e-08,0,-3.252438771399646e-08,1.0
90,90,15.604198,203033.61,96055.05,224609.03,-25.318796,56.342023049423005,-0.017814027,-1.525537e-06,0.10618386,0.019419786,1.0,43,0.020521529,9.136556e-08,0,-3.307362643855447e-08,1.0
91,91,13.500899,210275.05,103870.2,234530.62,-26.28813,57.08998521830654,-0.01782622,-1.5504637e-06,0.11349231,0.022261238,1.0,43,0.020528631,8.753071e-08,0,-3.346497199964422e-08,1.0
92,92,11.686608,217810.78,112166.34,244995.56,-27.247177,57.68087575302343,-0.017796867,-1.5356492e-06,0.12141409,0.025449414,1.0,43,0.020512061,8.372422e-08,0,-3.3640524073859384e-08,1.0
93,93,10.113269,226056.23,120119.56,255988.53,-27.98485,58.35452349166735,-0.017835937,-1.5017371e-06,0.13101314,0.028847044,1.0,43,0.020485647,8.002564e-08,0,-3.351509117943803e-08,1.0
94,94,8.748621,235386.22,129008.305,268420.97,-28.72586,59.12137779474142,-0.017831298,-1.4870623e-06,0.1410142,0.032573566,1.0,43,0.02051719,7.643661e-08,0,-3.3666626261879293e-08,1.0
95,95,7.570237,244705.4,138979.12,281417.72,-29.59418,59.99697783635929,-0.017826052,-1.5029757e-06,0.15127288,0.036894135,1.0,43,0.020514254,7.28961e-08,0,-3.476773173320898e-08,1.0
96,96,6.554112,254414.58,149282.78,294978.2,-30.403122,60.5323274351249,-0.017832117,-1.4377492e-06,0.16266592,0.041661624,1.0,43,0.020504631,6.951237e-08,0,-3.4140113452658165e-08,1.0
97,97,5.669445,264951.28,160401.03,309721.94,-31.190636,61.14213362408918,-0.017837968,-1.5879804e-06,0.17501386,0.04693997,1.0,43,0.02052059,6.6254884e-08,0,-3.53200236326217e-08,1.0
98,98,4.907347,275428.0,172802.16,325147.9,-32.103954,61.8345613903075,-0.01783564,-1.4246762e-06,0.18768267,0.053010337,1.0,43,0.020527555,6.313297e-08,0,-3.4596319165437406e-08,1.0
99,99,4.245922,286682.88,185457.42,341440.38,-32.899147,62.622315027721925,-0.017844014,-1.593968e-06,0.20211749,0.059629694,1.0,43,0.020515963,6.008652e-08,0,-3.557858229486399e-08,1.0
100,100,3.6747382,298444.78,199836.95,359171.4,-33.80604,63.52193712379085,-0.017806051,-1.5270093e-06,0.21672945,0.06709127,1.0,43,0.020529805,5.7158797e-08,0,-3.634165577943745e-08,1.0
101,101,3.180988,309337.16,215813.56,377180.28,-34.902115,64.5512378126441,-0.017830152,-1.4403662e-06,0.23183517,0.07589949,1.0,43,0.020523075,5.4411846e-08,0,-3.568666690184408e-08,1.0
102,102,2.752818,322115.0,233299.14,397726.75,-35.91479,65.73013816200546,-0.017822124,-1.5318748e-06,0.24781609,0.08526801,1.0,43,0.020513453,5.1576748e-08,0,-3.620378314927603e-08,1.0
103,103,2.3804083,333712.47,253009.39,418781.28,-37.168163,67.08398390631191,-0.017838242,-1.559145e-06,0.26426035,0.09645634,1.0,43,0.02051534,4.8988195e-08,0,-3.788562990891877e-08,1.0
104,104,2.060257,347234.47,275489.8,443245.3,-38.427876,68.64036091355956,-0.017814124,-1.5032094e-06,0.2804098,0.10832183,1.0,43,0.020519268,4.6293255e-08,0,-3.877995425910304e-08,1.0
