True,index,freq,Re(Z),Im(Z),Z,Phase(Z),time,Ewe_meas,I_meas,Cs,Cp,cycle_number,I_Range,Ewe,I,Ns,(QQo),cycle
0,0,7000018.5,187.54587,1387.7313,1400.347,-82.30335,2.4694970772543456,0.024997825,2.4738456e-05,1.6383836e-05,1.6089962e-05,1.0,40,0.010006122,7.145459e-06,0,4.511487818837799e-09,1.0
1,1,6057573.0,245.1521,1542.7095,1562.0667,-80.97062,3.0214803834969644,0.024998626,6.635299e-06,1.703089e-05,1.6611411e-05,1.0,40,0.014086232,9.017689e-06,0,4.810734109980786e-09,1.0
2,2,5242039.0,223.52245,1821.3008,1834.9656,-83.00326,3.4374998699349817,0.025067972,-6.5000813e-06,1.6670101e-05,1.6422744e-05,1.0,40,0.01950515,1.0629709e-05,0,4.023221292855952e-09,1.0
3,3,4536288.0,187.96786,2111.151,2119.5022,-84.91204,4.805480574868852,0.025035385,-1.9747122e-05,1.6618822e-05,1.6488117e-05,1.0,40,0.018195342,8.584724e-06,0,-1.2796260491016811e-08,1.0
4,4,3925558.5,260.86877,2413.1855,2427.2446,-83.8302,5.357498921133811,0.025002928,-4.4720873e-06,1.6800723e-05,1.660666e-05,1.0,40,0.02053833,8.461582e-06,0,-1.6391330492019228e-08,1.0
5,5,3397055.0,341.39508,2768.4863,2789.4565,-82.97008,5.773492007545428,0.025001327,-1.721678e-05,1.6922915e-05,1.666943e-05,1.0,40,0.02136857,7.660478e-06,0,-1.9003220513316894e-08,1.0
6,6,2939708.2,374.25388,3140.9482,3163.1665,-83.20506,6.325502273772145,0.025006544,-3.52268e-05,1.723674e-05,1.6995446e-05,1.0,40,0.02025911,6.404693e-06,0,-1.9099906120140353e-08,1.0
7,7,2543924.5,439.43875,3623.8906,3650.437,-83.08598,6.877481259958586,0.02495538,-6.3512334e-06,1.7263977e-05,1.7013797e-05,1.0,40,0.02076722,5.688968e-06,0,-2.5753901854879283e-08,1.0
8,8,2201436.2,481.30457,4158.195,4185.957,-83.397484,7.429495259508258,0.024956983,-1.870521e-05,1.7386381e-05,1.7156524e-05,1.0,40,0.020696256,4.9442115e-06,0,-3.020426961682511e-08,1.0
9,9,1905053.1,539.47107,4771.552,4801.951,-83.54954,7.981496352382237,0.02498685,-3.1245243e-05,1.7508679e-05,1.7287699e-05,1.0,40,0.020327218,4.233116e-06,0,-3.765075004313366e-08,1.0
10,10,1648567.4,464.0015,5629.927,5649.015,-85.288506,8.69949979984085,0.024938054,-4.0211216e-06,1.7147891e-05,1.7032198e-05,1.0,41,0.01898145,3.3601343e-06,0,-3.961822217284963e-08,1.0
11,11,1426616.2,591.9405,6461.618,6488.675,-84.765816,9.115488299605204,0.024963541,7.3862515e-07,1.7265203e-05,1.7121518e-05,1.0,41,0.021869024,3.3703375e-06,0,-3.977410490017282e-08,1.0
12,12,1234551.2,683.61005,7493.4717,7524.589,-84.78748,9.667497419141,0.024958437,1.997457e-06,1.720394e-05,1.7061944e-05,1.0,41,0.020961339,2.7857122e-06,0,-4.068875328385325e-08,1.0
13,13,1068345.5,894.9817,8694.103,8740.047,-84.122604,10.219494885386666,0.024991024,-2.3246612e-06,1.7134982e-05,1.6955308e-05,1.0,41,0.020711657,2.369742e-06,0,-4.1590190123075546e-08,1.0
14,14,924510.06,1149.9358,9866.934,9933.717,-83.352486,10.77150269827689,0.024921099,2.591492e-06,1.7447222e-05,1.7213419e-05,1.0,41,0.020302776,2.0438247e-06,0,-4.1061106811134275e-08,1.0
15,15,800039.0,1513.029,11380.588,11480.725,-82.42704,11.323502751154592,0.024999967,-7.3994676e-07,1.7480113e-05,1.7176515e-05,1.0,41,0.020619435,1.7960047e-06,0,-4.1253008895211e-08,1.0
16,16,692334.1,1836.6824,13081.324,13209.635,-82.00764,11.87548859071103,0.024974832,-9.336133e-07,1.7573275e-05,1.723354e-05,1.0,41,0.020354927,1.5409152e-06,0,-4.17254403373764e-08,1.0
17,17,599122.25,2384.868,14956.118,15145.067,-80.940025,12.427496403601253,0.024951432,1.436941e-06,1.7761753e-05,1.7321327e-05,1.0,41,0.020475458,1.3519556e-06,0,-4.2587307975825046e-08,1.0
18,18,518454.94,3161.1987,17188.047,17476.33,-79.57871,12.97950384314754,0.024935743,4.7125145e-06,1.7860048e-05,1.727568e-05,1.0,41,0.020655194,1.1818954e-06,0,-4.212555155503613e-08,1.0
19,19,448662.03,3995.8352,19711.145,20112.084,-78.54032,13.531487922678934,0.025001904,-3.228194e-07,1.799654e-05,1.7286158e-05,1.0,41,0.020182295,1.003491e-06,0,-4.14280086180933e-08,1.0
20,20,388258.97,5121.209,22433.816,23010.93,-77.14082,14.083498695545131,0.024940904,2.2730599e-06,1.8272394e-05,1.7367347e-05,1.0,41,0.02095103,9.1048173e-07,0,-4.167509722127407e-08,1.0
21,21,335983.9,6450.502,25056.14,25873.137,-75.563156,14.635484188474948,0.02495486,2.2041586e-06,1.890547e-05,1.7730365e-05,1.0,41,0.020279214,7.837942e-07,0,-4.1166657844485145e-08,1.0
22,22,290751.2,8483.939,28860.502,30081.652,-73.618576,15.187479948013788,0.024985006,-3.6378682e-07,1.896683e-05,1.7458187e-05,1.0,41,0.02057783,6.840658e-07,0,-4.0224234293042905e-08,1.0
23,23,251605.19,11074.074,32446.777,34284.523,-71.15524,15.739501974225277,0.02496738,1.4406643e-06,1.9495257e-05,1.7461272e-05,1.0,41,0.02039874,5.9498393e-07,0,-3.967572518232348e-08,1.0
24,24,217729.38,14188.051,36163.65,38847.27,-68.57848,16.29148373377393,0.024946159,7.144142e-07,2.0213003e-05,1.7516782e-05,1.0,41,0.020244867,5.2114e-07,0,-3.9382293054482415e-08,1.0
25,25,188418.58,18003.174,39745.113,43632.42,-65.6311,16.843496213346953,0.024931215,5.4387638e-06,2.1252628e-05,1.7634433e-05,1.0,41,0.020680571,4.7397256e-07,0,-3.8965400205225046e-08,1.0
26,26,163051.14,22282.178,43514.8,48887.97,-62.884842,17.395479999569943,0.024960896,2.459276e-06,2.243155e-05,1.7771714e-05,1.0,41,0.020394037,4.171586e-07,0,-3.820303891224815e-08,1.0
27,27,141098.2,25912.863,48215.844,54737.957,-61.744877,18.114494913694216,0.024933377,1.3869084e-07,2.3394236e-05,1.8151446e-05,1.0,42,0.019009864,3.472885e-07,0,-3.826660003447597e-08,1.0
28,28,122105.11,31867.035,53485.08,62258.83,-59.21302,18.53048586679506,0.024971144,-2.5023846e-08,2.4369896e-05,1.7985274e-05,1.0,42,0.020559173,3.30221e-07,0,-3.823425606502736e-08,1.0
29,29,105663.59,38928.406,55108.5,67471.234,-54.76278,18.946480953221908,0.024964716,1.5042488e-07,2.7332298e-05,1.8233752e-05,1.0,42,0.021898381,3.2455878e-07,0,-3.8211297507924315e-08,1.0
30,30,91439.65,46465.164,57671.168,74060.62,-51.141907,19.498482952738414,0.025000116,-4.8301536e-07,3.0180528e-05,1.8300783e-05,1.0,42,0.020466782,2.7635176e-07,0,-3.826969671612752e-08,1.0
31,31,79127.08,54717.797,59055.992,80508.68,-47.183628,19.91447918585618,0.024904478,3.8994386e-07,3.4058932e-05,1.832625e-05,1.0,42,0.021413257,2.659745e-07,0,-3.829941470630269e-08,1.0
32,32,68475.36,63523.57,59638.594,87132.12,-43.193283,20.466494092106586,0.02489237,3.8975756e-07,3.8972514e-05,1.8258146e-05,1.0,42,0.020228898,2.3216352e-07,0,-3.836406863270832e-08,1.0
33,33,59252.523,70814.16,58559.312,91890.36,-39.58883,20.882492645148886,0.02498046,-1.2243305e-07,4.586879e-05,1.8628134e-05,1.0,42,0.020821128,2.2658664e-07,0,-3.830196550878274e-08,1.0
34,34,51282.285,79131.3,58421.844,98360.94,-36.43808,21.298491464956896,0.024965499,-2.1484922e-08,5.3122378e-05,1.8740566e-05,1.0,42,0.021382922,2.1739243e-07,0,-3.826883556510858e-08,1.0
35,35,44369.8,87524.266,53964.31,102823.36,-31.656488,21.7145007380459,0.024949176,1.8190141e-07,6.647005e-05,1.8308623e-05,1.0,42,0.021752343,2.1155059e-07,0,-3.826737321404335e-08,1.0
36,36,38403.727,93781.984,50465.746,106498.13,-28.285482,22.267485190968728,0.025000451,-2.8912777e-07,8.212021e-05,1.8439938e-05,1.0,42,0.020203384,1.8970645e-07,0,-3.814973269794761e-08,1.0
37,37,33226.32,99716.24,46506.34,110028.04,-25.003725,22.68348147740471,0.024947314,1.269574e-07,0.00010299727,1.840108e-05,1.0,42,0.020438675,1.8575878e-07,0,-3.817798885347222e-08,1.0
38,38,28754.086,104575.555,42052.95,112714.23,-21.90653,23.099480030447012,0.024989756,-4.692325e-07,0.00013162068,1.8321438e-05,1.0,42,0.020544136,1.8226746e-07,0,-3.823022482155696e-08,1.0
39,39,24884.947,108667.35,37906.91,115089.21,-19.23053,23.515504903538385,0.024967417,4.2181627e-09,0.0001687194,1.8303434e-05,1.0,42,0.02058689,1.7887767e-07,0,-3.8299293273570276e-08,1.0
40,40,21553.963,111070.836,33130.84,115906.79,-16.609089,23.93249812335125,0.024951544,1.6979563e-07,0.0002228746,1.8209905e-05,1.0,42,0.02054604,1.7726347e-07,0,-3.830218041781366e-08,1.0
41,41,18631.234,113862.41,29780.904,117692.61,-14.657459,24.348492569784867,0.024948059,1.03863044e-07,0.0002868406,1.8366145e-05,1.0,42,0.020482354,1.7403262e-07,0,-3.8236257414290265e-08,1.0
42,42,16126.037,115349.0,26130.746,118271.75,-12.764143,24.764484296232695,0.024959369,-1.341657e-07,0.0003776945,1.843666e-05,1.0,42,0.020267485,1.713637e-07,0,-3.8331806865286924e-08,1.0
43,43,13954.87,116443.01,22376.936,118573.61,-10.877958,25.181482636049623,0.024947444,1.12617386e-07,0.0005096755,1.8151766e-05,1.0,42,0.020061046,1.6918644e-07,0,-3.830267015446272e-08,1.0
44,44,12080.609,117925.305,19893.39,119591.49,-9.57535,25.597500762465643,0.024999911,-2.5075843e-07,0.00066225074,1.8324812e-05,1.0,42,0.019723337,1.6492258e-07,0,-3.8333783126803034e-08,1.0
45,45,10447.592,119127.49,16761.795,120300.945,-8.009205,26.013491822202923,0.02497662,2.3964097e-07,0.0009088316,1.7643566e-05,1.0,42,0.019280113,1.6026569e-07,0,-3.8308403167518024e-08,1.0
46,46,9045.586,119651.22,14485.169,120524.83,-6.902728,26.445261256041704,0.024963113,2.2138846e-07,0.0012146743,1.7545022e-05,1.0,42,0.021945568,1.8208338e-07,0,-3.833400731086872e-08,1.0
47,47,7827.7437,119818.9,12478.775,120466.96,-5.945747,27.080943579610903,0.0249829,1.5862186e-07,0.0016293394,1.7483146e-05,1.0,42,0.020190436,1.6760144e-07,0,-3.8240004972746214e-08,1.0
48,48,6770.8345,120038.33,11088.012,120549.34,-5.2774696,27.61941731182742,0.024969038,9.0454044e-08,0.0021199435,1.7935023e-05,1.0,42,0.020242859,1.6792177e-07,0,-3.822825408988153e-08,1.0
49,49,5860.798,120030.45,9922.686,120439.9,-4.7257857,28.22498248727061,0.024960076,-2.0737692e-08,0.0027367438,1.8575984e-05,1.0,42,0.020308938,1.68623e-07,0,-3.8150548595856845e-08,1.0
50,50,5071.625,119961.03,8589.714,120268.164,-4.0956287,28.905675666304887,0.024907814,3.465495e-07,0.0036533752,1.86359e-05,1.0,42,0.020357538,1.6926789e-07,0,-3.81630587965347e-08,1.0
51,51,4388.5933,119965.375,7711.7314,120212.984,-3.6780825,29.584821751879645,0.024973212,1.8898128e-07,0.004702653,1.9352807e-05,1.0,42,0.020391986,1.6963214e-07,0,-3.801909494655358e-08,1.0
52,52,3798.7827,120096.95,6824.5894,120290.7,-3.252373,30.264811864180956,0.024985006,1.5918145e-07,0.0061390214,1.9760053e-05,1.0,42,0.020450175,1.7000627e-07,0,-3.7909704034577074e-08,1.0
53,53,3286.0488,120191.96,6252.9355,120354.51,-2.9781036,30.944699416482763,0.024988117,9.994431e-09,0.007745727,2.0907657e-05,1.0,42,0.020499533,1.7032626e-07,0,-3.801323263497775e-08,1.0
54,54,2844.088,120251.85,5388.5996,120372.52,-2.5657618,31.62483635544777,0.024995923,1.791106e-07,0.0103848735,2.0811256e-05,1.0,42,0.0205203,1.7047329e-07,0,-3.7856424369014656e-08,1.0
55,55,2460.7852,120329.57,5456.2,120453.21,-2.59623,32.30470702774619,0.024942506,2.599439e-07,0.01185376,2.4322038e-05,1.0,42,0.020542473,1.7054317e-07,0,-3.787413142888596e-08,1.0
56,56,2129.3164,120206.805,5378.358,120327.06,-2.5618503,32.98482511338079,0.024991602,1.4465441e-07,0.013897293,2.776534e-05,1.0,42,0.020537918,1.7068412e-07,0,-3.773400616716395e-08,1.0
57,57,1843.2289,120364.95,5313.4385,120482.17,-2.5276468,33.66495709234732,0.024966989,1.1857922e-07,0.016250443,3.16061e-05,1.0,42,0.020555299,1.7060863e-07,0,-3.774293895410589e-08,1.0
58,58,1594.4913,120238.84,5296.495,120355.445,-2.522236,34.344834084637114,0.024966337,1.0032687e-07,0.018845575,3.6496822e-05,1.0,42,0.020532837,1.7060165e-07,0,-3.779174715662374e-08,1.0
59,59,1380.4436,120929.22,5285.5063,121044.67,-2.502659,35.02470771694061,0.024990352,-4.401787e-08,0.021812974,4.1590745e-05,1.0,42,0.020598264,1.7017076e-07,0,-3.767126934080444e-08,1.0
60,60,1194.6187,120840.22,5475.4688,120964.2,-2.5943913,35.70482345590426,0.024953946,1.2770582e-07,0.024331538,4.9853817e-05,1.0,42,0.020579614,1.7012978e-07,0,-3.777529659182082e-08,1.0
61,61,1033.3434,120988.56,5664.4204,121121.086,-2.680506,36.38506940819207,0.024976583,1.5061451e-07,0.027190676,5.946911e-05,1.0,42,0.020584403,1.6994896e-07,0,-3.7875401631034654e-08,1.0
62,62,894.71045,120963.14,5595.8735,121092.51,-2.6486704,37.06483634717006,0.024973994,1.3385217e-07,0.03178848,6.788455e-05,1.0,42,0.02056982,1.6986864e-07,0,-3.776704078979283e-08,1.0
63,63,774.2569,120803.88,6958.0312,121004.1,-3.2964654,37.744950859458186,0.024955511,1.5638848e-07,0.029542599,9.7683514e-05,1.0,42,0.020544365,1.6978238e-07,0,-3.7608178554099446e-08,1.0
64,64,669.7856,121833.48,6959.5635,122032.09,-3.2693865,38.42481646509259,0.024996463,1.1019816e-07,0.034143053,0.000111049914,1.0,42,0.020607745,1.6887152e-07,0,-3.7732884235876124e-08,1.0
65,65,579.81464,121907.95,7539.0107,122140.84,-3.538769,39.10483193739492,0.024984224,1.5918229e-07,0.036409657,0.00013871503,1.0,42,0.020578846,1.6848456e-07,0,-3.7745435803291763e-08,1.0
66,66,501.44418,122380.49,8127.0293,122650.05,-3.7993128,39.78216770288418,0.02498383,1.2453948e-07,0.039054018,0.00017147227,1.0,42,0.020600472,1.6796139e-07,0,-3.769138698745185e-08,1.0
67,67,434.02762,122563.5,9008.536,122894.125,-4.203736,40.46221344181686,0.024969485,2.2641878e-07,0.040705074,0.00021872314,1.0,42,0.020560376,1.6730154e-07,0,-3.7539977639726074e-08,1.0
68,68,375.6009,123379.914,9783.473,123767.195,-4.533811,41.14146544740652,0.02500783,6.791892e-08,0.043311227,0.0002706297,1.0,42,0.020611972,1.6653824e-07,0,-3.749229316024522e-08,1.0
69,69,325.10385,123670.71,10733.346,124135.61,-4.960255,41.82069785306521,0.024916105,3.3667953e-07,0.045610297,0.000340989,1.0,42,0.020600714,1.659533e-07,0,-3.741179534623345e-08,1.0
70,70,281.3503,124334.25,11935.601,124905.82,-5.483368,42.497781138547,0.024987,2.515626e-07,0.047394555,0.00043276453,1.0,42,0.02060021,1.6492595e-07,0,-3.7234981745348686e-08,1.0
71,71,243.36427,125075.92,13330.695,125784.31,-6.0836654,43.18110055764555,0.024969298,1.7035704e-07,0.04905808,0.0005510147,1.0,42,0.020616176,1.63901e-07,0,-3.741857721173937e-08,1.0
72,72,210.60631,125651.29,14599.845,126496.65,-6.627669,43.85818757649395,0.025042018,1.982945e-07,0.051760744,0.00068950746,1.0,42,0.020593172,1.6279618e-07,0,-3.74493447880408e-08,1.0
73,73,182.27473,126682.76,16368.432,127735.84,-7.3622866,44.52925347498967,0.024959927,1.3310664e-07,0.05334412,0.0008759416,1.0,42,0.020615818,1.6139415e-07,0,-3.741191123702533e-08,1.0
74,74,157.72879,127838.266,17419.861,129019.664,-7.7596087,45.217662467748596,0.02500114,9.994582e-09,0.057924792,0.0010559468,1.0,42,0.020626873,1.5987386e-07,0,-3.7567974978287466e-08,1.0
75,75,136.52892,128440.164,19615.266,129929.34,-8.683069,45.88951343295048,0.024972746,3.383437e-08,0.059429392,0.0013544881,1.0,42,0.020587645,1.5845262e-07,0,-3.738097405686977e-08,1.0
76,76,118.14758,129918.22,21259.885,131646.22,-9.29354,46.57789063898963,0.02492911,1.5396641e-07,0.06336281,0.0016524922,1.0,42,0.020612806,1.5657727e-07,0,-3.7434974265312466e-08,1.0
77,77,102.25773,131007.664,23589.19,133114.45,-10.207282,47.24432811062434,0.02496425,8.523954e-08,0.06597979,0.0020719848,1.0,42,0.020569537,1.545252e-07,0,-3.735824922389498e-08,1.0
78,78,88.4436,132735.28,26131.451,135283.06,-11.137331,47.93430198341957,0.024998402,5.41354e-08,0.06886367,0.0025693919,1.0,42,0.020595953,1.5224339e-07,0,-3.735836747474133e-08,1.0
79,79,76.54279,134412.47,28823.053,137468.11,-12.103063,48.6017480151495,0.024968293,2.3776384e-08,0.072139956,0.0031714062,1.0,42,0.020591363,1.4979011e-07,0,-3.732487894625258e-08,1.0
80,80,66.250786,136429.38,31434.225,140003.88,-12.974887,49.2699871402001,0.0249573,-8.685684e-08,0.0764234,0.0038525807,1.0,42,0.02060353,1.47164e-07,0,-3.728850091186588e-08,1.0
81,81,57.329906,139182.08,34211.97,143325.19,-13.809927,49.92462314465229,0.024958046,1.6698573e-08,0.081144825,0.0046235113,1.0,42,0.020614404,1.438296e-07,0,-3.7412860075982754e-08,1.0
82,82,49.60321,141148.5,37532.473,146053.36,-14.890811,50.60836800377001,0.024994079,5.655634e-08,0.085487604,0.005645396,1.0,42,0.0206057,1.4108338e-07,0,-3.752827788542352e-08,1.0
83,83,42.92585,143716.52,40744.46,149380.55,-15.828339,51.31645251737791,0.02498562,1.2453799e-07,0.09099817,0.006769892,1.0,42,0.020588199,1.3782383e-07,0,-3.734338201480922e-08,1.0
84,84,37.1518,146787.33,44852.242,153486.95,-16.991022,51.96016302795033,0.024924694,-3.6569173e-08,0.09551161,0.008156081,1.0,42,0.020597365,1.341962e-07,0,-3.7295688661003884e-08,1.0
85,85,32.150223,149928.1,49290.895,157822.77,-18.19898,52.59935609830427,0.024974367,1.781618e-08,0.100431375,0.009796333,1.0,42,0.020607822,1.3057573e-07,0,-3.760195945771155e-08,1.0
86,86,27.835518,153859.16,53176.418,162789.34,-19.066046,53.32730458621518,0.024972867,3.008961e-09,0.10752308,0.01147329,1.0,42,0.020599408,1.2654027e-07,0,-3.743250500862041e-08,1.0
87,87,24.082958,162875.94,59118.84,173273.22,-19.949305,54.28740161846508,0.024990521,-7.3769186e-08,0.11178522,0.013012877,1.0,43,0.020565074,1.1868582e-07,0,-3.703618551338235e-08,1.0
88,88,20.833313,167269.61,64919.555,179425.95,-21.211893,54.941774502949556,0.024992775,-2.5517238e-08,0.11767555,0.015405181,1.0,43,0.020607697,1.14853485e-07,0,-3.7451636934699944e-08,1.0
89,89,18.021912,172164.0,70222.375,185934.47,-22.1896,55.68772565838299,0.024982117,-5.9476253e-08,0.12576036,0.01793804,1.0,43,0.020598724,1.1078486e-07,0,-3.7038369749108764e-08,1.0
90,90,15.604198,177430.69,75803.04,192944.94,-23.133442,56.343029156152625,0.024932167,4.4970403e-08,0.13455258,0.020768184,1.0,43,0.020608703,1.06811314e-07,0,-3.730984262330159e-08,1.0
91,91,13.500899,182706.39,82180.23,200337.75,-24.217926,57.091001591674285,0.024980012,-4.9855493e-09,0.14344655,0.024137884,1.0,43,0.020573396,1.02693555e-07,0,-3.7429561116430635e-08,1.0
92,92,11.686608,188735.31,88650.305,208518.33,-25.159775,57.68186612642603,0.024953518,-8.835111e-08,0.15362129,0.027766647,1.0,43,0.020574296,9.8669005e-08,0,-3.7282907129614646e-08,1.0
93,93,10.113269,195793.8,95772.91,217962.52,-26.065657,58.3555085050466,0.024972057,-5.112392e-08,0.1643183,0.031725436,1.0,43,0.020619264,9.460005e-08,0,-3.678844928471727e-08,1.0
94,94,8.748621,202421.23,103556.375,227372.56,-27.093761,59.122393448109506,0.024962824,-2.010764e-08,0.17567246,0.036440242,1.0,43,0.020618249,9.068046e-08,0,-3.6847891031626405e-08,1.0
95,95,7.570237,209728.67,111151.72,237362.22,-27.922634,59.99798727640882,0.024970062,-2.1318192e-08,0.18914482,0.041476645,1.0,43,0.020590238,8.674606e-08,0,-3.760172399830728e-08,1.0
96,96,6.554112,217559.67,119670.484,248300.69,-28.813354,60.533312661835225,0.02496589,7.815597e-08,0.20291738,0.047134347,1.0,43,0.020589277,8.292074e-08,0,-3.655412649705782e-08,1.0
97,97,5.669445,225485.28,128719.25,259638.7,-29.720072,61.143131730816094,0.024962684,-8.410547e-08,0.21809016,0.053602397,1.0,43,0.020576552,7.925071e-08,0,-3.7702903421802505e-08,1.0
98,98,4.907347,234587.64,139300.06,272829.38,-30.702188,61.83551741702831,0.024958959,1.1877239e-07,0.23282093,0.06069353,1.0,43,0.020633318,7.5627185e-08,0,-3.6629805552318056e-08,1.0
99,99,4.245922,243238.75,149399.77,285456.44,-31.558678,62.623312814423116,0.024953853,-8.292323e-08,0.25089857,0.06872557,1.0,43,0.02059301,7.214064e-08,0,-3.703381635364453e-08,1.0
100,100,3.6747382,251921.08,160109.2,298494.88,-32.43812,63.52291008384782,0.02498956,-1.0568341e-09,0.27050632,0.07782807,1.0,43,0.020561576,6.8884184e-08,0,-3.788640219753218e-08,1.0
101,101,3.180988,261135.6,174297.92,313961.1,-33.72158,64.55121477265493,0.024965629,4.960631e-08,0.2870555,0.088470526,1.0,43,0.020590527,6.558305e-08,0,-3.6722670517627344e-08,1.0
102,102,2.752818,270748.88,188312.23,329797.6,-34.819527,65.73016432198347,0.024963519,-2.6969643e-08,0.30701816,0.10009818,1.0,43,0.02058283,6.241049e-08,0,-3.62819861185322e-08,1.0
103,103,2.3804083,279721.9,204748.72,346650.22,-36.2031,67.08495297303307,0.024962002,-7.687914e-08,0.32654834,0.11392181,1.0,43,0.0205925,5.940426e-08,0,-3.7549522701686556e-08,1.0
104,104,2.060257,289621.28,222430.3,365179.03,-37.524406,68.64133267357829,0.024966527,-4.8210662e-08,0.34730002,0.128849,1.0,43,0.020595497,5.6398353e-08,0,-3.831019368797407e-08,1.0
105,105,1.7836765,298234.88,243615.62,385087.8,-39.24395,70.4296401185893,0.024982443,-5.3448233e-09,0.36626795,0.14658505,1.0,43,0.020587193,5.3461036e-08,0,-3.7378535312243774e-08,1.0
