True,index,freq,Re(Z),Im(Z),Z,Phase(Z),time,Ewe_meas,I_meas,Cs,Cp,cycle_number,I_Range,Ewe,I,Ns,(QQo),cycle
110,110,7000018.5,215.54114,1342.8254,1360.014,-80.88106,82.83648393451585,0.050399926,1.9026602e-05,1.6931732e-05,1.6506452e-05,2.0,40,0.010021376,7.368583e-06,0,-1.7465879854440975e-08,2.0
111,111,6057573.0,272.07166,1515.1205,1539.3547,-79.81984,83.38849169402965,0.050449487,-4.360482e-06,1.7341008e-05,1.6799302e-05,2.0,40,0.014052232,9.128651e-06,0,-1.985829925066322e-08,2.0
112,112,5242039.0,245.2952,1750.523,1767.6256,-82.02326,83.80448363380856,0.050419528,3.6770664e-06,1.7344113e-05,1.701011e-05,2.0,40,0.019384136,1.09662005e-05,0,-2.1805713735344925e-08,2.0
113,113,4536288.0,220.33804,2020.9133,2032.8894,-83.77768,85.17250164542929,0.05039918,8.923796e-06,1.7360884e-05,1.7156935e-05,2.0,40,0.020773323,1.02186195e-05,0,-2.1807299943116474e-08,2.0
114,114,3925558.5,283.63406,2351.6743,2368.717,-83.12281,85.58849073186866,0.050369874,1.9653705e-06,1.7240169e-05,1.6992977e-05,2.0,40,0.01898728,8.01585e-06,0,-2.0931818308107037e-08,2.0
115,115,3397055.0,336.6028,2663.847,2685.0293,-82.798294,86.00450403164723,0.0503671,4.625945e-06,1.758767e-05,1.7311264e-05,2.0,40,0.019854618,7.394563e-06,0,-2.0583626315209912e-08,2.0
116,116,2939708.2,393.0847,3037.7651,3063.092,-82.62694,86.42049679803313,0.05037623,6.746962e-06,1.7822216e-05,1.7528711e-05,2.0,40,0.02160536,7.0534475e-06,0,-1.8742813198193412e-08,2.0
117,117,2543924.5,444.50748,3506.9348,3534.9934,-82.77622,86.97250717095449,0.05033056,1.1175044e-05,1.7839728e-05,1.755765e-05,2.0,40,0.020734802,5.865584e-06,0,-1.7839130303572168e-08,2.0
118,118,2201436.2,487.9401,3979.6995,4009.5005,-83.01001,87.52448282382102,0.050327897,1.2886737e-05,1.8166185e-05,1.7897144e-05,2.0,40,0.020324621,5.0691156e-06,0,-1.5070670614042808e-08,2.0
119,119,1905053.1,592.5856,4639.5615,4677.2524,-82.72134,88.0764943966933,0.050356496,2.722864e-07,1.8006782e-05,1.771774e-05,2.0,40,0.020597558,4.403773e-06,0,-8.810218202643149e-09,2.0
120,120,1648567.4,476.88065,5421.8086,5442.74,-84.97343,88.79549411087646,0.05035642,-8.684514e-07,1.780612e-05,1.7669425e-05,2.0,41,0.01904274,3.4987413e-06,0,-5.849715504359902e-09,2.0
121,121,1426616.2,638.0702,6207.3135,6240.022,-84.13099,89.21149623728707,0.050375987,2.507342e-07,1.7972534e-05,1.7784612e-05,2.0,41,0.021963106,3.519716e-06,0,-5.932223489084028e-09,2.0
122,122,1234551.2,747.3434,7189.105,7227.8457,-84.06513,89.76348743683775,0.050316773,2.0607722e-06,1.7932307e-05,1.7740591e-05,2.0,41,0.021043733,2.9114806e-06,0,-5.868328622790939e-09,2.0
123,123,1068345.5,973.6435,8243.27,8300.57,-83.26379,90.31549799637287,0.050369333,-1.9991356e-07,1.8072113e-05,1.7823462e-05,2.0,41,0.020772628,2.5025543e-06,0,-5.491133169393376e-09,2.0
124,124,924510.06,1155.4592,9464.416,9534.6875,-83.03951,90.86750298264087,0.0503355,3.4462334e-06,1.8189245e-05,1.792212e-05,2.0,41,0.020276042,2.1265555e-06,0,-5.863288454316359e-09,2.0
125,125,800039.0,1645.972,10438.683,10567.654,-81.039375,91.41948588882224,0.05036259,1.4630122e-06,1.9057383e-05,1.8595054e-05,2.0,41,0.020476498,1.9376578e-06,0,-5.379529254893514e-09,2.0
126,126,692334.1,1681.2994,12235.9795,12350.95,-82.1762,91.97150338170468,0.05036181,8.671151e-07,1.8787356e-05,1.8439214e-05,2.0,41,0.020386897,1.6506339e-06,0,-5.206091410193557e-09,2.0
127,127,599122.25,2296.3984,14091.193,14277.086,-80.74405,92.52349207460065,0.050361454,2.0868426e-06,1.8851977e-05,1.8364255e-05,2.0,41,0.020549994,1.4393689e-06,0,-5.3822445874685976e-09,2.0
128,128,518454.94,2849.6296,16112.097,16362.153,-79.97023,93.0754870074743,0.050322123,5.0402587e-06,1.9052723e-05,1.8474822e-05,2.0,41,0.020462483,1.2505984e-06,0,-5.01780814986298e-09,2.0
129,129,448662.03,3793.044,18519.656,18904.096,-78.425224,93.62750463371049,0.05034163,5.46856e-06,1.9154371e-05,1.8383234e-05,2.0,41,0.020233419,1.0703193e-06,0,-5.057423727674148e-09,2.0
130,130,388258.97,4730.614,20990.404,21516.871,-77.29942,94.1795063665777,0.050317835,5.4145567e-06,1.9528903e-05,1.8584942e-05,2.0,41,0.020830018,9.680784e-07,0,-4.858323406586133e-09,2.0
131,131,335983.9,5183.1094,25315.857,25841.0,-78.4293,94.73150785945472,0.050349995,2.2395407e-06,1.8711517e-05,1.7958731e-05,2.0,41,0.020550117,7.952524e-07,0,-4.910176225729954e-09,2.0
132,132,290751.2,7445.5967,27228.217,28227.871,-74.70627,95.28348396570073,0.05040209,9.974674e-07,2.0103858e-05,1.8705166e-05,2.0,41,0.020610852,7.301596e-07,0,-5.174617817929297e-09,2.0
133,133,251605.19,9375.058,30043.64,31472.402,-72.66957,95.83549625860178,0.050342858,3.0309668e-06,2.105465e-05,1.9186393e-05,2.0,41,0.02030925,6.453035e-07,0,-4.4814826339485905e-09,2.0
134,134,217729.38,11800.336,34060.42,36046.64,-70.891205,96.38748457815382,0.05035579,1.8838646e-06,2.1461154e-05,1.9161236e-05,2.0,41,0.020305267,5.633054e-07,0,-3.647409683041521e-09,2.0
135,135,188418.58,14376.792,37536.977,40195.98,-69.042984,96.93949079103186,0.05035063,2.088704e-06,2.2502827e-05,1.962413e-05,2.0,41,0.0206625,5.140439e-07,0,-3.6195361306927195e-09,2.0
136,136,163051.14,17742.22,41830.816,45437.91,-67.01614,97.49148529724334,0.050410677,3.196336e-07,2.3334578e-05,1.9776797e-05,2.0,41,0.020360593,4.4809704e-07,0,-2.5767400506341667e-09,2.0
137,137,141098.2,21737.852,45543.156,50464.973,-64.48475,98.04348913676222,0.050357018,8.112484e-07,2.476712e-05,2.0171661e-05,2.0,41,0.020283835,4.0193888e-07,0,-2.916106374034734e-09,2.0
138,138,122105.11,24462.3,51410.47,56933.65,-64.5538,98.76148394422489,0.050305948,4.4470153e-07,2.5353314e-05,2.0672825e-05,2.0,42,0.018897913,3.3192873e-07,0,-2.8474777759386584e-09,2.0
139,139,105663.59,29285.4,56402.4,63552.066,-62.56064,99.17750681730104,0.050354596,-9.006176e-09,2.6705284e-05,2.1034537e-05,2.0,42,0.02018971,3.176877e-07,0,-2.898569338357662e-09,2.0
140,140,91439.65,35263.42,55500.555,65755.766,-57.56932,99.5934967037465,0.05040125,-1.8017082e-07,3.136088e-05,2.234165e-05,2.0,42,0.021302735,3.2396756e-07,0,-2.816746327165652e-09,2.0
141,141,79127.08,42415.51,65530.21,78059.49,-57.08637,100.14548491660389,0.0503804,1.12802155e-07,3.0694e-05,2.1631426e-05,2.0,42,0.020199291,2.587679e-07,0,-2.725297432244231e-09,2.0
142,142,68475.36,49844.777,70281.914,86162.92,-54.655277,100.56149901638855,0.050349437,1.3403483e-07,3.307061e-05,2.2003338e-05,2.0,42,0.021057712,2.4439413e-07,0,-2.750049707464323e-09,2.0
143,143,59252.523,57833.54,73868.53,93815.125,-51.94171,100.9774883428181,0.050368384,-4.4952376e-08,3.6362504e-05,2.2543794e-05,2.0,42,0.02173677,2.3169794e-07,0,-2.6929509997507417e-09,2.0
144,144,51282.285,66718.8,78581.766,103084.875,-49.667522,101.52948660901166,0.050336115,1.8730272e-07,3.949399e-05,2.2950104e-05,2.0,42,0.020275861,1.9669095e-07,0,-2.561333492207712e-09,2.0
145,145,44369.8,77947.664,80055.336,111734.93,-45.764248,101.94549646877567,0.050352603,6.3631944e-08,4.480664e-05,2.300091e-05,2.0,42,0.02066908,1.8498316e-07,0,-2.549102221147434e-09,2.0
146,146,38403.727,88453.8,80886.92,119861.45,-42.44148,102.36149195520557,0.050316494,3.223349e-07,5.1235205e-05,2.3332754e-05,2.0,42,0.020982051,1.7505253e-07,0,-2.494753251445128e-09,2.0
147,147,33226.32,98981.12,81595.6,128277.445,-39.500645,102.77748408165644,0.050358042,2.5636789e-08,5.8704467e-05,2.375221e-05,2.0,42,0.021204239,1.6529982e-07,0,-2.441151166059067e-09,2.0
148,148,28754.086,109773.266,80790.086,136298.23,-36.35204,103.19350124805351,0.050336506,2.618035e-07,6.851134e-05,2.4071223e-05,2.0,42,0.021340368,1.5657113e-07,0,-2.3981750705749743e-09,2.0
149,149,24884.947,121325.53,78224.734,144357.17,-32.81193,103.61048980118358,0.050329275,2.316308e-07,8.17597e-05,2.4007712e-05,2.0,42,0.021425156,1.4841768e-07,0,-2.4217077530267598e-09,2.0
150,150,21553.963,130192.555,74856.84,150178.72,-29.89762,104.02749686103198,0.050345875,2.7651737e-07,9.864191e-05,2.450799e-05,2.0,42,0.021419903,1.4262942e-07,0,-2.443832257453396e-09,2.0
151,151,18631.234,138971.44,70604.45,155878.31,-26.932852,104.44348704078584,0.050323185,3.1078773e-07,0.00012098915,2.4822139e-05,2.0,42,0.021318344,1.3676274e-07,0,-2.3713386868679087e-09,2.0
152,152,16126.037,146819.3,65842.805,160907.38,-24.154398,104.85949303387315,0.050374478,3.718493e-08,0.00014989397,2.5098565e-05,2.0,42,0.021128083,1.3130587e-07,0,-2.4093943317041858e-09,2.0
153,153,13954.87,150102.53,55852.688,160157.1,-20.410078,105.27550406692899,0.050323874,3.3295197e-07,0.00020419744,2.4833966e-05,2.0,42,0.020801384,1.2988113e-07,0,-2.408072533880053e-09,2.0
154,154,12080.609,158934.89,54229.562,167931.97,-18.839956,105.69149499337072,0.05036544,2.0052732e-07,0.00024293784,2.5333817e-05,2.0,42,0.02049996,1.22073e-07,0,-2.45819707536516e-09,2.0
155,155,10447.592,164660.7,49043.49,171809.23,-16.585938,106.10749338645837,0.05032147,4.9852923e-07,0.0003106151,2.5310008e-05,2.0,42,0.020025067,1.1655408e-07,0,-2.371426615021753e-09,2.0
156,156,9045.586,168057.11,44886.0,173948.11,-14.953941,106.68026250702678,0.050352138,1.9549877e-07,0.00039198776,2.6100864e-05,2.0,42,0.020250564,1.16417276e-07,0,-2.2581807232410335e-09,2.0
157,157,7827.7437,171246.97,38781.42,175583.38,-12.760244,107.16094866322237,0.050361026,3.0687713e-07,0.00052427576,2.5576463e-05,2.0,42,0.020300275,1.1561616e-07,0,-2.2819268736981654e-09,2.0
158,158,6770.8345,173685.23,34578.867,177093.92,-11.259749,107.69943058208446,0.050327692,2.9514345e-07,0.0006797781,2.5916801e-05,2.0,42,0.02038214,1.1509226e-07,0,-2.2035144177612566e-09,2.0
159,159,5860.798,175361.77,30305.535,177961.16,-9.804853,108.3049991975422,0.050436687,-9.412138e-08,0.00089606893,2.5985728e-05,2.0,42,0.02040112,1.14638055e-07,0,-2.1857295790265063e-09,2.0
160,160,5071.625,176623.28,27362.854,178730.27,-8.8063755,108.98568690989487,0.050341815,2.5565836e-07,0.0011468632,2.6880552e-05,2.0,42,0.020435292,1.1433594e-07,0,-2.1961674387163613e-09,2.0
161,161,4388.5933,178127.8,22655.61,179562.77,-7.248383,109.66485152879613,0.050374627,2.1431066e-07,0.0016007336,2.5482263e-05,2.0,42,0.020474441,1.1402387e-07,0,-2.148799621079315e-09,2.0
162,162,3798.7827,178438.92,21590.797,179740.4,-6.8991504,110.34481153445086,0.05033932,3.8622048e-07,0.0019404703,2.7999671e-05,2.0,42,0.020486522,1.1397839e-07,0,-2.1327681662336082e-09,2.0
163,163,3286.0488,178635.3,20733.14,179834.45,-6.620361,111.02468290008255,0.050370842,3.8268178e-07,0.002336044,3.1050273e-05,2.0,42,0.020481331,1.1388992e-07,0,-2.08551427096341e-09,2.0
164,164,2844.088,179336.98,17920.998,180230.17,-5.706576,111.70384853232827,0.050334364,4.0987447e-07,0.0031225896,3.087339e-05,2.0,42,0.020512056,1.1381033e-07,0,-2.063092996887919e-09,2.0
165,165,2460.7852,179693.12,16590.027,180457.33,-5.2748346,112.38370371129713,0.050363038,2.5509985e-07,0.0038985163,3.294917e-05,2.0,42,0.02052177,1.13720894e-07,0,-2.0579962766991144e-09,2.0
166,166,2129.3164,179971.8,15581.877,180645.08,-4.948303,113.06384939693089,0.050343752,3.901318e-07,0.0047968943,3.569007e-05,2.0,42,0.020504069,1.1350472e-07,0,-2.0279502259001386e-09,2.0
167,167,1843.2289,180708.66,14743.514,181309.1,-4.664272,113.74396225588862,0.05035335,4.2682328e-07,0.0058565233,3.8726004e-05,2.0,42,0.020539036,1.13281885e-07,0,-1.976426105417496e-09,2.0
168,168,1594.4913,180866.1,14159.745,181419.52,-4.4764733,114.42381900818145,0.050374217,2.2641709e-07,0.0070492434,4.294231e-05,2.0,42,0.020529909,1.1316263e-07,0,-1.9261612027181327e-09,2.0
169,169,1380.4436,181191.89,13834.492,181719.28,-4.366216,115.10368128048867,0.05033634,3.2345392e-07,0.008333707,4.830173e-05,2.0,42,0.020535555,1.1300702e-07,0,-1.960515304254587e-09,2.0
170,170,1194.6187,181946.66,13862.179,182473.95,-4.3568425,115.78385235278984,0.050338034,5.124989e-07,0.009610796,5.54652e-05,2.0,42,0.020548478,1.1261047e-07,0,-1.8350352892249806e-09,2.0
171,171,1033.3434,182538.38,13689.156,183050.95,-4.2887716,116.46410598504008,0.050359067,4.3445965e-07,0.011251199,6.2922816e-05,2.0,42,0.020556664,1.1230023e-07,0,-1.6986365967222027e-09,2.0
172,172,894.71045,182929.62,14330.961,183490.12,-4.4794817,117.14385412403499,0.05034431,3.7485935e-07,0.012412588,7.571598e-05,2.0,42,0.020555444,1.120248e-07,0,-1.6288355003977431e-09,2.0
173,173,774.2569,185049.6,17103.955,185838.36,-5.28079,117.82397516968194,0.05032909,4.96295e-07,0.012018176,0.000101803074,2.0,42,0.020655982,1.1115026e-07,0,-1.651904681329894e-09,2.0
174,174,669.7856,183677.84,15664.074,184344.55,-4.874399,118.50382848197478,0.050319754,4.1527582e-07,0.015169793,0.000109528846,2.0,42,0.020525716,1.1134431e-07,0,-1.5299887376437245e-09,2.0
175,175,579.81464,184662.89,16464.127,185395.39,-5.094891,119.18383843427,0.05034873,4.1453072e-07,0.016672174,0.00013148367,2.0,42,0.020548973,1.1083864e-07,0,-1.3839952133659259e-09,2.0
176,176,501.44418,185201.27,17579.545,186033.73,-5.4223437,119.86117491972982,0.050307643,2.6478477e-07,0.018054685,0.00016122105,2.0,42,0.020535745,1.1038721e-07,0,-1.2890663306842262e-09,2.0
177,177,434.02762,186491.5,18961.652,187452.98,-5.805637,120.54120844535646,0.050358992,4.2924455e-07,0.01933867,0.0001978765,2.0,42,0.020542458,1.09587255e-07,0,-1.333158738540045e-09,2.0
178,178,375.6009,187757.08,20476.309,188870.33,-6.2239347,121.22045583763975,0.05036235,3.37609e-07,0.020693876,0.00024323033,2.0,42,0.020559695,1.08856135e-07,0,-1.3426795042629102e-09,2.0
179,179,325.10385,188532.17,21925.326,189802.8,-6.6334085,121.89967848327797,0.050328773,4.0726695e-07,0.02232811,0.00029794688,2.0,42,0.020546135,1.082499e-07,0,-1.3486250817269508e-09,2.0
180,180,281.3503,189976.34,24112.615,191500.47,-7.2335486,122.57680888877076,0.05033809,5.0579376e-07,0.023460021,0.00037194384,2.0,42,0.020549767,1.07309226e-07,0,-1.382547488366686e-09,2.0
181,181,243.36427,191538.58,27341.436,193480.19,-8.123881,123.2601226278639,0.050351188,4.381846e-07,0.023918943,0.00047765204,2.0,42,0.02056937,1.06312534e-07,0,-1.144967484179323e-09,2.0
182,182,210.60631,193541.34,29181.754,195728.97,-8.574348,123.93720343333553,0.05032296,2.586384e-07,0.02589628,0.00057563867,2.0,42,0.020571262,1.0510075e-07,0,-9.724703267731549e-10,2.0
183,183,182.27473,194396.22,31012.168,196854.38,-9.064058,124.60927223859471,0.050336655,3.6461535e-07,0.028155386,0.0006987722,2.0,42,0.020516708,1.0422277e-07,0,-9.837287304726378e-10,2.0
184,184,157.72879,196434.02,34214.91,199391.53,-9.880663,125.29766787134577,0.050364602,4.3352816e-07,0.029491289,0.00086838263,2.0,42,0.02052923,1.0295938e-07,0,-7.878445886237983e-10,2.0
185,185,136.52892,199657.83,36988.605,203055.17,-10.495621,125.96950982321869,0.050341442,4.987161e-07,0.03151574,0.0010457679,2.0,42,0.02057207,1.01312715e-07,0,-8.342771086298958e-10,2.0
186,186,118.14758,201640.1,40587.902,205684.48,-11.380919,126.65791569591966,0.050353274,5.119398e-07,0.033189345,0.0012923758,2.0,42,0.020550566,9.991306e-08,0,-7.229471314362554e-10,2.0
187,187,102.25773,204659.03,44117.855,209360.22,-12.164961,127.32432999424054,0.050378054,2.1468297e-07,0.03527846,0.0015665708,2.0,42,0.020566527,9.823512e-08,0,-6.76688717998333e-10,2.0
188,188,88.4436,208060.16,48344.34,213602.9,-13.080988,128.01429741366883,0.05032162,4.8381577e-07,0.037222713,0.0019067116,2.0,42,0.020574901,9.6323134e-08,0,-5.878847508515861e-10,2.0
189,189,76.54279,216445.69,52216.98,222655.22,-13.563298,128.92872319047456,0.050387036,1.899681e-07,0.039820258,0.0021900893,2.0,43,0.020556517,9.2324434e-08,0,-5.550009407652034e-10,2.0
190,190,66.250786,220344.05,57194.293,227645.97,-14.551037,129.59698135554208,0.050392717,1.6575835e-07,0.042002622,0.0026513182,2.0,43,0.02057257,9.037089e-08,0,-5.531711916967947e-10,2.0
191,191,57.329906,223688.7,62030.05,232130.06,-15.498973,130.25164266664797,0.0503347,1.8261198e-07,0.04475451,0.0031957903,2.0,43,0.020515366,8.8378755e-08,0,-4.3726186006982145e-10,2.0
192,192,49.60321,228652.77,67831.54,238502.0,-16.52338,130.93637256577495,0.050356142,1.9318972e-07,0.047301907,0.0038261146,2.0,43,0.02055196,8.617102e-08,0,-3.49515883315653e-10,2.0
193,193,42.92585,233334.4,74276.695,244871.34,-17.657688,131.64442755942582,0.05036367,2.4019388e-07,0.04991702,0.004592804,2.0,43,0.02055451,8.3940044e-08,0,-4.1647427388692243e-10,2.0
194,194,37.1518,239046.75,80012.76,252082.11,-18.506214,132.2881806299847,0.050340846,2.2680402e-07,0.053540334,0.0053940564,2.0,43,0.020554999,8.154089e-08,0,-4.2847862902019154e-10,2.0
195,195,32.150223,244884.92,86908.01,259849.23,-19.53943,132.92740119367954,0.05035303,2.030411e-07,0.056960832,0.0063716667,2.0,43,0.020557692,7.9113924e-08,0,-2.156705089326749e-10,2.0
196,196,27.835518,251058.66,94437.164,268232.78,-20.61408,133.6543247748923,0.050334178,2.1964333e-07,0.06054494,0.007504816,2.0,43,0.020550966,7.661616e-08,0,-2.6297656211760055e-10,2.0
197,197,24.082958,257822.75,101988.375,277261.97,-21.58254,134.35636928820168,0.050357707,2.20025e-07,0.06479771,0.008767593,2.0,43,0.020527858,7.403777e-08,0,-1.2312964241623093e-10,2.0
198,198,20.833313,265464.84,110756.09,287643.0,-22.646662,135.01076542602095,0.05035521,2.379216e-07,0.06897539,0.010226377,2.0,43,0.020550365,7.144399e-08,0,4.0189535017079136e-11,2.0
199,199,18.021912,274035.53,119351.72,298898.5,-23.534748,135.7567306881101,0.05029725,2.875144e-07,0.073993,0.011797786,2.0,43,0.02055164,6.875793e-08,0,-1.064624681917555e-10,2.0
200,200,15.604198,282679.44,128852.42,310661.56,-24.504698,136.4130240525992,0.05033593,2.1389774e-07,0.079156406,0.013617463,2.0,43,0.020536374,6.6105294e-08,0,-1.264900948676484e-10,2.0
201,201,13.500899,292498.28,139172.83,323920.25,-25.445446,137.16097019478912,0.050363075,1.896412e-07,0.08470382,0.01563636,2.0,43,0.020544851,6.3425645e-08,0,-4.463971351004798e-11,2.0
202,202,11.686608,302820.7,150642.58,338221.16,-26.44872,137.75189680952462,0.050390165,1.9385914e-07,0.09040323,0.017934028,2.0,43,0.020555446,6.0775164e-08,0,-1.3398033065392666e-10,2.0
203,203,10.113269,313962.88,162141.9,353359.16,-27.313484,138.42554668147932,0.050358582,1.9734162e-07,0.09705844,0.020435777,2.0,43,0.020540528,5.812932e-08,0,-1.717334936528974e-10,2.0
204,204,8.748621,326566.94,174823.44,370417.6,-28.161802,139.19140645119478,0.05036559,2.2066683e-07,0.10405929,0.023179121,2.0,43,0.020550331,5.5478818e-08,0,3.1424597755425053e-10,2.0
205,205,7.570237,339803.1,187668.02,388182.22,-28.911194,140.0669677995029,0.050340615,2.5044483e-07,0.11202639,0.026183616,2.0,43,0.020553293,5.2947538e-08,0,2.0515174738200415e-10,2.0
206,206,6.554112,353447.8,201266.92,406735.47,-29.658867,140.6023278515495,0.050366446,1.11918276e-07,0.120651826,0.029543001,2.0,43,0.020546414,5.051542e-08,0,9.61072862930321e-11,2.0
207,207,5.669445,369022.1,217254.34,428225.12,-30.486593,141.2121558538929,0.05035145,3.126359e-07,0.12921447,0.033258583,2.0,43,0.020572983,4.804245e-08,0,2.943349471673271e-10,2.0
208,208,4.907347,385066.28,234117.39,450651.75,-31.299284,141.9045689800696,0.05034953,1.8203347e-07,0.13852867,0.037387367,2.0,43,0.020594064,4.56984e-08,0,4.747779638830786e-10,2.0
209,209,4.245922,401212.38,250130.56,472796.66,-31.940933,142.69231963084894,0.050345335,2.0660632e-07,0.14985849,0.041943636,2.0,43,0.020561624,4.348936e-08,0,-9.290425976161822e-11,2.0
210,210,3.6747382,419159.9,268179.5,497609.56,-32.61121,143.59196010025335,0.05036056,2.53983e-07,0.16149837,0.046907455,2.0,43,0.020562321,4.13222e-08,0,6.585162520832534e-10,2.0
211,211,3.180988,436995.25,287249.0,522950.12,-33.318016,144.62019553573919,0.05036179,2.2490329e-07,0.17418051,0.052552823,2.0,43,0.020552002,3.930012e-08,0,8.494645114341084e-10,2.0
212,212,2.752818,454450.56,308675.2,549368.44,-34.185413,145.7991224717407,0.050356984,1.9824853e-07,0.18730134,0.05913123,2.0,43,0.0205636,3.743135e-08,0,1.3692999089462728e-10,2.0
213,213,2.3804083,473872.2,331453.44,578287.3,-34.971153,147.15395909611834,0.050349273,2.559298e-07,0.20171869,0.066268,2.0,43,0.020551028,3.5537745e-08,0,1.2169200497346033e-10,2.0
214,214,2.060257,490340.8,357020.84,606545.94,-36.058643,148.71037557002273,0.05033994,2.7480777e-07,0.21637404,0.0749661,2.0,43,0.020539014,3.3862257e-08,0,1.0240598541090644e-09,2.0
