True,index,freq,Re(Z),Im(Z),Z,Phase(Z),time,Ewe_meas,I_meas,Cs,Cp,cycle_number,I_Range,Ewe,I,Ns,(QQo),cycle
110,110,7000018.5,132.18115,1205.443,1212.6685,-83.74231,82.56148277476314,0.005321786,1.2365877e-05,1.8861416e-05,1.863732e-05,2.0,40,0.0099639995,8.21659e-06,0,4.034646524290558e-08,2.0
111,111,6057573.0,197.44765,1395.8181,1409.7141,-81.948555,83.11349184098071,0.00533317,-8.769959e-06,1.8823166e-05,1.8453902e-05,2.0,40,0.013998036,9.9296985e-06,0,3.8784920335437495e-08,2.0
112,112,5242039.0,175.23466,1612.1766,1621.6722,-83.79662,83.52948202073458,0.0053532547,-1.0481633e-05,1.8832468e-05,1.861257e-05,2.0,40,0.019277798,1.1887604e-05,0,3.739554338124377e-08,2.0
113,113,4536288.0,121.823845,1867.8313,1871.7999,-86.26833,84.89749896569992,0.0053567765,-5.327936e-06,1.8783732e-05,1.8704164e-05,2.0,40,0.019538369,1.0438279e-05,0,3.4384090225481005e-08,2.0
114,114,3925558.5,182.7131,2175.9214,2183.579,-85.2001,85.31349098545616,0.005284895,1.4258175e-06,1.8632685e-05,1.8502227e-05,2.0,40,0.01858824,8.512739e-06,0,3.235961657146004e-08,2.0
115,115,3397055.0,227.21367,2435.4565,2446.0325,-84.670074,85.73048809860484,0.0052896277,-1.0016495e-05,1.9236992e-05,1.9071002e-05,2.0,40,0.019624922,8.023165e-06,0,3.3990234853814806e-08,2.0
116,116,2939708.2,250.93254,2811.7969,2822.9717,-84.900276,86.14650297173648,0.00526876,8.1609705e-06,1.9254487e-05,1.910235e-05,2.0,40,0.021517748,7.6223746e-06,0,3.422710978569783e-08,2.0
117,117,2543924.5,257.95044,3261.0256,3271.212,-85.477264,86.6985011579527,0.0052589783,-7.932688e-06,1.9184996e-05,1.9065701e-05,2.0,40,0.02057952,6.2911e-06,0,3.2033671525980407e-08,2.0
118,118,2201436.2,299.96866,3727.3594,3739.4102,-85.398895,87.25048294416047,0.0052749272,-3.0208682e-06,1.9396026e-05,1.9271214e-05,2.0,40,0.020927032,5.596346e-06,0,3.502406837497299e-08,2.0
119,119,1905053.1,303.99823,4282.74,4293.516,-85.93983,87.80248878369457,0.005238185,-8.844353e-06,1.9507037e-05,1.9409243e-05,2.0,40,0.020501237,4.7749295e-06,0,3.6385091874585186e-08,2.0
120,120,1648567.4,310.4062,5003.2314,5012.851,-86.44985,88.3554900099698,0.005280293,-7.9512965e-06,1.9295803e-05,1.9221818e-05,2.0,40,0.019992933,3.9883357e-06,0,3.934143306988267e-08,2.0
121,121,1426616.2,175.73512,5823.2856,5825.9365,-88.271454,89.07449831077247,0.0052739955,-2.4755118e-06,1.9157766e-05,1.9140336e-05,2.0,41,0.019272417,3.3080375e-06,0,4.19093819578623e-08,2.0
122,122,1234551.2,180.91394,6819.3423,6821.7417,-88.48032,89.6265009236813,0.0052264845,1.922971e-06,1.8904644e-05,1.8891347e-05,2.0,41,0.020699568,3.0343524e-06,0,4.103918531933992e-08,2.0
123,123,1068345.5,259.48578,7804.8916,7809.204,-88.09582,90.17848625654005,0.0052568545,2.4760384e-06,1.9087169e-05,1.9066096e-05,2.0,41,0.020674838,2.647496e-06,0,4.072959721235472e-08,2.0
124,124,924510.06,235.82104,9045.681,9048.754,-88.50664,90.73049142942182,0.005284616,1.8428966e-06,1.9031248e-05,1.9018322e-05,2.0,41,0.020306412,2.2441116e-06,0,4.156578510124338e-08,2.0
125,125,800039.0,39.98987,10423.886,10423.963,-89.7802,91.28250740232761,0.0052675116,5.5799296e-07,1.9084435e-05,1.9084153e-05,2.0,41,0.020798625,1.9952704e-06,0,4.152853783694748e-08,2.0
126,126,692334.1,339.01974,12095.584,12100.334,-88.39451,91.83449620186002,0.005281318,1.4071467e-06,1.9005423e-05,1.8990506e-05,2.0,41,0.020364953,1.6830076e-06,0,4.189348186333142e-08,2.0
127,127,599122.25,507.8404,13881.009,13890.296,-87.904755,92.38649281478138,0.0052606366,3.3549868e-06,1.9137433e-05,1.911185e-05,2.0,41,0.02054413,1.4790276e-06,0,4.144899987827838e-08,2.0
128,128,518454.94,523.48883,15863.183,15871.818,-88.10991,92.9384984409844,0.0052861436,3.448095e-06,1.9351684e-05,1.9330633e-05,2.0,41,0.020426087,1.2869406e-06,0,4.260148327181174e-08,2.0
129,129,448662.03,710.6018,18539.94,18553.553,-87.80503,93.49050249389256,0.0052816533,1.662265e-06,1.9133415e-05,1.9105348e-05,2.0,41,0.020273577,1.0927059e-06,0,4.267027192878044e-08,2.0
130,130,388258.97,881.90045,21377.262,21395.445,-87.63765,94.04250361342565,0.005269468,1.6827494e-06,1.9175493e-05,1.9142914e-05,2.0,41,0.020899,9.767966e-07,0,4.258591570053621e-08,2.0
131,131,335983.9,-788.52264,23452.598,23465.85,-91.925674,94.59450646632467,0.005250948,3.4145758e-06,2.0198107e-05,2.0175301e-05,2.0,41,0.020228911,8.6205745e-07,0,4.231666810557261e-08,2.0
132,132,290751.2,1374.5854,28410.023,28443.258,-87.22997,95.14648515920271,0.005237552,4.712515e-06,1.9267572e-05,1.9222574e-05,2.0,41,0.020508148,7.2101966e-07,0,4.3507034138103075e-08,2.0
133,133,251605.19,1875.1729,32888.33,32941.742,-86.73673,95.69849734540912,0.005264195,2.9471692e-06,1.923352e-05,1.9171197e-05,2.0,41,0.020401161,6.193103e-07,0,4.4205581106514043e-08,2.0
134,134,217729.38,2314.3936,37692.246,37763.234,-86.48631,96.25050110495067,0.0052967076,2.6957741e-06,1.9393272e-05,1.9320429e-05,2.0,41,0.020409375,5.4045626e-07,0,4.500258583178369e-08,2.0
135,135,188418.58,3358.9622,43370.277,43500.156,-85.57137,96.80250627783244,0.0052593136,2.3754792e-06,1.9476198e-05,1.9360072e-05,2.0,41,0.020707313,4.7602848e-07,0,4.651780772913503e-08,2.0
136,136,163051.14,4009.877,49686.926,49848.47,-85.38606,97.35450713071623,0.0052586617,4.9713567e-06,1.9645098e-05,1.9517976e-05,2.0,41,0.02023725,4.0597536e-07,0,4.7190193889530125e-08,2.0
137,137,141098.2,2552.375,56592.992,56650.52,-87.41768,98.07350591153954,0.005265425,4.951755e-07,1.9931316e-05,1.9890856e-05,2.0,42,0.01888475,3.3335527e-07,0,4.716657996051508e-08,2.0
138,138,122105.11,3921.9866,65774.47,65891.3,-86.587616,98.48949230465223,0.0052744052,5.937025e-07,1.981659e-05,1.9746383e-05,2.0,42,0.02054235,3.117612e-07,0,4.718542153571054e-08,2.0
139,139,105663.59,4209.5903,74452.81,74571.73,-86.76392,99.04148603751673,0.0052609346,7.2817585e-07,2.0230827e-05,2.0166357e-05,2.0,42,0.020309955,2.7235464e-07,0,4.731305086128836e-08,2.0
140,140,91439.65,6243.128,88504.98,88724.9,-85.96505,99.45749909730512,0.005299372,6.089752e-07,1.9666084e-05,1.9568713e-05,2.0,42,0.021614164,2.4360878e-07,0,4.7364668274333015e-08,2.0
141,141,79127.08,7502.7866,100150.06,100430.7,-85.71566,100.00950256348005,0.005271033,6.3058025e-07,2.0083702e-05,1.9971616e-05,2.0,42,0.020256285,2.0169415e-07,0,4.736819516098972e-08,2.0
142,142,68475.36,8722.367,116237.16,116563.96,-85.7086,100.42549991657143,0.005268518,6.27414e-07,1.9995894e-05,1.9883928e-05,2.0,42,0.021130884,1.8128145e-07,0,4.7448649810047016e-08,2.0
143,143,59252.523,12377.704,132324.44,132902.08,-84.65607,100.84149473634898,0.005292385,4.3017408e-07,2.0298934e-05,2.0122863e-05,2.0,42,0.021878026,1.6461765e-07,0,4.748615026386934e-08,2.0
144,144,51282.285,13600.456,152058.34,152665.36,-84.88893,101.39348588258144,0.005316066,6.1996394e-07,2.0409978e-05,2.0247995e-05,2.0,42,0.020258155,1.3269647e-07,0,4.757215466131153e-08,2.0
145,145,44369.8,22682.727,177278.62,178723.86,-82.70865,101.80950456901337,0.0052801813,6.9055307e-07,2.0233743e-05,1.9907831e-05,2.0,42,0.02065917,1.1559268e-07,0,4.76281705521752e-08,2.0
146,146,38403.727,27409.078,204617.14,206444.75,-82.370476,102.22550029543345,0.005280591,7.1066825e-07,2.0253718e-05,1.98967e-05,2.0,42,0.020983482,1.0164212e-07,0,4.7648706792294804e-08,2.0
147,147,33226.32,36306.93,231849.75,234675.31,-81.099945,102.64150375520694,0.0052504265,7.4177217e-07,2.0660045e-05,2.0165533e-05,2.0,42,0.021164278,9.018536e-08,0,4.77662670185265e-08,2.0
148,148,28754.086,46885.754,268269.9,272336.22,-80.086494,103.05749289496453,0.0052815042,7.650536e-07,2.0632346e-05,2.0020814e-05,2.0,42,0.021340907,7.836235e-08,0,4.785413094328087e-08,2.0
149,149,24884.947,62935.973,306327.22,312725.6,-78.389946,103.47350816804101,0.0053025954,6.592629e-07,2.087843e-05,2.0032823e-05,2.0,42,0.021372588,6.834295e-08,0,4.795639275870853e-08,2.0
150,150,21553.963,80202.34,345845.4,355023.2,-76.94376,103.89049736116431,0.0052737533,7.60956e-07,2.1350643e-05,2.0261032e-05,2.0,42,0.021339757,6.0108064e-08,0,4.7985533826269526e-08,2.0
151,151,18631.234,99901.39,393486.97,405970.78,-75.75432,104.30648938092054,0.0052711074,8.308002e-07,2.1709417e-05,2.0394793e-05,2.0,42,0.02118863,5.21925e-08,0,4.805759214736997e-08,2.0
152,152,16126.037,121642.56,461783.22,477536.03,-75.24244,104.88848439525464,0.005292851,5.755902e-07,2.137245e-05,1.9985651e-05,2.0,43,0.020804303,4.3565933e-08,0,4.8124445946021645e-08,2.0
153,153,13954.87,165564.92,495179.1,522124.6,-71.51246,105.30448460168554,0.0052695796,5.69724e-07,2.3032022e-05,2.0716117e-05,2.0,43,0.020414993,3.909985e-08,0,4.819360593374069e-08,2.0
154,154,12080.609,198009.55,573512.6,606732.6,-70.95238,105.72050296809175,0.0052753557,5.777877e-07,2.2971444e-05,2.0524829e-05,2.0,43,0.020052996,3.3050796e-08,0,4.826512814170128e-08,2.0
155,155,10447.592,252893.94,652034.44,699359.9,-68.80103,106.13648528119666,0.005277554,5.623307e-07,2.3363258e-05,2.0308275e-05,2.0,43,0.019554246,2.7960205e-08,0,4.8335956587507865e-08,2.0
156,156,9045.586,301666.5,701870.6,763953.56,-66.74179,106.70927248170483,0.0053013656,5.6918395e-07,2.5068384e-05,2.1159556e-05,2.0,43,0.020285193,2.6552913e-08,0,4.842660641333276e-08,2.0
157,157,7827.7437,389675.0,794248.75,884690.75,-63.86647,107.18892877121107,0.005254544,5.70562e-07,2.5599235e-05,2.063275e-05,2.0,43,0.02030072,2.2946685e-08,0,4.850298931060602e-08,2.0
158,158,6770.8345,485498.9,864941.06,991883.2,-60.694126,107.72740623677964,0.005235782,5.8868216e-07,2.7176367e-05,2.066538e-05,2.0,43,0.020284118,2.0450107e-08,0,4.859374596647687e-08,2.0
159,159,5860.798,598133.3,934879.5,1109848.2,-57.388996,108.33400079893181,0.0051810234,5.8298355e-07,2.904743e-05,2.0610656e-05,2.0,43,0.020316426,1.8305588e-08,0,4.870029114774531e-08,2.0
160,160,5071.625,722003.2,988283.1,1223924.9,-53.849514,109.01471251127805,0.005270623,5.827228e-07,3.17535e-05,2.0703552e-05,2.0,43,0.020319708,1.6602087e-08,0,4.8811209916559407e-08,2.0
161,161,4388.5933,841893.4,1056104.8,1350607.9,-51.43925,109.6948259302444,0.0052568917,5.9311435e-07,3.4339017e-05,2.0996324e-05,2.0,43,0.020326968,1.5050237e-08,0,4.8919608433945505e-08,2.0
162,162,3798.7827,1006779.94,1064405.9,1465116.2,-46.593708,110.37483945586428,0.005275747,5.922205e-07,3.9361206e-05,2.0774893e-05,2.0,43,0.02032416,1.3872046e-08,0,4.9024259800714846e-08,2.0
163,163,3286.0488,1160638.0,1081815.0,1586633.0,-42.986862,111.05470927483839,0.005280293,5.6031945e-07,4.4770622e-05,2.081355e-05,2.0,43,0.02040476,1.2860416e-08,0,4.913209876503484e-08,2.0
164,164,2844.088,1307171.9,1053971.4,1679152.8,-38.8792,111.73484301380813,0.00531329,5.5706045e-07,5.3094347e-05,2.0918258e-05,2.0,43,0.02035359,1.2121345e-08,0,4.923398238527899e-08,2.0
165,165,2460.7852,1437250.2,1037858.25,1772805.1,-35.83357,112.41468264610012,0.0052681267,5.5985385e-07,6.231727e-05,2.1358093e-05,2.0,43,0.02036021,1.1484743e-08,0,4.933877787588204e-08,2.0
166,166,2129.3164,1578274.9,996997.8,1866803.8,-32.280643,113.09481206505734,0.0052757654,5.8423126e-07,7.496969e-05,2.1383403e-05,2.0,43,0.020360868,1.0906807e-08,0,4.944508692781064e-08,2.0
167,167,1843.2289,1683924.6,922236.75,1919927.8,-28.708244,113.77495988403098,0.005301887,5.7201464e-07,9.3626426e-05,2.1602973e-05,2.0,43,0.020321783,1.058466e-08,0,4.955193135200118e-08,2.0
168,168,1594.4913,1803138.6,856594.44,1996262.2,-25.410404,114.45484636965557,0.005299987,5.7095315e-07,0.00011652597,2.145547e-05,2.0,43,0.020340666,1.0189376e-08,0,4.965829545329578e-08,2.0
169,169,1380.4436,1890961.9,784059.3,2047067.6,-22.520617,115.13468810862832,0.0053114826,5.737466e-07,0.00014704578,2.1571781e-05,2.0,43,0.02035148,9.941773e-09,0,4.976610000753048e-08,2.0
170,170,1194.6187,1957799.5,710039.0,2082578.8,-19.93429,115.8148219542636,0.0052656485,5.8035766e-07,0.00018763274,2.1810729e-05,2.0,43,0.020328682,9.761303e-09,0,4.987176467377383e-08,2.0
171,171,1033.3434,2028912.6,629850.25,2124428.8,-17.246294,116.495100759872,0.005313681,5.7372796e-07,0.00024453338,2.1494554e-05,2.0,43,0.020365609,9.586393e-09,0,4.997899949804522e-08,2.0
172,172,894.71045,2083599.2,550202.9,2155019.5,-14.792088,117.17484409885947,0.005266282,5.887008e-07,0.00032330674,2.1074538e-05,2.0,43,0.020384848,9.4592405e-09,0,5.0090786467986014e-08,2.0
173,173,774.2569,2066283.8,427978.25,2110140.8,-11.7019005,117.85497261115233,0.0052674557,5.8646606e-07,0.00048030086,1.9757588e-05,2.0,43,0.020220727,9.582644e-09,0,5.0200328935875326e-08,2.0
174,174,669.7856,2129611.2,427498.84,2172095.5,-11.350713,118.53483603011409,0.005261009,5.865778e-07,0.0005558395,2.1530865e-05,2.0,43,0.020330302,9.3597645e-09,0,5.03057359273796e-08,2.0
175,175,579.81464,2158284.8,383951.34,2192170.5,-10.0871935,119.21481627575122,0.0052721323,5.7272234e-07,0.00071491563,2.1931002e-05,2.0,43,0.020350901,9.283448e-09,0,5.042445784052438e-08,2.0
176,176,501.44418,2163832.2,341419.44,2190602.0,-8.966471,119.89218865454313,0.0052860314,5.706739e-07,0.0009296282,2.2581813e-05,2.0,43,0.020329949,9.28053e-09,0,5.053483965007249e-08,2.0
177,177,434.02762,2183277.8,289766.12,2202422.8,-7.560152,120.57220890020835,0.0052692443,5.903955e-07,0.0012654796,2.190529e-05,2.0,43,0.020365551,9.246886e-09,0,5.0637280681793014e-08,2.0
178,178,375.6009,2188628.5,269540.53,2205163.8,-7.020908,121.25042743908125,0.00524657,5.922392e-07,0.0015720612,2.3487453e-05,2.0,43,0.02036121,9.233423e-09,0,5.07404084753254e-08,2.0
179,179,325.10385,2191676.2,230320.27,2203745.0,-5.999116,121.9297248047078,0.00530267,5.682156e-07,0.0021255233,2.3217075e-05,2.0,43,0.020338891,9.22924e-09,0,5.0855380105092215e-08,2.0
180,180,281.3503,2211969.2,208068.12,2221733.8,-5.373696,122.60678419686155,0.0052498486,5.8449206e-07,0.0027187369,2.3844832e-05,2.0,43,0.020388395,9.176794e-09,0,5.097387987063781e-08,2.0
181,181,243.36427,2206559.5,189414.53,2214674.5,-4.906332,123.29010785595165,0.0052617732,5.86522e-07,0.00345263,2.525555e-05,2.0,43,0.020372089,9.198683e-09,0,5.1072603319576775e-08,2.0
182,182,210.60631,2212513.0,174753.53,2219403.8,-4.516084,123.96719855474657,0.0052027106,5.902279e-07,0.0043243696,2.6810325e-05,2.0,43,0.020375498,9.180618e-09,0,5.117414050159752e-08,2.0
183,183,182.27473,2212070.2,164393.84,2218170.5,-4.250222,124.63828877333435,0.005254134,5.761676e-07,0.005311389,2.9173554e-05,2.0,43,0.020351596,9.174947e-09,0,5.128940242244363e-08,2.0
184,184,157.72879,2215244.0,155242.92,2220677.0,-4.0086985,125.32665627272218,0.005280535,5.860936e-07,0.0064997603,3.1765096e-05,2.0,43,0.020353746,9.165559e-09,0,5.139628000689362e-08,2.0
185,185,136.52892,2219206.5,148005.16,2224136.5,-3.815567,125.9985131045978,0.0052401046,6.060574e-07,0.007876234,3.487783e-05,2.0,43,0.020353258,9.151083e-09,0,5.15148739359413e-08,2.0
186,186,118.14758,2225662.0,142813.94,2230239.2,-3.6714618,126.6878899106814,0.0052741817,5.823132e-07,0.009432455,3.867791e-05,2.0,43,0.020369085,9.133139e-09,0,5.16205499346174e-08,2.0
187,187,102.25773,2224830.2,136426.45,2229009.2,-3.5089798,127.3543567689776,0.005247054,5.7970595e-07,0.0114084175,4.2736487e-05,2.0,43,0.020364575,9.136156e-09,0,5.173254822400608e-08,2.0
188,188,88.4436,2237058.2,143398.98,2241649.5,-3.6677327,128.0432791217172,0.005256575,6.09633e-07,0.012548956,5.1352825e-05,2.0,43,0.020383196,9.092945e-09,0,5.184453920672638e-08,2.0
189,189,76.54279,2239909.5,145185.47,2244609.8,-3.7085848,128.70975363340403,0.005218324,5.860005e-07,0.014321637,5.9917995e-05,2.0,43,0.020363202,9.072045e-09,0,5.195063375992524e-08,2.0
190,190,66.250786,2238995.0,151660.72,2244125.5,-3.8750715,129.3780046251195,0.0052817278,5.751061e-07,0.01584003,7.2344905e-05,2.0,43,0.020350033,9.068135e-09,0,5.2066200766540176e-08,2.0
191,191,57.329906,2265527.5,156154.8,2270902.8,-3.9429588,130.03265014958015,0.0052799205,5.739887e-07,0.017778028,8.40615e-05,2.0,43,0.020355806,8.963751e-09,0,5.2165193617145297e-08,2.0
192,192,49.60321,2256418.8,162142.19,2262236.8,-4.1101074,130.71838450207724,0.0052536684,5.9076797e-07,0.019788565,0.00010165536,2.0,43,0.02037589,9.006967e-09,0,5.2271278232196865e-08,2.0
193,193,42.92585,2267783.5,169071.6,2274077.2,-4.263723,131.42645714906394,0.005298105,5.6840184e-07,0.021929594,0.00012121642,2.0,43,0.020358002,8.952203e-09,0,5.2396946977446175e-08,2.0
194,194,37.1518,2270214.8,187282.52,2277926.8,-4.7159653,132.07018507298199,0.005246961,5.796315e-07,0.02287405,0.00015461729,2.0,43,0.020362802,8.939182e-09,0,5.250176915705919e-08,2.0
195,195,32.150223,2283255.0,203801.9,2292332.5,-5.100668,132.70940411664196,0.0052338257,5.8391475e-07,0.024290022,0.00019199467,2.0,43,0.020369481,8.8859196e-09,0,5.258524134663636e-08,2.0
196,196,27.835518,2290213.5,228961.61,2301630.2,-5.709113,133.43632769785472,0.0052561555,5.898182e-07,0.024972277,0.00024712255,2.0,43,0.020381905,8.855421e-09,0,5.270619686683947e-08,2.0
197,197,24.082958,2304595.8,247102.81,2317805.2,-6.119973,134.13838469117763,0.005296931,5.798363e-07,0.026744386,0.00030397237,2.0,43,0.020418324,8.8093355e-09,0,5.2806258517233753e-08,2.0
198,198,20.833313,2314732.2,260921.61,2329391.8,-6.4313555,134.79275010900164,0.005272803,5.782534e-07,0.029278697,0.00036735568,2.0,43,0.020370286,8.744895e-09,0,5.291132573339288e-08,2.0
199,199,18.021912,2326898.2,297039.97,2345781.0,-7.2747416,135.53871635776886,0.0053338874,5.061082e-07,0.02973065,0.00047671548,2.0,43,0.020362856,8.6806295e-09,0,5.303284990161039e-08,2.0
200,200,15.604198,2348850.0,318520.7,2370348.5,-7.722605,136.19301937549608,0.005239415,5.924254e-07,0.032021455,0.00057821843,2.0,43,0.020365112,8.591611e-09,0,5.3158421789048933e-08,2.0
201,201,13.500899,2363293.8,351291.4,2389260.0,-8.454814,136.94097487768158,0.0052705207,5.88347e-07,0.033557523,0.0007254344,2.0,43,0.020358237,8.520729e-09,0,5.327964316260254e-08,2.0
202,202,11.686608,2390553.0,391684.16,2422428.5,-9.305044,137.53187605240964,0.005251488,6.084411e-07,0.034769274,0.00090900384,2.0,43,0.020351602,8.401322e-09,0,5.3381875669968437e-08,2.0
203,203,10.113269,2412964.5,433670.4,2451625.5,-10.18872,138.2055019243562,0.00527094,5.8028326e-07,0.03628848,0.0011354816,2.0,43,0.020359453,8.304471e-09,0,5.34684140465388e-08,2.0
204,204,8.748621,2443326.8,472710.12,2488634.2,-10.949726,138.9723867875,0.005272747,5.87062e-07,0.03848448,0.0013885236,2.0,43,0.020346422,8.175738e-09,0,5.353364250196021e-08,2.0
205,205,7.570237,2476165.8,513319.06,2528812.5,-11.711755,139.8480259490898,0.00528973,5.6399756e-07,0.04095654,0.0016875815,2.0,43,0.020372346,8.056092e-09,0,5.3743580982377734e-08,2.0
206,206,6.554112,2510459.5,560626.3,2572296.5,-12.588525,140.3843054678582,0.0052833115,5.973418e-07,0.043314453,0.00205749,2.0,43,0.020377342,7.921848e-09,0,5.3780614564284164e-08,2.0
207,207,5.669445,2552177.5,619455.2,2626277.8,-13.642801,140.99411651017726,0.005258792,5.660926e-07,0.045317892,0.002521205,2.0,43,0.020368364,7.7556015e-09,0,5.392851763155577e-08,2.0
208,208,4.907347,2599707.0,668977.9,2684400.8,-14.430733,141.6865380363597,0.005252923,6.0434405e-07,0.048479885,0.0030108588,2.0,43,0.020366691,7.587053e-09,0,5.394661154314533e-08,2.0
209,209,4.245922,2652411.5,730146.6,2751072.8,-15.390979,142.4743107938266,0.00526767,5.871644e-07,0.05133789,0.0036162133,2.0,43,0.020375758,7.406477e-09,0,5.419879492004536e-08,2.0
210,210,3.6747382,2703490.2,797168.44,2818570.0,-16.429018,143.37392939656274,0.005272598,5.740725e-07,0.05433049,0.004345964,2.0,43,0.020349221,7.2196973e-09,0,5.4282093785409284e-08,2.0
211,211,3.180988,2766028.2,860680.0,2896840.0,-17.284103,144.4022443787253,0.0052885003,5.8208036e-07,0.058132146,0.005131576,2.0,43,0.02037271,7.0327353e-09,0,5.434430600418633e-08,2.0
212,212,2.752818,2834464.8,931256.3,2983526.2,-18.187809,145.58116747470922,0.0052601527,5.944306e-07,0.062083095,0.0060485615,2.0,43,0.020366337,6.826264e-09,0,5.4640831791865826e-08,2.0
213,213,2.3804083,2910327.0,998519.75,3076856.2,-18.93686,146.93600001907907,0.0052617304,5.744172e-07,0.06695947,0.0070519773,2.0,43,0.020366214,6.6191634e-09,0,5.49691411368822e-08,2.0
214,214,2.060257,2988649.2,1085710.4,3179747.0,-19.964968,148.49236326632672,0.00528435,5.845618e-07,0.071151614,0.008295215,2.0,43,0.020366203,6.404976e-09,0,5.5131410976653464e-08,2.0
