True,index,freq,Re(Z),Im(Z),Z,Phase(Z),time,Ewe_meas,I_meas,Cs,Cp,cycle_number,I_Range,Ewe,I,Ns,(QQo),cycle
0,0,7000018.5,155.15677,1179.4187,1189.5807,-82.50557,2.4664974504557904,-0.008658041,5.8912005e-06,1.9277599e-05,1.8949648e-05,1.0,40,0.009462548,7.954524e-06,0,6.99305885927812e-09,1.0
1,1,6057573.0,204.06784,1327.5769,1343.1694,-81.26121,3.018489103327738,-0.008621654,-8.825775e-06,1.979073e-05,1.9333906e-05,1.0,40,0.013237829,9.855666e-06,0,6.7401872881542124e-09,1.0
2,2,5242039.0,227.68527,1575.2264,1591.5963,-81.77535,3.4344927497731987,-0.00860455,-9.272283e-06,1.9274223e-05,1.8879784e-05,1.0,40,0.018263534,1.1474978e-05,0,5.9335460376562174e-09,1.0
3,3,4536288.0,196.28291,1815.2272,1825.8085,-83.82851,5.074497387657175,-0.008639204,-3.6906642e-06,1.9328072e-05,1.9104693e-05,1.0,40,0.018364582,1.0058329e-05,0,1.0814407656248982e-08,1.0
4,4,3925558.5,266.59927,2083.8762,2100.8606,-82.7095,5.626500400569057,-0.008651539,-6.648915e-06,1.9455694e-05,1.9142388e-05,1.0,40,0.019773036,9.411875e-06,0,8.898236731852193e-09,1.0
5,5,3397055.0,327.54572,2370.2656,2392.7903,-82.13216,6.04247844699421,-0.008699348,4.0677855e-06,1.976608e-05,1.9395693e-05,1.0,40,0.020886535,8.728945e-06,0,6.2328778199400855e-09,1.0
6,6,2939708.2,351.21027,2708.5366,2731.2122,-82.6118,6.595489699888276,-0.008681256,-7.411737e-06,1.9988545e-05,1.9658019e-05,1.0,40,0.020922592,7.660552e-06,0,3.770941954422193e-09,1.0
7,7,2543924.5,415.7734,3106.8618,3134.5586,-82.37772,7.147500952793052,-0.008692864,-2.7789965e-06,2.0136962e-05,1.9782678e-05,1.0,40,0.020210406,6.447608e-06,0,3.2346574572683394e-09,1.0
8,8,2201436.2,501.3151,3523.4739,3558.9585,-81.90238,7.699497352325125,-0.008703652,-5.5511982e-06,2.0518375e-05,2.0111258e-05,1.0,40,0.020881347,5.8672636e-06,0,4.030680871513444e-09,1.0
9,9,1905053.1,590.80273,4163.6597,4205.3667,-81.92393,8.251479165250203,-0.008722489,-4.583719e-06,2.0064937e-05,1.966892e-05,1.0,40,0.020597838,4.8979887e-06,0,7.974232230904161e-09,1.0
10,10,1648567.4,624.1425,4703.1943,4744.4272,-82.440674,8.803495484782616,-0.008684759,-2.1049489e-05,2.0526764e-05,2.0171527e-05,1.0,40,0.020053152,4.226675e-06,0,1.3132776237196393e-09,1.0
11,11,1426616.2,550.0015,5501.834,5529.257,-84.29128,9.52250239890418,-0.0087211095,-1.481108e-06,2.0277083e-05,2.007645e-05,1.0,41,0.01928972,3.4886643e-06,0,1.104246398123602e-09,1.0
12,12,1234551.2,628.87665,6330.3457,6361.5063,-84.32667,10.07447903850698,-0.008667227,3.7363833e-07,2.0364962e-05,2.016594e-05,1.0,41,0.02048555,3.2202358e-06,0,1.0628286929880283e-09,1.0
13,13,1068345.5,813.46234,7294.811,7340.0264,-83.63709,10.626501758029917,-0.0086950995,-9.932012e-07,2.0421818e-05,2.017099e-05,1.0,41,0.020905778,2.8481884e-06,0,7.746353699960511e-11,1.0
14,14,924510.06,1016.66766,8362.738,8424.311,-83.068504,11.178480637579923,-0.008754517,2.3568584e-06,2.0585432e-05,2.0285619e-05,1.0,41,0.020021973,2.3766897e-06,0,2.844606435985497e-10,1.0
15,15,800039.0,1530.8136,9603.541,9724.782,-80.94319,11.730503117112676,-0.00868638,-2.672996e-08,2.071465e-05,2.0201358e-05,1.0,41,0.020653782,2.1238297e-06,0,1.4384016112387599e-09,1.0
16,16,692334.1,1495.967,11019.515,11120.595,-82.269005,12.28250258337357,-0.008723401,1.4965321e-06,2.0861327e-05,2.0483814e-05,1.0,41,0.02074445,1.8654083e-06,0,9.011916666952718e-10,1.0
17,17,599122.25,1915.6481,12516.084,12661.835,-81.29813,12.834482982900226,-0.008694392,2.3568596e-06,2.122444e-05,2.073862e-05,1.0,41,0.020488678,1.6181444e-06,0,7.29206096473768e-10,1.0
18,18,518454.94,2332.2676,14336.085,14524.559,-80.75978,13.386493489117129,-0.008710098,2.3084426e-06,2.141305e-05,2.0860936e-05,1.0,41,0.020518273,1.4126607e-06,0,8.57646122087077e-10,1.0
19,19,448662.03,2941.324,16388.713,16650.564,-79.8253,13.938478288677288,-0.008709223,1.7814461e-06,2.1644919e-05,2.0969483e-05,1.0,41,0.020237172,1.2154046e-06,0,1.8225717731626091e-09,1.0
20,20,388258.97,3737.7034,18757.824,19126.588,-78.73078,14.490490554919234,-0.008670115,6.5296507e-07,2.1853257e-05,2.1018712e-05,1.0,41,0.020885969,1.0919862e-06,0,3.1306789925464627e-09,1.0
21,21,335983.9,4569.893,20053.629,20567.74,-77.16246,15.042489807790844,-0.008721333,8.950483e-07,2.3621564e-05,2.2455433e-05,1.0,41,0.020063395,9.754788e-07,0,3.027647858165968e-09,1.0
22,22,290751.2,5916.153,24145.486,24859.715,-76.23256,15.594497460668208,-0.008716322,2.9173752e-06,2.2670582e-05,2.1386628e-05,1.0,41,0.020500176,8.2463436e-07,0,3.3420064979768286e-09,1.0
23,23,251605.19,7277.896,27482.113,28429.463,-75.16725,16.14647874023649,-0.008718072,8.5035566e-07,2.3017092e-05,2.150866e-05,1.0,41,0.020424008,7.184099e-07,0,4.319905734601232e-09,1.0
24,24,217729.38,9102.502,30864.975,32179.22,-73.5685,16.699481299816398,-0.0087481635,2.705086e-06,2.3683026e-05,2.1788032e-05,1.0,41,0.020232694,6.287503e-07,0,4.431183725886159e-09,1.0
25,25,188418.58,11081.136,35028.703,36739.645,-72.44552,17.251493432704592,-0.008716657,8.0752557e-07,2.4114172e-05,2.1920505e-05,1.0,41,0.020797148,5.660683e-07,0,3.782271807147531e-09,1.0
26,26,163051.14,14219.239,38904.633,41421.7,-69.923164,17.803504445619183,-0.008725507,7.330378e-07,2.5089672e-05,2.2133077e-05,1.0,41,0.020372696,4.918363e-07,0,4.38804894380635e-09,1.0
27,27,141098.2,17697.326,43308.914,46785.227,-67.7736,18.355492551840143,-0.008703913,7.8890304e-07,2.604482e-05,2.2318163e-05,1.0,41,0.0201265,4.301892e-07,0,6.201515277267175e-09,1.0
28,28,122105.11,21888.908,47626.66,52415.867,-65.316795,18.771480064926436,-0.008728115,1.610125e-06,2.7367567e-05,2.2594924e-05,1.0,41,0.021971837,4.1918292e-07,0,6.3837368621398755e-09,1.0
29,29,105663.59,24969.537,54635.453,60070.88,-65.438614,19.490501725726062,-0.008704918,2.7744804e-07,2.7568949e-05,2.280559e-05,1.0,42,0.018956697,3.1557215e-07,0,6.082978497107977e-09,1.0
30,30,91439.65,30620.81,59854.844,67232.7,-62.906418,19.90649547879002,-0.008732475,3.949727e-07,2.9079456e-05,2.3047496e-05,1.0,42,0.020048674,2.9819824e-07,0,6.097435087590321e-09,1.0
31,31,79127.08,36808.09,65098.266,74783.82,-60.515163,20.32249677859363,-0.008709856,4.1937167e-07,3.089766e-05,2.3412573e-05,1.0,42,0.02105844,2.8159087e-07,0,6.145438535290025e-09,1.0
32,32,68475.36,44781.047,70060.13,83149.05,-57.414093,20.738497251673834,-0.00874794,6.4399063e-07,3.31753e-05,2.3552782e-05,1.0,42,0.021944761,2.6392078e-07,0,6.194963049292568e-09,1.0
33,33,59252.523,53746.254,74620.39,91961.2,-54.236217,21.29050191785791,-0.008694001,4.1825413e-07,3.5996127e-05,2.3700717e-05,1.0,42,0.020271674,2.2043724e-07,0,6.3743260804509406e-09,1.0
34,34,51282.285,62211.48,79804.1,101187.76,-52.061718,21.706489510979736,-0.008717868,4.467506e-07,3.888907e-05,2.418923e-05,1.0,42,0.020812327,2.056803e-07,0,6.391089950482333e-09,1.0
35,35,44369.8,75543.65,80774.664,110595.61,-46.916622,22.122499690711265,-0.008724407,4.6556198e-07,4.4407618e-05,2.3688199e-05,1.0,42,0.021249019,1.9213257e-07,0,6.421004315286262e-09,1.0
36,36,38403.727,86531.52,81076.91,118579.805,-43.136036,22.5384840038314,-0.00872137,5.134287e-07,5.1115145e-05,2.389585e-05,1.0,42,0.0215602,1.8182017e-07,0,6.437098351451848e-09,1.0
37,37,33226.32,97547.73,81264.07,126962.234,-39.79666,22.95450362356496,-0.008721781,7.155112e-07,5.8943962e-05,2.4148343e-05,1.0,42,0.021793323,1.71652e-07,0,6.465113333604815e-09,1.0
38,38,28754.086,108908.06,79288.91,134713.39,-36.05594,23.3704796966922,-0.008689827,3.8472928e-07,6.980848e-05,2.4183071e-05,1.0,42,0.021916829,1.6269229e-07,0,6.561653225646798e-09,1.0
39,39,24884.947,119062.875,75996.26,141249.42,-32.54955,23.786494729778497,-0.008772049,9.2076016e-07,8.415719e-05,2.4361401e-05,1.0,42,0.021978155,1.555982e-07,0,6.710802401197134e-09,1.0
40,40,21553.963,128572.41,71576.32,147153.1,-29.104706,24.20350194958155,-0.008725787,5.573842e-07,0.00010316292,2.4407515e-05,1.0,42,0.021963792,1.492581e-07,0,6.83258321682059e-09,1.0
41,41,18631.234,136634.45,66261.91,151853.92,-25.871414,24.6194923693256,-0.008728898,5.991047e-07,0.0001289183,2.4546547e-05,1.0,42,0.021895887,1.4419047e-07,0,6.853645004949449e-09,1.0
42,42,16126.037,143394.4,61235.496,155922.23,-23.124538,25.035497749078786,-0.008722545,6.510687e-07,0.00016117186,2.4858768e-05,1.0,42,0.021660084,1.3891594e-07,0,6.978153855273857e-09,1.0
43,43,13954.87,145555.69,57250.0,156409.78,-21.47072,25.451496915513417,-0.008738996,6.7379153e-07,0.00019921354,2.6689597e-05,1.0,42,0.021232888,1.3575166e-07,0,7.1044985114734835e-09,1.0
44,44,12080.609,153725.05,49773.223,161582.06,-17.940958,25.86749370858888,-0.0087155765,5.670698e-07,0.00026468877,2.5115436e-05,1.0,42,0.021018518,1.3007953e-07,0,7.242111461681115e-09,1.0
45,45,10447.592,158608.11,43556.566,164480.11,-15.355875,26.2835043950181,-0.008738624,6.0208504e-07,0.00034974402,2.4526229e-05,1.0,42,0.020517882,1.2474385e-07,0,7.364156122524908e-09,1.0
46,46,9045.586,161172.28,39101.73,165847.67,-13.636954,26.856253808917245,-0.008712539,4.808358e-07,0.000449974,2.5012703e-05,1.0,42,0.02033878,1.226353e-07,0,7.49797598166424e-09,1.0
47,47,7827.7437,163739.66,34269.496,167287.39,-11.820953,27.3369252984412,-0.008723811,6.879471e-07,0.000593302,2.4898021e-05,1.0,42,0.020382006,1.2183827e-07,0,7.626084358141741e-09,1.0
48,48,6770.8345,165157.77,30280.34,167910.66,-10.389333,27.875421057309723,-0.008720197,6.279744e-07,0.0007762779,2.5245396e-05,1.0,42,0.020413456,1.2157332e-07,0,7.669329251766518e-09,1.0
49,49,5860.798,166166.16,26824.268,168317.36,-9.170169,28.481998232833575,-0.008905377,2.1408925e-06,0.0010123611,2.5711855e-05,1.0,42,0.020442933,1.2145469e-07,0,7.847021685608506e-09,1.0
50,50,5071.625,167918.08,23670.709,169578.25,-8.023876,29.162719038511568,-0.008707546,5.555229e-07,0.0013257503,2.5831165e-05,1.0,42,0.020501366,1.208962e-07,0,8.091687558072003e-09,1.0
51,51,4388.5933,169924.16,21441.904,171271.64,-7.1918654,29.842835950810695,-0.0087354565,7.568604e-07,0.0016913421,2.6508627e-05,1.0,42,0.02060393,1.2029972e-07,0,8.281890757618587e-09,1.0
52,52,3798.7827,169351.17,18215.38,170327.97,-6.1391215,30.52281790311099,-0.008708272,5.160377e-07,0.0023000508,2.6305224e-05,1.0,42,0.020552823,1.2066617e-07,0,8.410580337889921e-09,1.0
53,53,3286.0488,170299.86,15802.463,171031.45,-5.301409,31.202719722074107,-0.008694969,6.482761e-07,0.0030649353,2.6164891e-05,1.0,42,0.02058391,1.2035161e-07,0,8.443348398808819e-09,1.0
54,54,2844.088,169732.78,13903.433,170301.27,-4.682852,31.881833594321506,-0.008729774,6.0879074e-07,0.0040249,2.6826461e-05,1.0,42,0.020550035,1.2066872e-07,0,8.559065801053676e-09,1.0
55,55,2460.7852,171029.31,12397.355,171478.05,-4.1459327,32.561696959950496,-0.008716806,7.112289e-07,0.0052169585,2.7268323e-05,1.0,42,0.020617347,1.2023315e-07,0,8.569649246256164e-09,1.0
56,56,2129.3164,170936.38,11383.71,171315.02,-3.810054,33.24183184558933,-0.008697373,7.4736175e-07,0.0065659275,2.8991648e-05,1.0,42,0.020598276,1.2023625e-07,0,8.794125536884362e-09,1.0
57,57,1843.2289,171158.95,10517.698,171481.8,-3.5163977,33.92193398452946,-0.008718371,5.6073804e-07,0.008209566,3.0883428e-05,1.0,42,0.020603694,1.2015091e-07,0,8.827383006062759e-09,1.0
58,58,1594.4913,171539.36,9502.604,171802.36,-3.1707194,34.60182529684971,-0.008705571,6.179171e-07,0.010504016,3.21353e-05,1.0,42,0.020627871,1.2006745e-07,0,8.864158148787579e-09,1.0
59,59,1380.4436,171911.7,8418.268,172117.69,-2.8034523,35.28170228914678,-0.008698435,5.491905e-07,0.013695527,3.276221e-05,1.0,42,0.02061574,1.19777e-07,0,8.98827530282631e-09,1.0
60,60,1194.6187,171975.12,8181.3374,172169.62,-2.723667,35.96182296144252,-0.008711551,7.075039e-07,0.016284205,3.6770714e-05,1.0,42,0.020620901,1.1977085e-07,0,9.047567040645454e-09,1.0
61,61,1033.3434,172457.75,7232.894,172609.36,-2.401583,36.642087527085096,-0.008682206,5.231153e-07,0.0212943,3.7390295e-05,1.0,42,0.020644411,1.1960192e-07,0,9.12046732015881e-09,1.0
62,62,894.71045,173282.92,6664.748,173411.05,-2.2026048,37.32182761270087,-0.00870408,5.6986437e-07,0.026690328,3.942465e-05,1.0,42,0.02066873,1.1918923e-07,0,9.312660342372917e-09,1.0
63,63,774.2569,172687.06,6955.6113,172827.1,-2.306553,38.001933165010996,-0.00874058,6.3989484e-07,0.029552877,4.7868158e-05,1.0,42,0.020641778,1.1943601e-07,0,9.395656030425433e-09,1.0
64,64,669.7856,173312.12,6775.4097,173444.52,-2.238763,38.6818055173062,-0.008722023,7.242666e-07,0.035071053,5.3517866e-05,1.0,42,0.020655967,1.19092654e-07,0,9.434847457355862e-09,1.0
65,65,579.81464,173269.42,6756.0435,173401.1,-2.2329202,39.36183832293318,-0.008710806,8.3173336e-07,0.040629223,6.16765e-05,1.0,42,0.020641373,1.1903831e-07,0,9.661089093697228e-09,1.0
66,66,501.44418,173241.27,6637.1187,173368.36,-2.1940095,40.039200621744385,-0.008806964,6.3859096e-07,0.047820926,7.008699e-05,1.0,42,0.020643994,1.190759e-07,0,9.903316321895437e-09,1.0
67,67,434.02762,173440.4,6992.484,173581.31,-2.3087063,40.71919852073188,-0.008698192,7.549981e-07,0.05244104,8.509975e-05,1.0,42,0.020637449,1.1889211e-07,0,9.981110711459943e-09,1.0
68,68,375.6009,173920.89,7148.0264,174067.72,-2.3534918,41.397464099602075,-0.008711179,6.113984e-07,0.05927989,9.99639e-05,1.0,42,0.02067154,1.18755736e-07,0,1.0015189511396411e-08,1.0
69,69,325.10385,173678.31,7447.9014,173837.94,-2.4555283,42.07668205189111,-0.008717644,6.8105624e-07,0.06573007,0.0001206543,1.0,42,0.020629024,1.1866814e-07,0,1.0261634093174463e-08,1.0
70,70,281.3503,173544.02,8249.577,173739.98,-2.7215598,42.75381547071447,-0.008690014,5.924006e-07,0.06857109,0.00015459835,1.0,42,0.02060907,1.18620186e-07,0,1.0522413082514485e-08,1.0
71,71,243.36427,174320.67,8774.518,174541.36,-2.8815796,43.437107769801514,-0.0087212585,5.9873315e-07,0.07453154,0.00018836051,1.0,42,0.020640085,1.1825326e-07,0,1.0583611367981088e-08,1.0
72,72,210.60631,174531.27,9169.398,174771.97,-3.0073998,44.1141623086005,-0.008666649,6.229459e-07,0.08241531,0.0002268538,1.0,42,0.02063651,1.1807677e-07,0,1.0558271086116437e-08,1.0
73,73,182.27473,174892.52,10244.92,175192.33,-3.3524628,44.786287087219534,-0.008696404,6.965152e-07,0.08522855,0.00029145536,1.0,42,0.020628415,1.1774725e-07,0,1.0819644287534618e-08,1.0
74,74,157.72879,175365.34,10967.871,175707.98,-3.5787873,45.47464178662267,-0.00873091,5.849508e-07,0.091999784,0.00035846644,1.0,42,0.020624988,1.1738219e-07,0,1.0873720447643602e-08,1.0
75,75,136.52892,176192.19,12410.781,176628.75,-4.029196,46.146542351838434,-0.008705366,5.1603786e-07,0.09392828,0.00046373706,1.0,42,0.020658247,1.16958574e-07,0,1.1154289544735087e-08,1.0
76,76,118.14758,176432.94,13610.236,176957.11,-4.411125,46.83488102455158,-0.008730239,7.650555e-07,0.098975934,0.00058549736,1.0,42,0.020625737,1.1655783e-07,0,1.1222042709832181e-08,1.0
77,77,102.25773,176993.11,15041.571,177631.11,-4.857549,47.50132812283118,-0.0087154275,6.354248e-07,0.10347389,0.0007419577,1.0,42,0.02063303,1.1615663e-07,0,1.1390575752889672e-08,1.0
78,78,88.4436,177461.39,16959.38,178269.92,-5.4589844,48.19028604889172,-0.008684703,4.2551963e-07,0.106106915,0.0009603013,1.0,42,0.020615738,1.1564339e-07,0,1.1516059905588744e-08,1.0
79,79,76.54279,178876.78,19090.54,179892.61,-6.0918055,48.85671224059479,-0.008708142,3.6815436e-07,0.10891749,0.0012266125,1.0,42,0.020668387,1.1489292e-07,0,1.1595361092481542e-08,1.0
80,80,66.250786,179827.42,20823.9,181029.11,-6.6053944,49.525003445654875,-0.008732662,7.456854e-07,0.11536313,0.0015264914,1.0,42,0.020639746,1.140134e-07,0,1.1791817924297731e-08,1.0
81,81,57.329906,180644.39,23463.35,182161.81,-7.4005423,50.17964417009716,-0.0087350095,5.808531e-07,0.11831748,0.0019629726,1.0,42,0.020630062,1.13251296e-07,0,1.179369430099797e-08,1.0
82,82,49.60321,181927.17,25930.982,183765.92,-8.112011,50.86535601594369,-0.00873417,6.827324e-07,0.12373466,0.0024637654,1.0,42,0.020625494,1.1223786e-07,0,1.1865911543551395e-08,1.0
83,83,42.92585,184861.44,28768.453,187086.55,-8.845515,51.83342667526449,-0.008662345,4.995742e-07,0.12887977,0.0030474223,1.0,43,0.020641927,1.10333566e-07,0,1.2161250800605532e-08,1.0
84,84,37.1518,186357.6,31875.824,189064.06,-9.706314,52.47719227915513,-0.008706093,4.8912676e-07,0.13439369,0.0038201795,1.0,43,0.0206254,1.0909212e-07,0,1.2339270492733423e-08,1.0
85,85,32.150223,188097.2,35403.984,191400.11,-10.659598,53.11539012283902,-0.008735959,5.580129e-07,0.13982473,0.0047841403,1.0,43,0.020607961,1.07669536e-07,0,1.2216451787370828e-08,1.0
86,86,27.835518,190185.5,39464.348,194236.86,-11.722768,53.843316530721495,-0.008736025,5.254692e-07,0.14488249,0.0059808437,1.0,43,0.02061068,1.0611107e-07,0,1.2477365197602452e-08,1.0
87,87,24.082958,192775.5,43657.445,197657.19,-12.760406,54.54538677740493,-0.0087374495,5.2475224e-07,0.15137425,0.007384879,1.0,43,0.020631395,1.0437969e-07,0,1.2465576399544215e-08,1.0
88,88,20.833313,195231.72,48245.29,201104.53,-13.880731,55.199742568525835,-0.00876156,5.56076e-07,0.15834592,0.009113244,1.0,43,0.020608036,1.02474246e-07,0,1.2306305113293842e-08,1.0
89,89,18.021912,198447.1,53546.58,205544.36,-15.100389,55.94574745729915,-0.008729382,5.481893e-07,0.1649254,0.011192829,1.0,43,0.02063557,1.0039472e-07,0,1.278237900337409e-08,1.0
90,90,15.604198,201612.72,58854.316,210027.42,-16.273458,56.60099876840832,-0.008727277,5.6918645e-07,0.17330071,0.0136083355,1.0,43,0.020619992,9.8177615e-08,0,1.2904092114861617e-08,1.0
91,91,13.500899,205302.3,64750.72,215271.2,-17.504862,57.34900467059924,-0.0087307235,5.44297e-07,0.18205929,0.016471386,1.0,43,0.020621795,9.579449e-08,0,1.2939818142108687e-08,1.0
92,92,11.686608,209870.08,71881.07,221838.55,-18.906471,57.93986440534354,-0.008744418,5.342498e-07,0.18945982,0.019891713,1.0,43,0.020684574,9.324157e-08,0,1.3235022548190164e-08,1.0
93,93,10.113269,213534.66,78414.836,227477.33,-20.164394,58.61351243729587,-0.008738475,5.797082e-07,0.20069215,0.023847925,1.0,43,0.020626409,9.067457e-08,0,1.3549306627036017e-08,1.0
94,94,8.748621,218599.77,86255.75,235001.94,-21.53335,59.380416740401415,-0.008740319,5.4511634e-07,0.21090771,0.028413562,1.0,43,0.0206494,8.786906e-08,0,1.3050196155230311e-08,1.0
95,95,7.570237,223387.58,94356.24,242497.66,-22.898613,60.25600243534427,-0.0087337885,5.182897e-07,0.22281273,0.03373387,1.0,43,0.020632224,8.5082156e-08,0,1.3203595182351356e-08,1.0
96,96,6.554112,228976.11,102960.88,251059.77,-24.211435,60.791297767398646,-0.0087223025,7.3565633e-07,0.235849,0.03966654,1.0,43,0.020634297,8.2188784e-08,0,1.378798790180507e-08,1.0
97,97,5.669445,234943.36,113201.65,260793.02,-25.725943,61.40114203639678,-0.00875556,3.6660614e-07,0.24798581,0.046724044,1.0,43,0.020641763,7.9149984e-08,0,1.3304181808789215e-08,1.0
98,98,4.907347,240727.89,123785.87,270689.6,-27.212902,62.09351972260629,-0.0087152785,6.40698e-07,0.2620006,0.054789998,1.0,43,0.020616751,7.6163815e-08,0,1.3552253343363555e-08,1.0
99,99,4.245922,246991.61,136142.36,282027.66,-28.863659,62.88132141335518,-0.008750548,5.477603e-07,0.2753308,0.06415906,1.0,43,0.020638127,7.3177674e-08,0,1.4420520236749507e-08,1.0
100,100,3.6747382,254742.75,150342.19,295798.3,-30.54794,63.780966336111305,-0.008687945,4.4703816e-07,0.28807983,0.074418895,1.0,43,0.020714743,7.0029955e-08,0,1.3242054953778196e-08,1.0
101,101,3.180988,260469.56,164953.86,308308.56,-32.345844,64.8091738515941,-0.008743756,6.0623603e-07,0.3033162,0.086825915,1.0,43,0.020635422,6.693107e-08,0,1.365142961481326e-08,1.0
102,102,2.752818,266538.4,181476.44,322453.75,-34.249542,65.98811654761084,-0.008728003,5.970097e-07,0.3185828,0.100908555,1.0,43,0.02062418,6.3960115e-08,0,1.513429876184919e-08,1.0
103,103,2.3804083,274391.7,201943.23,340693.22,-36.35184,67.3429914652952,-0.008741356,5.003503e-07,0.3310849,0.11632445,1.0,43,0.02064979,6.06111e-08,0,1.4959863340334598e-08,1.0
104,104,2.060257,280664.38,223113.02,358541.38,-38.482803,68.89935273918672,-0.00873261,4.950567e-07,0.3462373,0.13407417,1.0,43,0.020631244,5.7542156e-08,0,1.3761260855373436e-08,1.0
105,105,1.7836765,289122.88,248834.53,381458.6,-40.717037,70.68758975740639,-0.008734573,5.525118e-07,0.35858604,0.15258783,1.0,43,0.02063787,5.4102514e-08,0,1.3800463060272605e-08,1.0
