True,index,freq,Re(Z),Im(Z),Z,Phase(Z),time,Ewe_meas,I_meas,Cs,Cp,cycle_number,I_Range,Ewe,I,Ns,(QQo),cycle
110,110,7000018.5,184.05945,1131.6436,1146.5143,-80.761856,82.77949035845813,0.048756547,1.1789112e-05,2.0091451e-05,1.9573643e-05,2.0,40,0.009957429,8.684959e-06,0,-1.1654182363802038e-09,2.0
111,111,6057573.0,232.21033,1297.4814,1318.097,-79.853195,83.33150246468722,0.04875988,-1.9951798e-05,2.0249781e-05,1.9621304e-05,2.0,40,0.014007141,1.0626791e-05,0,-2.053167240500099e-09,2.0
112,112,5242039.0,244.22673,1512.1312,1531.7269,-80.825294,83.74748925774475,0.048807934,-1.34957045e-05,2.007846e-05,1.9568011e-05,2.0,40,0.019312028,1.26080095e-05,0,-2.4410531249549924e-09,2.0
113,113,4536288.0,233.40805,1747.3138,1762.8344,-82.39141,85.11550596271991,0.048802625,-2.257513e-05,2.00793e-05,1.972729e-05,2.0,40,0.019149197,1.0862732e-05,0,-1.6347840453607267e-08,2.0
114,114,3925558.5,304.31943,1996.1459,2019.21,-81.3318,85.53149862252758,0.048727166,-1.6881884e-05,2.031077e-05,1.9849427e-05,2.0,40,0.018390976,9.1080055e-06,0,-1.721648985883981e-08,2.0
115,115,3397055.0,365.80084,2262.0159,2291.4026,-80.813965,85.94750349558308,0.04875789,-4.1124706e-05,2.0711994e-05,2.0184147e-05,2.0,40,0.01943479,8.481613e-06,0,-1.9597788232384683e-08,2.0
116,116,2939708.2,402.19894,2583.1926,2614.316,-81.15019,86.36350111532374,0.048726346,-2.79893e-05,2.0958449e-05,2.04624e-05,2.0,40,0.021345032,8.164672e-06,0,-1.9219763507923403e-08,2.0
117,117,2543924.5,450.5418,2968.9814,3002.9717,-81.371216,86.91549708825187,0.04868882,-2.1179723e-05,2.107213e-05,2.0597805e-05,2.0,40,0.020586539,6.855389e-06,0,-2.887609836003434e-08,2.0
118,118,2201436.2,545.30676,3370.9976,3414.8184,-80.811195,87.46750042113126,0.048709635,-2.3375162e-05,2.1446458e-05,2.0899564e-05,2.0,40,0.020833544,6.100923e-06,0,-3.497842410138594e-08,2.0
119,119,1905053.1,612.83496,3914.447,3962.1284,-81.10216,88.01950530064641,0.04871066,-1.8686604e-05,2.1342368e-05,2.083178e-05,2.0,40,0.020753082,5.237862e-06,0,-3.35410209037301e-08,2.0
120,120,1648567.4,739.29474,4495.774,4556.1543,-80.661736,88.57150460689445,0.048707772,-1.6286509e-05,2.1473805e-05,2.0908412e-05,2.0,40,0.019866014,4.360259e-06,0,-3.579853807698955e-08,2.0
121,121,1426616.2,862.45386,5051.5093,5124.6045,-80.3112,89.12350188646815,0.048702274,-2.38589e-05,2.2084716e-05,2.1459195e-05,2.0,40,0.02046468,3.993416e-06,0,-3.687825569641944e-08,2.0
122,122,1234551.2,887.1906,5927.0234,5993.0557,-81.48685,89.84250429391977,0.04869033,-3.0974793e-06,2.1750755e-05,2.127409e-05,2.0,41,0.019773038,3.299325e-06,0,-3.170323320543764e-08,2.0
123,123,1068345.5,964.29047,6847.376,6914.9414,-81.98396,90.3944859734911,0.048685897,1.1110609e-06,2.1756261e-05,2.1333179e-05,2.0,41,0.02035168,2.9431458e-06,0,-3.191260558668062e-08,2.0
124,124,924510.06,1291.67,7850.8506,7956.398,-80.65705,90.94650701302453,0.0487267,-2.9302205e-07,2.1927633e-05,2.134972e-05,2.0,41,0.020179154,2.5362174e-06,0,-3.2716275493388934e-08,2.0
125,125,800039.0,1613.2034,8806.529,8953.065,-79.61949,91.49849738591001,0.04870995,5.0399103e-07,2.2589373e-05,2.1855976e-05,2.0,41,0.020560358,2.29646e-06,0,-3.2054080461308803e-08,2.0
126,126,692334.1,1894.6826,10130.425,10306.082,-79.40642,92.05050357212895,0.048692863,-3.6564694e-07,2.2692207e-05,2.1925265e-05,2.0,41,0.02027043,1.9668414e-06,0,-3.1594814973627474e-08,2.0
127,127,599122.25,2358.9119,11640.584,11877.19,-78.544395,92.60249581167591,0.04870596,9.24497e-08,2.282075e-05,2.192058e-05,2.0,41,0.020805225,1.7516958e-06,0,-3.1149055388959783e-08,2.0
128,128,518454.94,2830.8286,13202.487,13502.565,-77.89809,93.15450551788672,0.048723012,-1.2892876e-06,2.3251627e-05,2.2229633e-05,2.0,41,0.020506762,1.5187308e-06,0,-3.059296803060264e-08,2.0
129,129,448662.03,3580.482,14896.136,15320.401,-76.4846,93.70650437081349,0.04871442,1.7311668e-06,2.3813716e-05,2.2513039e-05,2.0,41,0.02008279,1.3108528e-06,0,-3.055446421588116e-08,2.0
130,130,388258.97,4384.9795,16952.227,17510.17,-75.49735,94.25850239701685,0.048706483,-4.7365262e-07,2.4180868e-05,2.2664422e-05,2.0,41,0.020829502,1.189566e-06,0,-3.0690425380631935e-08,2.0
131,131,335983.9,5801.6416,19520.148,20364.066,-73.447365,94.81050332987797,0.04871325,-2.2598344e-07,2.4267134e-05,2.2297478e-05,2.0,41,0.020490216,1.0061947e-06,0,-3.05303672442082e-08,2.0
132,132,290751.2,6741.0366,21583.797,22611.984,-72.6554,95.36248244941817,0.048721988,7.442123e-07,2.5361256e-05,2.3107295e-05,2.0,41,0.020540014,9.083685e-07,0,-3.1053955126156336e-08,2.0
133,133,251605.19,8339.261,24284.934,25676.863,-71.04792,95.91450007565436,0.04872726,1.5803306e-06,2.6047355e-05,2.3299872e-05,2.0,41,0.020167183,7.854224e-07,0,-3.071108961416849e-08,2.0
134,134,217729.38,10238.882,27156.543,29022.621,-69.34196,96.46648735521012,0.048698306,1.1203726e-06,2.6917121e-05,2.3567001e-05,2.0,41,0.020421803,7.036512e-07,0,-3.1397250119502115e-08,2.0
135,135,188418.58,12437.552,30193.406,32654.777,-67.61179,97.0185077014321,0.048696313,1.6548179e-06,2.7975913e-05,2.391746e-05,2.0,41,0.020795949,6.3684246e-07,0,-3.193184296083709e-08,2.0
136,136,163051.14,15016.919,33310.125,36538.64,-65.73312,97.57049556766287,0.048751332,-1.645319e-07,2.9303535e-05,2.435386e-05,2.0,41,0.02017843,5.5224905e-07,0,-3.18226581926751e-08,2.0
137,137,141098.2,18526.967,36566.45,40992.117,-63.13023,98.12250599390245,0.048688225,1.4816343e-06,3.0847208e-05,2.4546e-05,2.0,41,0.020368319,4.968838e-07,0,-3.2317635326742746e-08,2.0
138,138,122105.11,22502.268,39725.938,45656.348,-60.47115,98.67449879340711,0.048751183,-1.026722e-06,3.2810447e-05,2.4840374e-05,2.0,41,0.02024429,4.434058e-07,0,-3.2119253514606426e-08,2.0
139,139,105663.59,26400.78,43232.43,50656.137,-58.58881,99.09049302650965,0.04874889,-1.0397569e-06,3.484056e-05,2.5377e-05,2.0,41,0.021802887,4.3040959e-07,0,-3.234919411550546e-08,2.0
140,140,91439.65,30442.51,48160.44,56975.21,-57.70277,99.80948836731841,0.04872577,2.1691655e-07,3.614058e-05,2.582285e-05,2.0,42,0.018549783,3.255764e-07,0,-3.2155298834937325e-08,2.0
141,141,79127.08,36260.45,51466.48,62957.277,-54.833584,100.22549609377165,0.048727985,1.2565356e-07,3.908144e-05,2.6117259e-05,2.0,42,0.019502545,3.0977426e-07,0,-3.2160834429167036e-08,2.0
142,142,68475.36,43035.15,54447.984,69401.78,-51.677505,100.64150744685321,0.048719488,2.1952421e-07,4.268782e-05,2.627401e-05,2.0,42,0.02034235,2.931099e-07,0,-3.213726555225153e-08,2.0
143,143,59252.523,49779.7,56693.65,75446.59,-48.71534,101.05749298658338,0.0487185,2.0052669e-07,4.7378235e-05,2.6752748e-05,2.0,42,0.02102396,2.7866017e-07,0,-3.2129327421630155e-08,2.0
144,144,51282.285,57155.902,59026.3,82163.87,-45.922318,101.47349932635552,0.048699684,2.7614473e-07,5.257838e-05,2.7135424e-05,2.0,42,0.021641405,2.6339322e-07,0,-3.208378070105194e-08,2.0
145,145,44369.8,65972.99,58794.645,88369.94,-41.70719,102.02550089926808,0.04868653,4.2551815e-07,6.1009134e-05,2.7006065e-05,2.0,42,0.0202266,2.2888553e-07,0,-3.2142149727276645e-08,2.0
146,146,38403.727,74176.3,58215.105,94292.74,-38.125565,102.44150806570542,0.048750363,2.1654449e-07,7.1188704e-05,2.7134756e-05,2.0,42,0.02056238,2.180696e-07,0,-3.214260276134162e-08,2.0
147,147,33226.32,81587.9,56569.36,99280.805,-34.735687,102.85748403207981,0.048683215,4.7319864e-07,8.467528e-05,2.7490876e-05,2.0,42,0.020776676,2.0927183e-07,0,-3.20540547060529e-08,2.0
148,148,28754.086,89275.7,54190.523,104435.45,-31.257832,103.27348594521754,0.04871578,3.789557e-07,0.000102140315,2.750097e-05,2.0,42,0.020927569,2.0038759e-07,0,-3.195175011199483e-08,2.0
149,149,24884.947,95804.65,51048.86,108556.516,-28.050621,103.6895085783035,0.048730314,3.830253e-08,0.00012528451,2.770497e-05,2.0,42,0.020973444,1.93203e-07,0,-3.187519876095103e-08,2.0
150,150,21553.963,101739.06,47793.49,112405.76,-25.162512,104.10648942473927,0.04873382,3.5958587e-07,0.0001544985,2.7930879e-05,2.0,42,0.020976288,1.8661223e-07,0,-3.1904989172911115e-08,2.0
151,151,18631.234,106745.8,43827.094,115392.72,-22.3218,104.52248755117762,0.04871161,4.1248143e-07,0.00019491075,2.8116701e-05,2.0,42,0.020891825,1.8104977e-07,0,-3.192048899828058e-08,2.0
152,152,16126.037,111282.24,39097.863,117950.76,-19.358397,104.93849239763222,0.048713993,2.8024326e-07,0.0002524291,2.7736012e-05,2.0,42,0.020744909,1.758777e-07,0,-3.198505509443648e-08,2.0
153,153,13954.87,113122.06,36333.004,118813.67,-17.80619,105.35448553736205,0.048721336,2.8638974e-07,0.00031390126,2.9353698e-05,2.0,42,0.02038241,1.7154936e-07,0,-3.1870465292232415e-08,2.0
154,154,12080.609,117400.42,30671.38,121340.81,-14.641518,105.7705034771061,0.048750978,1.3962395e-07,0.00042953438,2.7444214e-05,2.0,42,0.020149406,1.660563e-07,0,-3.1758672397459346e-08,2.0
155,155,10447.592,119794.17,26905.93,122778.555,-12.65864,106.18649965690565,0.048695456,4.1974587e-07,0.00056618184,2.7189855e-05,2.0,42,0.019672908,1.6023081e-07,0,-3.164076725948601e-08,2.0
156,156,9045.586,121480.89,23607.947,123753.555,-10.997479,106.75926507075201,0.048763238,3.7541827e-07,0.00074528984,2.7122285e-05,2.0,42,0.02029672,1.640092e-07,0,-3.154299668600618e-08,2.0
157,157,7827.7437,122593.945,20056.963,124223.82,-9.29155,107.2399333336216,0.04874058,4.0708096e-07,0.0010137208,2.6426456e-05,2.0,42,0.020335618,1.6370144e-07,0,-3.148658757190582e-08,2.0
158,158,6770.8345,123130.68,17237.318,124331.37,-7.969165,107.7784150391526,0.048705123,5.758245e-07,0.0013636667,2.6211159e-05,2.0,42,0.020389125,1.639902e-07,0,-3.128455496628943e-08,2.0
159,159,5860.798,123651.086,14982.404,124555.46,-6.908667,108.38399461461813,0.048695512,2.0611606e-07,0.0018125161,2.6225232e-05,2.0,42,0.020449389,1.6417899e-07,0,-3.1143496400112664e-08,2.0
160,160,5071.625,123739.09,13004.398,124420.57,-5.999494,109.0647233403215,0.048721783,2.638542e-07,0.0024131413,2.6362033e-05,2.0,42,0.020478588,1.6459165e-07,0,-3.108911014950166e-08,2.0
161,161,4388.5933,124540.234,10687.955,124998.01,-4.9050655,109.74484102595306,0.04873842,3.8100626e-07,0.0033931276,2.4807514e-05,2.0,42,0.020571506,1.6457467e-07,0,-3.10628416521364e-08,2.0
162,162,3798.7827,124384.88,9496.31,124746.86,-4.3658442,110.42485308489995,0.048698176,2.3349553e-07,0.004411851,2.5566502e-05,2.0,42,0.020586962,1.650299e-07,0,-3.106394491909143e-08,2.0
163,163,3286.0488,124569.24,8326.122,124847.19,-3.8239229,111.1047244505462,0.04871474,4.763672e-07,0.0058170576,2.5872081e-05,2.0,42,0.0206193,1.651563e-07,0,-3.091889475036385e-08,2.0
164,164,2844.088,124565.04,6982.2476,124760.57,-3.2082448,111.78481856283906,0.048747122,2.8247993e-07,0.008014601,2.510254e-05,2.0,42,0.020655612,1.6556201e-07,0,-3.097991727703173e-08,2.0
165,165,2460.7852,124022.79,6373.7515,124186.46,-2.9419436,112.46469115513901,0.04875297,2.61806e-07,0.010147318,2.6729636e-05,2.0,42,0.02059399,1.658312e-07,0,-3.0892712576329884e-08,2.0
166,166,2129.3164,124474.836,5542.9966,124598.195,-2.5497575,113.14485118741868,0.048727874,3.428256e-07,0.013484514,2.668708e-05,2.0,42,0.020678766,1.6596361e-07,0,-3.089276967584098e-08,2.0
167,167,1843.2289,124624.15,4904.6616,124720.625,-2.2537484,113.82494337973185,0.048687313,5.4174177e-07,0.01760483,2.7225344e-05,2.0,42,0.020702045,1.6598734e-07,0,-3.0712253055458664e-08,2.0
168,168,1594.4913,124165.31,4434.252,124244.47,-2.0453055,114.50484157203755,0.04873089,3.987008e-07,0.02251011,2.8672412e-05,2.0,42,0.020662557,1.6630565e-07,0,-3.062360086407405e-08,2.0
169,169,1380.4436,124516.41,4403.0337,124594.23,-2.0251966,115.18468712433241,0.04868638,3.2457297e-07,0.02618481,3.2700744e-05,2.0,42,0.020702954,1.6616303e-07,0,-3.067916540017003e-08,2.0
170,170,1194.6187,124303.95,3799.7712,124362.016,-1.7508943,115.86482608996448,0.048719414,5.093341e-07,0.035061736,3.273202e-05,2.0,42,0.02068627,1.6633913e-07,0,-3.0506748438505266e-08,2.0
171,171,1033.3434,124184.1,3658.6194,124237.984,-1.6875174,116.54510673557525,0.048725042,2.8005888e-07,0.042097688,3.6507652e-05,2.0,42,0.020685213,1.6649669e-07,0,-3.0304966988037306e-08,2.0
172,172,894.71045,124333.695,3435.6355,124381.16,-1.5828158,117.2248259945627,0.048727445,4.1658106e-07,0.05177624,3.9503495e-05,2.0,42,0.020699952,1.6642353e-07,0,-3.030754193933147e-08,2.0
173,173,774.2569,123255.914,3685.5903,123311.01,-1.7127444,117.90496197351604,0.04869225,6.1884987e-07,0.055773515,4.9823982e-05,2.0,42,0.020611819,1.6715312e-07,0,-3.0377051031039e-08,2.0
174,174,669.7856,124464.75,3453.2622,124512.65,-1.5892581,118.58481491249404,0.04869719,3.931133e-07,0.068810515,5.2928182e-05,2.0,42,0.020712977,1.663524e-07,0,-3.020516738544524e-08,2.0
175,175,579.81464,124786.875,3219.5308,124828.4,-1.4779167,119.2648183847923,0.048703317,4.396762e-07,0.08525863,5.6714845e-05,2.0,42,0.020728648,1.6605715e-07,0,-3.003556000063846e-08,2.0
176,176,501.44418,124568.32,3528.7612,124618.29,-1.6226363,119.94219801694271,0.048662737,3.4692295e-07,0.08994464,7.2120085e-05,2.0,42,0.020707093,1.6616416e-07,0,-2.996726317598844e-08,2.0
177,177,434.02762,124380.05,3578.1797,124431.51,-1.6478372,120.62219028922846,0.048721373,4.849352e-07,0.10248035,8.474307e-05,2.0,42,0.020685984,1.6624394e-07,0,-3.0026636304013166e-08,2.0
178,178,375.6009,124490.39,3910.4568,124551.79,-1.7991673,121.30045714808512,0.048709188,3.953484e-07,0.10835926,0.00010681225,2.0,42,0.020685248,1.6607748e-07,0,-3.0051427801372084e-08,2.0
179,179,325.10385,124807.41,4005.9124,124871.68,-1.8383772,121.9797010204129,0.04870438,4.264524e-07,0.12220714,0.0001257684,2.0,42,0.020711094,1.6585902e-07,0,-2.99899367618583e-08,2.0
180,180,281.3503,125010.37,4733.631,125099.95,-2.1685207,122.65579889251967,0.048693478,4.2049237e-07,0.119502865,0.00017110111,2.0,42,0.02070439,1.6550278e-07,0,-2.97137366517176e-08,2.0
181,181,243.36427,125169.04,4731.9907,125258.45,-2.1650245,123.33909041830339,0.048692416,4.6631015e-07,0.13820362,0.00019723915,2.0,42,0.020707726,1.6531999e-07,0,-2.969010752713272e-08,2.0
182,182,210.60631,125275.72,5124.1963,125380.48,-2.3422835,124.01617746378179,0.048642635,5.255378e-07,0.14747657,0.0002463285,2.0,42,0.020697996,1.6508149e-07,0,-2.976258693138689e-08,2.0
183,183,182.27473,125655.12,6048.3574,125800.6,-2.7557817,124.68825904236292,0.0487068,6.2853474e-07,0.14436309,0.00033370726,2.0,42,0.0207316,1.647973e-07,0,-2.9509985915638817e-08,2.0
184,184,157.72879,125786.8,6373.761,125948.18,-2.9007618,125.3766568350984,0.048713136,4.735739e-07,0.15831183,0.00040543493,2.0,42,0.020706853,1.6440772e-07,0,-2.956233414963923e-08,2.0
185,185,136.52892,125886.55,7057.3247,126084.21,-3.2086995,126.04850806694594,0.04871105,3.7951702e-07,0.16517922,0.0005175046,2.0,42,0.020696092,1.6414499e-07,0,-2.9302210786878607e-08,2.0
186,186,118.14758,126323.32,8405.603,126602.664,-3.8068717,126.73691948634223,0.04868651,4.415386e-07,0.16026048,0.0007064452,2.0,42,0.020711884,1.6359753e-07,0,-2.931891335515857e-08,2.0
187,187,102.25773,127042.15,9225.16,127376.65,-4.1532407,127.40334301130497,0.04870138,4.6314372e-07,0.1687136,0.00088494906,2.0,42,0.02073594,1.6279232e-07,0,-2.9175964987271326e-08,2.0
188,188,88.4436,127034.94,10447.363,127463.81,-4.7014294,128.09327072408632,0.048726346,3.8268314e-07,0.17224514,0.0011571418,2.0,42,0.020707225,1.6245572e-07,0,-2.9091044358884468e-08,2.0
189,189,76.54279,127690.69,11710.736,128226.57,-5.2400374,128.76075507582573,0.048702776,4.409797e-07,0.17755447,0.0014809621,2.0,42,0.020733453,1.6169389e-07,0,-2.89844162647219e-08,2.0
190,190,66.250786,128161.44,13158.303,128835.15,-5.8620033,129.42896972087328,0.048725937,4.6239867e-07,0.18256992,0.0019044091,2.0,42,0.020721976,1.6084101e-07,0,-2.8779220834174957e-08,2.0
191,191,57.329906,128471.37,14690.41,129308.55,-6.5233097,130.0836267386676,0.04870112,5.4248653e-07,0.18897527,0.002439037,2.0,42,0.02070717,1.6013767e-07,0,-2.8861545701844924e-08,2.0
192,192,49.60321,129334.05,16236.783,130349.26,-7.1555595,130.76837989114574,0.048720777,5.3987895e-07,0.19761066,0.0030661486,2.0,42,0.020700961,1.588115e-07,0,-2.8876847034733465e-08,2.0
193,193,42.92585,130075.28,18462.123,131378.95,-8.078269,131.4764315780776,0.048697747,3.7895785e-07,0.20082584,0.0039658044,2.0,42,0.020706346,1.5760779e-07,0,-2.8600107483588506e-08,2.0
194,194,37.1518,131180.66,20591.756,132786.98,-8.921064,132.12019107534434,0.048698604,2.7875464e-07,0.20804004,0.00500291,2.0,42,0.020690165,1.5581472e-07,0,-2.8417109188887895e-08,2.0
195,195,32.150223,132489.39,22811.47,134438.84,-9.769166,132.75939595905947,0.048715204,5.7545276e-07,0.21701154,0.006247984,2.0,42,0.020719117,1.5411555e-07,0,-2.867274554999572e-08,2.0
196,196,27.835518,133071.05,25544.627,135500.67,-10.866444,133.48733015361358,0.048735857,3.7392851e-07,0.22383152,0.00795495,2.0,42,0.020671638,1.5255745e-07,0,-2.8370596710403045e-08,2.0
197,197,24.082958,134844.1,28049.729,137730.6,-11.750862,134.18938952029566,0.048716284,4.08199e-07,0.23560345,0.00977188,2.0,42,0.020691546,1.5023203e-07,0,-2.8461393606352915e-08,2.0
198,198,20.833313,136744.69,31654.084,140360.58,-13.033443,134.84374528475746,0.04870257,4.9536436e-07,0.2413415,0.012274427,2.0,42,0.020698747,1.4746838e-07,0,-2.865253028210467e-08,2.0
199,199,18.021912,138727.69,34879.973,143045.39,-14.113203,135.58971604018734,0.04868817,1.0161224e-06,0.253188,0.015053853,2.0,42,0.020696944,1.4468795e-07,0,-2.8008662619805355e-08,2.0
200,200,15.604198,141637.0,38507.047,146778.17,-15.209465,136.48800653617945,0.048733708,3.7657114e-07,0.26487347,0.01823039,2.0,43,0.020681765,1.4090492e-07,0,-2.8644859287934723e-08,2.0
201,201,13.500899,144061.03,42841.7,150296.34,-16.561728,137.23597859835718,0.048721753,4.380639e-07,0.27516344,0.022357708,2.0,43,0.020691294,1.3766997e-07,0,-2.8448498565654665e-08,2.0
202,202,11.686608,147407.39,47283.434,154805.23,-17.78453,137.82688729310757,0.048739556,4.7707846e-07,0.28802,0.026870105,2.0,43,0.020764189,1.3413106e-07,0,-2.842117911044579e-08,2.0
203,203,10.113269,150064.28,51852.266,158770.11,-19.061754,138.5005391384184,0.04871865,4.6056e-07,0.30350152,0.032371204,2.0,43,0.020708943,1.304335e-07,0,-2.894124050351484e-08,2.0
204,204,8.748621,153275.62,57048.35,163547.95,-20.414991,139.26741408146336,0.048750166,3.8273447e-07,0.31888744,0.03880015,2.0,43,0.020707978,1.2661717e-07,0,-2.9354944997253244e-08,2.0
205,205,7.570237,156904.27,62580.35,168923.8,-21.744297,140.1430184164492,0.04872603,3.8697982e-07,0.33594847,0.04610701,2.0,43,0.020705733,1.225744e-07,0,-2.798942437809436e-08,2.0
206,206,6.554112,160726.88,68759.1,174816.88,-23.161282,140.6783130285039,0.048715893,4.2057576e-07,0.35316375,0.054634854,2.0,43,0.020709801,1.18465685e-07,0,-2.9221334748007008e-08,2.0
207,207,5.669445,165002.42,75177.43,181321.39,-24.494678,141.2881434574665,0.048702776,4.128287e-07,0.3734153,0.06419024,2.0,43,0.02072449,1.14296995e-07,0,-2.774102800335893e-08,2.0
208,208,4.907347,169307.61,81946.26,188096.4,-25.827358,141.98054085034528,0.048713453,2.9913585e-07,0.39577124,0.07511756,2.0,43,0.020691007,1.1000214e-07,0,-2.9405962729466888e-08,2.0
209,209,4.245922,174456.89,89593.336,196117.75,-27.183025,142.76828280775226,0.048730902,5.609179e-07,0.41838142,0.08731523,2.0,43,0.020703895,1.05568695e-07,0,-2.7821118913553988e-08,2.0
210,210,3.6747382,179490.77,98340.63,204665.12,-28.717756,143.66791170387296,0.048712373,3.3001248e-07,0.4404136,0.101680815,2.0,43,0.020725615,1.0126598e-07,0,-2.7560197177106794e-08,2.0
211,211,3.180988,184299.38,107435.64,213327.62,-30.239658,144.69718959272723,0.04871527,3.2639954e-07,0.4657037,0.11811696,2.0,43,0.020714272,9.7100745e-08,0,-2.933228550276586e-08,2.0
212,212,2.752818,190015.08,117630.305,223478.45,-31.759897,145.87615063539124,0.04872245,4.775086e-07,0.49149987,0.13617285,2.0,43,0.020694152,9.260021e-08,0,-2.8558413902134402e-08,2.0
213,213,2.3804083,195258.8,128826.68,233928.0,-33.41579,147.23101861975738,0.048719525,4.734983e-07,0.5189946,0.15740193,2.0,43,0.020700168,8.8489486e-08,0,-2.6449330928465365e-08,2.0
214,214,2.060257,201412.66,142336.52,246630.78,-35.248505,148.78732336030225,0.04870413,3.6851972e-07,0.54272825,0.18076758,2.0,43,0.02070279,8.3942446e-08,0,-2.6538269153582186e-08,2.0
