True,index,freq,Re(Z),Im(Z),Z,Phase(Z),time,Ewe_meas,I_meas,Cs,Cp,cycle_number,I_Range,Ewe,I,Ns,(QQo),cycle
0,0,7000018.5,116.17281,1141.369,1147.266,-84.18823,2.4684923572058324,0.017224051,2.0515039e-05,1.9920253e-05,1.9715999e-05,1.0,40,0.00997537,8.694906e-06,0,1.2584194651506348e-08,1.0
1,1,6057573.0,165.97804,1275.9768,1286.7267,-82.58862,3.020480063423747,0.017251123,-8.453663e-06,2.059106e-05,2.0248444e-05,1.0,40,0.01399684,1.0877866e-05,0,8.282801812520624e-09,1.0
2,2,5242039.0,191.27184,1488.9636,1501.1987,-82.67989,3.436499363189796,0.017283412,-1.556367e-07,2.0390873e-05,2.0059846e-05,1.0,40,0.019265484,1.28334e-05,0,8.020514876660754e-09,1.0
3,3,4536288.0,173.23795,1739.2196,1747.8262,-84.31172,4.804478521487908,0.017271394,-4.0255586e-06,2.0172749e-05,1.9974572e-05,1.0,40,0.019806823,1.1332261e-05,0,1.4806097390848864e-08,1.0
4,4,3925558.5,211.6578,1998.635,2009.8112,-83.95484,5.22049942126614,0.017256638,5.1654993e-06,2.0285475e-05,2.0060495e-05,1.0,40,0.018638376,9.2736955e-06,0,1.231582661063789e-08,1.0
5,5,3397055.0,271.9106,2262.7769,2279.0557,-83.147804,5.636501547676744,0.017211773,1.0165031e-06,2.0705029e-05,2.0410302e-05,1.0,40,0.019617056,8.607537e-06,0,1.2502846782455081e-08,1.0
6,6,2939708.2,313.29028,2606.0273,2624.7913,-83.144936,6.052488127461402,0.017221013,-6.6117045e-06,2.0774803e-05,2.0478838e-05,1.0,40,0.02148329,8.184761e-06,0,1.4310660184979915e-08,1.0
7,7,2543924.5,345.5051,2968.0378,2988.08,-83.36016,6.604501433641417,0.017196048,-4.099981e-06,2.107883e-05,2.079701e-05,1.0,40,0.02060789,6.8966997e-06,0,1.878788456466888e-08,1.0
8,8,2201436.2,414.8387,3428.2866,3453.2942,-83.10049,7.156477593205636,0.017211959,-1.1970058e-05,2.1088072e-05,2.0783753e-05,1.0,40,0.02082508,6.030497e-06,0,1.7451091527814494e-08,1.0
9,9,1905053.1,492.73575,3938.661,3969.3625,-82.86921,7.708501619432354,0.017210785,1.9281667e-06,2.121116e-05,2.0884308e-05,1.0,40,0.020666188,5.2064247e-06,0,9.873166677939102e-09,1.0
10,10,1648567.4,549.6816,4514.733,4548.0723,-83.05824,8.260497645678697,0.017222261,-1.7370954e-06,2.1383628e-05,2.1071273e-05,1.0,40,0.019845497,4.3634964e-06,0,1.1291473740900275e-08,1.0
11,11,1426616.2,655.74945,5186.9424,5228.229,-82.794716,8.812500898522558,0.017224107,-7.6163983e-06,2.1508076e-05,2.1169724e-05,1.0,40,0.020396233,3.9011743e-06,0,3.2283413740464718e-09,1.0
12,12,1234551.2,585.941,6068.2896,6096.5127,-84.48474,9.53148421269725,0.017196104,-5.667768e-07,2.1244412e-05,2.1048168e-05,1.0,41,0.019547913,3.206409e-06,0,3.6615891292702447e-09,1.0
13,13,1068345.5,697.78925,7080.2134,7114.5156,-84.3714,10.083500212262152,0.017223101,-2.1481084e-07,2.104079e-05,2.0838386e-05,1.0,41,0.020444222,2.8735928e-06,0,3.0890873213470134e-09,1.0
14,14,924510.06,877.0209,8068.8867,8116.409,-83.796776,10.635478665150004,0.017212853,1.5579839e-06,2.1335109e-05,2.1086002e-05,1.0,41,0.020242719,2.4940487e-06,0,4.181592096298598e-09,1.0
15,15,800039.0,1335.8971,9076.7705,9174.551,-81.62746,11.187500851374352,0.017219542,1.5151548e-06,2.1916823e-05,2.1452144e-05,1.0,41,0.020532027,2.2379327e-06,0,4.259351363240663e-09,1.0
16,16,692334.1,1410.6161,10717.868,10810.298,-82.5022,11.739482130884426,0.017205698,3.179943e-06,2.1448453e-05,2.1083248e-05,1.0,41,0.020337936,1.8813483e-06,0,5.4863304198420336e-09,1.0
17,17,599122.25,1776.0048,12154.5,12283.568,-81.68682,12.29149359712028,0.017191874,6.101347e-07,2.1855845e-05,2.1398962e-05,1.0,41,0.02070368,1.6854777e-06,0,5.822154053002275e-09,1.0
18,18,518454.94,2267.9297,14019.103,14201.364,-80.81063,12.843496903340565,0.017228745,1.3810771e-06,2.1897216e-05,2.1338761e-05,1.0,41,0.020442914,1.4395035e-06,0,7.35598014371577e-09,1.0
19,19,448662.03,2791.015,15977.7,16219.639,-80.09144,13.395486556197284,0.017175198,3.133388e-06,2.2201717e-05,2.1544316e-05,1.0,41,0.02023653,1.247656e-06,0,8.190719108970117e-09,1.0
20,20,388258.97,3531.1865,18155.916,18496.123,-78.99381,13.947499195783166,0.017241824,1.9509048e-06,2.2577742e-05,2.1754815e-05,1.0,41,0.02092733,1.1314442e-06,0,7.794778171933735e-09,1.0
21,21,335983.9,4508.2954,21017.635,21495.713,-77.89347,14.499482261977391,0.017179726,2.4834874e-06,2.2538126e-05,2.154675e-05,1.0,41,0.020489903,9.532088e-07,0,7.608346588088782e-09,1.0
22,22,290751.2,5579.7905,23762.938,24409.246,-76.78573,15.051478421519278,0.017212741,3.0849715e-06,2.3035545e-05,2.1831824e-05,1.0,41,0.020492222,8.3952705e-07,0,7.989610695375404e-09,1.0
23,23,251605.19,6990.2397,26763.906,27661.709,-75.36239,15.603488527791342,0.017219504,2.183677e-06,2.3634751e-05,2.2125445e-05,1.0,41,0.020495532,7.4093515e-07,0,7.76393868584751e-09,1.0
24,24,217729.38,9050.246,30302.955,31625.56,-73.37128,16.15548535398557,0.017246613,2.178089e-06,2.4122268e-05,2.2146833e-05,1.0,41,0.020230051,6.3967406e-07,0,7.461575459615232e-09,1.0
25,25,188418.58,10991.626,34005.15,35737.457,-72.087395,16.70748871352407,0.017188482,2.8242666e-06,2.4840008e-05,2.2490223e-05,1.0,41,0.020761428,5.809431e-07,0,7.833848861363574e-09,1.0
26,26,163051.14,14128.496,37962.902,40506.746,-69.58645,17.259478953114012,0.017209088,-1.2728869e-07,2.5712061e-05,2.2584007e-05,1.0,41,0.020411657,5.039076e-07,0,8.08906156357144e-09,1.0
27,27,141098.2,17589.678,42109.797,45635.86,-67.32922,17.81149223263492,0.017206332,4.0011623e-06,2.6786469e-05,2.280706e-05,1.0,41,0.020105941,4.405733e-07,0,8.599319587637586e-09,1.0
28,28,122105.11,21715.855,46859.008,51646.344,-65.1356,18.227486039075302,0.017179502,2.5151442e-06,2.7815908e-05,2.289814e-05,1.0,41,0.021942548,4.248616e-07,0,8.8824241801275e-09,1.0
29,29,105663.59,24574.928,52464.914,57935.258,-64.90128,18.94647860652185,0.017222038,2.5323544e-07,2.870951e-05,2.354387e-05,1.0,42,0.018928777,3.2672293e-07,0,8.121030963166791e-09,1.0
30,30,91439.65,30957.113,57714.36,65492.67,-61.79156,19.362495906330878,0.017161485,4.5978808e-07,3.0157942e-05,2.3419847e-05,1.0,42,0.020083403,3.0665115e-07,0,8.168085468834678e-09,1.0
31,31,79127.08,37170.926,62516.656,72732.45,-59.265285,19.778484859416494,0.017202064,3.9944277e-07,3.217357e-05,2.3770279e-05,1.0,42,0.021088257,2.8994288e-07,0,8.168460981765059e-09,1.0
32,32,68475.36,45586.31,66677.75,80771.49,-55.640327,20.194490692490945,0.017184887,3.86964e-07,3.4858193e-05,2.3754754e-05,1.0,42,0.022001803,2.7239565e-07,0,8.256178208128913e-09,1.0
33,33,59252.523,53760.926,70487.64,88649.56,-52.667233,20.746479998721043,0.01718742,4.00374e-07,3.810661e-05,2.409201e-05,1.0,42,0.02023073,2.2821014e-07,0,8.236191307043031e-09,1.0
34,34,51282.285,62495.848,74921.5,97565.17,-50.16679,21.16248540513334,0.017188855,3.4151876e-07,4.1423456e-05,2.442697e-05,1.0,42,0.020812629,2.1332028e-07,0,8.239264957726928e-09,1.0
35,35,44369.8,74933.51,75014.87,106029.53,-45.03109,21.578480304888217,0.017192693,5.117523e-07,4.7817324e-05,2.3934606e-05,1.0,42,0.021232486,2.0025068e-07,0,8.267210018187162e-09,1.0
36,36,38403.727,85313.88,74711.086,113402.84,-41.209286,21.99449587133131,0.017225299,4.257044e-07,5.5470453e-05,2.4075976e-05,1.0,42,0.021553474,1.9006114e-07,0,8.281037348036967e-09,1.0
37,37,33226.32,95052.2,72743.69,119693.63,-37.426918,22.41047930440982,0.017230852,2.8880984e-07,6.5848e-05,2.4321542e-05,1.0,42,0.021752482,1.8173466e-07,0,8.302985054284543e-09,1.0
38,38,28754.086,104968.52,70633.13,126520.48,-33.93654,22.826499137532664,0.017198768,4.8251115e-07,7.836319e-05,2.4423472e-05,1.0,42,0.021878807,1.72927e-07,0,8.417094926993348e-09,1.0
39,39,24884.947,113986.086,66316.69,131873.92,-30.19069,23.242500837281113,0.017176503,6.13632e-07,9.644075e-05,2.4388686e-05,1.0,42,0.021938363,1.6635862e-07,0,8.484868360427968e-09,1.0
40,40,21553.963,121970.234,61693.586,136685.17,-26.830677,23.65948144372669,0.01717762,4.4805486e-07,0.00011968866,2.4383171e-05,1.0,42,0.021938233,1.6050193e-07,0,8.431976140264968e-09,1.0
41,41,18631.234,128412.65,56978.22,140486.03,-23.927431,24.07549855680554,0.01720976,3.1600297e-07,0.00014992346,2.4661591e-05,1.0,42,0.021849535,1.5552817e-07,0,8.44266269362453e-09,1.0
42,42,16126.037,133998.27,51257.047,143467.14,-20.932863,24.4924837766157,0.017218629,3.3313827e-07,0.00019254794,2.4577696e-05,1.0,42,0.021638224,1.5082355e-07,0,8.394554797423126e-09,1.0
43,43,13954.87,137930.8,39369.816,143439.48,-15.930424,24.90850374303409,0.017206294,3.763487e-07,0.0002896883,2.1823294e-05,1.0,42,0.021480322,1.497518e-07,0,8.436540552134867e-09,1.0
44,44,12080.609,142064.03,41013.246,147865.73,-16.10319,25.32448565613595,0.017211437,4.6537681e-07,0.00032122337,2.4712706e-05,1.0,42,0.021003604,1.4204511e-07,0,8.520715968228467e-09,1.0
45,45,10447.592,145636.1,36013.754,150022.88,-13.8897915,25.740501995926024,0.017212033,5.689326e-07,0.00042299528,2.4375715e-05,1.0,42,0.020499848,1.3664481e-07,0,8.544949884962153e-09,1.0
46,46,9045.586,146919.3,32162.037,150398.39,-12.347812,26.31326820977847,0.017201208,4.525257e-07,0.0005470662,2.5017309e-05,1.0,42,0.020368448,1.3542996e-07,0,8.585983399419443e-09,1.0
47,47,7827.7437,149283.06,27413.91,151779.3,-10.405696,26.792924845940433,0.017223585,5.063525e-07,0.0007416731,2.4195213e-05,1.0,42,0.020436643,1.3464711e-07,0,8.68288013337685e-09,1.0
48,48,6770.8345,150947.05,24187.646,152872.67,-9.103644,27.33142532480997,0.017195618,6.0804575e-07,0.0009718166,2.4328305e-05,1.0,42,0.020517582,1.3421354e-07,0,8.679061141679354e-09,1.0
49,49,5860.798,151605.75,21275.773,153091.36,-7.9885015,27.93796546032536,0.017213263,5.275853e-07,0.0012763742,2.4651728e-05,1.0,42,0.020542536,1.3418482e-07,0,8.723973904191477e-09,1.0
50,50,5071.625,152136.69,18401.51,153245.52,-6.8966403,28.618699119339,0.017186135,6.115846e-07,0.0017053736,2.4589568e-05,1.0,42,0.020580806,1.3429957e-07,0,8.80109037919357e-09,1.0
51,51,4388.5933,153278.94,17079.266,154227.55,-6.3580146,29.298832858301466,0.01721617,4.6854373e-07,0.0021233696,2.6039948e-05,1.0,42,0.020657431,1.3394126e-07,0,8.938532698656903e-09,1.0
52,52,3798.7827,152962.27,13867.285,153589.58,-5.1801715,29.97880601059296,0.017183043,5.994783e-07,0.0030212332,2.4628822e-05,1.0,42,0.020639764,1.3438259e-07,0,9.062486006571409e-09,1.0
53,53,3286.0488,153221.77,12222.823,153708.52,-4.560947,30.658691242897476,0.017193848,5.244191e-07,0.0039625484,2.505658e-05,1.0,42,0.020649169,1.3433979e-07,0,9.082513727532968e-09,1.0
54,54,2844.088,153989.78,10897.493,154374.89,-4.0479383,31.33883354185673,0.017189004,5.192041e-07,0.005135119,2.5588828e-05,1.0,42,0.020724593,1.3424847e-07,0,9.259510885086858e-09,1.0
55,55,2460.7852,153582.27,9536.1455,153878.03,-3.553017,32.018712987497565,0.017180862,5.920284e-07,0.0067822463,2.60475e-05,1.0,42,0.020686334,1.3443332e-07,0,9.350079820927466e-09,1.0
56,56,2129.3164,153829.7,8747.705,154078.23,-3.2546859,32.69882181979483,0.017167484,5.937047e-07,0.008544483,2.7541746e-05,1.0,42,0.02071006,1.3441263e-07,0,9.54769674016652e-09,1.0
57,57,1843.2289,154343.27,8172.035,154559.45,-3.030818,33.37897491874173,0.017160907,6.9074144e-07,0.010566001,2.9537923e-05,1.0,42,0.020736786,1.3416705e-07,0,9.600618178575122e-09,1.0
58,58,1594.4913,154498.56,6800.0073,154648.14,-2.5201557,34.05880716438696,0.01718278,5.348492e-07,0.014678733,2.8380364e-05,1.0,42,0.020748246,1.3416421e-07,0,9.630710384322011e-09,1.0
59,59,1380.4436,154314.9,6211.8633,154439.89,-2.305166,34.738706370022555,0.017210096,5.341044e-07,0.018560069,3.0026476e-05,1.0,42,0.020738557,1.3428239e-07,0,9.835426241651075e-09,1.0
60,60,1194.6187,154422.86,5860.8066,154534.03,-2.1735022,35.418805815657834,0.017194742,4.45635e-07,0.02273178,3.2696404e-05,1.0,42,0.02071619,1.3405585e-07,0,9.808033849009313e-09,1.0
61,61,1033.3434,154235.05,5785.6113,154343.52,-2.1482522,36.09908430126961,0.01718513,5.6856084e-07,0.026621113,3.7406575e-05,1.0,42,0.02071168,1.341921e-07,0,9.805042612086763e-09,1.0
62,62,894.71045,154399.2,5106.522,154483.62,-1.8942815,36.77884985358105,0.01720596,4.1397217e-07,0.034834728,3.8062553e-05,1.0,42,0.020703457,1.3401717e-07,0,9.963224686768591e-09,1.0
63,63,774.2569,154744.95,5445.434,154840.73,-2.0153918,37.458930739201605,0.017206127,3.7374213e-07,0.03774875,4.6687124e-05,1.0,42,0.020746076,1.3398332e-07,0,1.0147415258785881e-08,1.0
64,64,669.7856,154400.7,5343.5195,154493.14,-1.9821087,38.138810691511026,0.017167466,5.1845933e-07,0.044468958,5.319776e-05,1.0,42,0.020711917,1.3406367e-07,0,1.0126046670258009e-08,1.0
65,65,579.81464,155203.17,5100.2295,155286.95,-1.8821555,38.81881752380286,0.017202737,4.3315632e-07,0.053819694,5.8056485e-05,1.0,42,0.0207518,1.3363518e-07,0,1.0181647053338435e-08,1.0
66,66,501.44418,155207.36,4843.956,155282.94,-1.7875967,39.4961795026029,0.01721766,4.771115e-07,0.065523535,6.3760286e-05,1.0,42,0.020749362,1.3362293e-07,0,1.0311689101493233e-08,1.0
67,67,434.02762,155470.5,5143.107,155555.55,-1.894706,40.17619718823698,0.017193178,4.964816e-07,0.07129798,7.793945e-05,1.0,42,0.02076622,1.3349712e-07,0,1.0484254001161967e-08,1.0
68,68,375.6009,155702.02,4869.316,155778.14,-1.7912443,40.854436553810956,0.017194184,5.3522183e-07,0.0870213,8.502536e-05,1.0,42,0.020753114,1.3322224e-07,0,1.0619036039333254e-08,1.0
69,69,325.10385,155823.78,5621.3657,155925.14,-2.0660577,41.53371845276706,0.017213095,6.1046734e-07,0.08708757,0.000113189875,1.0,42,0.020768758,1.3319698e-07,0,1.0784368484750296e-08,1.0
70,70,281.3503,155447.7,5829.4614,155556.97,-2.147649,42.210796404920984,0.017191594,3.569795e-07,0.09703855,0.0001362769,1.0,42,0.020727543,1.3324728e-07,0,1.0874358497416618e-08,1.0
71,71,243.36427,155700.05,6368.693,155830.25,-2.3422978,42.894091530673904,0.017202158,5.8513706e-07,0.10268642,0.00017151816,1.0,42,0.020736419,1.3307056e-07,0,1.108300444680468e-08,1.0
72,72,210.60631,156378.69,6775.4365,156525.4,-2.4809086,43.571162709529744,0.017183732,5.026278e-07,0.11153508,0.0002089856,1.0,42,0.020784955,1.3278967e-07,0,1.1139802763195976e-08,1.0
73,73,182.27473,156066.8,7644.5806,156253.9,-2.8042636,44.24326674142503,0.017219039,5.842059e-07,0.11421943,0.00027339184,1.0,42,0.020727538,1.3265293e-07,0,1.1281548810275173e-08,1.0
74,74,157.72879,156719.39,8554.946,156952.72,-3.124542,44.93163757416551,0.017201338,6.1642737e-07,0.117948346,0.0003504199,1.0,42,0.020753236,1.3222603e-07,0,1.1444903372802844e-08,1.0
75,75,136.52892,156870.53,9448.82,157154.84,-3.4469457,45.603529126005014,0.017212555,5.8532333e-07,0.12337236,0.0004459822,1.0,42,0.020730058,1.319085e-07,0,1.1566253536297922e-08,1.0
76,76,118.14758,156936.89,10286.126,157273.62,-3.7499776,46.29192449207767,0.01720145,5.804808e-07,0.13096145,0.00056019,1.0,42,0.020699672,1.3161566e-07,0,1.1608836396993677e-08,1.0
77,77,102.25773,157546.81,11045.968,157933.56,-4.0105753,46.95834316368564,0.01720445,5.7340327e-07,0.14090298,0.0006892533,1.0,42,0.020723978,1.312196e-07,0,1.1729814937404845e-08,1.0
78,78,88.4436,158481.38,12813.228,158998.5,-4.622313,47.64830514314235,0.017271953,1.7650211e-07,0.1404414,0.0009120658,1.0,42,0.020760132,1.305681e-07,0,1.1920390410241153e-08,1.0
79,79,76.54279,158189.73,14129.954,158819.55,-5.1042747,48.315727894892916,0.017211251,4.8586537e-07,0.14715502,0.0011647928,1.0,42,0.02069226,1.3028786e-07,0,1.1990410447315883e-08,1.0
80,80,66.250786,159510.66,16266.919,160337.97,-5.8229012,48.98398168661515,0.017202418,6.6299015e-07,0.14768071,0.0015200633,1.0,42,0.020745577,1.2938655e-07,0,1.2201505745398577e-08,1.0
81,81,57.329906,160109.92,18278.547,161149.9,-6.512832,49.638632197735205,0.01722461,6.8571273e-07,0.15187883,0.0019539816,1.0,42,0.020740855,1.2870535e-07,0,1.2203069420438893e-08,1.0
82,82,49.60321,161547.22,20023.98,162783.48,-7.065845,50.32336479020887,0.017204637,6.374736e-07,0.16023594,0.0024245998,1.0,42,0.02078541,1.2768746e-07,0,1.2270972548119769e-08,1.0
83,83,42.92585,162275.27,22672.412,163851.45,-7.9536376,51.03142226385535,0.017208269,4.828851e-07,0.16353229,0.0031311105,1.0,42,0.020749843,1.2663814e-07,0,1.2522694840576381e-08,1.0
84,84,37.1518,163334.8,24904.98,165222.62,-8.669576,51.675149414426414,0.017211866,4.4060616e-07,0.17201015,0.003908296,1.0,42,0.020731486,1.2547608e-07,0,1.2565060476379052e-08,1.0
85,85,32.150223,164810.11,27645.535,167112.69,-9.522244,52.31339091141126,0.017185818,5.2125284e-07,0.17906517,0.004900521,1.0,42,0.020742973,1.2412566e-07,0,1.245670256596259e-08,1.0
86,86,27.835518,167700.4,30255.174,170407.75,-10.22684,53.30732095861458,0.017219784,4.1532397e-07,0.18898231,0.0059571946,1.0,43,0.02074308,1.2172615e-07,0,1.2901542388342858e-08,1.0
87,87,24.082958,169627.44,33487.79,172901.42,-11.167705,54.009358858602354,0.017218107,4.1009105e-07,0.19734396,0.007402862,1.0,43,0.020743705,1.1997417e-07,0,1.3029575652517166e-08,1.0
88,88,20.833313,171533.48,37338.77,175550.33,-12.280363,54.66375222307397,0.017233348,4.1050092e-07,0.2045982,0.009255896,1.0,43,0.020737305,1.1812741e-07,0,1.2699442924808896e-08,1.0
89,89,18.021912,174051.8,41308.668,178886.66,-13.351295,55.40974548517261,0.01726504,4.4838916e-07,0.21378542,0.011399993,1.0,43,0.020745365,1.1596932e-07,0,1.3215021976415405e-08,1.0
90,90,15.604198,176565.05,45386.08,182305.0,-14.415792,56.065022956288885,0.017243335,4.3783928e-07,0.22472739,0.013928494,1.0,43,0.020741522,1.13773744e-07,0,1.2992569444807521e-08,1.0
91,91,13.500899,179395.94,50004.816,186234.75,-15.575278,56.81300552515313,0.017258678,3.7788277e-07,0.23574668,0.016996043,1.0,43,0.020726332,1.11291435e-07,0,1.2958115041303052e-08,1.0
92,92,11.686608,182803.56,55431.188,191022.92,-16.868782,57.4038970998663,0.017255595,3.7526627e-07,0.24568434,0.020687828,1.0,43,0.02075596,1.08656906e-07,0,1.3169625209827747e-08,1.0
93,93,10.113269,186151.42,60186.375,195639.34,-17.917028,58.07753089183825,0.017208287,4.274662e-07,0.26147512,0.024746533,1.0,43,0.020724045,1.0592984e-07,0,1.3803285608712122e-08,1.0
94,94,8.748621,189841.03,66207.734,201054.92,-19.226398,58.84439962162287,0.017213067,4.521229e-07,0.27477157,0.029796127,1.0,43,0.020731803,1.0311513e-07,0,1.3918172264559084e-08,1.0
95,95,7.570237,194262.95,72572.91,207376.28,-20.484722,59.71999163654982,0.017232072,4.2670257e-07,0.28969175,0.03547864,1.0,43,0.020749126,1.00055445e-07,0,1.310930486166405e-08,1.0
96,96,6.554112,198854.58,79194.945,214044.34,-21.715197,60.2562985419936,0.01723672,5.3166127e-07,0.3066259,0.041975535,1.0,43,0.020748151,9.6933896e-08,0,1.4395332481739015e-08,1.0
97,97,5.669445,203800.97,86895.27,221552.75,-23.092102,60.866133637638995,0.017209686,3.3988246e-07,0.32306018,0.049696002,1.0,43,0.020779511,9.3790355e-08,0,1.3118566203047867e-08,1.0
98,98,4.907347,208535.4,94965.734,229140.8,-24.484226,61.558521830505924,0.01720786,5.7361865e-07,0.34151235,0.058659103,1.0,43,0.020755038,9.0577664e-08,0,1.4573961323941928e-08,1.0
99,99,4.245922,213864.5,103682.63,237672.28,-25.864351,62.34629090790986,0.017222075,2.7907868e-07,0.36152813,0.068801366,1.0,43,0.020738821,8.725806e-08,0,1.3944696202415625e-08,1.0
100,100,3.6747382,219502.53,113165.89,246957.25,-27.27365,63.24592172401026,0.017274972,3.5959468e-07,0.38271737,0.08036477,1.0,43,0.020751271,8.402779e-08,0,1.3233733111049201e-08,1.0
101,101,3.180988,224707.92,124479.43,256882.81,-28.984745,64.27422929284512,0.017231885,5.1915566e-07,0.40193933,0.09438121,1.0,43,0.020734597,8.071617e-08,0,1.490202314794923e-08,1.0
102,102,2.752818,231382.27,136095.78,268439.6,-30.463444,65.45315542884055,0.017218916,3.927359e-07,0.42481312,0.109192826,1.0,43,0.020735182,7.724338e-08,0,1.5281945280027762e-08,1.0
103,103,2.3804083,236901.23,149849.42,280315.97,-32.314976,66.80797287987662,0.017221319,3.610085e-07,0.44618362,0.12750524,1.0,43,0.020735553,7.397207e-08,0,1.3772077029134521e-08,1.0
104,104,2.060257,243920.7,165004.92,294489.28,-34.077152,68.3633626603696,0.017219659,4.2937904e-07,0.46816817,0.14697947,1.0,43,0.020743152,7.0437714e-08,0,1.3338448908593038e-08,1.0
105,105,1.7836765,249636.55,182816.9,309419.5,-36.216522,70.15164087871744,0.017204022,4.871981e-07,0.48807627,0.17038253,1.0,43,0.02074907,6.705805e-08,0,1.4995172346853598e-08,1.0
106,106,1.5427545,258013.05,200714.28,326889.8,-37.88017,72.2112137498043,0.017275978,3.7902853e-07,0.5139786,0.19377548,1.0,43,0.020764884,6.352258e-08,0,1.6822907766157396e-08,1.0
