True,index,freq,Re(Z),Im(Z),Z,Phase(Z),time,Ewe_meas,I_meas,Cs,Cp,cycle_number,I_Range,Ewe,I,Ns,(QQo),cycle
0,0,7000018.5,143.17046,1106.9587,1116.179,-82.63046,2.4684760638920125,-0.038241673,2.736182e-05,2.0539484e-05,2.0201553e-05,1.0,40,0.009916064,8.883938e-06,0,1.0386899247868719e-08,1.0
1,1,6057573.0,212.59715,1312.2899,1329.3993,-80.79776,3.0204909167659935,-0.038203925,-3.045072e-07,2.0021274e-05,1.9509242e-05,1.0,40,0.013990006,1.0523555e-05,0,1.1141261685742797e-08,1.0
2,2,5242039.0,206.8059,1511.7506,1525.8304,-82.21035,3.436478003190132,-0.03816733,-3.932538e-06,2.0083517e-05,1.9714578e-05,1.0,40,0.019279452,1.2635383e-05,0,1.3381673420953336e-08,1.0
3,3,4536288.0,186.46852,1751.1938,1761.0935,-83.922005,4.80448030817206,-0.0382236,-1.3835936e-06,2.0034813e-05,1.9810203e-05,1.0,40,0.01946273,1.1051503e-05,0,-2.6112317447086754e-09,1.0
4,4,3925558.5,244.61635,2018.0748,2032.8461,-83.08874,5.220499927905621,-0.038214434,-4.137191e-06,2.0090069e-05,1.9799169e-05,1.0,40,0.018555384,9.127786e-06,0,-3.811430565412542e-09,1.0
5,5,3397055.0,292.3942,2281.6367,2300.2957,-82.69729,5.636496294377139,-0.03825911,-4.3418504e-06,2.0533882e-05,2.020211e-05,1.0,40,0.019572776,8.508809e-06,0,-1.2203922277838803e-09,1.0
6,6,2939708.2,306.62854,2621.9443,2639.813,-83.32973,6.052493034134386,-0.038265333,-8.230378e-06,2.0648686e-05,2.0370095e-05,1.0,40,0.021417262,8.113174e-06,0,4.3814431717079416e-10,1.0
7,7,2543924.5,385.20865,2995.3586,3020.0264,-82.67188,6.604493087012088,-0.038276028,1.3500719e-05,2.0886568e-05,2.0546757e-05,1.0,40,0.02058804,6.8171726e-06,0,1.8373090428996066e-09,1.0
8,8,2201436.2,411.08487,3444.4976,3468.9414,-83.19421,7.156494499911787,-0.03826196,9.928482e-06,2.0988824e-05,2.0694073e-05,1.0,40,0.020785613,5.991918e-06,0,-1.5480213171485956e-09,1.0
9,9,1905053.1,467.50833,4048.1711,4075.0771,-83.41231,7.708500339445891,-0.038283538,-2.4440972e-06,2.063736e-05,2.0365742e-05,1.0,40,0.020718874,5.08429e-06,0,-6.7735047084119695e-09,1.0
10,10,1648567.4,537.9434,4561.332,4592.944,-83.27386,8.260489592299564,-0.03827804,-3.2255296e-06,2.116517e-05,2.0874826e-05,1.0,40,0.019857388,4.3234554e-06,0,-5.062216814028236e-09,1.0
11,11,1426616.2,485.38193,5351.8003,5373.766,-84.81773,8.979481893155025,-0.038242027,-3.361909e-06,2.0845537e-05,2.0675468e-05,1.0,41,0.019428924,3.6155134e-06,0,-5.457713285472386e-09,1.0
12,12,1234551.2,636.11536,6172.4536,6205.145,-84.116035,9.531486826046603,-0.03827709,1.0198146e-06,2.0885898e-05,2.0666406e-05,1.0,41,0.020468794,3.298681e-06,0,-4.950243207536195e-09,1.0
13,13,1068345.5,728.07117,7119.2837,7156.416,-84.160805,10.083501892251661,-0.038299,1.3568691e-06,2.0925321e-05,2.0708734e-05,1.0,41,0.020197332,2.8222692e-06,0,-4.595782959117716e-09,1.0
14,14,924510.06,836.6524,8161.19,8203.963,-84.14671,10.63550247848616,-0.038264643,7.6097183e-07,2.1093809e-05,2.087443e-05,1.0,41,0.020734247,2.5273453e-06,0,-4.658407218821973e-09,1.0
15,15,800039.0,992.77985,9518.603,9570.235,-84.04564,11.187481198023306,-0.03829805,1.9658016e-06,2.0899493e-05,2.067459e-05,1.0,41,0.020696696,2.162611e-06,0,-4.935469794288691e-09,1.0
16,16,692334.1,1377.4714,10714.212,10802.396,-82.673965,11.73948653091793,-0.038257863,-5.946947e-07,2.1455773e-05,2.1106898e-05,1.0,41,0.020352509,1.8840734e-06,0,-5.239508342702789e-09,1.0
17,17,599122.25,1667.99,12355.481,12467.5625,-82.311554,12.291492530464893,-0.038301684,6.138592e-07,2.1500324e-05,2.1115495e-05,1.0,41,0.020477751,1.6424824e-06,0,-4.278411270547622e-09,1.0
18,18,518454.94,2139.4414,13993.944,14156.542,-81.30773,12.843496769986814,-0.03827504,-7.142275e-08,2.1936583e-05,2.1435562e-05,1.0,41,0.020612465,1.4560381e-06,0,-4.000940238442909e-09,1.0
19,19,448662.03,2588.3525,16099.435,16306.176,-80.866554,13.39548260954325,-0.038253672,5.226127e-07,2.2033839e-05,2.147866e-05,1.0,41,0.020171875,1.2370697e-06,0,-3.380452407899131e-09,1.0
20,20,388258.97,3450.0293,18432.553,18752.645,-79.39858,13.947492022445658,-0.038267925,6.1013543e-07,2.2238892e-05,2.1486174e-05,1.0,41,0.020947227,1.1170279e-06,0,-3.432589787855199e-09,1.0
21,21,335983.9,5162.531,20302.53,20948.613,-75.73318,14.49949639532133,-0.038275898,-2.1108592e-07,2.3331973e-05,2.1914988e-05,1.0,41,0.020296115,9.688524e-07,0,-3.364096566116359e-09,1.0
22,22,290751.2,5237.4316,23765.557,24335.824,-77.57187,15.051487061573425,-0.03828065,1.1650643e-06,2.3033006e-05,2.1966178e-05,1.0,41,0.020491302,8.420221e-07,0,-2.3945538563086503e-09,1.0
23,23,251605.19,6757.7803,27153.49,27981.773,-76.02453,15.603482687758515,-0.0382718,4.4812487e-07,2.3295652e-05,2.1936925e-05,1.0,41,0.020535903,7.339028e-07,0,-1.8914895299373157e-09,1.0
24,24,217729.38,8566.078,30847.611,32014.885,-74.48055,16.155489087308524,-0.038240537,-4.162844e-08,2.3696355e-05,2.1999904e-05,1.0,41,0.020298198,6.3402376e-07,0,-1.5966294754434783e-09,1.0
25,25,188418.58,10692.182,34688.453,36298.918,-72.86889,16.70848538025166,-0.038242735,-1.6673108e-06,2.4350702e-05,2.223791e-05,1.0,41,0.020670649,5.6945635e-07,0,-7.554513498556995e-10,1.0
26,26,163051.14,13311.064,39177.957,41377.492,-71.234344,17.260479406482773,-0.038244653,-2.5667446e-06,2.4914634e-05,2.2336224e-05,1.0,41,0.020304611,4.9071633e-07,0,-1.5999606326507396e-10,1.0
27,27,141098.2,16898.166,43522.867,46688.2,-68.78082,17.81248572599725,-0.038287356,1.9732493e-06,2.5916786e-05,2.2521737e-05,1.0,41,0.02013719,4.313122e-07,0,-1.2077982703652247e-11,1.0
28,28,122105.11,18866.502,49822.457,53274.97,-69.25959,18.394486126984702,-0.038257826,-1.6619852e-06,2.6161411e-05,2.2880475e-05,1.0,42,0.020356147,3.820959e-07,0,1.885795995342221e-10,1.0
29,29,105663.59,23789.37,54673.832,59625.18,-66.48545,18.810480893444037,-0.03823815,-1.5498618e-06,2.7549597e-05,2.316407e-05,1.0,42,0.021799274,3.6560516e-07,0,1.1870678809897425e-11,1.0
30,30,91439.65,29354.348,60189.3,66965.88,-64.00149,19.3625028662791,-0.038303323,-1.3898723e-06,2.8917868e-05,2.3361337e-05,1.0,42,0.020476017,3.057679e-07,0,-2.049617773638188e-10,1.0
31,31,79127.08,36315.047,65834.81,75186.47,-61.118492,19.778501126071205,-0.038306437,-1.5897197e-06,3.0551982e-05,2.3424549e-05,1.0,42,0.02150931,2.8607954e-07,0,-3.462535372287492e-10,1.0
32,32,68475.36,44633.87,70866.414,83751.01,-57.796,20.330489605636103,-0.038256895,-1.4334549e-06,3.279785e-05,2.34826e-05,1.0,42,0.020239089,2.4165786e-07,0,-5.728484816919356e-10,1.0
33,33,59252.523,53607.11,75646.734,92715.43,-54.67668,20.74650111873052,-0.038265705,-1.4500313e-06,3.5507743e-05,2.3637385e-05,1.0,42,0.020908989,2.255179e-07,0,-7.058207440909175e-10,1.0
34,34,51282.285,61682.117,80348.82,101294.7,-52.4873,21.162486925109988,-0.0383132,-1.2812877e-06,3.8625425e-05,2.4302939e-05,1.0,42,0.021446832,2.1172708e-07,0,-8.613789213924861e-10,1.0
35,35,44369.8,75339.17,80767.336,110450.68,-46.991497,21.57848171822843,-0.038290095,-1.2166583e-06,4.441165e-05,2.374825e-05,1.0,42,0.021867044,1.9798017e-07,0,-1.0216614983842299e-09,1.0
36,36,38403.727,86223.52,82052.57,119025.71,-43.58014,22.130494864453794,-0.038296543,-1.3533669e-06,5.0507348e-05,2.400255e-05,1.0,42,0.020191371,1.6963874e-07,0,-1.3043573479691872e-09,1.0
37,37,33226.32,98244.14,81221.625,127471.03,-39.581646,22.546504004189046,-0.03825326,-1.5154053e-06,5.897477e-05,2.3943441e-05,1.0,42,0.020425308,1.602349e-07,0,-1.5112793417847807e-09,1.0
38,38,28754.086,109345.3,79073.87,134940.98,-35.872852,22.962486023985548,-0.03827042,-1.4263771e-06,6.9998314e-05,2.4036199e-05,1.0,42,0.02053743,1.5219564e-07,0,-1.7289843995240201e-09,1.0
39,39,24884.947,120250.2,75437.336,141953.88,-32.101547,23.378501083730953,-0.038241543,-1.5103765e-06,8.478071e-05,2.3942817e-05,1.0,42,0.02060311,1.4513947e-07,0,-1.9254945575583173e-09,1.0
40,40,21553.963,129944.18,70292.805,147738.17,-28.411001,23.79550430350355,-0.038253333,-1.5263939e-06,0.00010504663,2.378036e-05,1.0,42,0.020598356,1.3942474e-07,0,-2.077171543862259e-09,1.0
41,41,18631.234,137291.47,65453.016,152095.52,-25.489237,24.211495443276362,-0.0383009,-1.2257844e-06,0.00013051151,2.4169927e-05,1.0,42,0.020504106,1.3481072e-07,0,-2.1851148985621264e-09,1.0
42,42,16126.037,144113.28,59857.57,156049.89,-22.555595,24.62748018305865,-0.03830569,-1.2188931e-06,0.00016488206,2.4259654e-05,1.0,42,0.020306692,1.3012948e-07,0,-2.322685942229915e-09,1.0
43,43,13954.87,147493.25,55601.312,157625.39,-20.655205,25.04350284280372,-0.038271427,-1.2518593e-06,0.00020512062,2.5522726e-05,1.0,42,0.019971676,1.2670343e-07,0,-2.393189971264636e-09,1.0
44,44,12080.609,154320.4,47802.66,161554.58,-17.211016,25.459493742586346,-0.038315266,-1.2740231e-06,0.0002756,2.4129304e-05,1.0,42,0.019703178,1.2195989e-07,0,-2.53666884426688e-09,1.0
45,45,10447.592,157776.84,42577.27,163420.8,-15.101967,25.875486802338855,-0.038281005,-1.2002677e-06,0.0003577883,2.428662e-05,1.0,42,0.019193854,1.17450504e-07,0,-2.62519838016178e-09,1.0
46,46,9045.586,160149.16,37786.074,164546.47,-13.2757435,26.307246956188465,-0.03832082,-1.1188752e-06,0.0004656415,2.4554894e-05,1.0,42,0.021823404,1.326276e-07,0,-2.7649249319539295e-09,1.0
47,47,7827.7437,162903.31,33026.867,166217.52,-11.460754,26.786928632325726,-0.03828162,-1.189837e-06,0.0006156249,2.4305096e-05,1.0,42,0.02188705,1.3167715e-07,0,-2.8631828167636147e-09,1.0
48,48,6770.8345,164665.28,28859.605,167175.16,-9.940823,27.32541975119966,-0.038271073,-1.2756985e-06,0.0008144934,2.4273078e-05,1.0,42,0.021956772,1.3133992e-07,0,-3.026703451351883e-09,1.0
49,49,5860.798,165579.72,25465.646,167526.55,-8.743404,27.931975806714036,-0.038281154,-1.1386177e-06,0.0010663718,2.4640573e-05,1.0,42,0.021982556,1.3121834e-07,0,-3.1707724543094982e-09,1.0
50,50,5071.625,166682.33,21982.283,168125.61,-7.512886,28.612699652388983,-0.0382609,-1.3321325e-06,0.0014275792,2.4404957e-05,1.0,42,0.022031287,1.3104064e-07,0,-3.335524552834812e-09,1.0
51,51,4388.5933,167080.22,20209.38,168298.0,-6.896774,29.51384222850902,-0.038275935,-1.0739885e-06,0.0017944931,2.587557e-05,1.0,42,0.020138409,1.1965923e-07,0,-3.502848792701722e-09,1.0
52,52,3798.7827,168350.95,16884.932,169195.58,-5.727386,30.193835700818454,-0.038251415,-1.2527896e-06,0.0024812834,2.4711379e-05,1.0,42,0.020191498,1.1933821e-07,0,-3.825721044659108e-09,1.0
53,53,3286.0488,168254.72,16180.585,169030.95,-5.4930825,30.873676906441688,-0.038267814,-1.2967449e-06,0.0029933115,2.7428867e-05,1.0,42,0.020194642,1.1947304e-07,0,-4.134556976847787e-09,1.0
54,54,2844.088,168818.66,13527.374,169359.77,-4.5813003,31.553803925402462,-0.038271315,-1.232302e-06,0.0041367915,2.6391866e-05,1.0,42,0.020208215,1.1932123e-07,0,-4.309412497660345e-09,1.0
55,55,2460.7852,169207.23,12111.68,169640.16,-4.09419,32.233674864372006,-0.038308766,-1.039532e-06,0.0053400095,2.7220336e-05,1.0,42,0.020234047,1.1927628e-07,0,-4.559527967196905e-09,1.0
56,56,2129.3164,169011.02,10828.46,169357.55,-3.6659043,32.91382967001118,-0.038280316,-1.1574289e-06,0.006902608,2.8218734e-05,1.0,42,0.020209005,1.1932745e-07,0,-4.667390776678104e-09,1.0
57,57,1843.2289,169502.56,9619.566,169775.31,-3.2481513,33.59395898229559,-0.03824186,-1.3233788e-06,0.008976052,2.8816901e-05,1.0,42,0.020231716,1.191676e-07,0,-4.949748466685043e-09,1.0
58,58,1594.4913,169335.84,8217.147,169535.1,-2.778141,34.2738457879168,-0.03828445,-1.0758511e-06,0.01214722,2.8536442e-05,1.0,42,0.020209827,1.1920733e-07,0,-5.259871381957974e-09,1.0
59,59,1380.4436,169350.17,7852.8584,169532.14,-2.6549342,34.95369982023112,-0.038268298,-1.2648959e-06,0.01468161,3.150106e-05,1.0,42,0.020212566,1.1922558e-07,0,-5.452671067957956e-09,1.0
60,60,1194.6187,170124.14,7214.355,170277.05,-2.4282537,35.63384825253161,-0.03825695,-1.0246317e-06,0.018466871,3.3149434e-05,1.0,42,0.02026061,1.18986144e-07,0,-5.748422057932443e-09,1.0
61,61,1033.3434,170178.12,7053.0176,170324.22,-2.3732605,36.31408332483261,-0.038311858,-1.0020955e-06,0.02183738,3.7445327e-05,1.0,42,0.020255057,1.1892059e-07,0,-6.045734462895148e-09,1.0
62,62,894.71045,170339.16,6585.584,170466.4,-2.2140439,36.99384063712205,-0.0382737,-1.0723121e-06,0.027011167,4.0313855e-05,1.0,42,0.020246567,1.18771595e-07,0,-6.162419855333686e-09,1.0
63,63,774.2569,171444.56,8608.758,171660.56,-2.8745828,37.67396776276291,-0.03830122,-8.0634544e-07,0.023877814,6.005297e-05,1.0,42,0.020338427,1.1848049e-07,0,-6.182930909691859e-09,1.0
64,64,669.7856,170703.9,6459.9717,170826.1,-2.167218,38.35384422172501,-0.038302634,-1.041022e-06,0.036783557,5.260252e-05,1.0,42,0.020268789,1.1865159e-07,0,-6.5072668136723325e-09,1.0
65,65,579.81464,170544.8,6282.577,170660.48,-2.109724,39.033836947361124,-0.03829334,-1.1002498e-06,0.043691114,5.9211063e-05,1.0,42,0.02024414,1.186223e-07,0,-6.683816382157598e-09,1.0
66,66,501.44418,171147.56,6361.6104,171265.75,-2.128723,39.71117873946787,-0.038288586,-1.3330637e-06,0.04989195,6.883726e-05,1.0,42,0.02027167,1.1836383e-07,0,-6.831902292975182e-09,1.0
67,67,434.02762,170650.7,6900.091,170790.14,-2.3154364,40.39119127843878,-0.03827953,-1.2200093e-06,0.05314323,8.674251e-05,1.0,42,0.020250525,1.1856964e-07,0,-7.034466510092664e-09,1.0
68,68,375.6009,171270.48,7168.3096,171420.42,-2.3966439,41.069458243990084,-0.038270812,-1.123345e-06,0.05911215,0.00010336777,1.0,42,0.020263981,1.1821217e-07,0,-7.29151590508042e-09,1.0
69,69,325.10385,171587.52,7355.975,171745.12,-2.454773,41.748679342977994,-0.038292013,-1.0963386e-06,0.06655149,0.000122087,1.0,42,0.020255249,1.1793784e-07,0,-7.408251939170817e-09,1.0
70,70,281.3503,171907.77,7697.4697,172080.02,-2.5638058,42.424785455092206,-0.03826412,-1.2555832e-06,0.07348941,0.00014704825,1.0,42,0.02027565,1.1782688e-07,0,-7.768287157936982e-09,1.0
71,71,243.36427,171939.69,9085.029,172179.55,-3.0246084,43.10808716752217,-0.038254287,-1.0860947e-06,0.071984164,0.0002004133,1.0,42,0.020253858,1.1763219e-07,0,-7.817712445711796e-09,1.0
72,72,210.60631,172233.61,9698.92,172506.48,-3.2230694,43.7852097596915,-0.038230885,-1.2131181e-06,0.07791577,0.00024629824,1.0,42,0.020254683,1.1741404e-07,0,-7.942017245600397e-09,1.0
73,73,182.27473,170063.14,11202.127,170431.69,-3.7686517,44.45724856489687,-0.038264792,-1.0937309e-06,0.07794587,0.000336739,1.0,42,0.020121064,1.18059404e-07,0,-8.23087198308059e-09,1.0
74,74,157.72879,173225.36,12265.998,173659.1,-4.050324,45.14563489099601,-0.038278263,-1.3053124e-06,0.08226333,0.0004104091,1.0,42,0.0202603,1.1666708e-07,0,-8.316838120290665e-09,1.0
75,75,136.52892,173442.62,13329.119,173954.05,-4.3945603,45.817540016170824,-0.038273457,-1.0324544e-06,0.08745689,0.0005134851,1.0,42,0.020264968,1.16496096e-07,0,-8.660111648878576e-09,1.0
76,76,118.14758,173753.66,14525.308,174359.73,-4.7786517,46.50591911558877,-0.03829358,-1.0445607e-06,0.09274061,0.0006436181,1.0,42,0.020223921,1.1598963e-07,0,-8.840633979039422e-09,1.0
77,77,102.25773,174085.67,15863.054,174806.92,-5.206534,47.17234890718828,-0.038289648,-1.1898367e-06,0.09811541,0.0008079668,1.0,42,0.020205868,1.15589636e-07,0,-9.084289463575127e-09,1.0
78,78,88.4436,175158.5,18219.986,176103.58,-5.9385495,47.86127227326506,-0.038277704,-1.0104767e-06,0.09876558,0.00105722,1.0,42,0.020244315,1.1495686e-07,0,-9.140967809730209e-09,1.0
79,79,76.54279,176829.1,21191.209,178094.34,-6.8337393,48.52871793168015,-0.038284283,-1.0413945e-06,0.09812057,0.0013892209,1.0,42,0.020298991,1.13978864e-07,0,-9.37456671245703e-09,1.0
80,80,66.250786,177040.16,22814.066,178504.06,-7.3428845,49.19700343007571,-0.0382783,-1.1494202e-06,0.10529952,0.0017200283,1.0,42,0.020236477,1.1336704e-07,0,-9.621070855651423e-09,1.0
81,81,57.329906,178304.66,25829.812,180165.84,-8.24272,49.851636554518336,-0.038264625,-1.0268669e-06,0.10747752,0.0022090992,1.0,42,0.0202463,1.1237591e-07,0,-9.739540509759731e-09,1.0
82,82,49.60321,179485.39,28602.51,181750.12,-9.054432,50.53734058703412,-0.038305838,-1.1401078e-06,0.11217762,0.0027782097,1.0,42,0.020237654,1.1134878e-07,0,-9.921349029773473e-09,1.0
83,83,42.92585,182409.27,31596.812,185125.62,-9.827223,51.506451726396335,-0.03826429,-1.1088491e-06,0.11734321,0.00341831,1.0,43,0.020236121,1.09310214e-07,0,-1.0011565001319253e-08,1.0
84,84,37.1518,184765.86,35029.926,188057.22,-10.735343,52.15016957031912,-0.038305353,-1.1075084e-06,0.122292854,0.004243259,1.0,43,0.020277902,1.0782836e-07,0,-1.0258967656806166e-08,1.0
85,85,32.150223,186575.17,39431.582,190696.47,-11.933524,52.78938224064768,-0.03827733,-1.0765385e-06,0.12554283,0.005367784,1.0,43,0.020253796,1.06209605e-07,0,-1.0605024969896546e-08,1.0
86,86,27.835518,188989.86,44099.355,194066.8,-13.134517,53.51634598188684,-0.03828255,-1.1314854e-06,0.1296548,0.006695,1.0,43,0.020262426,1.04409544e-07,0,-1.0865824963514193e-08,1.0
87,87,24.082958,191537.1,48996.9,197704.72,-14.349061,54.21840521521517,-0.038279902,-1.1348282e-06,0.13487819,0.00828409,1.0,43,0.02024424,1.0239635e-07,0,-1.1179522091414472e-08,1.0
88,88,20.833313,194896.67,54048.812,202252.28,-15.499777,54.87277404633642,-0.03828281,-1.0840994e-06,0.14134343,0.010093949,1.0,43,0.020265512,1.0019918e-07,0,-1.1119277959754943e-08,1.0
89,89,18.021912,198199.56,59891.668,207050.9,-16.813694,55.61870485510008,-0.03830581,-1.1498662e-06,0.14745274,0.012337621,1.0,43,0.020250576,9.7804815e-08,0,-1.1567369473902763e-08,1.0
90,90,15.604198,202030.3,65792.81,212473.38,-18.038261,56.27399352620705,-0.03827517,-1.0834106e-06,0.15502445,0.014864424,1.0,43,0.020240556,9.526161e-08,0,-1.1469344219543289e-08,1.0
91,91,13.500899,206504.92,72669.77,218918.2,-19.38714,57.020995428349124,-0.038269218,-1.0528224e-06,0.16221972,0.017875059,1.0,43,0.020248009,9.2491206e-08,0,-1.1631163617539562e-08,1.0
92,92,11.686608,211732.69,79799.35,226271.22,-20.650787,57.611873989750165,-0.038278766,-1.0771719e-06,0.17066023,0.021226207,1.0,43,0.020274295,8.960174e-08,0,-1.1859889300985236e-08,1.0
93,93,10.113269,216741.75,87374.055,233690.42,-21.955605,58.28553602172178,-0.038283985,-1.0664824e-06,0.18011343,0.025178466,1.0,43,0.020239923,8.660998e-08,0,-1.2481567688996936e-08,1.0
94,94,8.748621,222683.89,95391.12,242255.2,-23.188845,59.05241064479924,-0.03827923,-1.1281243e-06,0.19070962,0.02956938,1.0,43,0.020237533,8.3538076e-08,0,-1.2984219821386015e-08,1.0
95,95,7.570237,229059.61,104929.45,251949.39,-24.611946,59.927976606442826,-0.038275655,-1.0825727e-06,0.200361,0.03475213,1.0,43,0.020236082,8.0318046e-08,0,-1.2414647511627525e-08,1.0
96,96,6.554112,236105.03,114573.49,262436.03,-25.885672,60.46431913852575,-0.03827964,-1.075254e-06,0.21194449,0.040396478,1.0,43,0.020233015,7.7096935e-08,0,-1.3454799762446691e-08,1.0
97,97,5.669445,243935.05,124504.445,273871.62,-27.039766,61.07411748750019,-0.038262427,-1.0689595e-06,0.22547309,0.04659833,1.0,43,0.020234678,7.3883804e-08,0,-1.268538395880429e-08,1.0
98,98,4.907347,251991.61,135855.11,286280.25,-28.33024,61.76652538703638,-0.038259614,-1.159467e-06,0.2387247,0.0537609,1.0,43,0.020212721,7.060466e-08,0,-1.4023975812081306e-08,1.0
99,99,4.245922,261639.55,148029.17,300612.53,-29.500107,62.554303264507325,-0.038288876,-9.763759e-07,0.25322163,0.06140182,1.0,43,0.020237386,6.73205e-08,0,-1.3344905172707575e-08,1.0
100,100,3.6747382,271212.28,160964.52,315381.78,-30.689137,63.453969307243824,-0.038300417,-1.0870335e-06,0.26906896,0.07008913,1.0,43,0.020237174,6.4167224e-08,0,-1.342389874578763e-08,1.0
101,101,3.180988,281528.2,174822.22,331392.4,-31.839285,64.48219370274455,-0.038270913,-1.0913543e-06,0.28619462,0.079647034,1.0,43,0.020245101,6.109102e-08,0,-1.4916434643370852e-08,1.0
102,102,2.752818,292853.5,190160.2,349176.28,-32.997097,65.66113783870242,-0.038273096,-1.0068451e-06,0.30403456,0.090172224,1.0,43,0.020235468,5.795201e-08,0,-1.4980293209089742e-08,1.0
103,103,2.3804083,303953.53,206255.56,367326.97,-34.159874,67.01601704975474,-0.038271744,-1.0118051e-06,0.32416266,0.10220419,1.0,43,0.020244295,5.5112466e-08,0,-1.4126494385942144e-08,1.0
104,104,2.060257,316589.62,224566.72,388148.44,-35.349243,68.57230245697428,-0.03827815,-1.0439218e-06,0.34399596,0.1151459,1.0,43,0.020249404,5.2169227e-08,0,-1.457184695582292e-08,1.0
