True,index,freq,Re(Z),Im(Z),Z,Phase(Z),time,Ewe_meas,I_meas,Cs,Cp,cycle_number,I_Range,Ewe,I,Ns,(QQo),cycle
110,110,7000018.5,236.48686,1551.126,1569.0499,-81.33136,82.72248307571863,0.02663706,-1.1374582e-05,1.4657971e-05,1.4324995e-05,2.0,40,0.01002369,6.3883817e-06,0,-9.82972798174902e-09,2.0
111,111,6057573.0,332.92245,1758.995,1790.2236,-79.282486,83.27450043530553,0.026603486,-1.6546992e-05,1.4936776e-05,1.4420208e-05,2.0,40,0.014146692,7.902193e-06,0,-1.3696539460646307e-08,2.0
112,112,5242039.0,263.01752,1888.7222,1906.9478,-82.07215,83.69049320174963,0.026654985,-4.5366716e-05,1.6075031e-05,1.5769227e-05,2.0,40,0.019445525,1.0197199e-05,0,-1.9611597663870365e-08,2.0
113,113,4536288.0,179.7727,2197.3206,2204.6624,-85.32279,85.05849406667403,0.026581017,-4.5836987e-06,1.5967102e-05,1.5860935e-05,2.0,40,0.020785011,9.427753e-06,0,-1.8139042188506003e-08,2.0
114,114,3925558.5,287.12955,2549.4104,2565.5286,-83.57409,85.47448245980195,0.02655754,-9.718795e-06,1.5902995e-05,1.57038e-05,2.0,40,0.019032732,7.4186396e-06,0,-2.1517086939218032e-08,2.0
115,115,3397055.0,329.7791,2915.1943,2933.788,-83.5459,85.89050749290618,0.026614945,-2.4993811e-05,1.6071264e-05,1.5868198e-05,2.0,40,0.01994315,6.797747e-06,0,-2.2837148363940685e-08,2.0
116,116,2939708.2,404.65497,3148.5896,3174.486,-82.67652,86.30748668601154,0.02654638,-2.2370446e-05,1.7194907e-05,1.691551e-05,2.0,40,0.021631436,6.814154e-06,0,-2.6948865445429565e-08,2.0
117,117,2543924.5,502.8054,3796.979,3830.1257,-82.45664,86.85949873892241,0.02652054,-1.5058531e-05,1.6476984e-05,1.6193027e-05,2.0,40,0.020895055,5.455449e-06,0,-2.982844865231095e-08,2.0
118,118,2201436.2,580.9483,4179.569,4219.751,-82.086754,87.41149623176898,0.026541742,1.8952114e-05,1.7297469e-05,1.696961e-05,2.0,40,0.02045334,4.847049e-06,0,-3.174340537258442e-08,2.0
119,119,1905053.1,389.36716,5062.457,5077.4087,-85.60188,88.13048277262715,0.02648415,-2.6077225e-06,1.6502574e-05,1.6405525e-05,2.0,41,0.019644912,3.8690823e-06,0,-3.0804927478207846e-08,2.0
120,120,1648567.4,812.7127,5861.088,5917.166,-82.10557,88.68349794551614,0.026596481,-1.6207549e-06,1.6471578e-05,1.616085e-05,2.0,41,0.019749667,3.3376903e-06,0,-3.0585741985800516e-08,2.0
121,121,1426616.2,623.72833,6775.6616,6804.3096,-84.7405,89.23550221175537,0.026569242,-1.965257e-06,1.6464983e-05,1.632663e-05,2.0,41,0.020251397,2.9762605e-06,0,-3.059539787115363e-08,2.0
122,122,1234551.2,645.9391,7929.1143,7955.3813,-85.34273,89.78750663800747,0.026572352,-2.9820073e-06,1.6258718e-05,1.6151529e-05,2.0,41,0.020781636,2.612274e-06,0,-2.9276952287643908e-08,2.0
123,123,1068345.5,535.2395,9361.982,9377.2705,-86.72787,90.33949698417564,0.026529184,-3.0232988e-07,1.5912581e-05,1.5860736e-05,2.0,41,0.02056552,2.1931241e-06,0,-2.8561291251541833e-08,2.0
124,124,924510.06,1427.6454,10715.981,10810.663,-82.41141,90.8914908503939,0.026575092,-1.1328626e-06,1.6064845e-05,1.578468e-05,2.0,41,0.02035736,1.8830814e-06,0,-2.9650007808646942e-08,2.0
125,125,800039.0,3358.6077,11564.367,12042.211,-73.80526,91.30750716352486,0.026526518,-5.6467848e-06,1.7202321e-05,1.5864207e-05,2.0,41,0.023425654,1.945295e-06,0,-2.95223245857973e-08,2.0
126,126,692334.1,888.2679,14587.01,14614.03,-86.515305,91.85948465639376,0.026545448,-4.974537e-06,1.5759344e-05,1.5701122e-05,2.0,41,0.021009969,1.4376574e-06,0,-2.9880556782774314e-08,2.0
127,127,599122.25,2420.4092,16066.451,16247.745,-81.43282,92.4114966559282,0.02652555,-5.3153167e-06,1.6534259e-05,1.6167336e-05,2.0,41,0.020624775,1.2693931e-06,0,-2.930761989692263e-08,2.0
128,128,518454.94,3084.891,17912.52,18176.219,-80.228386,92.9634980421688,0.026450092,2.4592814e-06,1.7137696e-05,1.6644039e-05,2.0,41,0.020624235,1.1346824e-06,0,-2.9888985981424004e-08,2.0
129,129,448662.03,3537.4058,20822.412,21120.75,-80.35838,93.5155074550712,0.026600711,-4.948468e-06,1.7036084e-05,1.6558202e-05,2.0,41,0.02014195,9.53657e-07,0,-2.979916110702854e-08,2.0
130,130,388258.97,3778.2175,24338.018,24629.535,-81.17587,94.06748662792961,0.026543846,-1.0136825e-06,1.6842767e-05,1.6446422e-05,2.0,41,0.020835891,8.459718e-07,0,-3.042330416974338e-08,2.0
131,131,335983.9,-694.2185,34366.535,34373.547,-91.15724,94.61949430746608,0.026525587,-3.5819698e-07,1.3783703e-05,1.377808e-05,2.0,41,0.020761933,6.04009e-07,0,-3.0182861546063855e-08,2.0
132,132,290751.2,8272.15,32108.492,33156.957,-75.552986,95.17150054706144,0.026540829,-3.8032272e-06,1.7048207e-05,1.5987081e-05,2.0,41,0.020665072,6.2324995e-07,0,-2.982111235008311e-08,2.0
133,133,251605.19,10293.442,35027.746,36508.875,-73.623764,95.72350427994388,0.026472729,1.1259617e-06,1.8058778e-05,1.6623246e-05,2.0,41,0.020344287,5.5724223e-07,0,-3.078789658393137e-08,2.0
134,134,217729.38,12674.379,40031.945,41990.434,-72.43187,96.27548769282294,0.026467213,-1.4345369e-06,1.8259816e-05,1.6596216e-05,2.0,41,0.020144783,4.79747e-07,0,-3.2086982995587355e-08,2.0
135,135,188418.58,15503.731,43368.8,46056.688,-70.32875,96.99450791362324,0.0265935,-9.1176526e-07,1.9476862e-05,1.7269844e-05,2.0,42,0.01992331,4.3258237e-07,0,-3.2149219067537476e-08,2.0
136,136,163051.14,18248.213,50714.93,53898.066,-70.21029,97.41149273343035,0.02657837,-4.818975e-07,1.9246885e-05,1.7040635e-05,2.0,42,0.021849828,4.053917e-07,0,-3.216292096833248e-08,2.0
137,137,141098.2,23092.078,56503.61,61040.168,-67.77099,97.96350763968076,0.02658778,-4.9921886e-07,1.9962845e-05,1.71058e-05,2.0,42,0.020424727,3.3461126e-07,0,-3.2123025429841296e-08,2.0
138,138,122105.11,34516.434,61612.52,70622.14,-60.741673,98.51550718586077,0.026573546,-4.7295745e-07,2.115521e-05,1.6101767e-05,2.0,42,0.020088935,2.8445663e-07,0,-3.225564528008995e-08,2.0
139,139,105663.59,38160.965,68837.14,78707.125,-60.99751,98.93150077897008,0.026412139,5.1622226e-07,2.188124e-05,1.6737456e-05,2.0,42,0.021476008,2.7285978e-07,0,-3.226414479240209e-08,2.0
140,140,91439.65,44756.52,71637.93,84469.75,-58.0045,99.48350251183729,0.026527414,-1.3640172e-07,2.4296436e-05,1.7475362e-05,2.0,42,0.020280724,2.4009452e-07,0,-3.232791543516712e-08,2.0
141,141,79127.08,54436.348,77082.664,94366.586,-54.769978,99.89948397161788,0.026460133,1.4576887e-07,2.6093858e-05,1.741066e-05,2.0,42,0.021245733,2.2514043e-07,0,-3.2323755636868115e-08,2.0
142,142,68475.36,65775.97,79933.22,103517.13,-50.549496,100.45150093114353,0.02665452,-7.7058684e-07,2.9077597e-05,1.7337587e-05,2.0,42,0.020309998,1.9619938e-07,0,-3.232328665390405e-08,2.0
143,143,59252.523,77472.87,82341.27,113058.086,-46.744858,100.86750193758053,0.026511446,-7.400752e-08,3.2620883e-05,1.7303246e-05,2.0,42,0.020943942,1.8524939e-07,0,-3.232836861344267e-08,2.0
144,144,51282.285,87052.336,86642.45,122821.11,-44.864796,101.28349811732187,0.026587352,-6.2288956e-07,3.5819707e-05,1.7825327e-05,2.0,42,0.021485766,1.7493545e-07,0,-3.2377493765820256e-08,2.0
145,145,44369.8,104327.19,81229.4,132220.94,-37.90441,101.69950451041223,0.026698137,-1.1725167e-06,4.4159016e-05,1.666654e-05,2.0,42,0.021952242,1.6602696e-07,0,-3.241224493418452e-08,2.0
146,146,38403.727,114166.18,78748.29,138691.06,-34.596706,102.25150402999134,0.026630372,-7.309152e-07,5.262664e-05,1.6966447e-05,2.0,42,0.020294607,1.463296e-07,0,-3.2519919086169185e-08,2.0
147,147,33226.32,122399.93,73712.87,142882.22,-31.057598,102.66748580973945,0.026573807,-7.2868033e-07,6.4982225e-05,1.729517e-05,2.0,42,0.020469505,1.4326139e-07,0,-3.256415489817558e-08,2.0
148,148,28754.086,131604.2,69813.41,148975.1,-27.945059,103.08350049619912,0.0265314,1.3440777e-07,7.92833e-05,1.7411334e-05,2.0,42,0.02057118,1.3808469e-07,0,-3.255687293963661e-08,2.0
149,149,24884.947,138227.55,63953.195,152305.17,-24.82838,103.49950262260973,0.026526034,-3.1278117e-07,0.00010000487,1.76326e-05,2.0,42,0.020599123,1.3524901e-07,0,-3.2618639391438327e-08,2.0
150,150,21553.963,149009.16,57719.633,159797.64,-21.174189,103.91649402907933,0.02658834,-1.1572735e-07,0.00012792913,1.6690748e-05,2.0,42,0.020519892,1.2841173e-07,0,-3.260946752162654e-08,2.0
151,151,18631.234,150402.1,50567.207,158675.23,-18.583338,104.33249868880375,0.026432317,6.898089e-07,0.00016893107,1.7156519e-05,2.0,42,0.020514026,1.292831e-07,0,-3.256814242971689e-08,2.0
152,152,16126.037,152370.38,45488.562,159015.53,-16.622438,104.7484838552482,0.02657459,-2.9154822e-07,0.00021696529,1.7754792e-05,2.0,42,0.02022105,1.27164e-07,0,-3.257795245510861e-08,2.0
153,153,13954.87,162805.4,45792.316,169122.84,-15.709713,105.16448422169196,0.026557373,-1.0045439e-07,0.0002490587,1.8259228e-05,2.0,42,0.020134836,1.19054505e-07,0,-3.26387416847314e-08,2.0
154,154,12080.609,162552.95,36104.375,166514.23,-12.522593,105.58050200142316,0.026660277,-1.1162681e-06,0.00036489795,1.7154907e-05,2.0,42,0.019802518,1.1892387e-07,0,-3.261187474209927e-08,2.0
155,155,10447.592,162309.17,29927.338,165045.19,-10.44713,105.99648847451317,0.026522644,-2.835389e-07,0.00050902116,1.6736563e-05,2.0,42,0.019231768,1.16524255e-07,0,-3.246804627081919e-08,2.0
156,156,9045.586,163425.98,25872.113,165461.23,-8.995889,106.4282646550273,0.026621895,-6.2083933e-07,0.0006800667,1.662734e-05,2.0,42,0.02184362,1.3201654e-07,0,-3.245658532174536e-08,2.0
157,157,7827.7437,163860.53,23314.613,165510.86,-8.0978775,106.90892710458138,0.026552994,-2.1555694e-07,0.000872078,1.7304488e-05,2.0,42,0.021850966,1.3202134e-07,0,-3.2392670446864e-08,2.0
158,158,6770.8345,160311.61,18875.816,161419.05,-6.7153454,107.6224056717765,0.02659171,-4.3719578e-07,0.0012452949,1.7028411e-05,2.0,42,0.019844182,1.2293582e-07,0,-3.245114008241363e-08,2.0
159,159,5860.798,166137.34,16555.883,166960.22,-5.690839,108.22900018061046,0.02679871,-1.569044e-06,0.0016402537,1.612834e-05,2.0,42,0.02012688,1.2054895e-07,0,-3.268369888909205e-08,2.0
160,160,5071.625,162760.44,13588.771,163326.72,-4.7725215,108.90967807962443,0.026521396,1.4744687e-07,0.0023093664,1.5985961e-05,2.0,42,0.020022145,1.2258953e-07,0,-3.2636428544985286e-08,2.0
161,161,4388.5933,163610.33,13317.232,164151.42,-4.653391,109.58981712524837,0.026543362,-2.0847898e-07,0.002723208,1.7923363e-05,2.0,42,0.020052109,1.2215617e-07,0,-3.266172176912817e-08,2.0
162,162,3798.7827,164607.94,9939.838,164907.77,-3.4556055,110.26981105087907,0.026575446,-1.4777776e-08,0.0042149886,1.531344e-05,2.0,42,0.020132305,1.2208221e-07,0,-3.262580501157153e-08,2.0
163,163,3286.0488,164429.12,10370.913,164755.86,-3.6089926,110.94971468318545,0.026485268,2.318187e-07,0.0046701315,1.8504672e-05,2.0,42,0.020098431,1.2198917e-07,0,-3.274824921276043e-08,2.0
164,164,2844.088,165676.11,7104.52,165828.38,-2.4554522,111.6298230621469,0.02656954,-5.4263037e-08,0.007876664,1.4457532e-05,2.0,42,0.020231502,1.2200266e-07,0,-3.266408833090652e-08,2.0
165,165,2460.7852,164314.16,9706.348,164600.6,-3.3806415,112.30971197444887,0.026642445,-4.4613543e-07,0.0066633187,2.3170716e-05,2.0,42,0.020165838,1.2251377e-07,0,-3.2719696081476675e-08,2.0
166,166,2129.3164,164989.67,7561.6904,165162.86,-2.6241035,112.98984976674546,0.026553443,-2.6081557e-07,0.009884644,2.071925e-05,2.0,42,0.02020119,1.2231072e-07,0,-3.2705057696027694e-08,2.0
167,167,1843.2289,161386.7,6989.465,161537.98,-2.479862,113.66997411902412,0.02657824,-7.812011e-07,0.012353698,2.3127861e-05,2.0,42,0.02001028,1.2387352e-07,0,-3.277256166716747e-08,2.0
168,168,1594.4913,165663.05,6014.3525,165772.19,-2.0791948,114.34981383134436,0.02649803,2.439251e-07,0.016596217,2.1845577e-05,2.0,42,0.020217627,1.2196031e-07,0,-3.2775147174865576e-08,2.0
169,169,1380.4436,166350.34,5619.142,166445.22,-1.9346564,115.0296923703063,0.026457936,3.9124987e-07,0.020517832,2.338454e-05,2.0,42,0.020302406,1.219765e-07,0,-3.26825773790183e-08,2.0
170,170,1194.6187,166364.64,6463.039,166490.14,-2.2247438,115.70981877594022,0.026576675,-4.602905e-07,0.02061361,3.1063515e-05,2.0,42,0.02029774,1.2191556e-07,0,-3.281922105906294e-08,2.0
171,171,1033.3434,165099.47,5852.6323,165203.17,-2.0302353,116.39010507488274,0.026595065,-2.0102877e-07,0.026316263,3.3028584e-05,2.0,42,0.020218816,1.2238758e-07,0,-3.290210250887999e-08,2.0
172,172,894.71045,166896.0,7145.95,167048.9,-2.4517238,117.0698119338631,0.026491063,3.4748489e-09,0.024893023,4.5552304e-05,2.0,42,0.020298976,1.2151517e-07,0,-3.2813713947199315e-08,2.0
173,173,774.2569,165922.36,5217.7812,166004.38,-1.8011941,117.74994657948264,0.026541425,9.250305e-08,0.039395735,3.892081e-05,2.0,42,0.020238139,1.2191329e-07,0,-3.267165641004372e-08,2.0
174,174,669.7856,166828.0,5530.7417,166919.66,-1.8987948,118.42984927845828,0.02651575,1.8357976e-07,0.04296363,4.7168578e-05,2.0,42,0.020285768,1.2153014e-07,0,-3.278038585951926e-08,2.0
175,175,579.81464,166551.22,5635.7725,166646.55,-1.9380393,119.10984928409744,0.02657513,-2.6249188e-07,0.048705444,5.570469e-05,2.0,42,0.020239541,1.214519e-07,0,-3.2808852729640056e-08,2.0
176,176,501.44418,165040.47,6114.865,165153.7,-2.1218784,119.7871911295515,0.02657742,-1.557699e-07,0.05190517,7.115539e-05,2.0,42,0.020151624,1.220174e-07,0,-3.275232329746736e-08,2.0
177,177,434.02762,167437.1,7059.0356,167585.83,-2.414122,120.467204148561,0.026568739,-1.803549e-07,0.051946633,9.21666e-05,2.0,42,0.020301525,1.2114106e-07,0,-3.263867912941522e-08,2.0
178,178,375.6009,166599.44,7692.0693,166776.92,-2.6435282,121.14643780744518,0.026508745,6.940788e-08,0.055087153,0.00011718305,2.0,42,0.020203691,1.2114201e-07,0,-3.260126307907147e-08,2.0
179,179,325.10385,167335.6,7865.755,167520.36,-2.691257,121.82571749309864,0.026511706,1.3254694e-07,0.06223828,0.00013721552,2.0,42,0.020246834,1.2086193e-07,0,-3.2676038895470917e-08,2.0
180,180,281.3503,167117.83,8061.894,167312.17,-2.7618518,122.50178827186755,0.026507683,-2.1296495e-08,0.070167445,0.00016291263,2.0,42,0.02019429,1.2069827e-07,0,-3.2568647109289884e-08,2.0
181,181,243.36427,167554.25,10644.958,167892.05,-3.6351962,123.18511566429515,0.026633075,-5.8545135e-07,0.061435495,0.0002469716,2.0,42,0.020228766,1.2048675e-07,0,-3.256922005447116e-08,2.0
182,182,210.60631,167551.22,11920.699,167974.73,-4.069543,123.8621959631273,0.026674585,-5.809812e-07,0.06339384,0.00031927327,2.0,42,0.020201068,1.2026254e-07,0,-3.269310103766641e-08,2.0
183,183,182.27473,169637.2,12462.053,170094.34,-4.2015705,124.5342691950209,0.0266052,-4.3458795e-07,0.07006547,0.00037610013,2.0,42,0.020276949,1.1921001e-07,0,-3.263215431030808e-08,2.0
184,184,157.72879,169647.22,12292.424,170091.98,-4.144337,125.22264706778151,0.026485547,8.7846516e-08,0.08208647,0.00042872518,2.0,42,0.020241901,1.1900561e-07,0,-3.27110256144692e-08,2.0
185,185,136.52892,172431.95,19333.75,173512.45,-6.3975086,125.89450240632868,0.026681274,-4.6345684e-07,0.060294736,0.0007486008,2.0,42,0.020363886,1.17362674e-07,0,-3.26123899174606e-08,2.0
186,186,118.14758,169985.44,13608.507,170529.3,-4.5771604,126.58289462569519,0.026519513,2.530515e-07,0.09898852,0.00063038775,2.0,42,0.020174261,1.1830378e-07,0,-3.266863810801467e-08,2.0
187,187,102.25773,171443.55,16635.572,172248.75,-5.542195,127.24934380399645,0.02661867,-4.891594e-07,0.093559146,0.00087266904,2.0,42,0.020235607,1.1747898e-07,0,-3.266732474552095e-08,2.0
188,188,88.4436,173182.81,19105.67,174233.5,-6.2954597,127.93830874338164,0.02649341,3.2997298e-07,0.094187096,0.0011325376,2.0,42,0.020254783,1.16250796e-07,0,-3.2701128568220185e-08,2.0
189,189,76.54279,173593.16,22634.76,175062.61,-7.4288683,128.60571744180197,0.02656723,9.3061566e-08,0.09186286,0.0015356948,2.0,42,0.020236272,1.1559448e-07,0,-3.2704498355027507e-08,2.0
190,190,66.250786,174610.06,24401.86,176306.9,-7.9555945,129.27397563352133,0.026589159,-3.7480135e-07,0.09844784,0.001885877,2.0,42,0.020226454,1.1472299e-07,0,-3.2706544172813895e-08,2.0
191,191,57.329906,175843.27,27596.5,177995.56,-8.919139,129.92865289130714,0.026550237,-4.2415792e-07,0.100596964,0.0024181018,2.0,42,0.020246154,1.1374527e-07,0,-3.2837364078825047e-08,2.0
192,192,49.60321,177753.42,29017.246,180106.3,-9.271434,130.6143883371551,0.026474163,4.6202507e-07,0.11057429,0.0028701774,2.0,42,0.020206235,1.1219061e-07,0,-3.290712249137309e-08,2.0
193,193,42.92585,178870.48,32020.592,181713.97,-10.149328,131.32245173081174,0.026338004,8.3489977e-07,0.115790226,0.003595456,2.0,42,0.020207532,1.1120516e-07,0,-3.263853461773832e-08,2.0
194,194,37.1518,181208.89,34456.945,184455.8,-10.766285,132.20717494617566,0.026432727,-7.8603063e-10,0.12432645,0.004338429,2.0,43,0.020111298,1.09030445e-07,0,-3.2663392580174825e-08,2.0
195,195,32.150223,184618.28,40869.73,189087.92,-12.4825,132.8463617231755,0.026473064,1.3460397e-08,0.121125154,0.0056586172,2.0,43,0.02027235,1.07211235e-07,0,-3.284819820514172e-08,2.0
196,196,27.835518,186877.23,45040.633,192228.4,-13.550829,133.5743316244043,0.026565515,-1.3320432e-07,0.12694521,0.0069693164,2.0,43,0.02024142,1.052988e-07,0,-3.285953913461606e-08,2.0
197,197,24.082958,190337.56,49496.97,196668.1,-14.576811,134.2763786977448,0.026590072,-1.01871336e-07,0.1335155,0.008457093,2.0,43,0.020279985,1.0311782e-07,0,-3.2998086400061605e-08,2.0
198,198,20.833313,194377.67,54278.04,201813.73,-15.601865,134.93073811555223,0.026638458,-9.833295e-08,0.1407465,0.010180861,2.0,43,0.020340629,1.0078912e-07,0,-3.28484632767828e-08,2.0
199,199,18.021912,196686.95,60343.758,205735.58,-17.056067,135.67673028432182,0.026959687,-4.2026724e-07,0.14634804,0.012590206,2.0,43,0.02023105,9.83352e-08,0,-3.2967364259262846e-08,2.0
200,200,15.604198,200964.23,66476.2,211673.6,-18.303505,136.3320151687658,0.026614703,-1.0351029e-07,0.15343077,0.015132529,2.0,43,0.020254271,9.568634e-08,0,-3.270002235604904e-08,2.0
201,201,13.500899,205103.25,72922.59,217681.06,-19.57238,137.07900323090144,0.02659691,-8.079969e-08,0.1616573,0.018141711,2.0,43,0.020224927,9.2910824e-08,0,-3.267254885010661e-08,2.0
202,202,11.686608,208716.39,81582.164,224094.14,-21.34932,137.66988029898494,0.026379682,1.2601704e-07,0.1669308,0.022124114,2.0,43,0.020187235,9.0083724e-08,0,-3.266019811055602e-08,2.0
203,203,10.113269,216563.16,85860.06,232962.55,-21.626675,138.34353657093015,0.02655512,-2.4437512e-08,0.18328941,0.024897031,2.0,43,0.020232327,8.684798e-08,0,-3.301244035166739e-08,2.0
204,204,8.748621,223174.34,94551.16,242377.2,-22.960672,139.1113885807281,0.026542934,-8.311833e-08,0.19240382,0.029279511,2.0,43,0.020286836,8.369944e-08,0,-3.348877284687745e-08,2.0
205,205,7.570237,228739.75,104233.71,251369.33,-24.498133,139.98700971569633,0.02655511,-6.649744e-08,0.2016984,0.034681212,2.0,43,0.020239849,8.051837e-08,0,-3.2702349393616124e-08,2.0
206,206,6.554112,236695.23,113663.93,262572.12,-25.650885,140.52332627450232,0.026586104,-6.094145e-09,0.21364053,0.040034253,2.0,43,0.020297699,7.7303326e-08,0,-3.3376047718825556e-08,2.0
207,207,5.669445,242759.11,123243.72,272251.72,-26.915953,141.13313001013012,0.026713619,-2.396814e-07,0.22777958,0.04667702,2.0,43,0.020173572,7.409897e-08,0,-3.268930619463026e-08,2.0
208,208,4.907347,253904.42,133695.12,286952.7,-27.769358,141.82553150967578,0.026550125,-1.0230032e-07,0.24258156,0.05265848,2.0,43,0.02028711,7.069845e-08,0,-3.372543358999236e-08,2.0
209,209,4.245922,263483.28,142688.0,299638.62,-28.43753,142.61328690705705,0.026504561,2.6076489e-08,0.26270035,0.059571695,2.0,43,0.020195995,6.7401174e-08,0,-3.2619472347949396e-08,2.0
210,210,3.6747382,273639.22,156724.64,315342.72,-29.801573,143.51291054984904,0.02650241,-1.2736716e-07,0.27634805,0.06825986,2.0,43,0.020242823,6.419309e-08,0,-3.289527908934314e-08,2.0
211,211,3.180988,284317.75,169088.17,330798.12,-30.740604,144.54222126535024,0.026525252,-7.0865404e-08,0.2958999,0.0773117,2.0,43,0.020237347,6.117733e-08,0,-3.398896928130175e-08,2.0
212,212,2.752818,296497.4,183287.98,348575.97,-31.723417,145.72116110802745,0.026552157,-2.984382e-08,0.3154341,0.0872131,2.0,43,0.02024554,5.8080712e-08,0,-3.33002832073108e-08,2.0
213,213,2.3804083,309927.66,197259.0,367377.56,-32.47544,147.07598034574767,0.026552046,-5.502828e-08,0.33894703,0.097719274,2.0,43,0.020286087,5.5218635e-08,0,-3.224823349282819e-08,2.0
