True,index,freq,Re(Z),Im(Z),Z,Phase(Z),time,Ewe_meas,I_meas,Cs,Cp,cycle_number,I_Range,Ewe,I,Ns,(QQo),cycle
0,0,7000018.5,209.83707,1202.2866,1220.4608,-80.09979,2.4684887838957366,-0.00060352293,4.8367325e-05,1.8910932e-05,1.8351911e-05,1.0,40,0.009974739,8.172929e-06,0,1.456110222451596e-08,1.0
1,1,6057573.0,192.22409,1380.7142,1394.0308,-82.07418,3.0204991567588877,-0.00047030597,1.6477568e-05,1.9029076e-05,1.866726e-05,1.0,40,0.0139889745,1.0034911e-05,0,1.5121280311404917e-08,1.0
2,2,5242039.0,227.5275,1631.321,1647.1117,-82.05993,3.4364863765367772,-0.0004883599,1.018897e-05,1.861146e-05,1.825632e-05,1.0,40,0.019299725,1.1717314e-05,0,1.4871560124965477e-08,1.0
3,3,4536288.0,232.08995,1887.654,1901.8684,-82.99058,4.804483268148033,-0.00055549,4.5887473e-06,1.8586477e-05,1.8309689e-05,1.0,40,0.019665826,1.0340266e-05,0,1.6326404416177965e-08,1.0
4,4,3925558.5,301.81082,2167.6309,2188.5413,-82.073364,5.220483261247864,-0.0005221951,4.551534e-06,1.8703951e-05,1.8348244e-05,1.0,40,0.01861373,8.505085e-06,0,2.0908861069579466e-08,1.0
5,5,3397055.0,344.1585,2473.0986,2496.9304,-82.07755,5.636502374341944,-0.00057533284,4.1092517e-05,1.8944193e-05,1.8584296e-05,1.0,40,0.019637031,7.864469e-06,0,2.1308026583865412e-08,1.0
6,6,2939708.2,394.69373,2781.5579,2809.4211,-81.923836,6.052486260799924,-0.00057400996,3.6292327e-05,1.9463807e-05,1.9079645e-05,1.0,40,0.021461956,7.639281e-06,0,1.9450097681758254e-08,1.0
7,7,2543924.5,525.81903,3171.8628,3215.1516,-80.58733,6.604501247027656,-0.0005747925,1.8933506e-05,1.9724295e-05,1.9196736e-05,1.0,40,0.020276347,6.306498e-06,0,1.946987480977845e-08,1.0
8,8,2201436.2,581.8655,3658.366,3704.35,-80.96277,7.156496819894528,-0.00058880355,3.6757472e-05,1.9761816e-05,1.9274234e-05,1.0,40,0.020939102,5.652571e-06,0,2.070129357470465e-08,1.0
9,9,1905053.1,580.1218,4239.572,4279.078,-82.20832,7.7084928727999795,-0.00059899513,7.1004783e-06,1.9705662e-05,1.9343479e-05,1.0,40,0.020692892,4.8358293e-06,0,2.7102698969820773e-08,1.0
10,10,1648567.4,793.42255,4944.0884,5007.3477,-80.882965,8.260494952352019,-0.0005335978,-2.0919233e-05,1.9526626e-05,1.9036372e-05,1.0,40,0.019924179,3.9789884e-06,0,2.1143780637759038e-08,1.0
11,11,1426616.2,627.21075,5739.3643,5773.534,-83.763336,8.979494319792138,-0.0005762458,-3.3619046e-06,1.9437892e-05,1.9208492e-05,1.0,41,0.019354934,3.3523547e-06,0,2.929538635515251e-08,1.0
12,12,1234551.2,739.45087,6680.965,6721.7617,-83.6842,9.531494346010732,-0.00054904347,2.220922e-06,1.9296202e-05,1.906268e-05,1.0,41,0.020662175,3.0739227e-06,0,2.928437883698128e-08,1.0
13,13,1068345.5,1222.932,7328.723,7430.057,-80.526436,10.083498398918891,-0.0005580798,3.8261223e-06,2.032732e-05,1.9776637e-05,1.0,41,0.020612802,2.7742456e-06,0,2.9638952810234146e-08,1.0
14,14,924510.06,1161.4203,8852.454,8928.316,-82.52563,10.635491918452317,-0.00049808563,1.4459317e-07,1.944665e-05,1.9117586e-05,1.0,41,0.02016313,2.2583351e-06,0,3.02595881242935e-08,1.0
15,15,800039.0,1494.808,7242.2056,7394.863,-78.33779,11.32348651115899,-0.00054943474,1.2004488e-06,2.74687e-05,2.6346295e-05,1.0,41,0.01904939,2.57603e-06,0,3.051637191989206e-08,1.0
16,16,692334.1,2217.9307,11127.402,11346.29,-78.727455,11.875486110715428,-0.0004505002,-3.1905713e-06,2.0659063e-05,1.986966e-05,1.0,41,0.020092892,1.7708777e-06,0,3.1185535672176144e-08,1.0
17,17,599122.25,2473.502,13098.546,13330.046,-79.30631,12.427492723596515,-0.00041655317,-6.896307e-06,2.0280639e-05,1.9582336e-05,1.0,41,0.020643804,1.5486671e-06,0,3.119171444691125e-08,1.0
18,18,518454.94,3034.7048,14723.981,15033.465,-78.35406,12.979479576490121,-0.00054669584,4.3531177e-06,2.0848935e-05,1.9999365e-05,1.0,41,0.020419223,1.3582513e-06,0,3.216288210370364e-08,1.0
19,19,448662.03,3557.907,16783.861,17156.826,-78.0314,13.531488376000198,-0.000709295,1.3358617e-05,2.1135325e-05,2.022641e-05,1.0,41,0.02023196,1.1792367e-06,0,3.192270368218273e-08,1.0
20,20,388258.97,4685.2764,18958.5,19528.863,-76.11845,14.08349421559251,-0.0005547075,7.0681776e-06,2.1621941e-05,2.0377396e-05,1.0,41,0.020934077,1.0719557e-06,0,3.319101225539277e-08,1.0
21,21,335983.9,4307.8022,15868.42,16442.746,-74.81194,14.635483201796887,-0.0005825433,3.8354333e-06,2.9851624e-05,2.7802676e-05,1.0,41,0.019735012,1.200226e-06,0,3.4401561265947105e-08,1.0
22,22,290751.2,7065.478,24607.88,25602.125,-73.980034,15.18750317467493,-0.00061667664,2.6138425e-06,2.224459e-05,2.0550426e-05,1.0,41,0.0205365,8.021404e-07,0,3.403843261120996e-08,1.0
23,23,251605.19,9208.9,27103.703,28625.418,-71.23402,15.739491547545185,-0.00047213165,-1.8501336e-07,2.3338443e-05,2.0923075e-05,1.0,41,0.020372404,7.116893e-07,0,3.3998179812758486e-08,1.0
24,24,217729.38,11587.148,30533.148,32657.85,-69.218544,16.291494987119222,-0.00059154246,1.0060696e-05,2.3940405e-05,2.0926642e-05,1.0,41,0.020237587,6.1968524e-07,0,3.364223284706864e-08,1.0
25,25,188418.58,14002.888,35034.59,37729.344,-68.21403,16.843495013337815,-0.0005598871,4.9992946e-06,2.411012e-05,2.0789064e-05,1.0,41,0.020707289,5.4883776e-07,0,3.3313879941369846e-08,1.0
26,26,163051.14,18634.104,38405.723,42687.58,-64.11777,17.39549834621721,-0.0005807919,1.3028664e-06,2.54156e-05,2.0572601e-05,1.0,41,0.020386571,4.775762e-07,0,3.3456066245393425e-08,1.0
27,27,141098.2,22301.508,41297.96,46934.836,-61.6303,17.947494879103033,-0.00059266033,3.7125276e-06,2.7313039e-05,2.1146408e-05,1.0,41,0.020063166,4.2746854e-07,0,3.392258828471986e-08,1.0
28,28,122105.11,23743.38,45136.86,51000.824,-62.254246,18.666504433233058,-0.0005341754,3.6778013e-07,2.8877192e-05,2.2618471e-05,1.0,42,0.018710189,3.6686052e-07,0,3.3454896285043584e-08,1.0
29,29,105663.59,31828.945,50309.332,59532.434,-57.6799,19.082502026314614,-0.00065993954,1.4843558e-06,2.9939616e-05,2.1381395e-05,1.0,42,0.0201024,3.376714e-07,0,3.359429361967169e-08,1.0
30,30,91439.65,38210.62,54227.03,66337.19,-54.829884,19.498481352784438,-0.00057741953,9.703028e-07,3.2097392e-05,2.1448024e-05,1.0,42,0.021272875,3.2067797e-07,0,3.361904507029647e-08,1.0
31,31,79127.08,44715.137,55032.13,70908.24,-50.90518,20.05048975229147,-0.00060367165,1.1578578e-06,3.654927e-05,2.201496e-05,1.0,42,0.020158667,2.842923e-07,0,3.3717645719309154e-08,1.0
32,32,68475.36,52476.883,56380.09,77022.97,-47.053535,20.466479692055145,-0.00065787137,1.2683048e-06,4.1224943e-05,2.2088747e-05,1.0,42,0.020987386,2.7248217e-07,0,3.381009874439098e-08,1.0
33,33,59252.523,61122.45,57202.36,83714.18,-43.10249,20.882499605155317,-0.0005491366,7.8852173e-07,4.695689e-05,2.1924472e-05,1.0,42,0.021708699,2.5931925e-07,0,3.3848633912009036e-08,1.0
34,34,51282.285,68118.21,58716.715,89931.88,-40.760765,21.43448067139252,-0.00064358086,1.6929573e-06,5.28556e-05,2.2531347e-05,1.0,42,0.020283388,2.2554168e-07,0,3.394016428669448e-08,1.0
35,35,44369.8,77347.9,52832.617,93669.54,-34.3351,21.850483811140293,-0.000565104,7.1569764e-07,6.789386e-05,2.1599217e-05,1.0,42,0.02065657,2.2052602e-07,0,3.393168997954632e-08,1.0
36,36,38403.727,85086.5,51731.434,99578.38,-31.29903,22.266483190906,-0.00046844254,-2.3120315e-07,8.0111015e-05,2.1620768e-05,1.0,42,0.020967776,2.1056555e-07,0,3.405917509154695e-08,1.0
37,37,33226.32,90198.86,48967.13,102633.4,-28.496635,22.682497557339957,-0.0006005974,1.1777869e-06,9.782126e-05,2.2267175e-05,1.0,42,0.021148885,2.060624e-07,0,3.41185240764508e-08,1.0
38,38,28754.086,97029.65,45639.777,107227.52,-25.190857,23.098500750405947,-0.00060588884,1.2802251e-06,0.00012127661,2.1971086e-05,1.0,42,0.021286132,1.9851369e-07,0,3.4184621942255094e-08,1.0
39,39,24884.947,101925.51,41404.926,110014.44,-22.108334,23.514485383493593,-0.00059627485,1.311888e-06,0.00015446547,2.1879432e-05,1.0,42,0.021368548,1.9423403e-07,0,3.4348367583270685e-08,1.0
40,40,21553.963,104972.51,37936.285,111617.16,-19.86948,23.931490256654797,-0.00070633256,1.3530497e-06,0.00019464272,2.2484637e-05,1.0,42,0.021318868,1.9099991e-07,0,3.450750836897626e-08,1.0
41,41,18631.234,108551.625,33438.242,113585.086,-17.120926,24.34748294306337,-0.000492552,-1.1293283e-07,0.00025546714,2.2140086e-05,1.0,42,0.021231078,1.8691783e-07,0,3.438977339970744e-08,1.0
42,42,16126.037,110868.734,29229.201,114656.98,-14.769281,24.763483309507137,-0.0005297969,5.920279e-07,0.00033765682,2.1943628e-05,1.0,42,0.021011146,1.8325223e-07,0,3.4444781438720935e-08,1.0
43,43,13954.87,107323.37,27442.605,110776.36,-14.343215,25.17950151595869,-0.00060031796,4.6684807e-08,0.00041559373,2.550501e-05,1.0,42,0.0204263,1.8439222e-07,0,3.442695009603902e-08,1.0
44,44,12080.609,112324.836,20093.066,114107.84,-10.142002,25.59549857568345,-0.00061848393,1.0408937e-06,0.0006556696,2.0330426e-05,1.0,42,0.02035224,1.783597e-07,0,3.449292839012605e-08,1.0
45,45,10447.592,115710.07,18827.127,117231.74,-9.24158,26.011486675444758,-0.00057376776,5.4136797e-07,0.00080913294,2.0868803e-05,1.0,42,0.02002521,1.708173e-07,0,3.445504635437895e-08,1.0
46,46,9045.586,115973.305,16005.091,117072.5,-7.8575664,26.58426755599794,-0.0005427832,6.3840514e-07,0.0010993229,2.0546213e-05,1.0,42,0.020310136,1.734834e-07,0,3.4732783381078705e-08,1.0
47,47,7827.7437,115419.95,13589.924,116217.26,-6.715275,27.064935658854665,-0.0005495651,5.359669e-07,0.0014961204,2.0457817e-05,1.0,42,0.020282282,1.745204e-07,0,3.493349479759603e-08,1.0
48,48,6770.8345,116337.58,11910.628,116945.695,-5.845568,27.603413897712016,-0.0005983989,9.0977335e-07,0.001973528,2.047124e-05,1.0,42,0.020398889,1.7443044e-07,0,3.495314931652259e-08,1.0
49,49,5860.798,116544.53,10315.3125,117000.14,-5.0580473,28.208982859854586,-0.00061157154,8.7196435e-07,0.0026325765,2.0463174e-05,1.0,42,0.020463783,1.7490392e-07,0,3.490817382158065e-08,1.0
50,50,5071.625,115921.23,7663.2407,116174.25,-3.782167,28.88971798554121,-0.0005279337,5.773154e-07,0.0040950626,1.7818278e-05,1.0,42,0.020490479,1.7637711e-07,0,3.514958429933637e-08,1.0
51,51,4388.5933,115610.11,7449.506,115849.87,-3.68684,29.56984815117903,-0.0005216548,5.9463696e-07,0.004868188,2.0129417e-05,1.0,42,0.020487277,1.7684333e-07,0,3.541032394424508e-08,1.0
52,52,3798.7827,116427.555,5768.9575,116570.39,-2.8366723,30.249821170131327,-0.0005614149,1.0811251e-06,0.0072623696,1.7786748e-05,1.0,42,0.020600347,1.7672023e-07,0,3.558138315045925e-08,1.0
53,53,3286.0488,115449.56,5683.4395,115589.375,-2.8183253,30.92969200243533,-0.0005204437,4.78044e-07,0.00852187,2.0602576e-05,1.0,42,0.020535853,1.7766212e-07,0,3.576971306782618e-08,1.0
54,54,2844.088,117644.33,5599.8657,117777.53,-2.72522,31.609834941395093,-0.00060646643,1.2215589e-06,0.009993084,2.2590708e-05,1.0,42,0.020840064,1.7694431e-07,0,3.612022012896136e-08,1.0
55,55,2460.7852,116495.875,4775.1987,116593.7,-2.3472562,32.28967966703203,-0.00049480645,4.8344555e-07,0.01354425,2.271892e-05,1.0,42,0.020737097,1.7785777e-07,0,3.6245557498637066e-08,1.0
56,56,2129.3164,116073.72,3817.7815,116136.484,-1.8838369,32.96983748600178,-0.00061110576,1.0824293e-06,0.019578023,2.1156979e-05,1.0,42,0.020719685,1.7840806e-07,0,3.644044438644794e-08,1.0
57,57,1843.2289,116212.27,4023.2344,116281.89,-1.982771,33.64995549162268,-0.0006224152,1.6978033e-06,0.02146177,2.5691652e-05,1.0,42,0.020730572,1.782786e-07,0,3.663884418529781e-08,1.0
58,58,1594.4913,116003.59,3908.0588,116069.41,-1.9295145,34.32981707059662,-0.0005020915,6.251829e-07,0.025540939,2.8954999e-05,1.0,42,0.020714065,1.7846274e-07,0,3.6705296666393905e-08,1.0
59,59,1380.4436,116094.44,3044.6475,116134.35,-1.5022725,35.009709822894365,-0.00053508824,1.2388806e-06,0.037867308,2.6026579e-05,1.0,42,0.020736616,1.7855713e-07,0,3.69793439113363e-08,1.0
60,60,1194.6187,116581.82,3768.8384,116642.73,-1.8516039,35.68984348185768,-0.000495589,6.3151555e-07,0.035349503,3.6904814e-05,1.0,42,0.020797156,1.7829792e-07,0,3.7017905479018705e-08,1.0
61,61,1033.3434,115542.74,4006.9985,115612.2,-1.9862099,36.370088500814745,-0.0005403424,5.1957863e-07,0.0384376,4.6172914e-05,1.0,42,0.02070808,1.7911674e-07,0,3.703372896808668e-08,1.0
62,62,894.71045,114960.09,3230.2646,115005.47,-1.609531,37.049827733120765,-0.00056201115,1.071627e-06,0.055068027,4.3444896e-05,1.0,42,0.020678649,1.7980578e-07,0,3.735691766325229e-08,1.0
63,63,774.2569,117296.28,4470.3667,117381.44,-2.1825862,37.72993632539874,-0.0005418143,6.6150216e-07,0.04598243,6.669287e-05,1.0,42,0.020887963,1.7794946e-07,0,3.7739810926450324e-08,1.0
64,64,669.7856,116957.62,2849.5225,116992.33,-1.3956621,38.40984003771155,-0.00049696775,5.681901e-07,0.08338967,4.9469974e-05,1.0,42,0.020848257,1.7820192e-07,0,3.7756933591107336e-08,1.0
65,65,579.81464,115656.97,2960.776,115694.86,-1.4664307,39.08980239000812,-0.00054431095,1.2861883e-06,0.09270976,6.071673e-05,1.0,42,0.02070466,1.7895921e-07,0,3.788571326636989e-08,1.0
66,66,501.44418,116751.84,5008.607,116859.23,-2.4564595,39.76718015546794,-0.00042301838,-8.406134e-08,0.06336954,0.00011640951,1.0,42,0.02079425,1.7794274e-07,0,3.806802348468056e-08,1.0
67,67,434.02762,117005.875,5116.4336,117117.69,-2.503835,40.447219734458486,-0.0005913188,9.3938866e-07,0.071669675,0.0001367808,1.0,42,0.020775083,1.7738638e-07,0,3.8378466588647616e-08,1.0
68,68,375.6009,117217.914,5661.2324,117354.55,-2.7650454,41.12645144670387,-0.00053674646,9.868826e-07,0.074848406,0.00017418255,1.0,42,0.020831624,1.7751016e-07,0,3.833587878861857e-08,1.0
69,69,325.10385,116107.0,5596.691,116241.81,-2.759685,41.80569761235529,-0.00063446997,1.224353e-06,0.08747152,0.00020277042,1.0,42,0.020677358,1.7788227e-07,0,3.858635804236066e-08,1.0
70,70,281.3503,117947.14,5671.451,118083.414,-2.7529292,42.48278183117509,-0.0005424664,5.5142743e-07,0.09974211,0.00023008544,1.0,42,0.020838523,1.7647291e-07,0,3.8882849237641777e-08,1.0
71,71,243.36427,117596.1,5878.7676,117742.95,-2.8619008,43.16609554362367,-0.0005462114,1.2442817e-06,0.11124411,0.00027731908,1.0,42,0.020767441,1.7637949e-07,0,3.885746896095495e-08,1.0
72,72,210.60631,118503.58,7271.0264,118726.43,-3.5110967,43.84319282908109,-0.0005381811,5.02257e-07,0.1039329,0.00038980704,1.0,42,0.02081265,1.752992e-07,0,3.893188999316699e-08,1.0
73,73,182.27473,118446.76,8263.7705,118734.68,-3.9909337,44.515268781018676,-0.0005387028,8.004453e-07,0.10566116,0.0005118194,1.0,42,0.020799663,1.7517766e-07,0,3.909981833677535e-08,1.0
74,74,157.72879,117330.82,9305.057,117699.22,-4.5344176,45.203627053751916,-0.00048904924,7.775362e-07,0.10844016,0.0006777679,1.0,42,0.020622771,1.7521587e-07,0,3.911352031941442e-08,1.0
75,75,136.52892,117682.59,11434.125,118236.766,-5.54948,45.8755354056193,-0.0006925264,1.6985481e-06,0.10195125,0.0009534399,1.0,42,0.020620309,1.7439845e-07,0,3.947289806508082e-08,1.0
76,76,118.14758,120421.12,12668.034,121085.61,-6.0053015,46.56389831833076,-0.00067266496,1.6449078e-06,0.10633741,0.0011639101,1.0,42,0.020866625,1.7232952e-07,0,3.976332741699531e-08,1.0
77,77,102.25773,119782.63,13193.947,120507.09,-6.285738,47.2303595499543,-0.0005117427,7.041532e-07,0.11796393,0.0014140784,1.0,42,0.020734442,1.7205993e-07,0,3.981343523064634e-08,1.0
78,78,88.4436,120770.5,15240.31,121728.305,-7.1922703,47.920279289392056,-0.000513699,5.5254475e-07,0.11807553,0.0018508206,1.0,42,0.02072711,1.7027354e-07,0,3.989214181981539e-08,1.0
79,79,76.54279,121745.37,16308.196,122832.78,-7.6295424,48.58672244109766,-0.00061354646,6.354265e-07,0.12749991,0.0022474662,1.0,42,0.020747859,1.6891141e-07,0,4.0075493277101e-08,1.0
80,80,66.250786,122533.625,17824.543,123823.27,-8.2765665,49.254990099492716,-0.00057341374,7.0303537e-07,0.13477542,0.0027928199,1.0,42,0.020730397,1.6741923e-07,0,4.0209952358462946e-08,1.0
81,81,57.329906,123988.53,20457.38,125664.875,-9.369059,49.90963423727226,-0.00047051065,7.676644e-07,0.13570282,0.0035963433,1.0,42,0.020780275,1.6536264e-07,0,4.0320990132705364e-08,1.0
82,82,49.60321,124800.56,23213.146,126941.055,-10.5367155,50.594367043086095,-0.00057924545,9.978711e-07,0.13822173,0.004622109,1.0,42,0.020736717,1.6335706e-07,0,4.039353553995322e-08,1.0
83,83,42.92585,126859.98,25683.27,129433.7,-11.445047,51.30242022339371,-0.00062901084,1.1004951e-06,0.14436135,0.005684036,1.0,42,0.02077806,1.6053052e-07,0,4.0656988465127974e-08,1.0
84,84,37.1518,128388.766,28304.297,131471.7,-12.432431,51.94616646729992,-0.00064686005,1.3131939e-06,0.15135191,0.0070150066,1.0,42,0.020768888,1.5797231e-07,0,4.092929826342306e-08,1.0
85,85,32.150223,130767.02,31678.729,134549.45,-13.617739,52.585364097642014,-0.00058006524,7.253852e-07,0.1562674,0.008662435,1.0,42,0.020865852,1.5507942e-07,0,4.085648891578369e-08,1.0
86,86,27.835518,128831.09,31369.113,132595.14,-13.684668,53.31230703883921,-0.0006490679,1.3628293e-06,0.1822714,0.010201589,1.0,42,0.020478837,1.5444635e-07,0,4.121811220261979e-08,1.0
87,87,24.082958,135217.66,38234.508,140519.36,-15.788925,54.01436600551824,-0.0004375884,5.2870377e-07,0.1728442,0.012796567,1.0,42,0.020821925,1.4817834e-07,0,4.131517801991061e-08,1.0
88,88,20.833313,136759.94,41288.05,142856.52,-16.799152,54.66874939664558,-0.00059266033,8.6246564e-07,0.18502799,0.015455607,1.0,42,0.020746961,1.4522936e-07,0,4.094144651475852e-08,1.0
89,89,18.021912,141681.08,45162.824,148705.11,-17.680407,55.68774557838333,-0.00034123438,4.219831e-07,0.19554116,0.018036347,1.0,43,0.020808736,1.399329e-07,0,4.1206563197267934e-08,1.0
90,90,15.604198,144144.48,49250.87,152326.23,-18.864124,56.34300144948065,-0.0005693893,6.797145e-07,0.20709269,0.021649266,1.0,43,0.020708019,1.3594519e-07,0,4.131502034429187e-08,1.0
91,91,13.500899,148237.8,53803.36,157699.86,-19.94852,57.091011165000964,-0.0006360723,6.723956e-07,0.21910286,0.02550376,1.0,43,0.02077078,1.3171083e-07,0,4.1327860266307165e-08,1.0
92,92,11.686608,151427.69,58281.6,162256.25,-21.050755,57.68187892640708,-0.00056698575,6.6621215e-07,0.2336685,0.030148122,1.0,43,0.020678738,1.2744493e-07,0,4.172135544776919e-08,1.0
93,93,10.113269,157023.88,63720.676,169460.39,-22.087435,58.35552671839832,-0.0006776024,7.6651486e-07,0.24697228,0.034919865,1.0,43,0.020827267,1.2290346e-07,0,4.218040202179512e-08,1.0
94,94,8.748621,160512.16,70364.67,175257.92,-23.67149,59.122410568146734,-0.0005798417,6.8355e-07,0.25853887,0.041675407,1.0,43,0.020746315,1.1837591e-07,0,4.1516403497488713e-08,1.0
95,95,7.570237,166013.11,75713.71,182463.47,-24.516336,59.99799130309839,-0.000576134,6.046074e-07,0.27767456,0.047811605,1.0,43,0.020759277,1.1377224e-07,0,4.1620455495255136e-08,1.0
96,96,6.554112,171410.38,82325.17,190155.06,-25.654097,60.534302981890505,-0.0005317718,8.886998e-07,0.29496714,0.055287015,1.0,43,0.020769909,1.0922617e-07,0,4.248187815465757e-08,1.0
97,97,5.669445,178374.58,89863.9,199732.34,-26.738653,61.14412375751999,-0.0006528781,5.258511e-07,0.312388,0.063236535,1.0,43,0.02086748,1.04477216e-07,0,4.169906159519776e-08,1.0
98,98,4.907347,184394.11,96198.63,207979.23,-27.551105,61.83655669706059,-0.0005458574,7.4783605e-07,0.33713546,0.07212773,1.0,43,0.020802032,1.00019754e-07,0,4.2162738547500446e-08,1.0
99,99,4.245922,190851.38,104187.88,217438.17,-28.630617,62.624318894493626,-0.00061215844,6.4747724e-07,0.35977492,0.082602605,1.0,43,0.02078739,9.5601386e-08,0,4.3164784107681975e-08,1.0
100,100,3.6747382,198164.8,113428.96,228331.81,-29.786697,63.523944963904796,-0.00054368685,5.9060284e-07,0.38182974,0.09422905,1.0,43,0.02083978,9.126972e-08,0,4.162912425194756e-08,1.0
101,101,3.180988,204959.73,122337.28,238694.16,-30.832321,64.55219095936627,-0.00054407807,6.815103e-07,0.40897736,0.10743192,1.0,43,0.020767717,8.700555e-08,0,4.224419910630218e-08,1.0
102,102,2.752818,213580.53,131810.45,250979.36,-31.68066,65.73111786870868,-0.00054414273,6.6672914e-07,0.43862438,0.1209808,1.0,43,0.02083309,8.300719e-08,0,4.4100662726201676e-08,1.0
103,103,2.3804083,221275.39,142434.97,263154.94,-32.769382,67.08502961302293,-0.0005659481,5.8542736e-07,0.46940967,0.13751885,1.0,43,0.020764234,7.8904975e-08,0,4.382387493955066e-08,1.0
104,104,2.060257,228672.25,153459.34,275392.03,-33.865112,68.64129731358844,-0.00055280706,5.502372e-07,0.50339097,0.15631093,1.0,43,0.020734185,7.5289705e-08,0,4.223524422038061e-08,1.0
