True,index,freq,Re(Z),Im(Z),Z,Phase(Z),time,Ewe_meas,I_meas,Cs,Cp,cycle_number,I_Range,Ewe,I,Ns,(QQo),cycle
110,110,7000018.5,170.3182,1212.3069,1224.2125,-82.0028,82.7885007855657,-0.010016163,1.7049883e-06,1.8754625e-05,1.8391616e-05,2.0,40,0.009980692,8.152744e-06,0,3.007252915196644e-08,2.0
111,111,6057573.0,224.68213,1437.8176,1455.2668,-81.11844,83.34050233176094,-0.010000569,-2.464036e-05,1.8273331e-05,1.7837749e-05,2.0,40,0.014082946,9.6772255e-06,0,2.563978928269191e-08,2.0
112,112,5242039.0,221.85143,1644.8257,1659.7197,-82.3184,83.75749200492282,-0.009972602,-2.3263536e-05,1.8458653e-05,1.812885e-05,2.0,40,0.019425595,1.1704142e-05,0,2.238320868854377e-08,2.0
113,113,4536288.0,208.12213,1914.5131,1925.7921,-83.795876,85.12550622990238,-0.009999152,-2.1979758e-05,1.8325725e-05,1.8111692e-05,2.0,40,0.020340022,1.0561899e-05,0,1.8662950374168354e-08,2.0
114,114,3925558.5,258.32898,2207.7678,2222.8298,-83.32622,85.54149246300221,-0.01001838,-2.4807781e-05,1.8363915e-05,1.8115888e-05,2.0,40,0.018837813,8.474699e-06,0,1.4875561228959771e-08,2.0
115,115,3397055.0,321.93076,2503.9106,2524.5212,-82.67361,85.95748816270498,-0.010021771,-3.0277764e-05,1.8711075e-05,1.8406801e-05,2.0,40,0.01970608,7.805868e-06,0,1.2377061402595954e-08,2.0
116,116,2939708.2,338.4649,2880.961,2900.775,-83.299416,86.37348735579872,-0.010016778,-2.9607967e-05,1.879224e-05,1.8536392e-05,2.0,40,0.021471351,7.4019367e-06,0,1.2064240450018538e-08,2.0
117,117,2543924.5,408.1909,3285.051,3310.3142,-82.9169,86.92549612870789,-0.010059556,-1.5058556e-05,1.9044684e-05,1.8755109e-05,2.0,40,0.020804325,6.284698e-06,0,3.0702899278585407e-09,2.0
118,118,2201436.2,454.61804,3793.8198,3820.9614,-83.16676,87.47748450157815,-0.010102316,-2.2208362e-06,1.9056244e-05,1.8786479e-05,2.0,40,0.020296637,5.311919e-06,0,2.1812154487018553e-09,2.0
119,119,1905053.1,511.4725,4368.435,4398.276,-83.32201,88.0294923945039,-0.010044819,-2.1607651e-05,1.912437e-05,1.8865747e-05,2.0,40,0.020696124,4.705508e-06,0,1.1736791259955796e-09,2.0
120,120,1648567.4,594.9024,5051.3447,5086.2554,-83.28315,88.581503727386,-0.010038819,-2.6631109e-05,1.9112013e-05,1.8850555e-05,2.0,40,0.019930322,3.9184665e-06,0,-4.070906367419308e-09,2.0
121,121,1426616.2,565.0897,5876.839,5903.9443,-84.50759,89.30049344149302,-0.010050204,-1.9243068e-06,1.898319e-05,1.8809284e-05,2.0,41,0.019448064,3.29408e-06,0,-7.359388181757964e-10,2.0
122,122,1234551.2,659.09216,6768.9316,6800.944,-84.43863,89.85248253439204,-0.010070773,1.2265156e-06,1.9045434e-05,1.8866562e-05,2.0,41,0.020499017,3.014143e-06,0,-1.0966404489973768e-09,2.0
123,123,1068345.5,831.5624,7777.31,7821.6396,-83.89703,90.40449634726974,-0.010058066,8.708395e-07,1.915486e-05,1.8938354e-05,2.0,41,0.0206803,2.6439855e-06,0,-1.400731800694604e-09,2.0
124,124,924510.06,1080.5988,8961.008,9025.927,-83.12396,90.95649277351913,-0.010042229,1.2265152e-06,1.9211073e-05,1.8935716e-05,2.0,41,0.020120196,2.2291556e-06,0,-8.629561447235861e-10,2.0
125,125,800039.0,1337.8273,10159.903,10247.605,-82.49861,91.50848415974178,-0.010075542,1.2023079e-06,1.9580302e-05,1.9246587e-05,2.0,41,0.020902306,2.0397258e-06,0,-1.2633246649161755e-09,2.0
126,126,692334.1,1591.3298,11758.901,11866.09,-82.29299,92.06049375925795,-0.010087672,3.662246e-06,1.954959e-05,1.9197996e-05,2.0,41,0.020222604,1.7042349e-06,0,-1.4131856340551253e-09,2.0
127,127,599122.25,1976.1063,13455.696,13600.028,-81.645256,92.61248197217355,-0.010114725,3.7925995e-06,1.9742334e-05,1.9325522e-05,2.0,41,0.02059644,1.514441e-06,0,-1.538697832193847e-09,2.0
128,128,518454.94,2450.5332,15341.835,15536.3125,-80.92487,93.16449765171274,-0.010059818,2.963929e-06,2.0009296e-05,1.9511494e-05,2.0,41,0.020517884,1.3206405e-06,0,-3.510437855888979e-10,2.0
129,129,448662.03,3131.1433,17590.97,17867.465,-79.90722,93.71648719793302,-0.010072729,2.9862751e-06,2.0165593e-05,1.9546307e-05,2.0,41,0.020317022,1.137096e-06,0,4.28066854123246e-10,2.0
130,130,388258.97,3943.5479,20051.379,20435.492,-78.87352,94.26849759751349,-0.010085082,4.5318843e-06,2.044346e-05,1.9682157e-05,2.0,41,0.020792559,1.0174729e-06,0,9.952298247946818e-10,2.0
131,131,335983.9,4799.4385,23801.39,24280.46,-78.59946,94.82050581034855,-0.010063823,2.3773423e-06,1.990212e-05,1.9124502e-05,2.0,41,0.020417409,8.4089874e-07,0,1.5970579462128615e-09,2.0
132,132,290751.2,6306.0073,25845.576,26603.75,-76.28842,95.37249823656748,-0.01005637,7.46073e-07,2.117934e-05,1.9989371e-05,2.0,41,0.02054502,7.722603e-07,0,1.8714699140497023e-09,2.0
133,133,251605.19,7724.7627,29347.191,30346.822,-75.25312,95.92448986278032,-0.010055532,1.0198136e-06,2.1554304e-05,2.0157684e-05,2.0,41,0.020386092,6.7177024e-07,0,2.4022281036939732e-09,2.0
134,134,217729.38,9533.878,33003.13,34352.6,-73.88715,96.4764882090094,-0.010042583,1.3196245e-06,2.2148688e-05,2.0442732e-05,2.0,41,0.020242294,5.892507e-07,0,2.6417056448489894e-09,2.0
135,135,188418.58,11915.903,37016.3,38886.953,-72.156136,97.02848346190876,-0.010088044,4.7721046e-06,2.2819357e-05,2.0676716e-05,2.0,41,0.020822085,5.354517e-07,0,3.839138740137009e-09,2.0
136,136,163051.14,14787.412,41312.973,43879.715,-70.30587,97.5805017547973,-0.010033752,1.550534e-06,2.3627068e-05,2.0943784e-05,2.0,41,0.02038214,4.645003e-07,0,4.040337951782541e-09,2.0
137,137,141098.2,18193.99,46258.324,49707.684,-68.52965,98.13248532768921,-0.010057805,6.5110095e-07,2.4384213e-05,2.111745e-05,2.0,41,0.020285811,4.0810212e-07,0,4.498310172877718e-09,2.0
138,138,122105.11,20118.713,52168.223,55913.2,-68.91083,98.85149605516926,-0.010054526,2.284118e-06,2.4985053e-05,2.175022e-05,2.0,42,0.018867092,3.3743538e-07,0,5.090227075960568e-09,2.0
139,139,105663.59,24739.19,57970.348,63028.477,-66.88935,99.26748767492245,-0.010040441,2.1140706e-06,2.5982974e-05,2.1979968e-05,2.0,42,0.020187393,3.2029004e-07,0,5.290966491649273e-09,2.0
140,140,91439.65,30288.285,63827.42,70649.27,-64.61407,99.68350558800739,-0.010060041,2.3692348e-06,2.7269569e-05,2.2257556e-05,2.0,42,0.02138412,3.0267998e-07,0,5.569190712941892e-09,2.0
141,141,79127.08,36665.46,70260.336,79251.945,-62.442127,100.2355042542622,-0.01005406,2.40574e-06,2.8627592e-05,2.2500148e-05,2.0,42,0.020249685,2.5551026e-07,0,5.963530641008778e-09,2.0
142,142,68475.36,44688.37,76396.04,88506.52,-59.674213,100.65249278073316,-0.010060768,2.2599054e-06,3.0423906e-05,2.266763e-05,2.0,42,0.021110816,2.3852272e-07,0,6.1729469924474396e-09,2.0
143,143,59252.523,53016.066,82441.875,98017.17,-57.25606,101.06850421379204,-0.010082939,2.6046564e-06,3.2581076e-05,2.304925e-05,2.0,42,0.021836588,2.2278329e-07,0,6.416958520424491e-09,2.0
144,144,51282.285,63176.96,88519.17,108751.88,-54.48419,101.62050210669986,-0.010026466,1.9563158e-06,3.5060282e-05,2.3228253e-05,2.0,42,0.020227294,1.8599489e-07,0,6.735685031600886e-09,2.0
145,145,44369.8,76402.64,91483.6,119191.5,-50.133015,102.03749204651103,-0.010065015,2.21446e-06,3.9209324e-05,2.3098582e-05,2.0,42,0.020633698,1.7311383e-07,0,6.966973350185418e-09,2.0
146,146,38403.727,88602.68,94600.62,129613.7,-46.875153,102.45348950623884,-0.010087877,2.4379615e-06,4.3807937e-05,2.333667e-05,2.0,42,0.0209587,1.6170127e-07,0,7.286574521656572e-09,2.0
147,147,33226.32,100574.54,95996.0,139034.06,-43.665703,102.86950488600996,-0.010039024,2.2435154e-06,4.9898186e-05,2.3787488e-05,2.0,42,0.021172019,1.5227937e-07,0,7.538819952631738e-09,2.0
148,148,28754.086,113960.836,96219.555,149148.5,-40.17511,103.28549711909727,-0.010052662,2.3047921e-06,5.7525078e-05,2.3941211e-05,2.0,42,0.021316111,1.4291871e-07,0,7.75933007475185e-09,2.0
149,149,24884.947,127656.46,94838.984,159030.2,-36.609524,103.70148644552683,-0.01005501,2.3651376e-06,6.743673e-05,2.3983417e-05,2.0,42,0.021386908,1.3448332e-07,0,8.067432085065551e-09,2.0
150,150,21553.963,139270.81,91718.39,166759.17,-33.367363,104.11850217203028,-0.0100622205,2.508551e-06,8.050755e-05,2.435398e-05,2.0,42,0.021357508,1.2807396e-07,0,8.40110660751852e-09,2.0
151,151,18631.234,150408.02,86802.8,173658.56,-29.98991,104.53449547177297,-0.010046365,2.280021e-06,9.8411256e-05,2.4587807e-05,2.0,42,0.02124838,1.2235722e-07,0,8.729432646425463e-09,2.0
152,152,16126.037,161498.95,81519.52,180907.0,-26.783188,104.95048437154037,-0.010053576,2.4049955e-06,0.00012106841,2.458348e-05,2.0,42,0.0210678,1.16456526e-07,0,8.928304251691493e-09,2.0
153,153,13954.87,172804.48,74570.95,188207.9,-23.341824,105.3664948179212,-0.010082417,2.6214195e-06,0.00015294125,2.4009787e-05,2.0,42,0.020879254,1.1093718e-07,0,9.22505173523315e-09,2.0
154,154,12080.609,177468.72,69178.37,190475.17,-21.296133,105.78250505102915,-0.010063823,2.5171187e-06,0.00019044122,2.51203e-05,2.0,42,0.020415287,1.0718083e-07,0,9.482724714143772e-09,2.0
155,155,10447.592,184537.58,61785.086,194606.05,-18.511078,106.19849536413676,-0.010080126,2.5882669e-06,0.00024655866,2.4852778e-05,2.0,42,0.019908998,1.0230411e-07,0,9.733377768454066e-09,2.0
156,156,9045.586,188629.64,56810.582,196998.94,-16.761002,106.771267604694,-0.01006291,2.4236208e-06,0.00030970926,2.5756384e-05,2.0,42,0.020170912,1.0239097e-07,0,1.0100891778742503e-08,2.0
157,157,7827.7437,193683.62,48625.09,199694.12,-14.093079,107.25194384087808,-0.010060078,2.3494931e-06,0.00041814134,2.4792103e-05,2.0,42,0.02024641,1.01387116e-07,0,1.0367053783239705e-08,2.0
158,158,6770.8345,196917.4,43846.1,201739.8,-12.552839,107.79039607974119,-0.010071611,2.4536077e-06,0.0005361014,2.532362e-05,2.0,42,0.020284008,1.005454e-07,0,1.0772991989377337e-08,2.0
159,159,5860.798,199711.55,38836.523,203452.64,-11.00457,108.39698242858867,-0.010111557,2.7346607e-06,0.0006992348,2.5478688e-05,2.0,42,0.02032869,9.991853e-08,0,1.1271747519607652e-08,2.0
160,160,5071.625,201747.67,34017.434,204595.47,-9.570833,109.07770096760214,-0.01006632,2.5631234e-06,0.0009225108,2.5502486e-05,2.0,42,0.020364739,9.953661e-08,0,1.172088818343875e-08,2.0
161,161,4388.5933,202081.52,30011.207,204297.84,-8.447278,109.75784665322863,-0.010058718,2.4951419e-06,0.0012084018,2.6076585e-05,2.0,42,0.0203298,9.951059e-08,0,1.2121922735742184e-08,2.0
162,162,3798.7827,204184.11,26609.977,205910.77,-7.425135,110.43782887219277,-0.0100452285,2.4746544e-06,0.0015744584,2.6294329e-05,2.0,42,0.02038274,9.898822e-08,0,1.263318276558624e-08,2.0
163,163,3286.0488,204996.2,23893.639,206383.98,-6.6481977,111.11767847782903,-0.01007258,2.5579086e-06,0.002027047,2.7169173e-05,2.0,42,0.02038275,9.87613e-08,0,1.3178847910580229e-08,2.0
164,164,2844.088,206110.38,20876.908,207164.98,-5.7837605,111.79682995007897,-0.010075635,2.6379967e-06,0.00268047,2.7221407e-05,2.0,42,0.020424064,9.85884e-08,0,1.3627891567070893e-08,2.0
165,165,2460.7852,206335.2,18096.783,207127.28,-5.0123434,112.47671006237942,-0.010061736,2.4590092e-06,0.003573922,2.728181e-05,2.0,42,0.020422494,9.859877e-08,0,1.4188171555642992e-08,2.0
166,166,2129.3164,206692.25,16616.398,207359.1,-4.596236,113.15681278800184,-0.010061196,2.6504756e-06,0.0044982443,2.8884886e-05,2.0,42,0.02040714,9.8414496e-08,0,1.4619546144704978e-08,2.0
167,167,1843.2289,206793.1,14850.501,207325.64,-4.107549,113.83696596696973,-0.010029876,2.406859e-06,0.005814331,2.9831559e-05,2.0,42,0.02041143,9.845107e-08,0,1.5155878367488306e-08,2.0
168,168,1594.4913,207295.62,13290.784,207721.27,-3.6685045,114.51683413260616,-0.010045582,2.4226904e-06,0.0075101284,3.074586e-05,2.0,42,0.020427786,9.83423e-08,0,1.5708798344575e-08,2.0
169,169,1380.4436,207768.11,12229.038,208127.69,-3.36849,115.19672595157317,-0.010069487,2.479497e-06,0.009427774,3.254873e-05,2.0,42,0.020429198,9.815704e-08,0,1.6202942116688785e-08,2.0
170,170,1194.6187,207876.9,11465.172,208192.84,-3.1568732,115.87684251720202,-0.010053688,2.4463443e-06,0.011620111,3.524032e-05,2.0,42,0.020423334,9.8098155e-08,0,1.672433596551976e-08,2.0
171,171,1033.3434,208421.52,10497.771,208685.72,-2.8834362,116.55710044279112,-0.01004575,2.55437e-06,0.01467163,3.7126767e-05,2.0,42,0.02044845,9.798682e-08,0,1.721960367913875e-08,2.0
172,172,894.71045,208629.12,10336.001,208885.0,-2.8362553,117.23683026179788,-0.0100662075,2.4768894e-06,0.017210167,4.213817e-05,2.0,42,0.020448545,9.7893796e-08,0,1.763578551802928e-08,2.0
173,173,774.2569,208859.42,11207.946,209159.92,-3.071696,117.91694632076542,-0.010095348,2.4958872e-06,0.018340409,5.266283e-05,2.0,42,0.02046087,9.782405e-08,0,1.8122352653534297e-08,2.0
174,174,669.7856,209011.02,9405.432,209222.53,-2.5765543,118.59682731305656,-0.010050707,2.499612e-06,0.025264205,5.105593e-05,2.0,42,0.02044484,9.771816e-08,0,1.867719344421184e-08,2.0
175,175,579.81464,209253.27,9317.227,209460.6,-2.5494723,119.27683574536059,-0.010063153,2.6825105e-06,0.029460784,5.829254e-05,2.0,42,0.02044205,9.759378e-08,0,1.9086896133127812e-08,2.0
176,176,501.44418,209480.83,9527.48,209697.38,-2.6040976,119.95419951083022,-0.010049569,2.6042853e-06,0.03331344,6.876851e-05,2.0,42,0.020444248,9.749406e-08,0,1.9461415268115228e-08,2.0
177,177,434.02762,209460.48,9948.732,209696.62,-2.7193305,120.63421188978828,-0.010073698,2.544871e-06,0.036858276,8.296361e-05,2.0,42,0.02044328,9.748979e-08,0,1.9965518184369695e-08,2.0
178,178,375.6009,209825.72,10666.325,210096.66,-2.910081,121.31345389536,-0.01006291,2.5238248e-06,0.039726354,0.00010239295,2.0,42,0.020420957,9.719792e-08,0,2.0531082061668254e-08,2.0
179,179,325.10385,210394.1,11149.613,210689.31,-3.0334918,121.99269990102766,-0.010068276,2.438149e-06,0.04390745,0.00012296253,2.0,42,0.02045348,9.707887e-08,0,2.109627992289514e-08,2.0
180,180,281.3503,210683.7,11728.107,211009.89,-3.1861897,122.66979235985491,-0.010070698,2.567035e-06,0.04823306,0.00014900301,2.0,42,0.020441847,9.687625e-08,0,2.1601004907620315e-08,2.0
181,181,243.36427,211367.9,12418.285,211732.39,-3.362376,123.35310615229537,-0.010085603,2.547106e-06,0.052662525,0.000181155,2.0,42,0.020441545,9.654425e-08,0,2.2123085353330393e-08,2.0
182,182,210.60631,211617.17,13604.294,212054.02,-3.6783283,124.03020781112718,-0.010066133,2.4716746e-06,0.055548552,0.00022862924,2.0,42,0.02044159,9.639803e-08,0,2.251608703751974e-08,2.0
183,183,182.27473,211621.03,13768.538,212068.47,-3.722545,124.70126522963983,-0.010071015,2.4966319e-06,0.06341702,0.00026731865,2.0,42,0.020411026,9.624734e-08,0,2.308913612578392e-08,2.0
184,184,157.72879,213124.67,16032.535,213726.86,-4.3020344,125.38964480904906,-0.010054377,2.5402148e-06,0.06293713,0.0003541548,2.0,42,0.020445954,9.566394e-08,0,2.364002346255598e-08,2.0
185,185,136.52892,213554.22,17224.787,214247.75,-4.6113615,126.06150273422827,-0.0100749275,2.5044546e-06,0.06767708,0.0004374383,2.0,42,0.02044535,9.542854e-08,0,2.402234066925847e-08,2.0
186,186,118.14758,214571.05,19758.082,215478.81,-5.2610607,126.74992204696173,-0.010065276,2.5404008e-06,0.06817898,0.00057323265,2.0,42,0.020444568,9.487972e-08,0,2.4495458229874127e-08,2.0
187,187,102.25773,215305.9,21549.828,216381.67,-5.715662,127.41636090524844,-0.010061233,2.5290396e-06,0.072223775,0.0007163526,2.0,42,0.02042413,9.438937e-08,0,2.495392349728684e-08,2.0
188,188,88.4436,223565.97,23542.71,224802.14,-6.0114017,128.36030297676916,-0.010070568,2.3354203e-06,0.07643587,0.0008383189,2.0,43,0.020437744,9.091436e-08,0,2.5670324667253237e-08,2.0
189,189,76.54279,224747.81,26321.512,226283.89,-6.6798096,129.02774162184505,-0.010067382,2.3628515e-06,0.07899598,0.0010688565,2.0,43,0.020429406,9.028219e-08,0,2.6129920307306975e-08,2.0
190,190,66.250786,225961.98,29487.559,227877.89,-7.4349623,129.696009600244,-0.010064717,2.3661664e-06,0.081468605,0.0013641544,2.0,43,0.020415327,8.958889e-08,0,2.6530873215145e-08,2.0
191,191,57.329906,228042.52,32963.117,230412.58,-8.225028,130.35063373801677,-0.010063469,2.3670418e-06,0.08421911,0.0017236727,2.0,43,0.020436894,8.869696e-08,0,2.6961373057505e-08,2.0
192,192,49.60321,229487.48,36518.242,232374.89,-9.041642,131.03534473050968,-0.010063618,2.3864657e-06,0.08786188,0.0021699104,2.0,43,0.020409565,8.783034e-08,0,2.7372859668387466e-08,2.0
193,193,42.92585,232056.02,40986.363,235647.78,-10.016433,131.743460364145,-0.01004575,2.3723494e-06,0.0904611,0.0027366164,2.0,43,0.020437293,8.6728136e-08,0,2.784603218708871e-08,2.0
194,194,37.1518,234460.39,45495.555,238833.67,-10.981413,132.3871796747262,-0.0100446325,2.3555515e-06,0.09416106,0.003416789,2.0,43,0.020437535,8.557225e-08,0,2.8341214076886366e-08,2.0
195,195,32.150223,237226.16,50450.39,242531.42,-12.0061035,133.02638682504767,-0.010080163,2.3575067e-06,0.09812318,0.00424585,2.0,43,0.020439431,8.427539e-08,0,2.8712827158135193e-08,2.0
196,196,27.835518,240542.36,55737.387,246915.53,-13.046082,133.7543139529589,-0.010051219,2.3687176e-06,0.102582715,0.005227218,2.0,43,0.020450313,8.2823114e-08,0,2.929404165265254e-08,2.0
197,197,24.082958,244083.39,61763.57,251776.56,-14.200216,134.45640035966062,-0.010072039,2.3858508e-06,0.106998555,0.0064389063,2.0,43,0.020456966,8.125048e-08,0,2.9757848419863878e-08,2.0
198,198,20.833313,247792.5,67712.375,256877.58,-15.283653,135.11076865743962,-0.010073512,2.3650116e-06,0.11282199,0.0078393025,2.0,43,0.020432081,7.954015e-08,0,2.989556109524975e-08,2.0
199,199,18.021912,252283.22,74392.58,263022.97,-16.429588,135.85675935953623,-0.009991821,2.3290415e-06,0.118710645,0.009496456,2.0,43,0.020434503,7.769094e-08,0,3.069719374437321e-08,2.0
200,200,15.604198,257252.62,81969.26,269996.06,-17.67361,136.51204048396903,-0.010069505,2.3805617e-06,0.124430746,0.011468717,2.0,43,0.020448826,7.5737496e-08,0,3.09544416188055e-08,2.0
201,201,13.500899,262759.47,89805.42,277682.47,-18.869303,137.2599950528238,-0.01005719,2.3410066e-06,0.13126679,0.013729764,2.0,43,0.020439677,7.360809e-08,0,3.1360531342744694e-08,2.0
202,202,11.686608,269011.56,98670.586,286536.4,-20.142502,137.85087390756235,-0.0100724865,2.362367e-06,0.13802062,0.016366648,2.0,43,0.020452172,7.1377215e-08,0,3.186811923422026e-08,2.0
203,203,10.113269,275153.12,107929.67,295563.97,-21.41775,138.5245024995238,-0.010081132,2.372386e-06,0.14581014,0.019443143,2.0,43,0.020428475,6.9116936e-08,0,3.266386702768346e-08,2.0
204,204,8.748621,282434.62,118138.484,306147.06,-22.698881,139.2903881892271,-0.010074723,2.3974524e-06,0.1539888,0.022930404,2.0,43,0.02044396,6.677823e-08,0,3.305182461229271e-08,2.0
205,205,7.570237,290638.66,129168.85,318049.4,-23.96185,140.1660142308683,-0.01006768,2.3757007e-06,0.16276193,0.026845979,2.0,43,0.020445349,6.428356e-08,0,3.3141634380593035e-08,2.0
206,206,6.554112,299539.3,141074.4,331097.84,-25.219088,140.70230652295868,-0.010061066,2.473992e-06,0.17213058,0.03124941,2.0,43,0.02044867,6.1760204e-08,0,3.4265244619916065e-08,2.0
207,207,5.669445,308873.66,153740.77,345020.53,-26.461662,141.3121460719558,-0.01005352,2.2940762e-06,0.1825957,0.036255904,2.0,43,0.020446036,5.9260348e-08,0,3.3816704234615754e-08,2.0
208,208,4.907347,319240.28,167117.19,360336.66,-27.63134,142.00456210484845,-0.010083852,2.4735077e-06,0.19406722,0.041742414,2.0,43,0.020445116,5.6738926e-08,0,3.503660718054875e-08,2.0
209,209,4.245922,329743.72,181861.73,376569.53,-28.877811,142.79230091560748,-0.010083368,2.2992067e-06,0.20611365,0.048072763,2.0,43,0.020422986,5.4234302e-08,0,3.533529548332649e-08,2.0
210,210,3.6747382,340563.34,196143.61,393008.53,-29.939304,143.69193077165983,-0.010080247,2.3635675e-06,0.22081041,0.055000156,2.0,43,0.020369124,5.1828707e-08,0,3.5226343950186606e-08,2.0
211,211,3.180988,353489.4,215563.89,414032.06,-31.375553,144.7212365005107,-0.010066888,2.4344276e-06,0.23210369,0.06291673,2.0,43,0.020435192,4.9356544e-08,0,3.676430030611765e-08,2.0
212,212,2.752818,367390.6,233860.12,435507.06,-32.47853,145.900164743216,-0.010054799,2.3765458e-06,0.2472216,0.07128668,2.0,43,0.020444471,4.6944063e-08,0,3.793277829818721e-08,2.0
213,213,2.3804083,380173.97,255026.19,457788.8,-33.85428,147.25498123423313,-0.010061935,2.3300381e-06,0.26217055,0.08136228,2.0,43,0.020437056,4.4642977e-08,0,3.790164456212746e-08,2.0
214,214,2.060257,395040.38,277452.75,482738.97,-35.08191,148.81131714812363,-0.010074471,2.3716777e-06,0.27842596,0.09197357,2.0,43,0.02045386,4.2370434e-08,0,3.8305648444086635e-08,2.0
