True,index,freq,Re(Z),Im(Z),Z,Phase(Z),time,Ewe_meas,I_meas,Cs,Cp,cycle_number,I_Range,Ewe,I,Ns,(QQo),cycle
220,220,7000018.5,383.91406,1920.3457,1958.3456,-78.69452,68.97845492963097,-0.1731613,1.6756749e-05,1.1839723e-05,1.1384703e-05,3.0,40,0.009553459,4.8783313e-06,0,-7.118664293243408e-09,3.0
221,221,6057573.0,407.42307,2242.6023,2279.311,-79.70314,69.26447126318817,-0.17316705,3.1747045e-06,1.1715727e-05,1.1341397e-05,3.0,40,0.013430118,5.892183e-06,0,-6.028656127941901e-09,3.0
222,222,5242039.0,486.52893,2502.7983,2549.649,-78.999245,69.41417956366786,-0.17313653,-4.248838e-06,1.2130929e-05,1.1689205e-05,3.0,40,0.018545583,7.273779e-06,0,-8.419926087844389e-09,3.0
223,223,4536288.0,495.17065,2886.0488,2928.22,-80.264336,70.65247079575784,-0.1730633,-3.5543097e-05,1.2156704e-05,1.1809073e-05,3.0,40,0.018789249,6.416611e-06,0,-9.268745613227164e-09,3.0
224,224,3925558.5,679.12646,3373.6086,3441.286,-78.61816,70.80218114957097,-0.17310354,-3.7831567e-05,1.2017773e-05,1.15497305e-05,3.0,40,0.018151704,5.2746864e-06,0,-1.0604613563956317e-08,3.0
225,225,3397055.0,792.0755,3705.1855,3788.9026,-77.93323,70.9521828633442,-0.17308374,-3.7719925e-05,1.2644673e-05,1.20920695e-05,3.0,40,0.019326769,5.1008883e-06,0,-1.2200195293962127e-08,3.0
226,226,2939708.2,831.0258,4159.046,4241.258,-78.70045,71.10217937713605,-0.17312233,-2.5179887e-05,1.3017338e-05,1.2517577e-05,3.0,40,0.021350196,5.03393e-06,0,-1.2742021518245316e-08,3.0
227,227,2543924.5,943.0493,4693.18,4786.9907,-78.63827,71.38845795075758,-0.17317031,-1.5895803e-05,1.3330568e-05,1.2813211e-05,3.0,40,0.020627309,4.3090345e-06,0,-1.6920778683712397e-08,3.0
228,228,2201436.2,971.9502,5607.8735,5691.479,-80.167244,71.84145381223061,-0.17319317,-1.5272408e-05,1.2891866e-05,1.2515896e-05,3.0,41,0.020093916,3.5305263e-06,0,-1.7639463097904775e-08,3.0
229,229,1905053.1,1368.3873,6475.89,6618.885,-78.068634,72.12746739920112,-0.17324147,-8.704488e-06,1.29007085e-05,1.2349315e-05,3.0,41,0.020399626,3.0820338e-06,0,-1.918908477926785e-08,3.0
230,230,1648567.4,1536.3977,7160.3667,7323.344,-77.88969,72.41345383939915,-0.17321081,-1.1048972e-05,1.34827405e-05,1.2889314e-05,3.0,41,0.020142991,2.7505182e-06,0,-1.9332012605084734e-08,3.0
231,231,1426616.2,1732.6633,8417.1045,8593.589,-78.368126,72.69946289304062,-0.17317423,-1.3440011e-05,1.32541e-05,1.2715298e-05,3.0,41,0.020153278,2.3451528e-06,0,-1.9396501172090315e-08,3.0
232,232,1234551.2,2141.4775,9405.964,9646.662,-77.173965,72.98545349328197,-0.1731666,-1.25908555e-05,1.3705904e-05,1.30304725e-05,3.0,41,0.020821918,2.1584583e-06,0,-2.0564013348603065e-08,3.0
233,233,1068345.5,1932.1294,10895.078,11065.073,-79.94374,73.27145513353753,-0.17323601,-8.365571e-06,1.3673449e-05,1.325654e-05,3.0,41,0.020646209,1.86589e-06,0,-2.0724136914385127e-08,3.0
234,234,924510.06,3101.415,11862.1875,12260.925,-75.347786,73.55747210708796,-0.17318735,-9.682132e-06,1.4512549e-05,1.3583974e-05,3.0,41,0.020292345,1.655042e-06,0,-2.1064176725411463e-08,3.0
235,235,800039.0,1496.7134,13645.987,13727.823,-83.74073,73.84346332066343,-0.17323336,-8.279911e-06,1.4578202e-05,1.440491e-05,3.0,41,0.020708108,1.5084772e-06,0,-2.1366685783950758e-08,3.0
236,236,692334.1,5023.996,15681.078,16466.23,-72.235275,74.12945952094742,-0.17324623,-7.376754e-06,1.4659814e-05,1.329511e-05,3.0,41,0.020331604,1.2347455e-06,0,-2.137012169728831e-08,3.0
237,237,599122.25,5600.8438,17429.676,18307.459,-72.18574,74.41546169450157,-0.17320691,-9.631853e-06,1.5241068e-05,1.3814586e-05,3.0,41,0.020885447,1.1408163e-06,0,-2.2072824858024297e-08,3.0
238,238,518454.94,7353.8013,19514.285,20853.914,-69.35149,74.70145437479368,-0.173182,-1.1994959e-05,1.5731004e-05,1.3774841e-05,3.0,41,0.020433215,9.798264e-07,0,-2.275306607638604e-08,3.0
239,239,448662.03,9381.467,21730.486,23669.094,-66.649216,74.98745398837491,-0.17322284,-9.73986e-06,1.632418e-05,1.3759637e-05,3.0,41,0.020115927,8.498816e-07,0,-2.437507882696119e-08,3.0
240,240,388258.97,10689.383,25170.805,27346.523,-66.99034,75.27346416193177,-0.1731192,-1.5656004e-05,1.6285516e-05,1.3797217e-05,3.0,41,0.020896407,7.64134e-07,0,-2.615801523651879e-08,3.0
241,241,335983.9,14183.716,21180.457,25490.97,-56.19134,75.55947166887927,-0.17321932,-9.184929e-06,2.2364866e-05,1.54406e-05,3.0,41,0.020422092,8.0115e-07,0,-2.6859184236457564e-08,3.0
242,242,290751.2,17186.275,29072.836,33772.74,-59.410732,75.84547402910539,-0.1731866,-9.365561e-06,1.8828307e-05,1.3952546e-05,3.0,41,0.020610355,6.1026606e-07,0,-2.7731084478824405e-08,3.0
243,243,251605.19,20455.273,30356.932,36605.484,-56.02691,76.13144996270421,-0.17322275,-6.376763e-06,2.0837359e-05,1.4330657e-05,3.0,41,0.020404667,5.57421e-07,0,-2.875442008885148e-08,3.0
244,244,217729.38,24545.314,32645.928,40843.96,-53.061794,76.41745946960873,-0.17321722,-9.220312e-06,2.2391032e-05,1.4304623e-05,3.0,41,0.020273423,4.963628e-07,0,-2.9047328064371983e-08,3.0
245,245,188418.58,28816.809,33371.61,44091.64,-49.188972,76.70345902987174,-0.17320657,-7.762225e-06,2.531158e-05,1.44997675e-05,3.0,41,0.02075932,4.7082213e-07,0,-2.966048694059214e-08,3.0
246,246,163051.14,33487.113,34431.816,48030.582,-45.79689,76.98945757679758,-0.17325966,-6.6002253e-06,2.8348912e-05,1.4568691e-05,3.0,41,0.020365424,4.2400953e-07,0,-3.093936816272347e-08,3.0
247,247,141098.2,38838.203,34145.74,51713.996,-41.321262,77.27545263033244,-0.17321205,-8.540617e-06,3.3034074e-05,1.4401872e-05,3.0,41,0.02023901,3.9136427e-07,0,-3.157456709021784e-08,3.0
248,248,122105.11,40343.293,35834.543,53960.13,-41.612778,77.72847009185352,-0.17322873,-1.2693828e-05,3.6373447e-05,1.6041398e-05,3.0,42,0.018898439,3.5022967e-07,0,-3.33519587431604e-08,3.0
249,249,105663.59,46578.215,34977.867,58249.305,-36.904682,77.87817959234235,-0.17319047,-1.2607035e-05,4.306272e-05,1.5527681e-05,3.0,42,0.020165056,3.4618535e-07,0,-3.386212338292971e-08,3.0
250,250,91439.65,49336.723,35374.18,60707.863,-35.64033,78.02817285279161,-0.17312098,-1.3113266e-05,4.9203863e-05,1.670637e-05,3.0,42,0.021159187,3.4854114e-07,0,-3.434435398476607e-08,3.0
251,251,79127.08,55356.285,33433.47,64669.273,-31.130667,78.31446979971952,-0.17329355,-1.200563e-05,6.0160794e-05,1.6079794e-05,3.0,42,0.020210637,3.12523e-07,0,-3.5355143132073034e-08,3.0
252,252,68475.36,59539.477,31029.629,67140.055,-27.52675,78.46416799348663,-0.1731807,-1.29393065e-05,7.490473e-05,1.5999227e-05,3.0,42,0.02097427,3.1239577e-07,0,-3.589012511965883e-08,3.0
253,253,59252.523,62724.957,29333.332,69244.96,-25.063145,78.61416442730115,-0.17328385,-1.1876744e-05,9.156972e-05,1.64323e-05,3.0,42,0.021616148,3.1216925e-07,0,-3.64257548149034e-08,3.0
254,254,51282.285,65709.61,27344.244,71172.05,-22.594036,78.90046393420198,-0.17323555,-1.2172697e-05,0.00011349764,1.6753278e-05,3.0,42,0.020209162,2.8394803e-07,0,-3.73183522479561e-08,3.0
255,255,44369.8,68400.055,23933.404,72466.375,-19.285109,79.05017604798195,-0.17325991,-1.2015128e-05,0.00014987464,1.6347978e-05,3.0,42,0.020535255,2.8337632e-07,0,-3.786038374612541e-08,3.0
256,256,38403.727,70388.25,21523.691,73605.54,-17.002861,79.2001742151042,-0.17317271,-1.27785715e-05,0.000192544,1.6464272e-05,3.0,42,0.02081753,2.8282557e-07,0,-3.8371771932148136e-08,3.0
257,257,33226.32,72310.38,19183.834,74811.836,-14.858206,79.3501752888842,-0.17314436,-1.2818243e-05,0.00024969075,1.641847e-05,3.0,42,0.021007854,2.8080925e-07,0,-3.892677872154948e-08,3.0
258,258,28754.086,74189.64,17304.701,76181.07,-13.12947,79.5001735627011,-0.1732073,-1.239005e-05,0.00031985744,1.650405e-05,3.0,42,0.021175953,2.779687e-07,0,-3.9375867115253585e-08,3.0
259,259,24884.947,75365.164,15010.748,76845.5,-11.264395,79.65017732980778,-0.1731417,-1.2737037e-05,0.00042607012,1.6257316e-05,3.0,42,0.02126772,2.7675947e-07,0,-3.9856033427403994e-08,3.0
260,260,21553.963,75605.65,13446.998,76792.16,-10.085001,79.80016205695574,-0.17324683,-1.2006e-05,0.0005491205,1.6837772e-05,3.0,42,0.021183446,2.758543e-07,0,-4.0266943238185054e-08,3.0
261,261,18631.234,76264.695,11736.069,77162.42,-8.748392,79.95016782407765,-0.17325719,-1.1921815e-05,0.00072787335,1.683796e-05,3.0,42,0.021099798,2.7344655e-07,0,-4.090981341551922e-08,3.0
262,262,16126.037,77450.52,11430.213,78289.42,-8.39516,80.10016457785969,-0.17325483,-1.2069698e-05,0.0008634519,1.8405202e-05,3.0,42,0.02102968,2.6861457e-07,0,-4.150382097491345e-08,3.0
263,263,13954.87,79554.63,425.80734,79555.77,-0.30666637,80.25016050497652,-0.17318721,-1.2374218e-05,0.026784355,7.6729805e-07,3.0,42,0.021711001,2.729029e-07,0,-4.209630648662513e-08,3.0
264,264,12080.609,76357.1,7458.18,76720.48,-5.578669,80.40016579211806,-0.17322756,-1.2174743e-05,0.001766438,1.6693275e-05,3.0,42,0.020316385,2.6481047e-07,0,-4.2519989174622135e-08,3.0
265,265,10447.592,77886.35,6641.618,78169.016,-4.8740034,80.55016849256936,-0.17314696,-1.28783995e-05,0.0022936652,1.6558026e-05,3.0,42,0.02002286,2.561483e-07,0,-4.2942347547788115e-08,3.0
266,266,9045.586,77455.16,5578.481,77655.78,-4.119448,80.84721477332641,-0.17317218,-1.2377755e-05,0.003154042,1.6276153e-05,3.0,42,0.020269185,2.610132e-07,0,-4.387191273002797e-08,3.0
267,267,7827.7437,78748.945,4599.439,78883.15,-3.3426402,81.02095315494807,-0.17317799,-1.235764e-05,0.004420574,1.5028649e-05,3.0,42,0.020414256,2.587911e-07,0,-4.4626402992137e-08,3.0
268,268,6770.8345,77347.88,4119.5244,77457.51,-3.048675,81.21546193750692,-0.17316228,-1.22166475e-05,0.005705988,1.6139795e-05,3.0,42,0.020495828,2.646074e-07,0,-4.5117626346824675e-08,3.0
269,269,5860.798,77702.24,3696.128,77790.1,-2.7233837,81.43437645459198,-0.17326517,-1.2233782e-05,0.0073471074,1.6586764e-05,3.0,42,0.02069667,2.660579e-07,0,-4.563445590767519e-08,3.0
270,270,5071.625,77607.41,3780.3499,77699.42,-2.7887418,81.67856649283203,-0.17318124,-1.23313785e-05,0.008301203,1.9650312e-05,3.0,42,0.020767719,2.672828e-07,0,-4.659767091479278e-08,3.0
271,271,4388.5933,76397.85,1552.9965,76413.63,-1.164534,81.92170714442909,-0.1731773,-1.2274571e-05,0.023352016,9.645474e-06,3.0,42,0.020693453,2.7080839e-07,0,-4.746540116329238e-08,3.0
272,272,3798.7827,76914.414,3103.673,76977.01,-2.3107624,82.16570755601424,-0.17315876,-1.2290775e-05,0.013498942,2.1944697e-05,3.0,42,0.020847218,2.7082396e-07,0,-4.808139574574197e-08,3.0
273,273,3286.0488,77717.375,3114.0728,77779.74,-2.2945683,82.40956994090811,-0.17320386,-1.2389301e-05,0.015553114,2.4931125e-05,3.0,42,0.021050038,2.7063652e-07,0,-4.872698657748447e-08,3.0
274,274,2844.088,77211.54,3013.2908,77270.31,-2.2349155,82.65270621914533,-0.17315473,-1.2319643e-05,0.018571032,2.8241828e-05,3.0,42,0.021037303,2.7225596e-07,0,-4.937217913926438e-08,3.0
275,275,2460.7852,77217.91,3283.3506,77287.68,-2.4347835,82.89656967067276,-0.17318086,-1.2201188e-05,0.01969832,3.555029e-05,3.0,42,0.02107774,2.7271798e-07,0,-5.00869144530631e-08,3.0
276,276,2129.3164,77234.44,3617.2637,77319.1,-2.68148,83.13968904227659,-0.1731659,-1.2325046e-05,0.020663304,4.5225825e-05,3.0,42,0.021089641,2.7276107e-07,0,-5.079885673285744e-08,3.0
277,277,1843.2289,76742.836,4111.126,76852.875,-3.066413,83.38383518719638,-0.17315772,-1.2397683e-05,0.021002939,6.010096e-05,3.0,42,0.021019083,2.7349768e-07,0,-5.151844671388872e-08,3.0
278,278,1594.4913,77424.39,4149.567,77535.51,-3.067837,83.62769589212257,-0.17317806,-1.2180514e-05,0.024054436,6.8896865e-05,3.0,42,0.021106124,2.7221236e-07,0,-5.220255998861055e-08,3.0
279,279,1380.4436,77809.97,4693.9683,77951.42,-3.4522445,83.8715609703504,-0.17317677,-1.2246075e-05,0.024561863,8.9062225e-05,3.0,42,0.021174183,2.7163307e-07,0,-5.298065227784063e-08,3.0
280,280,1194.6187,77600.12,5453.29,77791.49,-4.0198097,84.11467639525654,-0.17315039,-1.2376077e-05,0.024430495,0.00012005638,3.0,42,0.021093637,2.711561e-07,0,-5.357409078680596e-08,3.0
281,281,1033.3434,78265.88,5561.731,78463.25,-4.06472,84.35898427350912,-0.1731563,-1.2291147e-05,0.027692711,0.00013914028,3.0,42,0.021173907,2.6985765e-07,0,-5.434965512116424e-08,3.0
282,282,894.71045,77873.06,6387.9487,78134.625,-4.689489,84.60271127177111,-0.17317982,-1.2208079e-05,0.027846858,0.00018612812,3.0,42,0.021061543,2.6955453e-07,0,-5.4938009748705874e-08,3.0
283,283,774.2569,77098.63,5819.496,77317.95,-4.316568,84.84683325668448,-0.17314456,-1.2510924e-05,0.035322357,0.00020010583,3.0,42,0.020849444,2.696585e-07,0,-5.5643109543460014e-08,3.0
284,284,669.7856,78668.0,7540.9253,79028.6,-5.475506,85.09069268161693,-0.17317724,-1.2283512e-05,0.031510822,0.00028690652,3.0,42,0.021059522,2.6647976e-07,0,-5.624851324683493e-08,3.0
285,285,579.81464,80326.39,8279.647,80751.98,-5.8849826,85.33470055986982,-0.17313881,-1.2379804e-05,0.033152718,0.00034852704,3.0,42,0.021272011,2.6342403e-07,0,-5.699730195566646e-08,3.0
286,286,501.44418,80047.266,9357.269,80592.33,-6.667433,85.57798169140005,-0.17318559,-1.2079007e-05,0.033919424,0.0004572558,3.0,42,0.02116371,2.6260204e-07,0,-5.7997194090108035e-08,3.0
287,287,434.02762,80871.516,9962.636,81482.86,-7.0229354,85.8221315696428,-0.17308874,-1.2599951e-05,0.03680684,0.0005502303,3.0,42,0.021220975,2.6043483e-07,0,-5.876477709390531e-08,3.0
288,288,375.6009,81433.21,11064.921,82181.51,-7.7378054,86.06527227451443,-0.17317921,-1.2157605e-05,0.038295276,0.0006942144,3.0,42,0.021194361,2.5789697e-07,0,-5.934508619222396e-08,3.0
289,289,325.10385,82602.79,12286.62,83511.57,-8.46034,86.30853180607664,-0.17315608,-1.21350695e-05,0.039844245,0.0008624564,3.0,42,0.021251576,2.5447463e-07,0,-6.010751799771086e-08,3.0
290,290,281.3503,82988.97,13738.263,84118.42,-9.399682,86.5505515508994,-0.17318857,-1.2154067e-05,0.041175693,0.0010983034,3.0,42,0.021189716,2.519034e-07,0,-6.076120453378585e-08,3.0
291,291,243.36427,83399.93,15548.822,84836.984,-10.5608,86.79609222925501,-0.17315961,-1.2127992e-05,0.042059667,0.0014128315,3.0,42,0.021157539,2.493905e-07,0,-6.182159709150921e-08,3.0
292,292,210.60631,84910.734,15847.06,86376.86,-10.571604,87.03900418747799,-0.173181,-1.2049953e-05,0.04768701,0.001605102,3.0,42,0.021205688,2.4550195e-07,0,-6.229315296328942e-08,3.0
293,293,182.27473,84990.19,15941.303,86472.29,-10.62333,87.2798827055667,-0.1731956,-1.2043434e-05,0.054773413,0.0018615021,3.0,42,0.021028081,2.431771e-07,0,-6.301353730814599e-08,3.0
294,294,157.72879,86553.24,19393.803,88699.4,-12.629541,87.52677047731413,-0.17318472,-1.2120728e-05,0.05202908,0.0024873149,3.0,42,0.02115901,2.385474e-07,0,-6.351640409196196e-08,3.0
295,295,136.52892,87889.3,21326.705,90439.8,-13.639437,87.76814848874346,-0.17317665,-1.1995753e-05,0.05466026,0.0030394855,3.0,42,0.021168789,2.3406498e-07,0,-6.395473437978142e-08,3.0
296,296,118.14758,89314.875,23116.72,92257.95,-14.511017,88.01504703381215,-0.173188,-1.21162575e-05,0.058273226,0.0036585913,3.0,42,0.021145435,2.2919905e-07,0,-6.471683329362893e-08,3.0
297,297,102.25773,90778.07,25143.422,94195.805,-15.481498,88.25376229851099,-0.17316994,-1.2278856e-05,0.061901275,0.0044104736,3.0,42,0.021175375,2.2480168e-07,0,-6.531316573086442e-08,3.0
298,298,88.4436,92956.75,27073.709,96819.125,-16.238232,88.50146895021317,-0.17317186,-1.2240302e-05,0.06646698,0.005197316,3.0,42,0.021230944,2.192846e-07,0,-6.63397381933842e-08,3.0
299,299,76.54279,94284.48,29797.797,98881.09,-17.538692,88.74020424156333,-0.17318581,-1.191548e-05,0.06978011,0.0063368506,3.0,42,0.021191346,2.143114e-07,0,-6.7029088484087e-08,3.0
300,300,66.250786,95996.25,32174.045,101244.5,-18.52906,88.97944601296331,-0.17316116,-1.2086272e-05,0.0746661,0.007540357,3.0,42,0.021160064,2.0899964e-07,0,-6.775412719453931e-08,3.0
301,301,57.329906,98086.34,35636.9,104359.57,-19.967182,89.21366101078092,-0.1731493,-1.2060569e-05,0.077900276,0.00908394,3.0,42,0.021175496,2.02909e-07,0,-6.87534773760774e-08,3.0
302,302,49.60321,100512.305,39231.625,107897.375,-21.321527,89.45939254239784,-0.1731808,-1.2192808e-05,0.081785075,0.010812469,3.0,42,0.02120942,1.9657031e-07,0,-6.965283615232051e-08,3.0
303,303,42.92585,102570.28,41702.5,110723.805,-22.125425,89.71323362112162,-0.17321475,-1.1752696e-05,0.08890766,0.012611924,3.0,42,0.021107195,1.9062924e-07,0,-7.060590927416992e-08,3.0
304,304,37.1518,105329.61,46810.76,115263.06,-23.9614,89.94389749877155,-0.17314254,-1.2326723e-05,0.09151548,0.015094047,3.0,42,0.021201463,1.8393979e-07,0,-7.105499680087412e-08,3.0
305,305,32.150223,108157.06,50273.58,119270.21,-24.92995,90.17289916297887,-0.17317316,-1.1976198e-05,0.09846828,0.017494919,3.0,42,0.021141855,1.7726015e-07,0,-7.212814988121509e-08,3.0
306,306,27.835518,112120.82,55089.316,124923.625,-26.16668,90.43371888205729,-0.17316295,-1.21385165e-05,0.1037895,0.02018362,3.0,42,0.021201475,1.6971549e-07,0,-7.282962111420311e-08,3.0
307,307,24.082958,114305.82,61057.35,129590.98,-28.109255,90.68497558729723,-0.17318147,-1.2063922e-05,0.10823615,0.024026955,3.0,42,0.02116889,1.6335157e-07,0,-7.363956485372429e-08,3.0
308,308,20.833313,117710.69,66677.836,135283.92,-29.529612,90.91980970514123,-0.17316295,-1.1862214e-05,0.11457247,0.027832417,3.0,42,0.021171896,1.5649972e-07,0,-7.466095500920823e-08,3.0
309,309,18.021912,121695.05,72360.695,141583.03,-30.736002,91.1877714778675,-0.17271906,-1.417238e-05,0.122044034,0.031878628,3.0,42,0.021163402,1.4947697e-07,0,-7.611504156116193e-08,3.0
310,310,15.604198,128350.234,81027.81,151786.98,-32.264317,91.66600963388919,-0.17315659,-1.20000095e-05,0.12587647,0.03587102,3.0,43,0.021121413,1.3915167e-07,0,-7.678271191327271e-08,3.0
311,311,13.500899,132762.9,88449.62,159528.44,-33.67244,91.93402783331112,-0.17315148,-1.1824461e-05,0.13327892,0.040971056,3.0,43,0.021128254,1.3244193e-07,0,-7.823117509338494e-08,3.0
312,312,11.686608,137664.56,98590.164,169326.77,-35.60881,92.14487285664654,-0.17316267,-1.2078822e-05,0.1381332,0.046828907,3.0,43,0.021262161,1.2556882e-07,0,-7.851080293083376e-08,3.0
313,313,10.113269,141662.12,106936.02,177492.17,-37.04794,92.38714220144902,-0.17312258,-1.19589085e-05,0.14716502,0.05341881,3.0,43,0.021117145,1.1897508e-07,0,-7.991496022181485e-08,3.0
314,314,8.748621,146873.9,118166.875,188508.23,-38.81829,92.66210874784156,-0.17314982,-1.2205309e-05,0.1539518,0.060494464,3.0,43,0.021162566,1.1226335e-07,0,-7.990164373303029e-08,3.0
315,315,7.570237,151711.66,131714.31,200910.64,-40.964138,92.97521966937347,-0.17315848,-1.1714977e-05,0.15961646,0.06860215,3.0,43,0.021197308,1.05506146e-07,0,-8.194561950389733e-08,3.0
316,316,6.554112,159027.73,145895.1,215812.88,-42.533867,93.16544069178053,-0.17313063,-1.2599221e-05,0.16644302,0.0760663,3.0,43,0.021237295,9.840606e-08,0,-8.242063923882309e-08,3.0
317,317,5.669445,163970.66,160617.69,229530.86,-44.40816,93.38562992894003,-0.17312305,-1.1978036e-05,0.17477779,0.08558365,3.0,43,0.021235224,9.251577e-08,0,-8.223556882888082e-08,3.0
318,318,4.907347,170881.45,179785.77,248039.1,-46.454567,93.63378004738479,-0.1731598,-1.1404264e-05,0.18039232,0.094773814,3.0,43,0.021178294,8.538289e-08,0,-8.320742723854045e-08,3.0
319,319,4.245922,175164.88,199181.97,265247.4,-48.670914,93.91671422082436,-0.17316453,-1.1900127e-05,0.18819067,0.106119655,3.0,43,0.021145217,7.9718845e-08,0,-8.505997039136936e-08,3.0
320,320,3.6747382,184921.3,223055.52,289740.66,-50.340008,94.2389549294603,-0.17315683,-1.2337272e-05,0.19416937,0.11507681,3.0,43,0.021183025,7.311029e-08,0,-8.644463534362896e-08,3.0
321,321,3.180988,191501.86,250269.66,315131.5,-52.57743,94.60638734689564,-0.1732167,-1.2175075e-05,0.19991706,0.12609059,3.0,43,0.02117447,6.719249e-08,0,-8.700320844014797e-08,3.0
322,322,2.752818,199782.4,278367.1,342638.66,-54.33322,95.02718067352544,-0.17316459,-1.1870786e-05,0.20769435,0.13708432,3.0,43,0.02114631,6.1716065e-08,0,-8.751308179845512e-08,3.0
323,323,2.3804083,211837.42,313724.22,378547.2,-55.97142,95.5107472565287,-0.17319185,-1.1720623e-05,0.21311823,0.1463783,3.0,43,0.021137489,5.5838452e-08,0,-8.886742394947274e-08,3.0
324,324,2.060257,220522.73,355021.78,417936.28,-58.153404,96.06547432285151,-0.17316626,-1.1779652e-05,0.21759242,0.15701227,3.0,43,0.021188926,5.069894e-08,0,-9.129320897717601e-08,3.0
