True,index,freq,Re(Z),Im(Z),Z,Phase(Z),time,Ewe_meas,I_meas,Cs,Cp,cycle_number,I_Range,Ewe,I,Ns,(QQo),cycle
0,0,7000018.5,110.67586,1196.5142,1201.622,-84.71526,2.4674798771447968,-0.016315626,2.0589454e-05,1.9002167e-05,1.8840963e-05,1.0,40,0.009970455,8.2974975e-06,0,8.730185686494628e-09,1.0
1,1,6057573.0,169.14249,1386.6613,1396.939,-83.04552,3.0194982767279726,-0.016279593,-7.523399e-06,1.8947465e-05,1.8669685e-05,1.0,40,0.014058202,1.0063576e-05,0,9.648245009568907e-09,1.0
2,2,5242039.0,168.0365,1631.3246,1639.9562,-84.11892,3.4354934164730366,-0.016277041,8.622911e-08,1.861142e-05,1.841602e-05,1.0,40,0.019424427,1.184448e-05,0,1.0162702366137132e-08,1.0
3,3,4536288.0,123.629974,1900.5048,1904.5216,-86.27809,4.803487854806008,-0.01630456,-7.5605853e-06,1.8460802e-05,1.8383013e-05,1.0,40,0.018776068,9.85868e-06,0,7.1660328100683225e-09,1.0
4,4,3925558.5,176.57823,2197.6072,2204.6897,-85.40614,5.219483447872335,-0.016302621,-7.1512713e-06,1.844882e-05,1.8330478e-05,1.0,40,0.018130139,8.223442e-06,0,4.7807034671526104e-09,1.0
5,5,3397055.0,212.01025,2501.1497,2510.1191,-85.1549,5.635494720976567,-0.016339755,-1.0537449e-05,1.873173e-05,1.8598099e-05,1.0,40,0.019216424,7.6555825e-06,0,5.1093949881912215e-09,1.0
6,6,2939708.2,228.47554,2873.8066,2882.8745,-85.45439,6.051501087407814,-0.016357213,1.0523854e-05,1.8839022e-05,1.8720695e-05,1.0,40,0.021136602,7.33178e-06,0,6.310944620812127e-09,1.0
7,7,2543924.5,253.4078,3305.533,3315.2322,-85.61618,6.603484313614899,-0.016354231,2.8956458e-06,1.892668e-05,1.8816096e-05,1.0,40,0.020562295,6.2023696e-06,0,-4.4906155248251406e-10,1.0
8,8,2201436.2,253.92609,3808.1565,3816.613,-86.18519,7.15550265982165,-0.01635181,-1.2100298e-05,1.8984503e-05,1.8900468e-05,1.0,40,0.020963004,5.492567e-06,0,-2.7312722915395526e-09,1.0
9,9,1905053.1,301.8462,4372.225,4382.632,-86.05073,7.707503672718303,-0.01633463,-1.3272438e-05,1.9107792e-05,1.9017156e-05,1.0,40,0.020494359,4.6762675e-06,0,-3.579795089598924e-09,1.0
10,10,1648567.4,316.23627,5001.4106,5011.3984,-86.382034,8.25950279229437,-0.016351903,-1.317941e-05,1.9302826e-05,1.9225963e-05,1.0,40,0.019912452,3.9734323e-06,0,-2.797292556857024e-09,1.0
11,11,1426616.2,157.90909,5941.9146,5944.012,-88.4777,8.978501999779837,-0.01638231,-1.0681989e-07,1.8775287e-05,1.8762037e-05,1.0,41,0.019377377,3.2599826e-06,0,-6.643935866654102e-09,1.0
12,12,1234551.2,217.62611,6867.794,6871.241,-88.18502,9.530495119310217,-0.016367534,1.1743738e-06,1.8771274e-05,1.8752444e-05,1.0,41,0.02060955,2.9993926e-06,0,-7.2828800906121515e-09,1.0
13,13,1068345.5,216.29008,7922.108,7925.06,-88.4361,10.082495278882561,-0.016334258,1.4890826e-06,1.8804754e-05,1.8790748e-05,1.0,41,0.020802503,2.6249018e-06,0,-7.510892609972212e-09,1.0
14,14,924510.06,221.87103,9143.351,9146.042,-88.60994,10.634486105089309,-0.01635889,2.312166e-06,1.8827954e-05,1.8816874e-05,1.0,41,0.020337105,2.2235963e-06,0,-6.6751257701551165e-09,1.0
15,15,800039.0,18.270819,10097.5205,10097.537,-89.896324,11.186496051290305,-0.016333476,3.8481093e-07,1.9701269e-05,1.9701205e-05,1.0,41,0.020491906,2.0293965e-06,0,-6.296415182305281e-09,1.0
16,16,692334.1,272.41797,12211.241,12214.279,-88.722015,11.738503970875172,-0.016335003,1.5542594e-06,1.8825416e-05,1.8816052e-05,1.0,41,0.020367775,1.667538e-06,0,-6.284050626087871e-09,1.0
17,17,599122.25,389.09183,14106.383,14111.748,-88.42003,12.290500050381524,-0.016356692,1.70882e-06,1.8831679e-05,1.8817362e-05,1.0,41,0.020536367,1.4552674e-06,0,-5.305697396776863e-09,1.0
18,18,518454.94,422.32077,16283.004,16288.4795,-88.51429,12.842503143270733,-0.016345978,1.0421597e-06,1.8852745e-05,1.8840072e-05,1.0,41,0.020570384,1.2628793e-06,0,-4.567930445678788e-09,1.0
19,19,448662.03,496.56042,18728.389,18734.97,-88.48123,13.394486102828523,-0.016347002,1.3326595e-06,1.8940891e-05,1.8927583e-05,1.0,41,0.02027206,1.0820438e-06,0,-4.907646115564527e-09,1.0
20,20,388258.97,616.8884,21661.713,21670.494,-88.36875,13.94649567574379,-0.016329955,1.0663682e-06,1.892369e-05,1.8908358e-05,1.0,41,0.020851232,9.621946e-07,0,-4.789601189153182e-09,1.0
21,21,335983.9,899.0683,24806.893,24823.18,-87.924355,14.498479675297858,-0.016340481,1.4704608e-06,1.9095423e-05,1.9070372e-05,1.0,41,0.020328015,8.189126e-07,0,-4.7353462348825e-09,1.0
22,22,290751.2,927.1341,28883.996,28898.873,-88.16152,15.050488688139012,-0.01632431,-5.2801898e-08,1.8951403e-05,1.8931894e-05,1.0,41,0.020660795,7.149343e-07,0,-4.6842174533784e-09,1.0
23,23,251605.19,1315.7444,33159.56,33185.652,-87.727745,15.602498794411076,-0.016365783,1.42763e-06,1.9076198e-05,1.904621e-05,1.0,41,0.020409267,6.1500276e-07,0,-3.4263036779170383e-09,1.0
24,24,217729.38,1689.9337,38329.57,38366.805,-87.47549,16.154488953907276,-0.016345568,-4.2523848e-07,1.907081e-05,1.9033812e-05,1.0,41,0.020138813,5.24902e-07,0,-3.5267170734745907e-09,1.0
25,25,188418.58,2107.288,44189.895,44240.11,-87.2698,16.70648314015125,-0.016358517,1.5449472e-06,1.9114963e-05,1.9071593e-05,1.0,41,0.020754477,4.6913257e-07,0,-2.837475683877402e-09,1.0
26,26,163051.14,2693.2861,50500.734,50572.504,-86.94721,17.25849249973544,-0.016352927,1.3531421e-06,1.932852e-05,1.9273699e-05,1.0,41,0.020390306,4.0318957e-07,0,-2.742287969103548e-09,1.0
27,27,141098.2,1414.8956,57962.816,57980.082,-88.60166,17.977484080503928,-0.01633942,2.582641e-07,1.9460284e-05,1.9448695e-05,1.0,42,0.01883128,3.2478877e-07,0,-1.700329545430732e-09,1.0
28,28,122105.11,1648.3368,66307.71,66328.195,-88.57598,18.39350050027133,-0.016348325,2.4820653e-07,1.965723e-05,1.9645087e-05,1.0,42,0.020387642,3.073752e-07,0,-1.631093394802521e-09,1.0
29,29,105663.59,1852.2878,76628.47,76650.85,-88.615295,18.80948585338774,-0.016371671,6.74163e-07,1.9656429e-05,1.9644951e-05,1.0,42,0.021895407,2.856512e-07,0,-1.5934346625253603e-09,1.0
30,30,91439.65,1977.0864,88584.83,88606.89,-88.72145,19.361479532934027,-0.016365672,5.903499e-07,1.9648358e-05,1.9638574e-05,1.0,42,0.020425249,2.3051535e-07,0,-1.4669360889428953e-09,1.0
31,31,79127.08,2773.4526,102414.47,102452.016,-88.44877,19.777503099379828,-0.016364517,3.7057362e-07,1.9639649e-05,1.9625255e-05,1.0,42,0.021504922,2.0990238e-07,0,-1.3874451083674996e-09,1.0
32,32,68475.36,3633.8772,118370.914,118426.68,-88.24162,20.329504032240948,-0.01636433,4.668655e-07,1.9635449e-05,1.961696e-05,1.0,42,0.020287333,1.7130712e-07,0,-1.3028765866773324e-09,1.0
33,33,59252.523,4155.9062,135869.39,135932.94,-88.24801,20.745488025335362,-0.016337594,4.0111877e-07,1.9769315e-05,1.9750836e-05,1.0,42,0.020993656,1.5444127e-07,0,-1.252114182359993e-09,1.0
34,34,51282.285,1990.3931,157449.58,157462.16,-89.275734,21.161501751776086,-0.016335992,3.9664883e-07,1.9711119e-05,1.970797e-05,1.0,42,0.021602614,1.3719242e-07,0,-1.1546456786114668e-09,1.0
35,35,44369.8,7182.058,182542.22,182683.45,-87.74688,21.71349809798994,-0.016357418,2.8154548e-07,1.9650306e-05,1.9619934e-05,1.0,42,0.020192929,1.10535076e-07,0,-1.065722516282107e-09,1.0
36,36,38403.727,8703.445,212436.16,212614.38,-87.65392,22.129488944396144,-0.016350264,7.0377683e-07,1.950825e-05,1.947556e-05,1.0,42,0.020491496,9.637869e-08,0,-1.0528802849311741e-09,1.0
37,37,33226.32,12465.029,244086.31,244404.39,-87.07655,22.545486644172342,-0.016363027,7.3059704e-07,1.9624313e-05,1.9573266e-05,1.0,42,0.020712048,8.474499e-08,0,-1.0599536435055907e-09,1.0
38,38,28754.086,16185.347,280337.75,280804.6,-86.69569,22.96148570391233,-0.016328165,5.2721083e-07,1.9744175e-05,1.9678579e-05,1.0,42,0.020814005,7.412274e-08,0,-9.66060256819211e-10,1.0
39,39,24884.947,23232.355,324836.53,325666.25,-85.909164,23.37748207032564,-0.016367963,7.1215817e-07,1.9688769e-05,1.9588571e-05,1.0,42,0.020864861,6.406823e-08,0,-9.34654711865848e-10,1.0
40,40,21553.963,28406.965,371950.5,373033.7,-85.63263,23.7944802234706,-0.01634171,6.2462016e-07,1.9852163e-05,1.9737041e-05,1.0,42,0.020829191,5.5837294e-08,0,-9.401037454255246e-10,1.0
41,41,18631.234,34517.098,426258.5,427653.75,-85.37047,24.21049418990151,-0.016333587,3.8416988e-07,2.0040356e-05,1.9909803e-05,1.0,42,0.02070579,4.841718e-08,0,-8.957373142296869e-10,1.0
42,42,16126.037,35215.37,501950.28,503184.06,-85.98687,24.79249797752709,-0.016367497,4.7171164e-07,1.9662184e-05,1.9565881e-05,1.0,43,0.020250876,4.0245464e-08,0,-8.422465175858602e-10,1.0
43,43,13954.87,21696.168,590673.25,591071.56,-87.8964,25.20948631738429,-0.016357493,4.6118967e-07,1.9308434e-05,1.9282419e-05,1.0,43,0.019999327,3.383571e-08,0,-7.86045916076894e-10,1.0
44,44,12080.609,56230.81,668810.4,671170.06,-85.19411,25.625489803758683,-0.016375024,4.775406e-07,1.9698278e-05,1.9560011e-05,1.0,43,0.019600047,2.9202804e-08,0,-7.322648810080206e-10,1.0
45,45,10447.592,75296.46,775035.6,778684.6,-84.451,26.041479850217,-0.016361907,4.740581e-07,1.9655417e-05,1.9471634e-05,1.0,43,0.019082777,2.4506425e-08,0,-6.825133073571108e-10,1.0
46,46,9045.586,87434.05,860288.25,864719.94,-84.19676,26.473244910739595,-0.016358592,4.5308872e-07,2.0452171e-05,2.0243075e-05,1.0,43,0.021662347,2.5051287e-08,0,-6.279349654293319e-10,1.0
47,47,7827.7437,113989.266,1001246.4,1007714.2,-83.50499,26.953929920244263,-0.016356431,4.5683194e-07,2.030685e-05,2.0047017e-05,1.0,43,0.021648964,2.1483238e-08,0,-5.715834487302433e-10,1.0
48,48,6770.8345,142169.77,1161741.6,1170408.4,-83.02304,27.49241786581115,-0.01634132,4.6631098e-07,2.0233378e-05,1.9934836e-05,1.0,43,0.021669136,1.8514168e-08,0,-4.989530625841473e-10,1.0
49,49,5860.798,182275.31,1333782.0,1346179.2,-82.21813,28.097977121244185,-0.01638259,5.2098784e-07,2.0360036e-05,1.9986763e-05,1.0,43,0.021678282,1.6103563e-08,0,-4.1773268243614245e-10,1.0
50,50,5071.625,227075.38,1536382.0,1553072.1,-81.59262,28.77870670027187,-0.01633422,4.779131e-07,2.0425552e-05,1.9988904e-05,1.0,43,0.02168419,1.3962127e-08,0,-3.351589558707858e-10,1.0
51,51,4388.5933,322426.9,1707741.8,1737912.9,-79.308235,29.45882662589429,-0.016341003,4.6783808e-07,2.1235996e-05,2.0505058e-05,1.0,43,0.021619668,1.2440019e-08,0,-2.4844269860740334e-10,1.0
52,52,3798.7827,359522.2,2004242.0,2036232.4,-79.83041,30.13883420485945,-0.016353467,4.7068735e-07,2.0903813e-05,2.0252151e-05,1.0,43,0.021680176,1.0647201e-08,0,-1.585084511921285e-10,1.0
53,53,3286.0488,450175.2,2285851.0,2329758.0,-78.85876,30.818693010500283,-0.016313,4.5366605e-07,2.1188403e-05,2.0397287e-05,1.0,43,0.021705842,9.316779e-09,0,-6.847052666763491e-11,1.0
54,54,2844.088,565202.75,2590432.0,2651375.5,-77.69161,31.49883304280229,-0.016335487,4.5619876e-07,2.1602544e-05,2.0620862e-05,1.0,43,0.021676794,8.175679e-09,0,2.2023205329957384e-11,1.0
55,55,2460.7852,718597.8,2926404.8,3013341.5,-76.20362,32.17871483509225,-0.016335955,4.7065012e-07,2.2101007e-05,2.0844147e-05,1.0,43,0.021688668,7.1975474e-09,0,1.1343539950060667e-10,1.0
56,56,2129.3164,912893.1,3332930.8,3455691.2,-74.682304,32.85880545405962,-0.016335078,4.566457e-07,2.2426093e-05,2.0861058e-05,1.0,43,0.021684388,6.2749783e-09,0,2.0277419093865193e-10,1.0
57,57,1843.2289,1118339.6,3750104.0,3913306.0,-73.3946,33.53894217967172,-0.016331445,4.606124e-07,2.302489e-05,2.1144459e-05,1.0,43,0.021680092,5.5400964e-09,0,2.950346780671668e-10,1.0
58,58,1594.4913,1416809.9,4192067.0,4425017.0,-71.32608,34.21883453198825,-0.016335674,4.4848886e-07,2.381057e-05,2.1369595e-05,1.0,43,0.021682123,4.899896e-09,0,3.8683963790751996e-10,1.0
59,59,1380.4436,1722606.2,4703764.0,5009268.0,-69.88632,34.898681710954406,-0.01635451,4.5480203e-07,2.4510711e-05,2.1612173e-05,1.0,43,0.021693759,4.3307242e-09,0,4.753610830212887e-10,1.0
60,60,1194.6187,2142562.2,5206907.0,5630493.0,-67.63358,35.57880451658275,-0.016349817,4.4025754e-07,2.5586509e-05,2.1881537e-05,1.0,43,0.021696432,3.8533803e-09,0,5.589351653523009e-10,1.0
61,61,1033.3434,2688655.2,5761342.5,6357824.5,-64.98287,36.25909865551512,-0.016334817,4.4703629e-07,2.6733253e-05,2.1952404e-05,1.0,43,0.021694666,3.4122782e-09,0,6.437504412421216e-10,1.0
62,62,894.71045,3252424.5,6334629.5,7120800.5,-62.822422,36.93881007451273,-0.016345605,4.6510047e-07,2.8081247e-05,2.2222925e-05,1.0,43,0.021706201,3.048281e-09,0,7.26652019769179e-10,1.0
63,63,774.2569,3894701.2,6815177.5,7849544.0,-60.253128,37.618962346808985,-0.016339736,4.4208258e-07,3.0161844e-05,2.2736489e-05,1.0,43,0.021681093,2.762083e-09,0,8.14452006897189e-10,1.0
64,64,669.7856,4632066.5,7330386.0,8671251.0,-57.71123,38.298823899109266,-0.01633616,4.636665e-07,3.2415857e-05,2.3165821e-05,1.0,43,0.02168467,2.5007545e-09,0,9.03377923957412e-10,1.0
65,65,579.81464,5453585.5,7838322.5,9548869.0,-55.171375,38.97884651806089,-0.016340407,4.5590076e-07,3.501933e-05,2.3596644e-05,1.0,43,0.02167365,2.2697608e-09,0,9.874202826734013e-10,1.0
66,66,501.44418,6285745.0,8318982.0,10426699.0,-52.925648,39.65619900354068,-0.01631,4.6165522e-07,3.815288e-05,2.428701e-05,1.0,43,0.021667339,2.078063e-09,0,1.0711308443631046e-09,1.0
67,67,434.02762,7478362.5,8762655.0,11519984.0,-49.521374,40.33618711584131,-0.016327066,4.5698084e-07,4.1847263e-05,2.4212226e-05,1.0,43,0.021684224,1.8823136e-09,0,1.1611606169557773e-09,1.0
68,68,375.6009,8554486.0,9034958.0,12442254.0,-46.564697,41.014422668056795,-0.016323509,4.561242e-07,4.6899408e-05,2.4729852e-05,1.0,43,0.02168051,1.7424905e-09,0,1.2496622604264306e-09,1.0
69,69,325.10385,9739001.0,9202452.0,13399002.0,-43.37743,41.69370208703185,-0.016327942,4.5130088e-07,5.3197895e-05,2.5093235e-05,1.0,43,0.021678882,1.6179474e-09,0,1.3336365905126657e-09,1.0
70,70,281.3503,10936657.0,9268208.0,14335625.0,-40.279423,42.370781879188144,-0.016341655,4.532004e-07,6.103472e-05,2.5511456e-05,1.0,43,0.021683479,1.512559e-09,0,1.4179281079687454e-09,1.0
71,71,243.36427,12098016.0,9190361.0,15192917.0,-37.22243,43.054095031606266,-0.016315924,4.4023886e-07,7.115915e-05,2.6038357e-05,1.0,43,0.021670647,1.4263651e-09,0,1.5085758536399978e-09,1.0
72,72,210.60631,13370181.0,9022658.0,16129789.0,-34.01283,43.73120053045568,-0.016318887,4.5668287e-07,8.375568e-05,2.6207517e-05,1.0,43,0.021708459,1.3458613e-09,0,1.5968563930791973e-09,1.0
73,73,182.27473,14530051.0,8815109.0,16994956.0,-31.244404,44.4022840023099,-0.016360193,4.726241e-07,9.905262e-05,2.6649019e-05,1.0,43,0.021666465,1.2748762e-09,0,1.683420936521401e-09,1.0
74,74,157.72879,15580974.0,8140441.5,17579350.0,-27.585283,45.09064312838382,-0.016326563,4.6821046e-07,0.00012395419,2.6579786e-05,1.0,43,0.021692479,1.233975e-09,0,1.7741425499887677e-09,1.0
75,75,136.52892,16570945.0,7724861.0,18283044.0,-24.993473,45.76253420024295,-0.016330235,4.5921558e-07,0.00015090541,2.6939477e-05,1.0,43,0.021706136,1.1872276e-09,0,1.8614274944108106e-09,1.0
76,76,118.14758,17028842.0,7190278.5,18484630.0,-22.891474,46.45088151298114,-0.016354548,4.490475e-07,0.00018734823,2.8347808e-05,1.0,43,0.02166451,1.1720284e-09,0,1.950067623920841e-09,1.0
77,77,102.25773,17748118.0,6814610.0,19011434.0,-21.004911,47.11734986459487,-0.016345866,4.533121e-07,0.0002283931,2.9345076e-05,1.0,43,0.021680018,1.1403674e-09,0,2.0353643850325515e-09,1.0
78,78,88.4436,18441746.0,6403460.0,19521842.0,-19.148348,47.80628856396652,-0.016352145,4.6388993e-07,0.00028102114,3.0236171e-05,1.0,43,0.021675393,1.110315e-09,0,2.1220517185834593e-09,1.0
79,79,76.54279,18911058.0,5777943.0,19774042.0,-16.989616,48.47373342239007,-0.016319,4.4297641e-07,0.00035986747,3.0725445e-05,1.0,43,0.02167716,1.0962433e-09,0,2.2070152763774863e-09,1.0
80,80,66.250786,19422068.0,5077940.5,20074914.0,-14.65212,49.141999614133965,-0.016325744,4.4644025e-07,0.00047308754,3.0269784e-05,1.0,43,0.021677433,1.0798269e-09,0,2.2916394461670845e-09,1.0
81,81,57.329906,19114432.0,3754452.0,19479666.0,-11.112555,49.79664212523858,-0.01634076,4.750823e-07,0.000739422,2.746771e-05,1.0,43,0.021672597,1.1125754e-09,0,2.377484666389188e-09,1.0
82,82,49.60321,20119078.0,4093085.2,20531212.0,-11.499488,50.48138519769418,-0.016336365,4.5934593e-07,0.000783898,3.11553e-05,1.0,43,0.021678641,1.055887e-09,0,2.465573274636377e-09,1.0
83,83,42.92585,20154392.0,3770808.5,20504110.0,-10.597299,51.18943363134167,-0.016316298,4.442614e-07,0.0009832564,3.3254764e-05,1.0,43,0.021681478,1.057421e-09,0,2.553195009796844e-09,1.0
84,84,37.1518,20892574.0,3249984.5,21143842.0,-8.84189,51.83317336862092,-0.016326321,4.5128223e-07,0.0013181324,3.114252e-05,1.0,43,0.021692203,1.0259348e-09,0,2.6363687711174294e-09,1.0
85,85,32.150223,21038994.0,3373348.8,21307716.0,-9.109155,52.47237131893053,-0.016345233,4.7547337e-07,0.0014674892,3.6781003e-05,1.0,43,0.02165935,1.0165027e-09,0,2.7215188783190564e-09,1.0
86,86,27.835518,21018060.0,3098028.0,21245156.0,-8.384928,53.2003268468834,-0.01634663,4.6423443e-07,0.001845591,3.9245177e-05,1.0,43,0.02166766,1.0198871e-09,0,2.814787907288677e-09,1.0
87,87,24.082958,21525236.0,2849877.5,21713074.0,-7.5419283,53.90239530688268,-0.01633152,4.5368458e-07,0.0023189113,3.9947892e-05,1.0,43,0.021679698,9.984629e-10,0,2.905656870975311e-09,1.0
88,88,20.833313,21138430.0,2623490.8,21300608.0,-7.074803,54.55675933799648,-0.01632237,4.5811683e-07,0.002911939,4.4173044e-05,1.0,43,0.021690255,1.0182928e-09,0,2.986932301783565e-09,1.0
89,89,18.021912,21687230.0,2742129.2,21859900.0,-7.206228,55.3027298534289,-0.01635618,4.425108e-07,0.0032205598,5.0676997e-05,1.0,43,0.021673242,9.914611e-10,0,3.0834198849014864e-09,1.0
90,90,15.604198,21525840.0,2431630.2,21662748.0,-6.444999,55.95701337780338,-0.016329527,4.4457798e-07,0.0041945092,5.2850504e-05,1.0,43,0.021680785,1.0008326e-09,0,3.1645464207935693e-09,1.0
91,91,13.500899,21725738.0,2513419.8,21870642.0,-6.599131,56.70500117333722,-0.016336663,4.7781054e-07,0.0046902113,6.194402e-05,1.0,43,0.0216716,9.908991e-10,0,3.2596314568961356e-09,1.0
92,92,11.686608,21925200.0,2297708.2,22045268.0,-5.9826226,57.29586874807137,-0.016343929,4.6072404e-07,0.0059270253,6.4386644e-05,1.0,43,0.021651188,9.82124e-10,0,3.334095363108087e-09,1.0
93,93,10.113269,22199972.0,2271632.0,22315892.0,-5.842507,57.969500673381845,-0.016328631,4.5318177e-07,0.006927725,7.178572e-05,1.0,43,0.021662647,9.707274e-10,0,3.422874123933248e-09,1.0
94,94,8.748621,22446518.0,2428516.5,22577508.0,-6.174883,58.73637764315936,-0.016331073,4.501555e-07,0.0074909944,8.667015e-05,1.0,43,0.021676868,9.60109e-10,0,3.5211418042426162e-09,1.0
95,95,7.570237,22459106.0,2164571.0,22563174.0,-5.505068,59.61201037809951,-0.01633301,4.6269807e-07,0.009712674,8.938859e-05,1.0,43,0.02167251,9.605258e-10,0,3.6224737302990523e-09,1.0
96,96,6.554112,22459638.0,2196671.8,22566806.0,-5.5860643,60.148316003527725,-0.016336514,4.6253047e-07,0.011054551,0.00010474451,1.0,43,0.021671524,9.603275e-10,0,3.704431935876107e-09,1.0
97,97,5.669445,22741748.0,2190355.5,22846986.0,-5.501433,60.75813352581463,-0.01635563,4.615807e-07,0.012816369,0.00011779758,1.0,43,0.021693995,9.495342e-10,0,3.766812477255324e-09,1.0
98,98,4.907347,22604752.0,2513565.0,22744072.0,-6.3450136,61.450563105376204,-0.016353356,4.5252997e-07,0.012902778,0.0001575894,1.0,43,0.021665378,9.525725e-10,0,3.869842963416377e-09,1.0
99,99,4.245922,23058948.0,2441926.0,23187886.0,-6.045051,62.2383257294714,-0.016347347,4.6414132e-07,0.015350256,0.0001702387,1.0,43,0.021671526,9.346055e-10,0,3.962503110232076e-09,1.0
100,100,3.6747382,23177666.0,2386868.5,23300244.0,-5.8796725,63.13791017222684,-0.016360147,4.700634e-07,0.018145345,0.00019041506,1.0,43,0.021668361,9.2996283e-10,0,4.070557997634357e-09,1.0
101,101,3.180988,23363948.0,2375198.5,23484370.0,-5.8047943,64.16724216777948,-0.01636258,4.6511903e-07,0.02106484,0.00021547663,1.0,43,0.021672713,9.228569e-10,0,4.220211996317101e-09,1.0
102,102,2.752818,23579074.0,2439597.5,23704944.0,-5.9070616,65.34610731710563,-0.016348952,4.646473e-07,0.023698693,0.00025100532,1.0,43,0.021668503,9.1409214e-10,0,4.372915461524191e-09,1.0
103,103,2.3804083,23725282.0,2471667.5,23853682.0,-5.947541,66.7000314880861,-0.016356261,4.5706778e-07,0.027050707,0.00029043428,1.0,43,0.02167923,9.0884206e-10,0,4.52434431505185e-09,1.0
104,104,2.060257,24198152.0,2808848.0,24360628.0,-6.621089,68.2562980419898,-0.016343966,4.532609e-07,0.027502395,0.00036563692,1.0,43,0.02169268,8.904812e-10,0,4.713139766294777e-09,1.0
