True,index,freq,Re(Z),Im(Z),Z,Phase(Z),time,Ewe_meas,I_meas,Cs,Cp,cycle_number,I_Range,Ewe,I,Ns,(QQo),cycle
110,110,7000018.5,175.81213,1185.8464,1198.8085,-81.566826,82.84950270844274,0.014398769,1.8747522e-05,1.9173107e-05,1.8760733e-05,2.0,40,0.009987746,8.331394e-06,0,4.606083470485582e-08,2.0
111,111,6057573.0,228.93982,1377.7362,1396.6283,-80.565315,83.40148494797177,0.014415537,5.5003707e-06,1.9070209e-05,1.8557774e-05,2.0,40,0.014031614,1.0046778e-05,0,4.8066795477421604e-08,2.0
112,112,5242039.0,207.85565,1604.8645,1618.2688,-82.62036,83.81750272776117,0.01446698,-4.1558005e-06,1.8918274e-05,1.8606168e-05,2.0,40,0.019338775,1.19502865e-05,0,4.837782817533309e-08,2.0
113,113,4536288.0,175.65697,1886.2711,1894.4324,-84.67973,85.1854976194154,0.014423307,2.8026168e-06,1.8600105e-05,1.844019e-05,2.0,40,0.019312683,1.0194443e-05,0,4.757732547395063e-08,2.0
114,114,3925558.5,261.2645,2167.8728,2183.5593,-83.12805,85.60149073248613,0.0144116245,-1.1486326e-05,1.8701863e-05,1.8434122e-05,2.0,40,0.018433562,8.441979e-06,0,4.5643123488100436e-08,2.0
115,115,3397055.0,306.41776,2464.7974,2483.771,-82.91348,86.01748171224608,0.014376746,9.947084e-06,1.9007997e-05,1.87187e-05,2.0,40,0.019484615,7.844771e-06,0,4.417130779724864e-08,2.0
116,116,2939708.2,329.7926,2823.267,2842.4639,-83.33733,86.43350189199555,0.014400204,-2.1998365e-05,1.9176261e-05,1.891812e-05,2.0,40,0.02135764,7.5137773e-06,0,4.584158688397445e-08,2.0
117,117,2543924.5,378.45105,3246.5088,3268.4927,-83.350945,86.9854847449169,0.014379708,-8.323407e-06,1.9270781e-05,1.9012423e-05,2.0,40,0.02057899,6.2961713e-06,0,5.2220419213270473e-08,2.0
118,118,2201436.2,401.03513,3723.429,3744.9636,-83.85261,87.53748989113956,0.014350923,-6.3884454e-06,1.9416499e-05,1.919384e-05,2.0,40,0.021021828,5.61336e-06,0,4.805734482633126e-08,2.0
119,119,1905053.1,488.68274,4279.338,4307.1504,-83.48528,88.08949903733446,0.014376801,-1.0574658e-05,1.9522546e-05,1.9271234e-05,2.0,40,0.020517785,4.7636563e-06,0,4.701123319843248e-08,2.0
120,120,1648567.4,568.63995,4960.309,4992.7964,-83.46027,88.6414870902372,0.014385037,-1.4351553e-05,1.9462772e-05,1.9210314e-05,2.0,40,0.019976757,4.001116e-06,0,4.357472246448582e-08,2.0
121,121,1426616.2,528.6351,5771.372,5795.5317,-84.76653,89.36050357771455,0.014363703,-3.6505467e-06,1.9330091e-05,1.9169265e-05,2.0,41,0.019275134,3.3258611e-06,0,4.443752233667119e-08,2.0
122,122,1234551.2,654.47473,6656.3174,6688.415,-84.38451,89.91249208393856,0.01435394,-2.222603e-07,1.9367651e-05,1.9182207e-05,2.0,41,0.020493798,3.064074e-06,0,4.4366796393916276e-08,2.0
123,123,1068345.5,785.99457,7672.0117,7712.169,-84.150475,90.46449597683386,0.014379596,-9.038177e-07,1.9417761e-05,1.9216071e-05,2.0,41,0.020831995,2.701185e-06,0,4.5777776803228046e-08,2.0
124,124,924510.06,960.0031,8809.719,8861.87,-83.78097,91.01650272301049,0.014382708,-1.1198308e-06,1.9540985e-05,1.9311667e-05,2.0,41,0.02007001,2.2647603e-06,0,4.6359379133909566e-08,2.0
125,125,800039.0,1240.6578,10017.774,10094.307,-82.94012,91.56849357593455,0.014383565,-6.8594255e-07,1.98581e-05,1.9558125e-05,2.0,41,0.02064455,2.0451675e-06,0,4.708285190889604e-08,2.0
126,126,692334.1,1553.6222,11629.331,11732.65,-82.39062,92.12049336210475,0.014353884,1.0384357e-06,1.9767405e-05,1.942079e-05,2.0,41,0.020617262,1.7572553e-06,0,4.8925372201730335e-08,2.0
127,127,599122.25,1967.3325,13353.651,13497.793,-81.61916,92.67249394833925,0.014394241,-7.157376e-07,1.98932e-05,1.9470594e-05,2.0,41,0.020566192,1.5236707e-06,0,4.9252049174480954e-08,2.0
128,128,518454.94,2428.6267,15335.673,15526.786,-81.001114,93.22450146792107,0.014377417,4.7419493e-07,2.0017334e-05,1.9527597e-05,2.0,41,0.020500481,1.3203299e-06,0,5.0412023494220966e-08,2.0
129,129,448662.03,3174.8179,17435.186,17721.883,-79.67993,93.77649805412511,0.01436974,1.0775407e-06,2.0345775e-05,1.9692809e-05,2.0,41,0.020259649,1.1431996e-06,0,5.11298421893795e-08,2.0
130,130,388258.97,3927.486,20094.014,20474.24,-78.94065,94.32849728033761,0.014373038,3.6641086e-06,2.0400084e-05,1.964942e-05,2.0,41,0.020931901,1.022353e-06,0,5.122033919397969e-08,2.0
131,131,335983.9,5298.6777,22755.924,23364.676,-76.892334,94.8804851732275,0.014382224,6.9579403e-07,2.0816475e-05,1.9745885e-05,2.0,41,0.0203144,8.694492e-07,0,5.183922775242185e-08,2.0
132,132,290751.2,6417.51,25916.389,26699.13,-76.09197,95.4324863194197,0.014417568,-9.652701e-07,2.112147e-05,1.9901181e-05,2.0,41,0.020534992,7.6912585e-07,0,5.112964213752649e-08,2.0
133,133,251605.19,8247.345,28958.197,30109.73,-74.10296,95.9844979190093,0.014397372,6.678612e-07,2.1843842e-05,2.0204976e-05,2.0,41,0.020418338,6.781309e-07,0,5.131944440763903e-08,2.0
134,134,217729.38,10725.111,32861.004,34566.945,-71.92445,96.5364894651866,0.014399234,6.8834584e-07,2.2244481e-05,2.0103049e-05,2.0,41,0.020216815,5.848598e-07,0,5.124399975090436e-08,2.0
135,135,188418.58,13249.032,36870.22,39178.438,-70.23449,97.08849709140486,0.014379168,1.8522077e-06,2.2909768e-05,2.0289806e-05,2.0,41,0.020819655,5.3140593e-07,0,5.155597814507e-08,2.0
136,136,163051.14,16621.434,41021.453,44260.95,-67.94276,97.6404873309948,0.014418704,2.3546553e-08,2.3794975e-05,2.0439295e-05,2.0,41,0.0203332,4.593937e-07,0,5.264733136982771e-08,2.0
137,137,141098.2,21196.01,45266.9,49983.625,-64.90888,98.19250207717414,0.014392434,1.1106896e-07,2.491827e-05,2.0437317e-05,2.0,41,0.020226892,4.0467037e-07,0,5.281075840649723e-08,2.0
138,138,122105.11,23991.117,50701.34,56090.992,-64.677185,98.91149293803028,0.014342557,8.0621504e-07,2.5707917e-05,2.1004846e-05,2.0,42,0.018973496,3.382628e-07,0,5.343936013811401e-08,2.0
139,139,105663.59,29486.111,55497.625,62844.387,-62.018112,99.32749826446525,0.014344942,7.630049e-07,2.7140659e-05,2.1165872e-05,2.0,42,0.020238638,3.220437e-07,0,5.348487691693274e-08,2.0
140,140,91439.65,36120.656,60202.746,70207.35,-59.036938,99.74350692422013,0.014352078,8.391817e-07,2.8911412e-05,2.12587e-05,2.0,42,0.021448575,3.0550325e-07,0,5.356467199299115e-08,2.0
141,141,79127.08,43845.27,64261.156,77793.984,-55.69435,100.29549223041977,0.014347979,8.024902e-07,3.1300155e-05,2.1357553e-05,2.0,42,0.020253327,2.6034567e-07,0,5.3698293519843985e-08,2.0
142,142,68475.36,52799.105,67599.45,85775.47,-52.008095,100.71149211682496,0.014372386,5.225548e-07,3.438291e-05,2.1355158e-05,2.0,42,0.021078683,2.4574257e-07,0,5.374750561648314e-08,2.0
143,143,59252.523,61882.12,69988.38,93422.54,-48.517624,101.12748362994171,0.014357667,8.389956e-07,3.837844e-05,2.1539514e-05,2.0,42,0.021779543,2.3312943e-07,0,5.3846057446226796e-08,2.0
144,144,51282.285,72046.68,72067.305,101903.98,-45.0082,101.67950493618264,0.014377566,6.555381e-07,4.306401e-05,2.153817e-05,2.0,42,0.020223169,1.9845318e-07,0,5.394106941600047e-08,2.0
145,145,44369.8,82704.14,70543.27,108702.94,-40.462833,102.09549522257294,0.014340693,1.0334418e-06,5.0848368e-05,2.141439e-05,2.0,42,0.020603612,1.8954053e-07,0,5.39904635124433e-08,2.0
146,146,38403.727,91885.78,68871.48,114831.516,-36.852787,102.51149166902178,0.014385354,6.080442e-07,6.017379e-05,2.1645317e-05,2.0,42,0.020902475,1.8202734e-07,0,5.402817368972792e-08,2.0
147,147,33226.32,100713.07,65956.805,120388.63,-33.220715,102.92749062212533,0.014338085,9.878105e-07,7.262368e-05,2.1798496e-05,2.0,42,0.021090945,1.7519051e-07,0,5.407864571570068e-08,2.0
148,148,28754.086,109402.25,62138.402,125817.46,-29.595753,103.34348920188495,0.01437192,9.5354034e-07,8.9075955e-05,2.1726952e-05,2.0,42,0.021222195,1.6867448e-07,0,5.408557133664083e-08,2.0
149,149,24884.947,117005.23,57477.785,130360.73,-26.162172,103.75949564829352,0.014384627,5.883019e-07,0.00011127135,2.1631662e-05,2.0,42,0.021287942,1.6330027e-07,0,5.422215878554295e-08,2.0
150,150,21553.963,122963.87,52472.29,133691.64,-23.109364,104.17548550802167,0.014392154,6.667138e-07,0.00014072232,2.1677764e-05,2.0,42,0.021258257,1.5900962e-07,0,5.4334064362686123e-08,2.0
151,151,18631.234,127866.48,47362.484,136356.3,-20.324923,104.59248683453188,0.014351649,9.943295e-07,0.00018036159,2.1760185e-05,2.0,42,0.021174716,1.5528961e-07,0,5.446932239933538e-08,2.0
152,152,16126.037,132155.47,42377.53,138783.73,-17.779186,105.00850312094553,0.014352189,9.999173e-07,0.0002328932,2.1714557e-05,2.0,42,0.020994758,1.512768e-07,0,5.46624824990301e-08,2.0
153,153,13954.87,134882.62,37461.297,139988.11,-15.521706,105.42450010069297,0.014391689,6.844081e-07,0.00030444688,2.1801927e-05,2.0,42,0.020716986,1.4799105e-07,0,5.4846470531543705e-08,2.0
154,154,12080.609,137874.6,33103.926,141793.06,-13.501244,105.8405000937928,0.014384944,5.9314505e-07,0.0003979713,2.169206e-05,2.0,42,0.020390226,1.4380271e-07,0,5.5002336647320386e-08,2.0
155,155,10447.592,139946.61,28898.305,142899.14,-11.667316,106.25650227357983,0.014384609,8.322916e-07,0.0005271468,2.1558426e-05,2.0,42,0.01987974,1.3911728e-07,0,5.5176344824110443e-08,2.0
156,156,9045.586,140855.61,25377.861,143123.52,-10.21337,106.82927238076809,0.014385633,7.4903755e-07,0.0006933115,2.179799e-05,2.0,42,0.02023029,1.4134847e-07,0,5.536135563680943e-08,2.0
157,157,7827.7437,142594.52,22201.027,144312.44,-8.849527,107.30892384357867,0.014363275,8.831386e-07,0.0009158207,2.16745e-05,2.0,42,0.020300036,1.4066727e-07,0,5.5481777626988126e-08,2.0
158,158,6770.8345,143148.88,18861.188,144386.1,-7.5060115,107.84742288247799,0.01436417,9.5354153e-07,0.0012462607,2.126651e-05,2.0,42,0.020356786,1.4098855e-07,0,5.5743580187630336e-08,2.0
159,159,5860.798,143594.73,16338.18,144521.22,-6.491187,108.45396933794837,0.014386527,8.592986e-07,0.0016621099,2.1242411e-05,2.0,42,0.02040479,1.4118888e-07,0,5.5972286031321675e-08,2.0
160,160,5071.625,144055.55,14243.178,144757.97,-5.6466427,109.13471923697944,0.014364598,8.462611e-07,0.0022032617,2.1330201e-05,2.0,42,0.020447895,1.4125575e-07,0,5.6105287472015695e-08,2.0
161,161,4388.5933,144379.47,12355.895,144907.2,-4.891415,109.81481196259847,0.01436063,8.5464256e-07,0.0029350845,2.1339736e-05,2.0,42,0.020499436,1.4146596e-07,0,5.619834813602825e-08,2.0
162,162,3798.7827,144334.42,10564.946,144720.56,-4.1864524,110.4948162882356,0.014367076,8.129224e-07,0.0039655953,2.113404e-05,2.0,42,0.02051098,1.4172818e-07,0,5.6270618903636287e-08,2.0
163,163,3286.0488,144650.28,9145.613,144939.11,-3.6177497,111.17470578720531,0.014365921,8.570639e-07,0.005295821,2.1085689e-05,2.0,42,0.020548807,1.4177544e-07,0,5.644378539606344e-08,2.0
164,164,2844.088,144714.98,8348.491,144955.6,-3.3016877,111.85483307283721,0.014350867,8.2540146e-07,0.0067029987,2.2233875e-05,2.0,42,0.020570673,1.4191016e-07,0,5.651890515925789e-08,2.0
165,165,2460.7852,144728.1,7284.9624,144911.33,-2.88158,112.53470273179846,0.0143615985,8.1590247e-07,0.008878081,2.2437222e-05,2.0,42,0.020582952,1.4203825e-07,0,5.663776190317549e-08,2.0
166,166,2129.3164,144866.2,6491.2476,145011.56,-2.565626,113.21483740409894,0.014358785,8.959905e-07,0.011514677,2.3072935e-05,2.0,42,0.02060372,1.420833e-07,0,5.669557589723695e-08,2.0
167,167,1843.2289,144872.39,5955.7915,144994.77,-2.3541384,113.89496927638538,0.014346339,9.1871317e-07,0.014497776,2.4461084e-05,2.0,42,0.020603444,1.4209785e-07,0,5.689715001325031e-08,2.0
168,168,1594.4913,144958.83,5327.5513,145056.69,-2.104797,114.57480928202858,0.014361505,7.659874e-07,0.018735718,2.527261e-05,2.0,42,0.02061525,1.4211858e-07,0,5.698845553519563e-08,2.0
169,169,1380.4436,144956.2,5016.5757,145042.98,-1.9820741,115.25471150099474,0.0143545,8.4588896e-07,0.022982333,2.7492571e-05,2.0,42,0.020616805,1.4214272e-07,0,5.706408503642003e-08,2.0
170,170,1194.6187,144841.06,4666.407,144916.22,-1.8452847,115.93483649329573,0.014356698,8.7382665e-07,0.028550139,2.9603258e-05,2.0,42,0.02060146,1.4216118e-07,0,5.729358493368113e-08,2.0
171,171,1033.3434,145116.69,4399.519,145183.36,-1.7365108,116.61509879221558,0.014354817,9.559635e-07,0.035008237,3.2147484e-05,2.0,42,0.020617774,1.4201196e-07,0,5.754447423669183e-08,2.0
172,172,894.71045,145100.69,4391.8516,145167.14,-1.7336773,117.29484178454732,0.014378088,9.2374205e-07,0.04050326,3.7072223e-05,2.0,42,0.020625614,1.4208183e-07,0,5.76940489421405e-08,2.0
173,173,774.2569,145079.0,4788.373,145158.0,-1.8903769,117.97493755017058,0.01436784,1.0101625e-06,0.042928636,4.6713358e-05,2.0,42,0.020621784,1.420644e-07,0,5.775052619104828e-08,2.0
174,174,669.7856,145352.92,4295.118,145416.38,-1.6925738,118.65480774248135,0.014360798,9.583847e-07,0.05532345,4.826506e-05,2.0,42,0.020627968,1.418545e-07,0,5.793410687835e-08,2.0
175,175,579.81464,145447.39,4522.0327,145517.67,-1.7807811,119.33481948144617,0.014360723,1.0189164e-06,0.060701195,5.8618294e-05,2.0,42,0.02062679,1.4174766e-07,0,5.8199416871003805e-08,2.0
176,176,501.44418,145547.27,4564.862,145618.83,-1.7964035,120.01217954026652,0.014340153,8.859331e-07,0.06952962,6.832665e-05,2.0,42,0.020630546,1.4167499e-07,0,5.839950303781589e-08,2.0
177,177,434.02762,145383.23,4856.4434,145464.33,-1.9132211,120.69223543922999,0.014381758,1.0112799e-06,0.075506516,8.4160456e-05,2.0,42,0.020631853,1.4183445e-07,0,5.841723008915523e-08,2.0
178,178,375.6009,145694.81,5252.197,145789.45,-2.064579,121.37146203147131,0.014378367,8.931969e-07,0.080677524,0.00010470859,2.0,42,0.020626325,1.4148023e-07,0,5.851736276967697e-08,2.0
179,179,325.10385,145959.72,5639.333,146068.62,-2.2125921,122.05068427712104,0.014375982,8.578093e-07,0.086810105,0.00012939333,2.0,42,0.020621141,1.4117434e-07,0,5.858186327374683e-08,2.0
180,180,281.3503,146003.55,6104.6104,146131.11,-2.3942215,122.72782502927294,0.01436389,8.7177807e-07,0.0926648,0.00016171315,2.0,42,0.020622576,1.4112379e-07,0,5.8621081670103456e-08,2.0
181,181,243.36427,146236.2,6934.013,146400.5,-2.7147338,123.41111906172591,0.014374715,9.881849e-07,0.094314545,0.00021157428,2.0,42,0.020636484,1.409591e-07,0,5.897982628693595e-08,2.0
182,182,210.60631,146529.44,7379.2285,146715.12,-2.8829823,124.08818546720431,0.014357593,8.052862e-07,0.10240892,0.0002590657,2.0,42,0.020635076,1.4064723e-07,0,5.932167185482425e-08,2.0
183,183,182.27473,145938.83,8368.037,146178.55,-3.281709,124.76028101911652,0.014365269,8.956181e-07,0.104344614,0.00034194003,2.0,42,0.020571552,1.4072894e-07,0,5.93813354107399e-08,2.0
184,184,157.72879,147219.3,9301.527,147512.84,-3.6152246,125.44865979851602,0.014371641,1.0502064e-06,0.108481295,0.00043132412,2.0,42,0.020640062,1.3992045e-07,0,5.969722311494389e-08,2.0
185,185,136.52892,147374.22,10046.459,147716.25,-3.8998036,126.12053529705736,0.014370001,9.734712e-07,0.11603325,0.00053672516,2.0,42,0.020624291,1.3962101e-07,0,5.967919313165816e-08,2.0
186,186,118.14758,147972.36,11285.46,148402.1,-4.3613544,126.80891084976611,0.0143628465,9.317509e-07,0.11936474,0.00069029466,2.0,42,0.020634335,1.3904342e-07,0,5.992424679377982e-08,2.0
187,187,102.25773,148375.1,12624.042,148911.17,-4.8631244,127.47535834807786,0.014350438,1.0328852e-06,0.12328935,0.0008860696,2.0,42,0.020626867,1.3851793e-07,0,6.007435721790305e-08,2.0
188,188,88.4436,148901.92,14371.804,149593.89,-5.5130305,128.16528891414055,0.014368231,9.0474435e-07,0.12521097,0.001155679,2.0,42,0.020625353,1.3787563e-07,0,6.027568490164212e-08,2.0
189,189,76.54279,149785.55,15869.711,150623.89,-6.0478992,128.83173001253454,0.014322863,8.207451e-07,0.13102278,0.0014544444,2.0,42,0.020629017,1.3695714e-07,0,6.04485609053099e-08,2.0
190,190,66.250786,150747.69,17719.262,151785.5,-6.7039285,129.4999898309179,0.014387851,7.799558e-07,0.1355762,0.0018476264,2.0,42,0.02065174,1.360587e-07,0,6.05803280746707e-08,2.0
191,191,57.329906,151434.17,19699.123,152710.06,-7.41163,130.15465100870642,0.01436825,7.7827974e-07,0.14092629,0.0023450414,2.0,42,0.020641416,1.3516737e-07,0,6.088244773232926e-08,2.0
192,192,49.60321,152438.56,22105.525,154033.02,-8.251099,130.8403888278699,0.014370523,8.8928545e-07,0.14514747,0.0029893967,2.0,42,0.020628203,1.3392065e-07,0,6.109597822630953e-08,2.0
193,193,42.92585,153447.45,24709.238,155424.16,-9.147661,131.54844736817176,0.014377808,1.028415e-06,0.15005204,0.0037924824,2.0,42,0.020622024,1.3268223e-07,0,6.113991920693548e-08,2.0
194,194,37.1518,155000.45,27417.838,157406.73,-10.031214,132.19217587876483,0.014352804,1.0602638e-06,0.15624535,0.0047405297,2.0,42,0.020628996,1.3105536e-07,0,6.119411057743444e-08,2.0
195,195,32.150223,156817.8,30497.775,159755.86,-11.005451,132.83139206914348,0.0143677285,9.1629175e-07,0.16231848,0.0059154895,2.0,42,0.020646947,1.2924062e-07,0,6.162057326689407e-08,2.0
196,196,27.835518,158032.44,33744.906,161595.08,-12.053436,133.5593216503912,0.014375237,9.163845e-07,0.16943869,0.007388781,2.0,42,0.02061015,1.2754194e-07,0,6.158876670349459e-08,2.0
197,197,24.082958,172197.77,39768.574,176730.33,-13.0042925,134.51941169597558,0.014359195,6.4891134e-07,0.16617675,0.008414497,2.0,43,0.020644875,1.1681569e-07,0,6.141741318464847e-08,2.0
198,198,20.833313,174744.05,43677.074,180119.88,-14.033485,135.17376948709716,0.014350084,6.6883774e-07,0.17490743,0.01028471,2.0,43,0.02065146,1.1465398e-07,0,6.18550077723583e-08,2.0
199,199,18.021912,177333.03,48366.098,183810.45,-15.255883,135.91971165586438,0.014384087,6.4207666e-07,0.18259051,0.01264212,2.0,43,0.020638734,1.122827e-07,0,6.171414159266911e-08,2.0
200,200,15.604198,180186.61,53249.812,187890.28,-16.463776,136.57502883364214,0.014367094,6.8483484e-07,0.1915405,0.0153846685,2.0,43,0.020623917,1.0976574e-07,0,6.217664552741237e-08,2.0
201,201,13.500899,183605.31,58731.312,192770.02,-17.738335,137.32299681584118,0.014353596,6.9496565e-07,0.20071866,0.018631516,2.0,43,0.020629076,1.07013925e-07,0,6.240800527838372e-08,2.0
202,202,11.686608,187396.61,64331.09,198131.22,-18.946754,137.913870630553,0.014365027,7.417278e-07,0.21169508,0.022317562,2.0,43,0.020632423,1.0413515e-07,0,6.247058065461412e-08,2.0
203,203,10.113269,191224.36,70802.19,203911.03,-20.317432,138.58750724917627,0.0143669825,7.1265737e-07,0.22227055,0.026797472,2.0,43,0.020607844,1.01062916e-07,0,6.211255225021814e-08,2.0
204,204,8.748621,195852.69,77792.51,210736.69,-21.66293,139.3543870189751,0.014366396,6.5769177e-07,0.2338529,0.031866767,2.0,43,0.020636884,9.792735e-08,0,6.192854056925196e-08,2.0
205,205,7.570237,200671.08,85307.61,218051.08,-23.030909,140.23000754058012,0.014367244,6.8182703e-07,0.24644661,0.03772089,2.0,43,0.020629253,9.460744e-08,0,6.307219927252759e-08,2.0
206,206,6.554112,205757.78,93404.9,225966.23,-24.415941,140.76632007266744,0.0143391285,6.374952e-07,0.25997803,0.044421054,2.0,43,0.02062476,9.127364e-08,0,6.214477209906871e-08,2.0
207,207,5.669445,211191.61,102091.58,234573.2,-25.799465,141.37612775500747,0.01435586,7.239241e-07,0.27497274,0.052085005,2.0,43,0.020620909,8.7908205e-08,0,6.337641087060793e-08,2.0
208,208,4.907347,217478.3,111459.93,244377.02,-27.13562,142.068557761173,0.014328509,5.5991205e-07,0.29097426,0.0605301,2.0,43,0.02063626,8.444436e-08,0,6.215706469623031e-08,2.0
209,209,4.245922,223654.66,122121.836,254823.77,-28.635801,142.85630590529763,0.014341663,8.4449783e-07,0.3069409,0.07049553,2.0,43,0.020629225,8.095487e-08,0,6.341401381090369e-08,2.0
210,210,3.6747382,229982.56,133282.92,265812.56,-30.09379,143.75592058803886,0.014359735,6.449534e-07,0.324952,0.08169909,2.0,43,0.020620579,7.7575635e-08,0,6.377872937375173e-08,2.0
211,211,3.180988,236277.75,146182.66,277842.66,-31.74466,144.78420053017908,0.01435231,6.160598e-07,0.34226477,0.09474495,2.0,43,0.02064369,7.429993e-08,0,6.252850607664268e-08,2.0
212,212,2.752818,243693.77,160030.1,291541.22,-33.292316,145.96317365285358,0.014357054,7.726678e-07,0.36127752,0.10885399,2.0,43,0.020634225,7.077635e-08,0,6.315029698984354e-08,2.0
213,213,2.3804083,249540.75,175668.0,305171.8,-35.14421,147.31800593057415,0.01436614,7.4861913e-07,0.38060635,0.12611666,2.0,43,0.020626767,6.759067e-08,0,6.492967335556838e-08,2.0
214,214,2.060257,256595.22,193988.11,321671.4,-37.089584,148.87432235115557,0.0143622365,6.4638675e-07,0.39822054,0.1448268,2.0,43,0.020613529,6.408256e-08,0,6.51208453168641e-08,2.0
