True,index,freq,Re(Z),Im(Z),Z,Phase(Z),time,Ewe_meas,I_meas,Cs,Cp,cycle_number,I_Range,Ewe,I,Ns,(QQo),cycle
0,0,7000018.5,148.27974,1111.6672,1121.5128,-82.40245,2.46748163716984,-0.004481455,-6.704637e-06,2.045249e-05,2.0094967e-05,1.0,40,0.009905757,8.832496e-06,0,-5.6297760203026174e-09,1.0
1,1,6057573.0,177.0221,1288.6552,1300.7571,-82.17825,3.019491930055665,-0.0044464273,-3.684549e-05,2.0388477e-05,2.0010862e-05,1.0,40,0.013965861,1.0736717e-05,0,-6.238853357646216e-09,1.0
2,2,5242039.0,197.55019,1495.1812,1508.1753,-82.47341,3.4354843231558334,-0.004400705,-4.7711015e-05,2.0306079e-05,1.995768e-05,1.0,40,0.01922862,1.2749592e-05,0,-1.2657168789650718e-08,1.0
3,3,4536288.0,173.61453,1740.8457,1749.4816,-84.304726,4.803500788140809,-0.0044746916,-5.848877e-06,2.0153906e-05,1.9955429e-05,1.0,40,0.019408917,1.1094096e-05,0,-2.730816789422382e-08,1.0
4,4,3925558.5,237.12183,1988.8688,2002.9542,-83.201035,5.219489394541597,-0.0044454024,-5.9841714e-05,2.0385085e-05,2.0099384e-05,1.0,40,0.018463315,9.218042e-06,0,-3.367305327194793e-08,1.0
5,5,3397055.0,288.1959,2277.1594,2295.324,-82.787025,5.63549117432558,-0.004572881,1.6254322e-05,2.0574254e-05,2.0249905e-05,1.0,40,0.019525755,8.506753e-06,0,-3.7732562985209164e-08,1.0
6,6,2939708.2,328.0568,2595.7542,2616.4023,-82.79703,6.051482794078765,-0.0045292825,-4.086421e-05,2.0857024e-05,2.0529124e-05,1.0,40,0.021441722,8.195117e-06,0,-4.274371390823085e-08,1.0
7,7,2543924.5,351.12552,2998.8938,3019.3796,-83.32193,6.60348362030345,-0.0044560595,-6.6446635e-05,2.0861948e-05,2.0579819e-05,1.0,40,0.020554263,6.8074455e-06,0,-4.22422567800014e-08,1.0
8,8,2201436.2,332.4854,3409.0408,3425.216,-84.429535,7.155490953155095,-0.0044344096,-6.302324e-05,2.1207126e-05,2.1007301e-05,1.0,40,0.020898044,6.101234e-06,0,-4.7943580863375244e-08,1.0
9,9,1905053.1,493.90128,3901.3984,3932.537,-82.784966,7.707496206072392,-0.00456608,-2.2147191e-05,2.1413749e-05,2.1075975e-05,1.0,40,0.020528343,5.2201267e-06,0,-5.063926286771271e-08,1.0
10,10,1648567.4,677.21924,4595.1997,4644.8345,-81.61636,8.259481218963629,-0.0044779894,-7.147009e-05,2.1009177e-05,2.0562567e-05,1.0,40,0.019888764,4.28191e-06,0,-5.3987320957326624e-08,1.0
11,11,1426616.2,555.738,5342.9873,5371.8115,-84.06187,8.978488879773067,-0.0044622826,-1.0777107e-05,2.0879921e-05,2.0656445e-05,1.0,41,0.019328987,3.598225e-06,0,-6.30298451040561e-08,1.0
12,12,1234551.2,610.34845,6040.629,6071.3857,-84.230385,9.53049391930108,-0.0045068683,-1.1017312e-05,2.1341692e-05,2.112601e-05,1.0,41,0.020319995,3.3468461e-06,0,-6.596658303935657e-08,1.0
13,13,1068345.5,841.58307,7064.8794,7114.8286,-83.20682,10.082503865560284,-0.0045604347,-3.7157065e-06,2.108646e-05,2.0791427e-05,1.0,41,0.020218678,2.841766e-06,0,-6.753413030502821e-08,1.0
14,14,924510.06,1035.3872,8052.2305,8118.5244,-82.67289,10.634479145082878,-0.004581526,-3.145879e-06,2.1379241e-05,2.1031512e-05,1.0,41,0.020586269,2.5357156e-06,0,-6.95748838974958e-08,1.0
15,15,800039.0,1132.3849,9586.494,9653.143,-83.26327,11.18649165131501,-0.0045006457,-5.991289e-06,2.0751482e-05,2.0465923e-05,1.0,41,0.020495575,2.1232024e-06,0,-6.931064452936338e-08,1.0
16,16,692334.1,1747.1438,10656.677,10798.947,-80.689285,11.73848690421437,-0.0045130914,-3.1663653e-06,2.1571614e-05,2.1006967e-05,1.0,41,0.02028405,1.8783358e-06,0,-7.018946956405929e-08,1.0
17,17,599122.25,2097.2732,12178.683,12357.947,-80.22901,12.290496530389646,-0.0045451196,-2.0546433e-06,2.1812448e-05,2.1184213e-05,1.0,41,0.02054466,1.6624654e-06,0,-7.019485457911243e-08,1.0
18,18,518454.94,2704.0752,13787.966,14050.624,-78.90407,12.842479889950482,-0.004552982,-1.2203872e-06,2.2264292e-05,2.143967e-05,1.0,41,0.020531164,1.461228e-06,0,-7.033565453339227e-08,1.0
19,19,448662.03,3414.4478,15978.391,16339.138,-77.93779,13.394484556192765,-0.004513669,-7.078803e-06,2.2200757e-05,2.123125e-05,1.0,41,0.020315817,1.2433836e-06,0,-7.110086039348573e-08,1.0
20,20,388258.97,4112.663,17910.781,18376.89,-77.06795,13.946489462367026,-0.00450726,-3.501555e-06,2.2886748e-05,2.174048e-05,1.0,41,0.020694658,1.1261241e-06,0,-7.08875400762139e-08,1.0
21,21,335983.9,4675.073,17306.367,17926.703,-74.88316,14.498501515277894,-0.004591289,-3.5819633e-07,2.7371318e-05,2.5509778e-05,1.0,41,0.01994456,1.1125616e-06,0,-7.227579713911957e-08,1.0
22,22,290751.2,6292.22,22775.277,23628.484,-74.5559,15.050480074860388,-0.0045178053,-4.6728655e-06,2.4034493e-05,2.2330096e-05,1.0,41,0.020543369,8.6943237e-07,0,-7.342118756906914e-08,1.0
23,23,251605.19,8787.782,26291.186,27720.959,-71.51788,15.602487407712033,-0.0046651824,5.9787985e-06,2.405971e-05,2.1641841e-05,1.0,41,0.020396302,7.3577183e-07,0,-7.469630543693344e-08,1.0
24,24,217729.38,10992.38,29125.484,31130.793,-69.32277,16.154481967241736,-0.0045074834,-6.544359e-06,2.5097472e-05,2.1968272e-05,1.0,41,0.020249829,6.5047584e-07,0,-7.461655602068775e-08,1.0
25,25,188418.58,13536.017,32150.578,34883.855,-67.16796,16.706499460182386,-0.0045011486,-4.816256e-06,2.6272875e-05,2.2317021e-05,1.0,41,0.020792942,5.96062e-07,0,-7.546538377120271e-08,1.0
26,26,163051.14,17340.934,35723.082,39709.527,-64.10683,17.258502899698215,-0.004524401,-6.203579e-06,2.7324195e-05,2.2113414e-05,1.0,41,0.020386241,5.133841e-07,0,-7.566482698371719e-08,1.0
27,27,141098.2,20726.488,39163.11,44309.55,-62.110638,17.810483672568807,-0.004632372,3.8410167e-06,2.8801922e-05,2.2499928e-05,1.0,41,0.020149304,4.547395e-07,0,-7.616150013494879e-08,1.0
28,28,122105.11,25402.496,42731.67,49711.996,-59.269985,18.226479772332823,-0.00452591,-1.7250385e-06,3.0502568e-05,2.2537917e-05,1.0,41,0.021988327,4.423143e-07,0,-7.708237930223306e-08,1.0
29,29,105663.59,30379.129,47332.73,56243.035,-57.30681,18.94548759315512,-0.0045535783,-2.2483039e-06,3.182242e-05,2.253818e-05,1.0,42,0.018959694,3.3710296e-07,0,-7.794530149544778e-08,1.0
30,30,91439.65,35876.387,50232.652,61728.72,-54.465405,19.36148449292523,-0.0044973292,-2.6448322e-06,3.46497e-05,2.2945482e-05,1.0,42,0.020030886,3.2449864e-07,0,-7.82107793102161e-08,1.0
31,31,79127.08,42344.797,51547.19,66709.78,-50.597706,19.77748448602506,-0.004501167,-2.3215002e-06,3.9020244e-05,2.3298126e-05,1.0,42,0.021013072,3.1499235e-07,0,-7.846216694471368e-08,1.0
32,32,68475.36,49661.57,53667.613,73119.66,-47.22023,20.19348399908631,-0.0045314063,-2.1384153e-06,4.330854e-05,2.333081e-05,1.0,42,0.021858335,2.9893926e-07,0,-7.876256622831098e-08,1.0
33,33,59252.523,57121.13,54292.918,78807.01,-43.54588,20.74548138535465,-0.004512365,-2.3868743e-06,4.9473212e-05,2.348155e-05,1.0,42,0.020267917,2.5718418e-07,0,-7.911941019722491e-08,1.0
34,34,51282.285,64207.25,54615.336,84293.57,-40.384827,21.1614814317727,-0.004483113,-2.6098169e-06,5.6824836e-05,2.385495e-05,1.0,42,0.02075855,2.4626493e-07,0,-7.941321190503104e-08,1.0
35,35,44369.8,71271.9,51766.33,88087.664,-35.99172,21.577495504840044,-0.0045352075,-2.319265e-06,6.929235e-05,2.3930392e-05,1.0,42,0.021120718,2.397693e-07,0,-7.97499151436555e-08,1.0
36,36,38403.727,79173.01,49766.676,93515.17,-32.152702,21.993488831300056,-0.004578694,-1.5239724e-06,8.327375e-05,2.3584205e-05,1.0,42,0.021477802,2.2967184e-07,0,-8.003885715149571e-08,1.0
37,37,33226.32,85328.46,46352.066,97105.41,-28.511663,22.40948978436063,-0.0045216247,-2.0184693e-06,0.00010334008,2.3546165e-05,1.0,42,0.021703431,2.2350385e-07,0,-8.031771369394471e-08,1.0
38,38,28754.086,91025.81,42832.746,100599.914,-25.199614,22.82549113748246,-0.0044258204,-2.7018245e-06,0.00012922443,2.3426168e-05,1.0,42,0.021850348,2.1720045e-07,0,-8.058514979576338e-08,1.0
39,39,24884.947,95821.125,39256.754,103550.86,-22.278318,23.241499557188945,-0.0044617984,-2.5759184e-06,0.00016291799,2.3414796e-05,1.0,42,0.021911018,2.1159667e-07,0,-8.095424406275202e-08,1.0
40,40,21553.963,98713.93,34363.688,104524.17,-19.193716,23.658496696996735,-0.004524755,-1.8413436e-06,0.00021487863,2.322519e-05,1.0,42,0.021896869,2.0949096e-07,0,-8.109609199859689e-08,1.0
41,41,18631.234,101839.05,31283.092,106535.55,-17.076,24.074499730108073,-0.004546871,-1.7819295e-06,0.00027306675,2.354502e-05,1.0,42,0.021790521,2.0453757e-07,0,-8.143426121249339e-08,1.0
42,42,16126.037,104547.52,27261.016,108043.266,-14.614588,24.490502576547442,-0.004478399,-2.2199922e-06,0.0003620349,2.3048311e-05,1.0,42,0.021651888,2.0040017e-07,0,-8.162268683410052e-08,1.0
43,43,13954.87,106108.44,25790.375,109197.73,-13.661221,24.906486249616137,-0.004496565,-2.2481156e-06,0.0004422183,2.466748e-05,1.0,42,0.021346569,1.9548547e-07,0,-8.181233817426836e-08,1.0
44,44,12080.609,106689.086,20962.97,108729.055,-11.116239,25.32247992270277,-0.0045191096,-1.8851124e-06,0.00062846113,2.3361077e-05,1.0,42,0.020987488,1.9302557e-07,0,-8.19950074661051e-08,1.0
45,45,10447.592,108543.68,17802.78,109993.95,-9.314429,25.73849599584355,-0.0045011113,-2.1795752e-06,0.00085568934,2.2415794e-05,1.0,42,0.020539602,1.8673393e-07,0,-8.233926302824715e-08,1.0
46,46,9045.586,109104.586,14999.488,110130.81,-7.827843,26.311253436346306,-0.0044465205,-2.4745966e-06,0.0011730242,2.1759162e-05,1.0,42,0.020353418,1.848113e-07,0,-8.267894843409667e-08,1.0
47,47,7827.7437,109565.29,12779.235,110308.03,-6.6526804,26.79092972583021,-0.0045227055,-1.8622026e-06,0.001591031,2.135375e-05,1.0,42,0.020392278,1.8486666e-07,0,-8.295467650562493e-08,1.0
48,48,6770.8345,109852.18,11805.371,110484.695,-6.1338058,27.329399351408938,-0.004509533,-1.8426459e-06,0.0019911241,2.2732822e-05,1.0,42,0.020465087,1.8523006e-07,0,-8.333191787913958e-08,1.0
49,49,5860.798,109782.02,9593.113,110200.37,-4.9940076,27.935987806878984,-0.0046066786,-1.2013832e-06,0.002830765,2.145146e-05,1.0,42,0.02053443,1.8633722e-07,0,-8.364763227800746e-08,1.0
50,50,5071.625,109800.16,8248.586,110109.555,-4.2961965,28.616696025907004,-0.0044726045,-2.116621e-06,0.0038044644,2.1350226e-05,1.0,42,0.02059698,1.8705896e-07,0,-8.39774293528516e-08,1.0
51,51,4388.5933,109959.41,7388.452,110207.35,-3.844071,29.295841604820453,-0.0044942363,-1.93633e-06,0.004908416,2.20611e-05,1.0,42,0.020662574,1.8748817e-07,0,-8.441032134383874e-08,1.0
52,52,3798.7827,109917.984,6361.9395,110101.945,-3.3125248,29.97582254378358,-0.0045264876,-1.8316562e-06,0.0065854606,2.198747e-05,1.0,42,0.02068758,1.8789477e-07,0,-8.463795929302383e-08,1.0
53,53,3286.0488,109485.586,6011.3467,109650.49,-3.1426904,30.65568030942086,-0.0045111724,-1.8882768e-06,0.008057018,2.4215684e-05,1.0,42,0.020661892,1.884341e-07,0,-8.482810659647437e-08,1.0
54,54,2844.088,110170.75,4495.412,110262.43,-2.3366032,31.33581871505885,-0.004537499,-1.7243756e-06,0.012448229,2.0691477e-05,1.0,42,0.020817844,1.888027e-07,0,-8.528789812594321e-08,1.0
55,55,2460.7852,110080.27,4194.766,110160.17,-2.1822815,32.01567658735439,-0.004537909,-1.7906808e-06,0.015418378,2.235656e-05,1.0,42,0.0208265,1.8905654e-07,0,-8.546547746975443e-08,1.0
56,56,2129.3164,110048.5,4037.9016,110122.555,-2.101355,32.69582416632329,-0.0045189606,-1.7673993e-06,0.018510757,2.4887606e-05,1.0,42,0.020827236,1.8912779e-07,0,-8.590168714268663e-08,1.0
57,57,1843.2289,109848.84,4129.758,109926.445,-2.1530159,33.375941798614804,-0.0045805383,-1.5386828e-06,0.020908182,2.9509447e-05,1.0,42,0.020834679,1.8953291e-07,0,-8.606955724525673e-08,1.0
58,58,1594.4913,109564.51,3791.1387,109630.08,-1.9817514,34.055837297579274,-0.0045001237,-1.6321809e-06,0.026328633,3.1485328e-05,1.0,42,0.020803768,1.8976333e-07,0,-8.631765816625859e-08,1.0
59,59,1380.4436,109862.02,3370.8943,109913.73,-1.7574539,34.73571524988074,-0.004515905,-1.7282864e-06,0.03420238,3.2169384e-05,1.0,42,0.020845314,1.896516e-07,0,-8.665511647333881e-08,1.0
60,60,1194.6187,109996.16,3177.4973,110042.04,-1.6546631,35.41581722884439,-0.0044499487,-2.10768e-06,0.041928146,3.4958983e-05,1.0,42,0.020847648,1.8945167e-07,0,-8.689376685321548e-08,1.0
61,61,1033.3434,109487.54,3167.3833,109533.34,-1.657057,36.096084967808565,-0.004511098,-1.7005349e-06,0.048626706,4.06615e-05,1.0,42,0.020796813,1.8986742e-07,0,-8.712847336557258e-08,1.0
62,62,894.71045,109898.26,2966.8416,109938.3,-1.546396,36.77583430676896,-0.004500254,-1.7711241e-06,0.059957467,4.366505e-05,1.0,42,0.020851022,1.8966114e-07,0,-8.763720707131107e-08,1.0
63,63,774.2569,109141.125,4257.642,109224.14,-2.2340002,37.455975619057426,-0.0045230035,-1.6483846e-06,0.04827985,7.336129e-05,1.0,42,0.020779027,1.9024208e-07,0,-8.802979780130787e-08,1.0
64,64,669.7856,109851.484,3257.139,109899.76,-1.6983445,38.135829598031705,-0.0045279223,-1.7083576e-06,0.07295383,6.408069e-05,1.0,42,0.020828553,1.8952319e-07,0,-8.818797279818133e-08,1.0
65,65,579.81464,110345.21,3576.685,110403.164,-1.8565122,38.81584725700668,-0.004530233,-1.6692449e-06,0.076745026,8.054686e-05,1.0,42,0.020870676,1.8904056e-07,0,-8.855677436081895e-08,1.0
66,66,501.44418,110522.34,3664.9624,110583.09,-1.8992536,39.49316400915268,-0.0044813803,-1.8074433e-06,0.08660202,9.512388e-05,1.0,42,0.02088116,1.8882777e-07,0,-8.906117762477963e-08,1.0
67,67,434.02762,110213.78,4308.588,110297.97,-2.2387242,40.17323313475936,-0.00449269,-1.6508059e-06,0.0851075,0.00012986816,1.0,42,0.020832496,1.888747e-07,0,-8.940209849776595e-08,1.0
68,68,375.6009,110822.305,4762.588,110924.59,-2.4607716,40.851439833670156,-0.0044966396,-1.8057669e-06,0.08897142,0.00016401397,1.0,42,0.020897856,1.8839695e-07,0,-8.965398812253274e-08,1.0
69,69,325.10385,110405.695,5281.796,110531.96,-2.7389352,41.5307067726244,-0.00451393,-1.8538196e-06,0.09268648,0.00021164298,1.0,42,0.020825129,1.8840821e-07,0,-9.018402252178328e-08,1.0
70,70,281.3503,111066.14,5680.455,111211.31,-2.9278297,42.207803871438955,-0.0044708718,-1.9961158e-06,0.099584006,0.00025981123,1.0,42,0.020885097,1.8779652e-07,0,-9.062690511158737e-08,1.0
71,71,243.36427,110661.36,7363.121,110906.05,-3.8067021,42.89110166384489,-0.0045197615,-1.47573e-06,0.08881807,0.0003914847,1.0,42,0.02082886,1.8780635e-07,0,-9.093483715257062e-08,1.0
72,72,210.60631,111518.54,7306.926,111757.664,-3.7487795,43.568173482693965,-0.0045423433,-1.3699392e-06,0.10342228,0.00044210846,1.0,42,0.020894103,1.8695901e-07,0,-9.10828610918786e-08,1.0
73,73,182.27473,112413.85,9220.8545,112791.39,-4.689244,44.240255167969735,-0.0045636767,-1.66105e-06,0.094693996,0.0006328677,1.0,42,0.020937756,1.8563257e-07,0,-9.16398305499943e-08,1.0
74,74,157.72879,111522.85,9209.488,111902.46,-4.7207384,44.92864720068974,-0.004486895,-1.8525159e-06,0.10956545,0.000742105,1.0,42,0.020809956,1.8596513e-07,0,-9.187427799822166e-08,1.0
75,75,136.52892,113343.76,10290.205,113809.914,-5.1875234,45.600539712555474,-0.004565428,-1.4325196e-06,0.11328475,0.0009261031,1.0,42,0.020952778,1.8410327e-07,0,-9.240241913252036e-08,1.0
76,76,118.14758,113353.945,12084.769,113996.31,-6.08537,46.28889843862271,-0.0044866716,-2.0365324e-06,0.11146973,0.0012527143,1.0,42,0.02093041,1.8360602e-07,0,-9.26456733513111e-08,1.0
77,77,102.25773,113252.22,12973.585,113992.89,-6.53502,46.95536415025708,-0.00453245,-1.5556319e-06,0.1199676,0.0015539193,1.0,42,0.020855227,1.8295201e-07,0,-9.301529666508657e-08,1.0
78,78,88.4436,113838.664,14112.647,114710.1,-7.0669365,47.64527807632112,-0.0044917953,-1.8558686e-06,0.12751028,0.0019300068,1.0,42,0.020856917,1.8182284e-07,0,-9.333515941001104e-08,1.0
79,79,76.54279,114684.14,16019.845,115797.62,-7.9520016,48.312736428080825,-0.004502509,-1.7012803e-06,0.12979487,0.0024841332,1.0,42,0.02087097,1.8023661e-07,0,-9.36410794123381e-08,1.0
80,80,66.250786,115427.164,17801.008,116791.72,-8.767004,48.98098189980374,-0.004493286,-1.7562246e-06,0.13495362,0.003135087,1.0,42,0.020856699,1.785803e-07,0,-9.405043101549124e-08,1.0
81,81,57.329906,116943.25,20662.03,118754.55,-10.019852,49.63562899759381,-0.0045175073,-1.8417137e-06,0.13435875,0.0040673483,1.0,42,0.020925133,1.7620489e-07,0,-9.418726758046287e-08,1.0
82,82,49.60321,117552.82,22476.656,119682.35,-10.8245735,50.321376950101694,-0.0045670304,-1.3690084e-06,0.14275083,0.005034795,1.0,42,0.020871649,1.7439203e-07,0,-9.446105427927994e-08,1.0
83,83,42.92585,118942.33,24807.639,121501.836,-11.781209,51.029429037094815,-0.004543834,-1.4552429e-06,0.14945684,0.0062304726,1.0,42,0.020881644,1.7186278e-07,0,-9.495866149222978e-08,1.0
84,84,37.1518,119858.58,27288.764,122925.81,-12.826163,51.67319328102167,-0.0044690645,-1.7618125e-06,0.15698439,0.0077363835,1.0,42,0.020818327,1.6935684e-07,0,-9.534850969629399e-08,1.0
85,85,32.150223,122319.414,30358.855,126030.55,-13.938773,52.31236072469619,-0.004520917,-1.8165704e-06,0.16306125,0.009461716,1.0,42,0.020897495,1.6581293e-07,0,-9.529666939007027e-08,1.0
86,86,27.835518,124232.07,33628.05,128702.97,-15.1462755,53.04033531926689,-0.00451284,-1.7990629e-06,0.17002748,0.011607679,1.0,42,0.020880153,1.6223521e-07,0,-9.590394026539863e-08,1.0
87,87,24.082958,126144.49,37333.086,131553.0,-16.486382,53.74238271257491,-0.0044768713,-1.8331468e-06,0.17701758,0.0142561635,1.0,42,0.020877311,1.5869887e-07,0,-9.60806059872977e-08,1.0
88,88,20.833313,128313.375,41569.09,134878.88,-17.95053,54.3967578370648,-0.0045100357,-1.8044643e-06,0.18377705,0.017455988,1.0,42,0.02087673,1.5478132e-07,0,-9.600567583750595e-08,1.0
89,89,18.021912,130851.36,45823.33,138642.9,-19.299936,55.14274381916039,-0.0046904096,-8.1873077e-07,0.1927226,0.021052836,1.0,42,0.02086966,1.5052815e-07,0,-9.679878178375982e-08,1.0
90,90,15.604198,136740.61,51701.926,146188.52,-20.711718,56.04100532847224,-0.0044687293,-1.6433812e-06,0.19727497,0.024675097,1.0,43,0.02085981,1.4269116e-07,0,-9.641198317872461e-08,1.0
91,91,13.500899,140158.48,56811.367,151234.69,-22.064516,56.78900373732904,-0.0045197243,-1.6103722e-06,0.20750196,0.029281266,1.0,43,0.020875288,1.380324e-07,0,-9.684122156797197e-08,1.0
92,92,11.686608,143108.75,62704.344,156243.23,-23.661047,57.37988357874565,-0.0045622606,-1.5968056e-06,0.2171871,0.034980565,1.0,43,0.020826101,1.3329282e-07,0,-9.708087893557149e-08,1.0
93,93,10.113269,147580.34,68666.95,162773.19,-24.951862,58.053508250712184,-0.004520917,-1.5845337e-06,0.22918217,0.040785953,1.0,43,0.020880051,1.2827697e-07,0,-9.681940169477936e-08,1.0
94,94,8.748621,151478.88,74996.0,169027.36,-26.33965,58.8193654337374,-0.004528975,-1.5231252e-06,0.24257296,0.047753435,1.0,43,0.020852402,1.2336702e-07,0,-9.65930093291626e-08,1.0
95,95,7.570237,156070.16,81951.89,176278.2,-27.703808,59.69500198203605,-0.0045190817,-1.557056e-06,0.25653797,0.055446275,1.0,43,0.020857012,1.18318724e-07,0,-9.819319042721257e-08,1.0
96,96,6.554112,160750.42,89795.95,184130.42,-29.187933,60.23032592740492,-0.0044909758,-1.5177337e-06,0.2704267,0.064314954,1.0,43,0.02087477,1.1336948e-07,0,-9.721441655991391e-08,1.0
97,97,5.669445,165263.06,97853.016,192060.12,-30.62997,60.84013254308957,-0.0045861653,-1.5225385e-06,0.28688338,0.07446966,1.0,43,0.020840583,1.08510726e-07,0,-9.877408856721617e-08,1.0
98,98,4.907347,170631.06,107640.97,201746.22,-32.245384,61.53256542925374,-0.004463792,-1.421677e-06,0.30129763,0.08577093,1.0,43,0.020899704,1.03594026e-07,0,-9.74336259933013e-08,1.0
99,99,4.245922,175577.75,117741.055,211401.28,-33.845493,62.320304213353666,-0.0045103338,-1.7323163e-06,0.31836125,0.09875539,1.0,43,0.020870699,9.872551e-08,0,-9.922363941234499e-08,1.0
100,100,3.6747382,180730.28,129081.72,222093.5,-35.535297,63.21991732280003,-0.004524643,-1.4354764e-06,0.33552817,0.11334093,1.0,43,0.020869777,9.3968424e-08,0,-9.965024017321353e-08,1.0
101,101,3.180988,184931.27,141821.45,233051.28,-37.484142,64.24824086492299,-0.0045180568,-1.4111738e-06,0.3527899,0.13064627,1.0,43,0.020835413,8.94027e-08,0,-9.836775174067193e-08,1.0
102,102,2.752818,190573.33,157273.81,247089.55,-39.53172,65.4271556675958,-0.0045398274,-1.5948926e-06,0.36760902,0.14893277,1.0,43,0.02086194,8.443069e-08,0,-9.95428634537762e-08,1.0
103,103,2.3804083,194773.36,173899.11,261108.33,-41.75937,66.78200330529944,-0.0045190966,-1.5675608e-06,0.38447782,0.17053933,1.0,43,0.020836135,7.9798816e-08,0,-1.0184606494413807e-07,1.0
104,104,2.060257,200373.34,194587.42,279309.4,-44.160713,68.33735252582119,-0.004511098,-1.4469673e-06,0.39699405,0.19268255,1.0,43,0.020862356,7.4692636e-08,0,-1.0212776038868653e-07,1.0
