True,index,freq,Re(Z),Im(Z),Z,Phase(Z),time,Ewe_meas,I_meas,Cs,Cp,cycle_number,I_Range,Ewe,I,Ns,(QQo),cycle
110,110,7000018.5,201.82483,1410.9742,1425.3356,-81.859665,82.65550187256304,-0.031794067,-1.0797835e-05,1.6113945e-05,1.579086e-05,2.0,40,0.009983674,7.004437e-06,0,-6.548156584424092e-08,2.0
111,111,6057573.0,284.13934,1613.7894,1638.6127,-80.0143,83.20749600543058,-0.031787902,-2.1756523e-05,1.628076e-05,1.5791222e-05,2.0,40,0.014065019,8.583492e-06,0,-7.055631954686269e-08,2.0
112,112,5242039.0,261.1645,1837.5355,1856.0021,-81.910866,83.6235014385602,-0.03173193,-2.5607816e-05,1.652282e-05,1.6195663e-05,2.0,40,0.01935821,1.0430059e-05,0,-7.210781428146184e-08,2.0
113,113,4536288.0,224.28755,2116.7622,2128.6116,-83.95163,84.99149590349407,-0.031827867,-4.0069517e-06,1.6574768e-05,1.6390748e-05,2.0,40,0.020712009,9.73029e-06,0,-7.489846392657166e-08,2.0
114,114,3925558.5,291.98526,2425.92,2443.4285,-83.136856,85.40749720329768,-0.03180534,-3.2119708e-05,1.671253e-05,1.647388e-05,2.0,40,0.018954828,7.757472e-06,0,-7.835207873767421e-08,2.0
115,115,3397055.0,346.6049,2764.2168,2785.8623,-82.85299,85.82348898306373,-0.031834368,-2.050994e-05,1.6949054e-05,1.6686696e-05,2.0,40,0.019801557,7.1078734e-06,0,-8.177321294962504e-08,2.0
116,116,2939708.2,384.94025,3190.8237,3213.9595,-83.12109,86.23948204281623,-0.031831797,-1.2342168e-05,1.6967313e-05,1.6723914e-05,2.0,40,0.02157993,6.714438e-06,0,-8.291912714659312e-08,2.0
117,117,2543924.5,409.75406,3666.224,3689.051,-83.622826,86.79149049569969,-0.031827625,-1.37003635e-05,1.706463e-05,1.6854101e-05,2.0,40,0.020829,5.646167e-06,0,-8.807559638499206e-08,2.0
118,118,2201436.2,502.02045,4185.9155,4215.912,-83.16113,87.343506788573,-0.031848807,-3.4054658e-05,1.727124e-05,1.7026343e-05,2.0,40,0.020803655,4.9345563e-06,0,-9.204701832442237e-08,2.0
119,119,1905053.1,535.7421,4851.006,4880.4995,-83.69783,87.89548382812063,-0.031870775,-1.327244e-05,1.7221908e-05,1.7014387e-05,2.0,40,0.020293053,4.157987e-06,0,-9.160211150105487e-08,2.0
120,120,1648567.4,401.8281,5639.5913,5653.8887,-85.92449,88.61449340890977,-0.03181298,-8.587185e-06,1.7118504e-05,1.7032036e-05,2.0,41,0.018867848,3.3371455e-06,0,-9.42651761625406e-08,2.0
121,121,1426616.2,528.3067,6569.3496,6590.5586,-85.40217,89.03049772200757,-0.03188093,-6.915288e-07,1.6982069e-05,1.6872946e-05,2.0,41,0.021803351,3.3082706e-06,0,-9.492735347125129e-08,2.0
122,122,1234551.2,569.91254,7501.137,7522.7563,-85.6552,89.5825066549296,-0.0318688,-1.1738346e-06,1.718636e-05,1.708772e-05,2.0,41,0.021024423,2.7947765e-06,0,-9.534733387351876e-08,2.0
123,123,1068345.5,694.04724,8654.795,8682.579,-85.41514,90.13448812111164,-0.031864498,1.1129227e-06,1.7212804e-05,1.7102819e-05,2.0,41,0.020819599,2.397859e-06,0,-9.490195030867098e-08,2.0
124,124,924510.06,848.00275,10053.975,10089.674,-85.178795,90.68649940067553,-0.03186448,-7.6229327e-07,1.712264e-05,1.7001687e-05,2.0,41,0.020284448,2.0104167e-06,0,-9.528768298760721e-08,2.0
125,125,800039.0,1321.2804,11575.244,11650.41,-83.48804,91.23848196023027,-0.031823877,-4.806946e-06,1.7186157e-05,1.696511e-05,2.0,41,0.020623531,1.7701979e-06,0,-9.615970144837623e-08,2.0
126,126,692334.1,1427.5679,13167.434,13244.594,-83.812355,91.79048486644751,-0.03185384,8.931849e-07,1.7458353e-05,1.7255528e-05,2.0,41,0.020540515,1.5508604e-06,0,-9.740409810456185e-08,2.0
127,127,599122.25,1635.1747,15098.524,15186.812,-83.81894,92.34249897269183,-0.031880427,4.7791923e-07,1.7594228e-05,1.7390257e-05,2.0,41,0.020355508,1.3403411e-06,0,-9.768548768114845e-08,2.0
128,128,518454.94,1938.3489,17243.357,17351.96,-83.58623,92.89448803887353,-0.031839587,3.2708232e-07,1.7802757e-05,1.7580605e-05,2.0,41,0.020585036,1.1863233e-06,0,-9.743464426812881e-08,2.0
129,129,448662.03,2602.488,19940.938,20110.045,-82.56436,93.4465061717492,-0.031846106,-2.9689757e-06,1.7789152e-05,1.7491227e-05,2.0,41,0.02027475,1.0081902e-06,0,-9.664100312232884e-08,2.0
130,130,388258.97,3079.3843,22890.145,23096.35,-82.338066,93.99850214467733,-0.031847727,7.553833e-07,1.7908123e-05,1.7589784e-05,2.0,41,0.02076792,8.991862e-07,0,-9.636561526370535e-08,2.0
131,131,335983.9,3489.9019,25795.156,26030.166,-82.295074,94.55050315757398,-0.031874593,2.6190543e-07,1.8363839e-05,1.8033745e-05,2.0,41,0.020321015,7.8067177e-07,0,-9.607090608960137e-08,2.0
132,132,290751.2,5139.2446,29992.21,30429.338,-80.27665,95.10249667710741,-0.03185803,-7.3808474e-07,1.8251147e-05,1.7730546e-05,2.0,41,0.020590633,6.766704e-07,0,-9.580469413443697e-08,2.0
133,133,251605.19,6314.6494,34427.203,35001.53,-79.606316,95.65449113000068,-0.031872284,1.2116169e-06,1.8373792e-05,1.7775761e-05,2.0,41,0.02054179,5.868826e-07,0,-9.558529877512751e-08,2.0
134,134,217729.38,8199.285,38912.453,39766.91,-78.101204,96.20649139620946,-0.031854324,-3.5890823e-06,1.8785142e-05,1.7986556e-05,2.0,41,0.020157559,5.068928e-07,0,-9.66454363712421e-08,2.0
135,135,188418.58,10203.072,44079.37,45244.82,-76.96725,96.75849520906922,-0.03181246,-3.881444e-06,1.916289e-05,1.818838e-05,2.0,41,0.020796735,4.5964896e-07,0,-9.719019061843544e-08,2.0
136,136,163051.14,12792.839,49895.72,51509.605,-75.61961,97.31050184866763,-0.031809475,-3.6952265e-06,1.956289e-05,1.8356215e-05,2.0,41,0.020383766,3.9572748e-07,0,-9.749099556559749e-08,2.0
137,137,141098.2,12689.913,57034.53,58429.203,-77.45628,98.02950673611485,-0.031873066,-7.687248e-07,1.9777015e-05,1.8844152e-05,2.0,42,0.01902131,3.2554456e-07,0,-9.811798534803746e-08,2.0
138,138,122105.11,17093.77,63457.156,65719.16,-74.923805,98.44550627589342,-0.031850167,-1.1738211e-06,2.0540248e-05,1.9150626e-05,2.0,42,0.020561084,3.1286288e-07,0,-9.826222997565005e-08,2.0
139,139,105663.59,21054.926,73183.85,76152.39,-73.949524,98.99748379542143,-0.031830493,-1.5005055e-06,2.0581618e-05,1.9008285e-05,2.0,42,0.020333456,2.6701008e-07,0,-9.835053081425323e-08,2.0
140,140,91439.65,26024.326,80654.89,84749.49,-72.11704,99.41350346853142,-0.03188706,-7.389244e-07,2.158017e-05,1.9545289e-05,2.0,42,0.021538755,2.5414613e-07,0,-9.849938458556314e-08,2.0
141,141,79127.08,33156.418,92456.55,98222.0,-70.27134,99.96548882804927,-0.03183543,-1.4328963e-06,2.1754913e-05,1.927592e-05,2.0,42,0.020193525,2.0559065e-07,0,-9.866255482950573e-08,2.0
142,142,68475.36,41060.285,102497.11,110415.6,-68.16899,100.38150346119073,-0.0318397,-1.1473733e-06,2.2676404e-05,1.954054e-05,2.0,42,0.021035278,1.9051002e-07,0,-9.876032872371235e-08,2.0
143,143,59252.523,50281.727,112988.766,123671.8,-66.01021,100.79749438757426,-0.031830605,-1.2222462e-06,2.3772673e-05,1.9842993e-05,2.0,42,0.0217696,1.760272e-07,0,-9.886994702179268e-08,2.0
144,144,51282.285,58867.76,127230.76,140189.44,-65.17073,101.34948321382399,-0.031867255,-1.489703e-06,2.4392744e-05,2.009159e-05,2.0,42,0.020250969,1.4445432e-07,0,-9.91353210001385e-08,2.0
145,145,44369.8,77822.55,137763.12,158224.61,-60.537846,101.76550414026133,-0.03182423,-1.4049587e-06,2.6037522e-05,1.9738656e-05,2.0,42,0.020658802,1.305663e-07,0,-9.930470346069243e-08,2.0
146,146,38403.727,94389.414,147423.52,175051.58,-57.370182,102.18149698668276,-0.031793453,-1.6953242e-06,2.8111239e-05,1.9937994e-05,2.0,42,0.020959226,1.1973172e-07,0,-9.945139267232466e-08,2.0
147,147,33226.32,112488.32,156605.14,192818.03,-54.31059,102.59749855307746,-0.031849626,-7.478645e-07,3.0586645e-05,2.0176629e-05,2.0,42,0.021164814,1.0976574e-07,0,-9.960274707277625e-08,2.0
148,148,28754.086,133931.95,164172.61,211873.58,-50.792446,103.01350550618372,-0.031816725,-1.2447825e-06,3.3714743e-05,2.0242664e-05,2.0,42,0.021315984,1.0060709e-07,0,-9.977574630001801e-08,2.0
149,149,24884.947,156700.2,168804.69,230325.8,-47.129665,103.42949429925648,-0.03188607,-7.314744e-07,3.7887756e-05,2.0350859e-05,2.0,42,0.021360213,9.273913e-08,0,-9.990824983719154e-08,2.0
150,150,21553.963,177478.14,171275.08,246644.77,-43.98102,103.84650469242479,-0.031864647,-8.033673e-07,4.3112064e-05,2.0789466e-05,2.0,42,0.02130832,8.639275e-08,0,-1.000062198649224e-07,2.0
151,151,18631.234,201644.98,171798.77,264906.62,-40.430542,104.26250281886314,-0.03186651,-6.5567014e-07,4.972313e-05,2.0912834e-05,2.0,42,0.021222888,8.0114596e-08,0,-1.0009096900183876e-07,2.0
152,152,16126.037,224505.28,167729.7,280242.53,-36.763706,104.67848713192507,-0.03185643,-7.3985564e-07,5.8841328e-05,2.107824e-05,2.0,42,0.021024527,7.502261e-08,0,-1.002631813191045e-07,2.0
153,153,13954.87,241249.52,164611.84,292058.88,-34.3069,105.09449160503573,-0.0318157,-1.076039e-06,6.9284055e-05,2.2009724e-05,2.0,42,0.020677913,7.0800496e-08,0,-1.0046286649741987e-07,2.0
154,154,12080.609,265289.2,152173.47,305835.12,-29.839163,105.51048767814063,-0.031873252,-7.2197554e-07,8.657496e-05,2.1433618e-05,2.0,42,0.020339416,6.650451e-08,0,-1.0061605773108637e-07,2.0
155,155,10447.592,282907.78,145607.75,318179.88,-27.234097,105.92649969787453,-0.031843647,-1.1179455e-06,0.00010462114,2.1910031e-05,2.0,42,0.019821037,6.2295065e-08,0,-1.0075096170981348e-07,2.0
156,156,9045.586,297043.56,137535.61,327339.16,-24.844843,106.49925225842162,-0.031835634,-8.7842653e-07,0.00012792878,2.2584094e-05,2.0,42,0.020146713,6.1546906e-08,0,-1.0090216912532115e-07,2.0
157,157,7827.7437,312319.78,123092.42,335701.34,-21.510542,106.97893764122273,-0.031854045,-1.0130861e-06,0.000165178,2.2207962e-05,2.0,42,0.02018704,6.013393e-08,0,-1.0102773505405644e-07,2.0
158,158,6770.8345,322870.38,114198.016,342471.12,-19.478493,107.51739806678961,-0.03183012,-1.1775459e-06,0.00020583508,2.2886985e-05,2.0,42,0.020188391,5.894918e-08,0,-1.0119766574514769e-07,2.0
159,159,5860.798,332691.88,103409.31,348392.56,-17.266607,108.12400252229418,-0.031782404,-1.913238e-06,0.00026260543,2.313584e-05,2.0,42,0.020211956,5.8014887e-08,0,-1.0140798425853268e-07,2.0
160,160,5071.625,342488.97,94684.445,355336.22,-15.453984,108.80468351463787,-0.03183664,-1.2120023e-06,0.00033143195,2.353275e-05,2.0,42,0.020246265,5.6977772e-08,0,-1.0160689545800455e-07,2.0
161,161,4388.5933,349370.25,85661.94,359718.7,-13.7765465,109.4848507202696,-0.03183994,-1.1570583e-06,0.00042335715,2.400804e-05,2.0,42,0.020241553,5.6270505e-08,0,-1.0181217872445813e-07,2.0
162,162,3798.7827,354285.0,74687.22,362071.88,-11.904283,110.16482747255941,-0.03187946,-9.950198e-07,0.0005609568,2.3868899e-05,2.0,42,0.020231087,5.5875883e-08,0,-1.0205219838233701e-07,2.0
163,163,3286.0488,359330.53,67301.74,365578.94,-10.608452,110.84471366486105,-0.031849068,-1.0767841e-06,0.0007196475,2.4389905e-05,2.0,42,0.020245329,5.5378816e-08,0,-1.023238881243525e-07,2.0
164,164,2844.088,363586.47,61228.76,368705.97,-9.559046,111.52480585715966,-0.031881545,-1.0097335e-06,0.0009139483,2.5204161e-05,2.0,42,0.020250592,5.492342e-08,0,-1.0250616236995864e-07,2.0
165,165,2460.7852,388075.62,56694.566,392195.06,-8.311631,112.45571680805006,-0.031873997,-9.870577e-07,0.0011407881,2.3838758e-05,2.0,43,0.01994644,5.0858464e-08,0,-1.0276729879744156e-07,2.0
166,166,2129.3164,393857.75,49116.73,396908.53,-7.108474,113.13583004035172,-0.03182919,-9.869644e-07,0.0015217751,2.3303895e-05,2.0,43,0.020028146,5.0460358e-08,0,-1.0296280589260221e-07,2.0
167,167,1843.2289,393923.3,42694.113,396230.2,-6.185674,113.81595025930437,-0.03182369,-9.851581e-07,0.002022427,2.3480847e-05,2.0,43,0.019963179,5.038278e-08,0,-1.031243731311873e-07,2.0
168,168,1594.4913,395970.03,36061.992,397608.78,-5.2037163,114.49584157161007,-0.03185682,-9.799248e-07,0.0027678865,2.276857e-05,2.0,43,0.01998841,5.0271552e-08,0,-1.0329513947148674e-07,2.0
169,169,1380.4436,398601.4,30970.93,399802.8,-4.4428983,115.17572459057556,-0.03183968,-9.745801e-07,0.0037226072,2.2339014e-05,2.0,43,0.02005774,5.016908e-08,0,-1.0348442269439712e-07,2.0
170,170,1194.6187,397354.47,26002.754,398204.38,-3.7440796,115.8558362761978,-0.03185749,-9.638904e-07,0.005123556,2.1847318e-05,2.0,43,0.020079002,5.042386e-08,0,-1.0364148627209602e-07,2.0
171,171,1033.3434,397596.66,20934.676,398147.4,-3.0140142,116.53610196182854,-0.031826414,-9.832582e-07,0.0073571433,2.034014e-05,2.0,43,0.020058218,5.0378876e-08,0,-1.0380333711775474e-07,2.0
172,172,894.71045,397340.06,16909.377,397699.7,-2.4368339,117.2158175407967,-0.031846646,-9.799246e-07,0.010519862,1.9017558e-05,2.0,43,0.020089138,5.0513336e-08,0,-1.0400963029687047e-07,2.0
173,173,774.2569,396613.72,14608.292,396882.66,-2.1093957,117.89594770641997,-0.031867106,-9.623632e-07,0.014071346,1.9063835e-05,2.0,43,0.020111956,5.0674817e-08,0,-1.0419428452623139e-07,2.0
174,174,669.7856,395398.84,12707.886,395603.0,-1.840819,118.57582333873142,-0.031848863,-9.603331e-07,0.018698685,1.9294721e-05,2.0,43,0.02010895,5.0831137e-08,0,-1.0434809688601534e-07,2.0
175,175,579.81464,394974.28,10754.162,395120.66,-1.5596355,119.25581313103612,-0.031855423,-9.565154e-07,0.025524331,1.8908107e-05,2.0,43,0.020158477,5.1018535e-08,0,-1.0455258223046786e-07,2.0
176,176,501.44418,393315.12,9396.29,393427.34,-1.3685347,119.93319030982093,-0.031840183,-9.745423e-07,0.03377856,1.9267478e-05,2.0,43,0.02013907,5.1188792e-08,0,-1.04767833559919e-07,2.0
177,177,434.02762,392333.7,9269.57,392443.2,-1.3534613,120.61320199546753,-0.03185397,-9.600165e-07,0.039558806,2.2070328e-05,2.0,43,0.020156136,5.1360647e-08,0,-1.0493356511808481e-07,2.0
178,178,375.6009,392515.1,9052.699,392619.47,-1.3211964,121.29242296106531,-0.031849664,-9.691975e-07,0.0468075,2.4884444e-05,2.0,43,0.02020567,5.1463747e-08,0,-1.0507726006051489e-07,2.0
179,179,325.10385,391981.16,9323.167,392092.0,-1.362508,121.9717167800336,-0.03184767,-9.786766e-07,0.052509096,2.9688314e-05,2.0,43,0.020223001,5.1577185e-08,0,-1.052146590950485e-07,2.0
180,180,281.3503,390657.22,11033.586,390813.0,-1.6178119,122.6488060921838,-0.031836323,-1.0092739e-06,0.051269144,4.086499e-05,2.0,43,0.020186443,5.1652435e-08,0,-1.0536611902184805e-07,2.0
181,181,243.36427,390716.9,10844.82,390867.38,-1.5899055,123.33212241795263,-0.031840127,-8.952086e-07,0.060303282,4.642232e-05,2.0,43,0.020203503,5.1688897e-08,0,-1.0554627752431066e-07,2.0
182,182,210.60631,390925.22,12502.459,391125.1,-1.831793,124.0091942367435,-0.03188782,-9.254336e-07,0.060444016,6.176079e-05,2.0,43,0.020216532,5.1688147e-08,0,-1.057759141666372e-07,2.0
183,183,182.27473,390952.9,18342.822,391382.97,-2.6862473,124.68126266871695,-0.03185548,-1.0676569e-06,0.04760225,0.00010455768,2.0,43,0.020244088,5.17245e-08,0,-1.0590815052127194e-07,2.0
184,184,157.72879,391833.4,13701.752,392072.9,-2.0027206,125.36964699476448,-0.03184592,-9.395498e-07,0.07364327,8.9939735e-05,2.0,43,0.020244991,5.1635784e-08,0,-1.0611628202359884e-07,2.0
185,185,136.52892,391245.94,18897.145,391702.03,-2.765232,126.04151171995909,-0.031865485,-8.9962225e-07,0.0616878,0.0001435754,2.0,43,0.020197568,5.1563603e-08,0,-1.0624209350778398e-07,2.0
186,186,118.14758,393156.47,19648.762,393647.16,-2.8610878,126.7299050326983,-0.03187892,-9.342981e-07,0.06855831,0.00017081117,2.0,43,0.020257724,5.146163e-08,0,-1.0645543244225545e-07,2.0
187,187,102.25773,391844.7,20955.234,392404.62,-3.0611718,127.39635002429713,-0.03185574,-1.073374e-06,0.07427308,0.00021181088,2.0,43,0.020247098,5.15975e-08,0,-1.0661030988854038e-07,2.0
188,188,88.4436,394948.62,25415.62,395765.56,-3.6820042,128.08529248370905,-0.031835634,-8.1611716e-07,0.07080322,0.00029199698,2.0,43,0.020278655,5.123906e-08,0,-1.067785232751347e-07,2.0
189,189,76.54279,394688.06,27294.072,395630.7,-3.9559073,128.75274832878495,-0.031835075,-9.12174e-07,0.07618114,0.00036258032,2.0,43,0.020250125,5.1184415e-08,0,-1.0695228923624296e-07,2.0
190,190,66.250786,395016.84,32303.504,396335.5,-4.6751046,129.42100284050684,-0.03183228,-8.606072e-07,0.07436687,0.0004940294,2.0,43,0.020229986,5.104258e-08,0,-1.0708248439172843e-07,2.0
191,191,57.329906,405822.72,39542.934,407744.7,-5.565271,130.07563233828841,-0.031841543,-1.0102982e-06,0.07020532,0.0006602846,2.0,43,0.020248242,4.9659118e-08,0,-1.0731820467383773e-07,2.0
192,192,49.60321,399730.5,41187.895,401846.88,-5.882948,130.7603505840816,-0.031827997,-9.984354e-07,0.07790059,0.000818387,2.0,43,0.020262793,5.0424163e-08,0,-1.0751240102807774e-07,2.0
193,193,42.92585,404637.03,47177.63,407378.03,-6.650231,131.46841147108353,-0.031845752,-8.99734e-07,0.07858961,0.0010540037,2.0,43,0.020262714,4.973934e-08,0,-1.0762604508699268e-07,2.0
194,194,37.1518,402450.88,51890.754,405782.4,-7.347003,132.11218728832318,-0.031815104,-1.0608594e-06,0.08255632,0.0013500314,2.0,43,0.020235717,4.9868394e-08,0,-1.0780471528043437e-07,2.0
195,195,32.150223,404382.47,57023.81,408383.28,-8.026614,132.75136443864903,-0.03186731,-8.204749e-07,0.08681203,0.0016926082,2.0,43,0.02020672,4.947979e-08,0,-1.0807319647702288e-07,2.0
196,196,27.835518,408159.2,63141.348,413014.22,-8.793827,133.47831889984081,-0.031826086,-9.457978e-07,0.09055386,0.0021164336,2.0,43,0.020211801,4.89373e-08,0,-1.0825684864055655e-07,2.0
197,197,24.082958,411358.3,72167.92,417640.84,-9.9506,134.18036695985938,-0.031863637,-1.0807673e-06,0.09157272,0.002734315,2.0,43,0.02032828,4.867407e-08,0,-1.0850616384542416e-07,2.0
198,198,20.833313,415922.84,81646.45,423860.78,-11.106053,134.83474419098638,-0.031874575,-9.3941946e-07,0.09356738,0.0034717836,2.0,43,0.02022814,4.7723546e-08,0,-1.0860384938336211e-07,2.0
199,199,18.021912,420261.53,90535.0,429902.72,-12.157173,135.5807339864259,-0.0319502,-9.613293e-07,0.09754449,0.0043260884,2.0,43,0.020265415,4.7139537e-08,0,-1.0882632770076996e-07,2.0
200,200,15.604198,427546.4,103165.71,439817.12,-13.565984,136.23499844415346,-0.031819575,-9.670373e-07,0.09886517,0.0054396354,2.0,43,0.02027938,4.6108664e-08,0,-1.0886883475830562e-07,2.0
201,201,13.500899,434899.53,113945.95,449579.0,-14.68178,136.98298967967276,-0.031850606,-9.391215e-07,0.10345668,0.006645755,2.0,43,0.02026856,4.508342e-08,0,-1.0904434798699864e-07,2.0
202,202,11.686608,438629.44,126325.89,456458.12,-16.066475,137.57386845440487,-0.031838562,-8.5921056e-07,0.107805096,0.008256997,2.0,43,0.020231966,4.4323816e-08,0,-1.0917125123273152e-07,2.0
203,203,10.113269,448432.34,139446.08,469613.44,-17.273787,138.24751189970993,-0.03182097,-9.0662456e-07,0.11285538,0.009950705,2.0,43,0.020242075,4.3103697e-08,0,-1.0950643867729622e-07,2.0
204,204,8.748621,457874.53,152726.73,482674.38,-18.446423,139.01440089612151,-0.03183896,-9.906419e-07,0.11911473,0.011925789,2.0,43,0.020238273,4.1929454e-08,0,-1.0994950835063734e-07,2.0
205,205,7.570237,468687.22,168841.58,498171.84,-19.811232,139.8899767244293,-0.03183585,-9.106937e-07,0.124517746,0.01430315,2.0,43,0.020247135,4.0642874e-08,0,-1.0976053588351102e-07,2.0
206,206,6.554112,479795.22,186178.27,514651.16,-21.208092,140.42530704315868,-0.031873625,-9.030491e-07,0.13042994,0.017069051,2.0,43,0.020247297,3.934179e-08,0,-1.1024054554791096e-07,2.0
207,207,5.669445,493326.34,202687.77,533341.56,-22.33577,141.0351240854652,-0.031825744,-1.0712514e-06,0.13850074,0.020003052,2.0,43,0.020247009,3.7962558e-08,0,-1.1002466466677132e-07,2.0
208,208,4.907347,510203.84,223091.3,556846.2,-23.617794,141.72755966501427,-0.03183001,-9.673169e-07,0.14537533,0.0233338,2.0,43,0.020240001,3.634756e-08,0,-1.1073520598042435e-07,2.0
209,209,4.245922,527316.06,244103.72,581075.6,-24.840233,142.51528452910134,-0.03183739,-8.932908e-07,0.15355845,0.027099244,2.0,43,0.020239253,3.483067e-08,0,-1.103561099631527e-07,2.0
210,210,3.6747382,544944.3,265003.16,605962.9,-25.933376,143.41496465183445,-0.03184752,-1.0278507e-06,0.1634341,0.03125739,2.0,43,0.020241536,3.340392e-08,0,-1.1071246508860908e-07,2.0
211,211,3.180988,565093.4,288458.34,634459.4,-27.042557,144.4431926739926,-0.031829495,-8.6582213e-07,0.17345028,0.035853665,2.0,43,0.020235004,3.18933e-08,0,-1.1152129895047618e-07,2.0
212,212,2.752818,587303.9,314290.66,666111.44,-28.153084,145.62212747664307,-0.03184587,-9.095666e-07,0.18395479,0.04095249,2.0,43,0.02024768,3.0396833e-08,0,-1.1146686152759915e-07,2.0
213,213,2.3804083,611917.8,337856.88,698992.6,-28.904312,146.97699151435518,-0.031853803,-9.224165e-07,0.1978955,0.04623344,2.0,43,0.020246739,2.8965596e-08,0,-1.1123360294735937e-07,2.0
