True,index,freq,Re(Z),Im(Z),Z,Phase(Z),time,Ewe_meas,I_meas,Cs,Cp,cycle_number,I_Range,Ewe,I,Ns,(QQo),cycle
110,110,7000018.5,191.59319,1355.1545,1368.6313,-81.9528,82.71248664861196,-0.01588812,1.1751897e-05,1.6777689e-05,1.6448897e-05,2.0,40,0.010033339,7.3309293e-06,0,-2.815383733589743e-09,2.0
111,111,6057573.0,267.70425,1568.4219,1591.1042,-80.31388,83.26448126151809,-0.015851323,-2.655671e-05,1.6751688e-05,1.6277478e-05,2.0,40,0.014076767,8.847168e-06,0,-9.353329966511269e-09,2.0
112,112,5242039.0,242.51381,1810.2283,1826.4006,-82.3696,83.6805018679297,-0.015830847,-2.1961161e-05,1.6772065e-05,1.6476355e-05,2.0,40,0.019377265,1.0609537e-05,0,-1.027067598221011e-08,2.0
113,113,4536288.0,201.67593,2100.837,2110.4949,-84.516525,85.04850019954029,-0.015870662,-2.4082172e-05,1.6700411e-05,1.6547914e-05,2.0,40,0.018882383,8.946898e-06,0,-5.8050061609334285e-09,2.0
114,114,3925558.5,273.8725,2414.9397,2430.4197,-83.52987,85.46449749931344,-0.015894212,-2.1421607e-05,1.678852e-05,1.6575339e-05,2.0,40,0.018290885,7.5258135e-06,0,-9.89330580171477e-09,2.0
115,115,3397055.0,335.4192,2751.4521,2771.8215,-83.04958,85.88048847907339,-0.015912602,-2.9012603e-05,1.7027685e-05,1.677834e-05,2.0,40,0.01938189,6.992474e-06,0,-1.346647840028682e-08,2.0
116,116,2939708.2,356.80313,3146.734,3166.898,-83.53095,86.29650721882354,-0.015901944,-2.8752122e-05,1.7205048e-05,1.698665e-05,2.0,40,0.021297855,6.725147e-06,0,-1.6947537831044362e-08,2.0
117,117,2543924.5,377.50748,3695.8486,3715.0786,-84.16782,86.848502498382,-0.015909025,-2.9626573e-05,1.6927846e-05,1.6753058e-05,2.0,40,0.020678002,5.565966e-06,0,-2.3354933400195084e-08,2.0
118,118,2201436.2,458.33752,4143.7026,4168.974,-83.68813,87.40050681793946,-0.015922626,-2.2314656e-05,1.7447188e-05,1.7236305e-05,2.0,40,0.020951742,5.025635e-06,0,-2.4315244934254843e-08,2.0
119,119,1905053.1,503.99554,4756.2046,4782.833,-83.95117,87.95250631080125,-0.015905503,-3.158014e-05,1.7565175e-05,1.7370132e-05,2.0,40,0.020495526,4.285227e-06,0,-2.5565137229367905e-08,2.0
120,120,1648567.4,335.2994,5651.508,5661.446,-86.60467,88.67149074494955,-0.015912471,-3.0546498e-06,1.7082408e-05,1.7022488e-05,2.0,41,0.01905377,3.3655308e-06,0,-2.622943041045822e-08,2.0
121,121,1426616.2,412.99255,6571.6436,6584.608,-86.404,89.08748164473218,-0.015918601,1.9673101e-07,1.697614e-05,1.6909358e-05,2.0,41,0.021961948,3.3353463e-06,0,-2.6642249131451597e-08,2.0
122,122,1234551.2,521.99036,7579.885,7597.837,-86.06053,89.63948487097514,-0.015860507,-2.6114362e-06,1.700781e-05,1.6927534e-05,2.0,41,0.021025233,2.7672656e-06,0,-2.6377463670005795e-08,2.0
123,123,1068345.5,642.39484,8744.791,8768.3545,-85.798584,90.19149860381731,-0.01596069,2.101739e-06,1.703566e-05,1.6944223e-05,2.0,41,0.020707455,2.3616124e-06,0,-2.6771669063739623e-08,2.0
124,124,924510.06,640.1396,9954.465,9975.026,-86.32056,90.7435043900332,-0.01593358,1.3307973e-06,1.7293805e-05,1.7222585e-05,2.0,41,0.020393174,2.0444231e-06,0,-2.781659010752513e-08,2.0
125,125,800039.0,2010.6958,11714.071,11885.385,-80.260216,91.29549121626769,-0.015877817,-3.959655e-06,1.6982478e-05,1.6496444e-05,2.0,41,0.021012353,1.7679153e-06,0,-2.874647587021093e-08,2.0
126,126,692334.1,1187.3025,13476.879,13529.078,-84.96529,91.84750684248866,-0.015919663,-2.196171e-06,1.705749e-05,1.6926117e-05,2.0,41,0.020404348,1.5081847e-06,0,-2.7975737470599386e-08,2.0
127,127,599122.25,1637.3124,15355.108,15442.155,-83.91356,92.39948684207047,-0.015927507,1.8950371e-06,1.7300228e-05,1.7105736e-05,2.0,41,0.020523705,1.32907e-06,0,-2.8860019564333052e-08,2.0
128,128,518454.94,2003.9663,17511.812,17626.102,-83.47175,92.95149809491704,-0.015941985,2.3028547e-06,1.7529843e-05,1.730325e-05,2.0,41,0.020571724,1.167117e-06,0,-2.8151012185504125e-08,2.0
129,129,448662.03,2616.603,20276.133,20444.27,-82.64671,93.50349422779982,-0.01592177,1.867104e-06,1.749507e-05,1.720849e-05,2.0,41,0.020170612,9.866145e-07,0,-2.7426937935055623e-08,2.0
130,130,388258.97,3778.7957,23145.697,23452.135,-80.72762,94.05550689404481,-0.015918005,-2.0177634e-07,1.7710401e-05,1.7250597e-05,2.0,41,0.020863965,8.896404e-07,0,-2.6997139700102263e-08,2.0
131,131,335983.9,5648.5103,26085.918,26690.463,-77.78209,94.60749076024513,-0.015903547,-7.0270283e-07,1.815915e-05,1.7345848e-05,2.0,41,0.020395383,7.64145e-07,0,-2.7036763726465513e-08,2.0
132,132,290751.2,5580.791,30394.098,30902.207,-79.595566,95.15950651981984,-0.015899187,2.3959628e-06,1.8009821e-05,1.7422437e-05,2.0,41,0.020519543,6.640155e-07,0,-2.7217846926438186e-08,2.0
133,133,251605.19,7433.198,34963.63,35745.04,-77.99773,95.71248635937809,-0.015902393,-1.017412e-06,1.8091894e-05,1.730954e-05,2.0,41,0.020398665,5.706712e-07,0,-2.6404094137891772e-08,2.0
134,134,217729.38,9865.668,39734.5,40940.957,-76.05602,96.26450203897548,-0.01588484,-1.7138677e-06,1.8396506e-05,1.7328257e-05,2.0,41,0.02035208,4.971081e-07,0,-2.654319977409673e-08,2.0
135,135,188418.58,12381.474,44848.363,46526.086,-74.56655,96.81650526516023,-0.015920576,1.1203693e-06,1.8834313e-05,1.750048e-05,2.0,41,0.020785244,4.4674388e-07,0,-2.659364268377098e-08,2.0
136,136,163051.14,14290.918,51256.19,53211.16,-74.420815,97.53549183267751,-0.015906509,5.431909e-08,1.904364e-05,1.7670025e-05,2.0,42,0.01911807,3.5928687e-07,0,-2.6325471561973796e-08,2.0
137,137,141098.2,17850.082,57545.19,60250.098,-72.76651,97.95150830576313,-0.015914427,2.73723e-07,1.9601513e-05,1.7881015e-05,2.0,42,0.020814246,3.454641e-07,0,-2.6297156906886463e-08,2.0
138,138,122105.11,26506.297,64772.562,69986.2,-67.74459,98.50350542532397,-0.015911745,8.486429e-08,2.0123116e-05,1.7236636e-05,2.0,42,0.020345293,2.9070435e-07,0,-2.6301578423463528e-08,2.0
139,139,105663.59,29703.576,71746.51,77652.195,-67.510086,98.91949080504128,-0.015936377,3.6815237e-07,2.0993943e-05,1.7922064e-05,2.0,42,0.021752864,2.8013199e-07,0,-2.6297611050332865e-08,2.0
140,140,91439.65,36375.387,77110.54,85259.625,-64.74532,99.47148637796636,-0.015907142,4.005601e-07,2.2572094e-05,1.8463434e-05,2.0,42,0.020408947,2.3937412e-07,0,-2.6246620517442407e-08,2.0
141,141,79127.08,46611.68,86655.22,98396.016,-61.724277,99.88750781104318,-0.015901329,3.6051608e-07,2.3211343e-05,1.8002578e-05,2.0,42,0.021443695,2.1793255e-07,0,-2.6217740443640064e-08,2.0
142,142,68475.36,57878.715,94169.31,110534.18,-58.424118,100.43950375725399,-0.015954355,6.527441e-07,2.4681776e-05,1.791439e-05,2.0,42,0.020267723,1.8336159e-07,0,-2.617666243863385e-08,2.0
143,143,59252.523,68986.766,98643.414,120373.16,-55.03279,100.85550409703865,-0.015908223,4.2067526e-07,2.7229846e-05,1.828614e-05,2.0,42,0.020873152,1.734037e-07,0,-2.6140498127622535e-08,2.0
144,144,51282.285,82507.766,106862.82,135008.12,-52.328613,101.27150062346482,-0.01589423,5.171533e-07,2.9041974e-05,1.8195316e-05,2.0,42,0.02148821,1.5916235e-07,0,-2.6068734344123908e-08,2.0
145,145,44369.8,100632.27,105767.99,145992.2,-46.425358,101.68750090987305,-0.015925867,6.8720067e-07,3.391395e-05,1.780031e-05,2.0,42,0.021859406,1.4972996e-07,0,-2.5995309833111257e-08,2.0
146,146,38403.727,116631.414,105662.92,157377.06,-42.175194,102.23950322941528,-0.015922254,4.137839e-07,3.9221493e-05,1.7680173e-05,2.0,42,0.020274755,1.2882916e-07,0,-2.5938003765319726e-08,2.0
147,147,33226.32,130431.15,104408.2,167072.9,-38.676754,102.65549866252695,-0.015912322,4.653756e-07,4.5877874e-05,1.79168e-05,2.0,42,0.020456662,1.2244153e-07,0,-2.5888858532003943e-08,2.0
148,148,28754.086,144216.42,99452.43,175183.22,-34.59036,103.07149078891962,-0.015895406,4.705906e-07,5.5655128e-05,1.7937047e-05,2.0,42,0.020559542,1.1736022e-07,0,-2.5874922608678395e-08,2.0
149,149,24884.947,158790.81,96334.22,185727.77,-31.24409,103.48749139535357,-0.015919346,2.882508e-07,6.639002e-05,1.7861186e-05,2.0,42,0.020616924,1.1100615e-07,0,-2.5844644423234087e-08,2.0
150,150,21553.963,169296.84,88904.05,191220.69,-27.705627,103.90448437517625,-0.015950797,6.9986584e-07,8.305609e-05,1.795332e-05,2.0,42,0.020542655,1.0742904e-07,0,-2.5770488980507266e-08,2.0
151,151,18631.234,178158.95,79998.99,195295.81,-24.181585,104.32050490161055,-0.01590049,2.2660178e-07,0.000106781,1.791749e-05,2.0,42,0.020452823,1.04727405e-07,0,-2.5709880512898624e-08,2.0
152,152,16126.037,187251.2,72106.88,200654.97,-21.060747,104.73649940136238,-0.01592801,4.2272424e-07,0.00013687236,1.7675404e-05,2.0,42,0.020298965,1.0116353e-07,0,-2.567229219984609e-08,2.0
153,153,13954.87,195349.7,66201.1,206262.19,-18.720753,105.15248518114095,-0.015914856,1.8115648e-07,0.00017227772,1.7746812e-05,2.0,42,0.020049764,9.720523e-08,0,-2.5609939098036585e-08,2.0
154,154,12080.609,188893.52,54544.742,196611.02,-16.10656,105.56850416088128,-0.015887039,2.6068588e-07,0.00024153404,1.8589533e-05,2.0,42,0.019375887,9.854934e-08,0,-2.5510922651236594e-08,2.0
155,155,10447.592,202583.56,50367.105,208750.92,-13.962009,105.98449732727022,-0.015930582,2.5286332e-07,0.00030245233,1.7607355e-05,2.0,42,0.019191947,9.193706e-08,0,-2.5407669300149432e-08,2.0
156,156,9045.586,205149.72,43628.39,209737.56,-12.006004,106.4162565478182,-0.015927376,3.1432666e-07,0.00040328698,1.7450191e-05,2.0,42,0.021751575,1.0370854e-07,0,-2.5296119727320883e-08,2.0
157,157,7827.7437,207659.81,37403.92,211001.55,-10.210696,106.89694683733978,-0.015903007,3.6945707e-07,0.00054358365,1.7081633e-05,2.0,42,0.021794593,1.0329115e-07,0,-2.5185063766911615e-08,2.0
158,158,6770.8345,207857.7,32435.145,210373.16,-8.86919,107.4354147828708,-0.015915565,2.2753393e-07,0.0007247064,1.7227138e-05,2.0,42,0.021804137,1.0364506e-07,0,-2.5183709939988062e-08,2.0
159,159,5860.798,208842.28,28262.744,210746.02,-7.707048,108.04100163833937,-0.016034901,1.1664262e-06,0.0009608355,1.7280605e-05,2.0,42,0.0218386,1.0362521e-07,0,-2.5038757711958898e-08,2.0
160,160,5071.625,209249.66,24030.867,210625.03,-6.55132,108.72171860402887,-0.015882848,3.7448635e-07,0.001305881,1.6998965e-05,2.0,42,0.021860257,1.03787556e-07,0,-2.4964167515049595e-08,2.0
161,161,4388.5933,209663.33,21323.467,210744.88,-5.807206,109.40183612966212,-0.015921807,5.968703e-07,0.0017007365,1.7411596e-05,2.0,42,0.02186165,1.0373515e-07,0,-2.495331591741628e-08,2.0
162,162,3798.7827,210567.58,18872.08,211411.6,-5.12144,110.08181650862389,-0.015881374,3.925528e-07,0.002220015,1.7690409e-05,2.0,42,0.021902235,1.0359997e-07,0,-2.496636299452268e-08,2.0
163,163,3286.0488,210752.61,16309.885,211382.77,-4.4252295,110.76169763425423,-0.015884636,3.9329785e-07,0.0029695814,1.7679007e-05,2.0,42,0.021926975,1.0373114e-07,0,-2.4919502765611056e-08,2.0
164,164,2844.088,210852.77,15017.123,211386.86,-4.073778,111.44083665317157,-0.015933953,4.1676546e-07,0.003726408,1.8806495e-05,2.0,42,0.021943012,1.03805e-07,0,-2.491983019358182e-08,2.0
165,165,2460.7852,210938.27,12732.832,211322.22,-3.4543443,112.12068527213705,-0.015883276,3.0035864e-07,0.005079505,1.8440858e-05,2.0,42,0.021930104,1.0377567e-07,0,-2.4845019782799307e-08,2.0
166,166,2129.3164,211553.66,11794.732,211882.2,-3.1911027,112.80085005110595,-0.01591793,4.6872975e-07,0.0063371183,1.9637177e-05,2.0,42,0.02196634,1.0367241e-07,0,-2.4789745083036427e-08,2.0
167,167,1843.2289,210149.31,9674.199,210371.88,-2.6357439,113.48093536339002,-0.015851993,2.3403212e-08,0.008925362,1.887472e-05,2.0,42,0.021898828,1.040958e-07,0,-2.4690387171117933e-08,2.0
168,168,1594.4913,211035.64,9263.077,211238.84,-2.5132947,114.16081139568996,-0.015903976,4.7003354e-07,0.01077563,2.0720761e-05,2.0,42,0.021929942,1.0381586e-07,0,-2.4598319390969397e-08,2.0
169,169,1380.4436,212142.62,9444.203,212352.73,-2.5490208,114.84068158799346,-0.015888343,4.5923093e-07,0.012207765,2.4146326e-05,2.0,42,0.02198804,1.03544885e-07,0,-2.458245160959866e-08,2.0
170,170,1194.6187,211737.36,8795.921,211919.98,-2.378794,115.5208436736284,-0.015950909,4.6910236e-07,0.0151464045,2.609326e-05,2.0,42,0.02197025,1.03672384e-07,0,-2.4468709445715615e-08,2.0
171,171,1033.3434,211834.61,8396.034,212000.94,-2.2697217,116.20108869258547,-0.015897604,3.8566176e-07,0.018344305,2.8772269e-05,2.0,42,0.021960067,1.0358476e-07,0,-2.4346199184867345e-08,2.0
172,172,894.71045,212630.31,8757.442,212810.58,-2.3584645,116.88081160488946,-0.015884748,2.9067363e-07,0.020312358,3.4397628e-05,2.0,42,0.02196707,1.03223584e-07,0,-2.431205912965042e-08,2.0
173,173,774.2569,212482.22,8210.535,212640.8,-2.212868,117.56094867718639,-0.015901571,3.867792e-07,0.025035923,3.7326165e-05,2.0,42,0.02197606,1.0334827e-07,0,-2.433530604581158e-08,2.0
174,174,669.7856,213196.06,8171.459,213352.61,-2.1949797,118.24081260281673,-0.015921097,5.324276e-07,0.029079353,4.265678e-05,2.0,42,0.021990223,1.0306986e-07,0,-2.423314594533722e-08,2.0
175,175,579.81464,213440.4,9606.831,213656.5,-2.577111,119.14185304561397,-0.0159219,4.7711075e-07,0.028572667,5.7766876e-05,2.0,42,0.020187207,9.44844e-08,0,-2.4144028966767076e-08,2.0
176,176,501.44418,213665.61,9071.934,213858.11,-2.431236,119.81919230442145,-0.015932351,4.845608e-07,0.034986272,6.2957275e-05,2.0,42,0.020196375,9.44382e-08,0,-2.4100468264490972e-08,2.0
177,177,434.02762,214127.9,9706.222,214347.78,-2.5953887,120.4992146033619,-0.015892982,4.3967427e-07,0.037779186,7.746669e-05,2.0,42,0.020174317,9.411955e-08,0,-2.4088918699850797e-08,2.0
178,178,375.6009,214620.6,10389.705,214871.92,-2.7715042,121.1784408223175,-0.015929576,6.6224453e-07,0.040784046,9.5353666e-05,2.0,42,0.02019953,9.4007305e-08,0,-2.3979825346547103e-08,2.0
179,179,325.10385,214450.03,11028.661,214733.44,-2.9439936,121.8576795746194,-0.01592719,3.9385645e-07,0.044388987,0.00011709044,2.0,42,0.020164995,9.39071e-08,0,-2.390136543497749e-08,2.0
180,180,281.3503,214877.64,11876.371,215205.6,-3.1635416,122.53479302010965,-0.015954355,5.257224e-07,0.04763092,0.00014506058,2.0,42,0.02017528,9.374887e-08,0,-2.3894791229731716e-08,2.0
181,181,243.36427,215545.97,13197.739,215949.64,-3.503809,123.21812718585716,-0.015917372,2.908596e-07,0.049552295,0.00018507932,2.0,42,0.02018367,9.3464706e-08,0,-2.367672100717459e-08,2.0
182,182,210.60631,216559.9,14098.322,217018.33,-3.724771,123.895165351365,-0.015937457,3.9720902e-07,0.05360204,0.00022621603,2.0,42,0.020192323,9.304432e-08,0,-2.3557883246955156e-08,2.0
183,183,182.27473,215608.3,14908.465,216123.11,-3.9554818,124.56627263655537,-0.015918192,4.929421e-07,0.05856804,0.00027869176,2.0,42,0.020165013,9.330336e-08,0,-2.345982857321379e-08,2.0
184,184,157.72879,221293.56,20821.412,222270.94,-5.37511,125.25465608263403,-0.015862744,4.057765e-07,0.048461735,0.00042525944,2.0,42,0.020324865,9.144185e-08,0,-2.323797912952408e-08,2.0
185,185,136.52892,217282.34,18809.062,218094.92,-4.94748,125.92653331448673,-0.015893076,3.8193636e-07,0.061976686,0.0004609688,2.0,42,0.020140229,9.234616e-08,0,-2.327725874170837e-08,2.0
186,186,118.14758,219004.97,20537.535,219965.83,-5.3573346,126.6148956938996,-0.015904777,3.499012e-07,0.06559141,0.00057178555,2.0,42,0.020174937,9.1718505e-08,0,-2.3154070168232505e-08,2.0
187,187,102.25773,222499.88,21183.39,223506.0,-5.4385266,127.52832899059285,-0.015889611,4.873386e-07,0.073473126,0.00065999565,2.0,43,0.020180807,9.029201e-08,0,-2.3159784890879602e-08,2.0
188,188,88.4436,223505.97,24494.924,224844.22,-6.254316,128.2183012366586,-0.015881468,3.9616094e-07,0.07346451,0.0008718993,2.0,43,0.020186726,8.978094e-08,0,-2.3066375377147372e-08,2.0
189,189,76.54279,225222.28,26658.97,226794.56,-6.7505417,128.88574028176663,-0.015957486,3.0312074e-07,0.07799602,0.0010776902,2.0,43,0.02020199,8.907617e-08,0,-2.3005499133546732e-08,2.0
190,190,66.250786,225831.5,30850.15,227928.94,-7.778851,129.55399068680708,-0.015940549,3.637943e-07,0.077870294,0.0014265515,2.0,43,0.020153359,8.841948e-08,0,-2.28664607113397e-08,2.0
191,191,57.329906,228346.69,36248.477,231205.89,-9.020049,130.2086479446043,-0.015905,4.9478774e-07,0.076585956,0.0018824822,2.0,43,0.020183956,8.729862e-08,0,-2.2872561007595988e-08,2.0
192,192,49.60321,229291.67,37669.816,232365.42,-9.329654,130.89438267043442,-0.015886704,3.670718e-07,0.085175924,0.0022385193,2.0,43,0.020135388,8.6653976e-08,0,-2.2823767360473845e-08,2.0
193,193,42.92585,232562.11,42037.15,236330.81,-10.245961,131.602423050761,-0.015895797,3.3373686e-07,0.088199876,0.0027905756,2.0,43,0.020146534,8.524717e-08,0,-2.2634992815536985e-08,2.0
194,194,37.1518,234218.2,47217.523,238930.25,-11.397848,132.2461778280267,-0.01587286,2.7125697e-07,0.09072711,0.0035432454,2.0,43,0.020162035,8.43846e-08,0,-2.2592248865756443e-08,2.0
195,195,32.150223,237056.8,52457.68,242791.55,-12.477756,132.88436345828814,-0.015918452,4.571321e-07,0.0943685,0.004405326,2.0,43,0.020169655,8.307396e-08,0,-2.266398124108498e-08,2.0
196,196,27.835518,241274.95,57544.254,248042.22,-13.414483,133.61231306623085,-0.015935147,3.7791966e-07,0.09936166,0.0053477557,2.0,43,0.020221338,8.152377e-08,0,-2.259307945649337e-08,2.0
197,197,24.082958,243593.77,63800.77,251810.36,-14.676922,134.31436459292308,-0.01588184,2.9064327e-07,0.10358202,0.0066495007,2.0,43,0.020181747,8.014661e-08,0,-2.2617892709472206e-08,2.0
198,198,20.833313,248187.27,70795.07,258086.92,-15.920725,134.96873881068313,-0.01591888,5.0868016e-07,0.10790928,0.008119566,2.0,43,0.020181583,7.819685e-08,0,-2.238905573075842e-08,2.0
199,199,18.021912,252771.52,77716.99,264449.2,-17.09054,135.7147234594595,-0.01584946,3.5008765e-07,0.113632694,0.009814107,2.0,43,0.020190597,7.634962e-08,0,-2.2414760992627712e-08,2.0
200,200,15.604198,257253.45,85009.55,270935.34,-18.286167,136.3700086105673,-0.015919905,5.1895995e-07,0.11998059,0.011811772,2.0,43,0.020140877,7.433832e-08,0,-2.2112142528569105e-08,2.0
201,201,13.500899,263736.44,93817.26,279926.03,-19.58167,137.11698368604993,-0.015903221,4.9910795e-07,0.12565354,0.0141141135,2.0,43,0.020163113,7.203015e-08,0,-2.1992176861630438e-08,2.0
202,202,11.686608,270620.6,102806.95,289490.53,-20.80145,137.7078639540996,-0.015895871,3.3196707e-07,0.13246745,0.016706498,2.0,43,0.020191118,6.9747074e-08,0,-2.1934114440964158e-08,2.0
203,203,10.113269,279939.7,111177.22,301208.56,-21.660355,138.38150787938503,-0.015917018,3.7092622e-07,0.14155094,0.019284561,2.0,43,0.020277413,6.732017e-08,0,-2.214078346687594e-08,2.0
204,204,8.748621,285287.56,122165.914,310344.16,-23.181591,139.14840162251494,-0.015900174,3.4059866e-07,0.14891227,0.02307509,2.0,43,0.020151403,6.4932436e-08,0,-2.238074659753833e-08,2.0
205,205,7.570237,294142.75,134598.08,323475.8,-24.588568,140.02402166411048,-0.015907021,3.90573e-07,0.15619667,0.027043685,2.0,43,0.02018013,6.238528e-08,0,-2.164408493183492e-08,2.0
206,206,6.554112,303721.6,146594.83,337248.94,-25.764833,140.5602992362401,-0.015924117,4.2731597e-07,0.16564855,0.03129852,2.0,43,0.020184208,5.984958e-08,0,-2.216179469106441e-08,2.0
207,207,5.669445,314099.38,159108.12,352099.16,-26.864653,141.17014827855746,-0.015923558,4.9176987e-07,0.17643602,0.03602815,2.0,43,0.020150889,5.723072e-08,0,-2.1472765943956516e-08,2.0
208,208,4.907347,325467.6,172960.16,368570.72,-27.987093,141.86254441805067,-0.015929203,3.967184e-07,0.18751122,0.041293126,2.0,43,0.02018853,5.477519e-08,0,-2.223320417095446e-08,2.0
209,209,4.245922,337759.66,188278.53,386691.6,-29.136757,142.65030832219054,-0.015942134,4.6899387e-07,0.19908902,0.04719755,2.0,43,0.020186534,5.2203188e-08,0,-2.1319696327804888e-08,2.0
210,210,3.6747382,351577.3,204467.92,406710.88,-30.181133,143.54994239160442,-0.015910227,4.3652486e-07,0.21182077,0.053536173,2.0,43,0.020171456,4.959655e-08,0,-2.1304979856038642e-08,2.0
211,211,3.180988,365599.1,220093.97,426736.5,-31.048323,144.5792203071469,-0.015894324,3.338102e-07,0.22732642,0.060470928,2.0,43,0.020164002,4.7251646e-08,0,-2.2068613243336088e-08,2.0
212,212,2.752818,381429.56,239646.12,450465.06,-32.14049,145.7581648164487,-0.015912913,4.08241e-07,0.24125269,0.06827957,2.0,43,0.020164486,4.4763706e-08,0,-2.1491858677855883e-08,2.0
213,213,2.3804083,397926.75,258468.92,474501.72,-33.005295,147.11201413412346,-0.015927557,4.2780113e-07,0.2586785,0.07675407,2.0,43,0.020179596,4.2527972e-08,0,-2.047045153094255e-08,2.0
