True,index,freq,Re(Z),Im(Z),Z,Phase(Z),time,Ewe_meas,I_meas,Cs,Cp,cycle_number,I_Range,Ewe,I,Ns,(QQo),cycle
0,0,7000018.5,184.08495,1264.3048,1277.6361,-81.71585,2.4654832104279194,-0.09944306,2.6673419e-05,1.7983291e-05,1.760996e-05,1.0,40,0.01000756,7.832872e-06,0,4.144232700399344e-09,1.0
1,1,6057573.0,225.12183,1487.3678,1504.3081,-81.39327,3.017500703310361,-0.09936676,-1.0487236e-06,1.7664572e-05,1.7268963e-05,1.0,40,0.014030629,9.326965e-06,0,4.3884167831720335e-09,1.0
2,2,5242039.0,208.08752,1708.9009,1721.5233,-83.05745,3.4344874697562773,-0.099359185,-4.2674333e-06,1.7766546e-05,1.7506969e-05,1.0,40,0.019311097,1.1217447e-05,0,3.5309032975495334e-09,1.0
3,3,4536288.0,171.8706,1973.8817,1981.3502,-85.02367,4.802490228059469,-0.09936378,-2.8621886e-05,1.777454e-05,1.7640794e-05,1.0,40,0.019274812,9.72812e-06,0,-5.770802546925956e-10,1.0
4,4,3925558.5,246.39775,2273.5876,2286.9001,-83.814766,5.218480647861725,-0.0994196,-6.3140274e-06,1.7832284e-05,1.7625278e-05,1.0,40,0.018419765,8.054469e-06,0,-2.392690980656198e-09,1.0
5,5,3397055.0,289.1993,2580.413,2596.5686,-83.60527,5.634487974253716,-0.099444516,1.4803089e-05,1.815634e-05,1.793111e-05,1.0,40,0.019467456,7.4973777e-06,0,-2.6501258971241744e-09,1.0
6,6,2939708.2,307.7494,2969.5793,2985.4834,-84.08333,6.050484634033637,-0.0994505,-2.9092334e-06,1.823144e-05,1.8037714e-05,1.0,40,0.021350881,7.151566e-06,0,-2.5935301744968656e-09,1.0
7,7,2543924.5,311.08646,3410.6982,3424.8557,-84.78853,6.602489326935029,-0.09945456,-5.8356346e-07,1.8343095e-05,1.8191757e-05,1.0,40,0.020539654,5.997232e-06,0,-5.392586966327902e-09,1.0
8,8,2201436.2,368.42813,3945.8098,3962.973,-84.66564,7.1544787398015615,-0.09944794,-5.086065e-06,1.8322211e-05,1.8163852e-05,1.0,40,0.021000534,5.299187e-06,0,-7.783190979132037e-09,1.0
9,9,1905053.1,450.60477,4513.3545,4535.7925,-84.29859,7.706486072653206,-0.09947168,1.8165308e-06,1.8510305e-05,1.8327622e-05,1.0,40,0.020318568,4.479607e-06,0,-1.053290738235783e-08,1.0
10,10,1648567.4,497.28857,5193.03,5216.7856,-84.52999,8.258484712248901,-0.099476956,1.6440368e-05,1.8590566e-05,1.8421639e-05,1.0,40,0.019935915,3.821494e-06,0,-9.381494401098835e-09,1.0
11,11,1426616.2,373.93945,6127.3564,6138.7563,-86.50769,8.976492186338874,-0.09947198,-1.6319444e-06,1.820706e-05,1.81395e-05,1.0,41,0.019427247,3.1646878e-06,0,-5.629090109263441e-09,1.0
12,12,1234551.2,563.9853,7174.095,7196.2295,-85.50499,9.528498932573711,-0.09945215,1.0198133e-06,1.7969825e-05,1.7859451e-05,1.0,41,0.020591542,2.861435e-06,0,-5.490463721067664e-09,1.0
13,13,1068345.5,612.038,8280.266,8302.8545,-85.77265,10.080501412128797,-0.09944349,-3.3585266e-07,1.7991366e-05,1.7893604e-05,1.0,41,0.020686489,2.4914912e-06,0,-6.163143095390764e-09,1.0
14,14,924510.06,815.49695,9499.116,9534.057,-85.0932,10.632478504994651,-0.09947912,2.1594672e-06,1.8122799e-05,1.799021e-05,1.0,41,0.020254154,2.1244005e-06,0,-6.029928221689968e-09,1.0
15,15,800039.0,1607.2539,11008.31,11125.023,-81.6933,11.184492637898074,-0.09946238,1.8242755e-06,1.8071254e-05,1.7694068e-05,1.0,41,0.020951612,1.8832869e-06,0,-5.0691940627929615e-09,1.0
16,16,692334.1,1077.1749,12484.616,12530.999,-85.068726,11.73649594411836,-0.09946499,1.4518388e-06,1.8413197e-05,1.8277138e-05,1.0,41,0.020358942,1.6246863e-06,0,-5.510155890931401e-09,1.0
17,17,599122.25,1436.0369,14557.502,14628.16,-84.366234,12.28847845029668,-0.09947675,3.3773326e-06,1.8248107e-05,1.8072247e-05,1.0,41,0.020530786,1.4035112e-06,0,-5.703216702525221e-09,1.0
18,18,518454.94,1969.0471,16635.223,16751.352,-83.24953,12.840493409865303,-0.09946844,2.986275e-06,1.8453575e-05,1.8198602e-05,1.0,41,0.02053677,1.2259768e-06,0,-6.1599156258391e-09,1.0
19,19,448662.03,2310.0654,19009.627,19149.473,-83.07134,13.392484822747065,-0.09942012,-1.3846285e-07,1.8660669e-05,1.8389112e-05,1.0,41,0.020163558,1.0529563e-06,0,-6.535978563142129e-09,1.0
20,20,388258.97,3206.497,21927.121,22160.33,-81.68036,13.94449778230046,-0.09943852,1.8741973e-07,1.8694636e-05,1.8303233e-05,1.0,41,0.020881211,9.4227886e-07,0,-6.657632112737448e-09,1.0
21,21,335983.9,4013.419,24772.18,25095.188,-80.797295,14.496493728511268,-0.09942663,-2.5019332e-07,1.912218e-05,1.8633094e-05,1.0,41,0.020388544,8.124484e-07,0,-6.668899516796501e-09,1.0
22,22,290751.2,5219.6143,28467.062,28941.63,-79.60987,15.048498554708203,-0.09947229,2.8559218e-06,1.9228968e-05,1.8603527e-05,1.0,41,0.020543564,7.098275e-07,0,-5.59789599086634e-09,1.0
23,23,251605.19,6875.7397,32948.68,33658.45,-78.21266,15.600478767621098,-0.09947147,1.7646844e-06,1.9198289e-05,1.8397142e-05,1.0,41,0.02041048,6.063999e-07,0,-6.018754979801126e-09,1.0
24,24,217729.38,8749.964,37113.508,38131.016,-76.73407,16.152495780523168,-0.099434525,5.132996e-07,1.9695686e-05,1.8658571e-05,1.0,41,0.020314772,5.327624e-07,0,-5.842676835848851e-09,1.0
25,25,188418.58,11349.977,41699.664,43216.71,-74.773865,16.704481086722808,-0.099418074,3.6804977e-07,2.0256473e-05,1.8859299e-05,1.0,41,0.020838201,4.8217925e-07,0,-4.903319664053798e-09,1.0
26,26,163051.14,14476.174,47823.414,49966.375,-73.158905,17.256493379623862,-0.09944792,3.019792e-06,2.0410598e-05,1.86974e-05,1.0,41,0.02026528,4.0557833e-07,0,-5.516711320164329e-09,1.0
27,27,141098.2,16267.175,53760.19,56167.42,-73.16483,17.976484987157164,-0.09942568,-1.2937668e-06,2.0981563e-05,1.9221641e-05,1.0,42,0.018982528,3.3796331e-07,0,-5.763934800769495e-09,1.0
28,28,122105.11,20037.256,63078.305,66184.32,-72.37719,18.392504446877865,-0.09943725,-1.1546371e-06,2.0663616e-05,1.8769646e-05,1.0,42,0.020625647,3.1163947e-07,0,-5.832514288535151e-09,1.0
29,29,105663.59,25949.379,68038.75,72819.24,-69.12359,18.808484386681812,-0.09943589,-1.1037905e-06,2.2138001e-05,1.9326748e-05,1.0,42,0.021972647,3.0174232e-07,0,-5.916499224772467e-09,1.0
30,30,91439.65,33778.53,75160.19,82401.72,-65.79987,19.360482786229113,-0.09942532,-1.0034012e-06,2.3157821e-05,1.9266414e-05,1.0,42,0.020440476,2.4805885e-07,0,-6.012273895131099e-09,1.0
31,31,79127.08,41642.766,82619.07,92520.44,-63.250374,19.77649419262889,-0.09941374,-1.176056e-06,2.4345276e-05,1.9413326e-05,1.0,42,0.0214419,2.317531e-07,0,-6.0910443400779005e-09,1.0
32,32,68475.36,51599.285,90857.586,104487.26,-60.407158,20.328485818841727,-0.099444665,-8.806616e-07,2.5581418e-05,1.9342844e-05,1.0,42,0.020255744,1.9385851e-07,0,-6.203318473375358e-09,1.0
33,33,59252.523,62760.65,97291.805,115778.21,-57.174892,20.74449877193547,-0.09944012,-7.707734e-07,2.760813e-05,1.9495566e-05,1.0,42,0.020939881,1.8086202e-07,0,-6.244786075191103e-09,1.0
34,34,51282.285,74467.11,103925.086,127850.59,-54.37666,21.160490711714374,-0.09944347,-8.5998767e-07,2.9862927e-05,1.9731844e-05,1.0,42,0.021505155,1.6820536e-07,0,-6.34789028506925e-09,1.0
35,35,44369.8,91926.71,106094.664,140380.19,-49.0924,21.577490304858657,-0.09945452,-8.0765113e-07,3.3809527e-05,1.9311436e-05,1.0,42,0.021897534,1.5598735e-07,0,-6.5062871149687375e-09,1.0
36,36,38403.727,106195.37,107011.78,150761.33,-45.2194,22.12949611773365,-0.09941698,-5.55467e-07,3.8727114e-05,1.951185e-05,1.0,42,0.020179858,1.3385302e-07,0,-6.622688986085497e-09,1.0
37,37,33226.32,121787.76,106673.33,161899.53,-41.214966,22.545494137477363,-0.0994311,-7.1042797e-07,4.490369e-05,1.9494071e-05,1.0,42,0.0204443,1.262777e-07,0,-6.657037564978473e-09,1.0
38,38,28754.086,138416.66,104881.18,173664.14,-37.151966,22.961490450572455,-0.099464096,-6.1674365e-07,5.2774365e-05,1.9248542e-05,1.0,42,0.02055881,1.1838258e-07,0,-6.809669454938216e-09,1.0
39,39,24884.947,151597.38,98159.016,180601.66,-32.92298,23.37749439032632,-0.09948623,-7.614607e-07,6.515582e-05,1.9247314e-05,1.0,42,0.02058523,1.139814e-07,0,-6.8952159091857365e-09,1.0
40,40,21553.963,164654.75,93424.7,189312.88,-29.57047,23.794481103454018,-0.09942864,-7.60157e-07,7.903715e-05,1.924839e-05,1.0,42,0.020562263,1.0861524e-07,0,-7.0343928679442844e-09,1.0
41,41,18631.234,174738.16,86376.35,194921.27,-26.30405,24.210480616573477,-0.09941456,-7.776645e-07,9.889712e-05,1.9420255e-05,1.0,42,0.020484533,1.0509132e-07,0,-7.131931378194641e-09,1.0
42,42,16126.037,183366.27,77400.08,199032.56,-22.88492,24.62649954299559,-0.09943611,-9.3132167e-07,0.000127512,1.9283489e-05,1.0,42,0.020256452,1.0177456e-07,0,-7.1979258027646945e-09,1.0
43,43,13954.87,187268.1,72573.26,200838.78,-21.183178,25.042500949435635,-0.09949394,-6.200959e-07,0.00015715121,2.0519927e-05,1.0,42,0.019914428,9.915629e-08,0,-7.311148482923358e-09,1.0
44,44,12080.609,197185.06,65250.348,207700.64,-18.309855,25.458481475856388,-0.09943188,-9.769532e-07,0.00020190564,1.992684e-05,1.0,42,0.019675277,9.472902e-08,0,-7.402397914359445e-09,1.0
45,45,10447.592,201779.36,55040.973,209151.66,-15.257825,25.874493148963666,-0.099468514,-8.7470113e-07,0.00027676925,1.9167586e-05,1.0,42,0.019158283,9.159996e-08,0,-7.522557940246501e-09,1.0
46,46,9045.586,204809.38,49298.152,210658.94,-13.533792,26.306243569444632,-0.09945793,-8.234816e-07,0.00035690513,1.9545838e-05,1.0,42,0.021715371,1.03083075e-07,0,-7.5460311780629e-09,1.0
47,47,7827.7437,207493.52,41045.14,211514.22,-11.189456,26.785931405611336,-0.099432215,-6.381617e-07,0.000495361,1.8653749e-05,1.0,42,0.021772994,1.0293868e-07,0,-7.706279543827952e-09,1.0
48,48,6770.8345,209662.66,36522.863,212819.98,-9.881667,27.324393431161297,-0.09947069,-6.076163e-07,0.0006435957,1.8954745e-05,1.0,42,0.021812806,1.0249416e-07,0,-7.74488783061263e-09,1.0
49,49,5860.798,211138.3,31751.094,213512.33,-8.552089,27.930962793325307,-0.09957978,7.933651e-07,0.00085527287,1.8913684e-05,1.0,42,0.021851541,1.0234323e-07,0,-7.785234325008932e-09,1.0
50,50,5071.625,212054.12,28164.457,213916.31,-7.5655913,28.611707519004995,-0.09945683,-6.189774e-07,0.0011142218,1.9314639e-05,1.0,42,0.021877231,1.0227004e-07,0,-7.886759202319146e-09,1.0
51,51,4388.5933,212634.27,24388.41,214028.33,-6.5430346,29.291808511305135,-0.09945147,-6.9366405e-07,0.0014870013,1.9307934e-05,1.0,42,0.021898454,1.0231568e-07,0,-8.09618163464323e-09,1.0
52,52,3798.7827,213715.7,21088.645,214753.66,-5.6354837,29.971842836937867,-0.099455394,-6.3741606e-07,0.001986676,1.9157693e-05,1.0,42,0.02195187,1.0221884e-07,0,-8.239492068843408e-09,1.0
53,53,3286.0488,214456.08,18832.725,215281.4,-5.018625,30.65171854923392,-0.099423684,-7.7710433e-07,0.0025717749,1.9680958e-05,1.0,42,0.02196719,1.02039415e-07,0,-8.285685031987257e-09,1.0
54,54,2844.088,214030.28,17110.428,214713.12,-4.570731,31.331844928194187,-0.09945486,-6.9161507e-07,0.0032705157,2.0769248e-05,1.0,42,0.02192983,1.0213549e-07,0,-8.48569858891008e-09,1.0
55,55,2460.7852,213992.17,14682.884,214495.31,-3.925147,32.232701690991234,-0.09943699,-5.0592297e-07,0.00440489,2.0640593e-05,1.0,42,0.020127678,9.383738e-08,0,-8.73620584295133e-09,1.0
56,56,2129.3164,214262.61,13630.168,214695.7,-3.639927,32.9128119632951,-0.099470004,-7.039079e-07,0.0054837638,2.2102146e-05,1.0,42,0.020132972,9.377445e-08,0,-8.859944245221148e-09,1.0
57,57,1843.2289,216134.34,12077.033,216471.5,-3.1982155,33.592943168914644,-0.09943926,-5.174706e-07,0.0071495813,2.225357e-05,1.0,42,0.020206679,9.3345676e-08,0,-8.995449162659202e-09,1.0
58,58,1594.4913,214786.27,11310.313,215083.84,-3.0143235,34.27284157455142,-0.09943235,-6.9142914e-07,0.0088251745,2.4403776e-05,1.0,42,0.020155815,9.3711435e-08,0,-9.177747880612862e-09,1.0
59,59,1380.4436,215191.95,11113.782,215478.75,-2.9564655,34.952679393521976,-0.09940563,-8.512326e-07,0.010373841,2.7596529e-05,1.0,42,0.020193398,9.371411e-08,0,-9.372861619133408e-09,1.0
60,60,1194.6187,215792.8,10030.083,216025.77,-2.6612015,35.63280382582161,-0.0994212,-6.7280394e-07,0.013282699,2.8634147e-05,1.0,42,0.02018394,9.3433016e-08,0,-9.47988010086092e-09,1.0
61,61,1033.3434,216528.98,9127.168,216721.27,-2.413713,36.31308572477428,-0.09944999,-5.722284e-07,0.016874831,2.993012e-05,1.0,42,0.020201007,9.321193e-08,0,-9.582966019920036e-09,1.0
62,62,894.71045,215691.05,8894.948,215874.38,-2.3615,36.9928095437499,-0.09945331,-6.865865e-07,0.019998353,3.3953056e-05,1.0,42,0.020152364,9.335228e-08,0,-9.703150222992581e-09,1.0
63,63,774.2569,215443.56,8762.546,215621.69,-2.329057,37.67296208269545,-0.099454425,-7.2346427e-07,0.023458743,3.8741862e-05,1.0,42,0.020137496,9.339272e-08,0,-9.910669439929996e-09,1.0
64,64,669.7856,215768.4,9014.828,215956.64,-2.3924327,38.352801715009264,-0.09944416,-6.2456485e-07,0.026358878,4.5931294e-05,1.0,42,0.020135485,9.3238555e-08,0,-1.0067365611428317e-08,1.0
65,65,579.81464,216665.88,8972.141,216851.56,-2.3712652,39.032816227307194,-0.09943482,-7.6313574e-07,0.030593902,5.2372332e-05,1.0,42,0.020161651,9.297443e-08,0,-1.0111735120827822e-08,1.0
66,66,501.44418,216937.7,9091.056,217128.11,-2.3996499,39.7101928461052,-0.099425025,-9.352317e-07,0.034912683,6.1203995e-05,1.0,42,0.020177059,9.2926975e-08,0,-1.0155625132452113e-08,1.0
67,67,434.02762,216960.48,9868.068,217184.78,-2.6042037,40.390213358419714,-0.099431396,-6.724315e-07,0.037159562,7.671427e-05,1.0,42,0.020177718,9.2905765e-08,0,-1.0368119980080494e-08,1.0
68,68,375.6009,217550.03,10302.538,217793.84,-2.7113361,41.06944365732488,-0.09947768,-6.3871994e-07,0.04112911,9.203363e-05,1.0,42,0.020163203,9.2579306e-08,0,-1.056413453962119e-08,1.0
69,69,325.10385,217611.22,11232.954,217900.94,-2.9549494,41.748715449648444,-0.099432684,-5.8303084e-07,0.043581687,0.0001158174,1.0,42,0.020142205,9.243744e-08,0,-1.070865191589121e-08,1.0
70,70,281.3503,218439.3,12716.316,218809.12,-3.3316803,42.425782548467396,-0.099423595,-7.4227563e-07,0.044484776,0.0001502461,1.0,42,0.020185899,9.225346e-08,0,-1.0940428797869433e-08,1.0
71,71,243.36427,218195.12,13338.559,218602.45,-3.498214,43.10908900757204,-0.09946786,-6.1487987e-07,0.049029157,0.00018254173,1.0,42,0.020130426,9.2086914e-08,0,-1.1014358526125534e-08,1.0
72,72,210.60631,218946.19,13951.176,219390.22,-3.6459384,43.786188373022014,-0.09946117,-6.2996617e-07,0.054167394,0.00021904081,1.0,42,0.020153515,9.18615e-08,0,-1.1072998210272386e-08,1.0
73,73,182.27473,218732.95,14568.157,219217.55,-3.8104136,44.458285844972124,-0.09947075,-7.8660344e-07,0.05993617,0.00026469617,1.0,42,0.020155814,9.1944344e-08,0,-1.1285094733389493e-08,1.0
74,74,157.72879,222290.55,19047.512,223105.12,-4.897567,45.14665721104393,-0.09941029,-6.361126e-07,0.052974995,0.00038612535,1.0,42,0.02022702,9.066139e-08,0,-1.1318020814879759e-08,1.0
75,75,136.52892,221662.45,19616.021,222528.72,-5.057216,45.81850764292176,-0.09945342,-6.75039e-07,0.0594271,0.0004617791,1.0,42,0.020184305,9.070427e-08,0,-1.1555500022113721e-08,1.0
76,76,118.14758,222257.05,21055.814,223252.19,-5.41184,46.50692220896599,-0.09947116,-6.295938e-07,0.06397691,0.0005690834,1.0,42,0.020180104,9.039152e-08,0,-1.1618965309895183e-08,1.0
77,77,102.25773,225933.38,22288.49,227030.1,-5.634041,47.420347772334935,-0.09946931,-8.51872e-07,0.06983021,0.0006730352,1.0,43,0.020159118,8.879491e-08,0,-1.1916760966806963e-08,1.0
78,78,88.4436,227813.02,25033.23,229184.28,-6.2707872,48.110265271767275,-0.099454984,-6.1901113e-07,0.07188475,0.0008576319,1.0,43,0.020166883,8.799418e-08,0,-1.2029364168894416e-08,1.0
79,79,76.54279,228933.47,27599.395,230591.11,-6.8741984,48.777712556839106,-0.09944669,-7.385329e-07,0.07533838,0.0010792704,1.0,43,0.020182382,8.752455e-08,0,-1.2183698870313206e-08,1.0
80,80,66.250786,230266.95,31798.533,232452.19,-7.862488,49.44596712189377,-0.09945065,-6.2700036e-07,0.07554784,0.0014137379,1.0,43,0.020136772,8.662759e-08,0,-1.2262813932632671e-08,1.0
81,81,57.329906,235285.75,32383.1,237503.78,-7.8365593,50.10063667301074,-0.09946648,-9.019862e-07,0.085727565,0.0015937355,1.0,43,0.02018742,8.499831e-08,0,-1.246407054303786e-08,1.0
82,82,49.60321,235286.92,37936.49,238325.64,-9.159258,50.78635523884441,-0.09944613,-7.4795616e-07,0.08457718,0.0021430186,1.0,43,0.0201656,8.461364e-08,0,-1.2623429768675168e-08,1.0
83,83,42.92585,237693.6,41356.656,241264.62,-9.870168,51.49441711246618,-0.099461675,-6.0988594e-07,0.089651145,0.0026342645,1.0,43,0.02015331,8.353197e-08,0,-1.2669391135977845e-08,1.0
84,84,37.1518,240194.23,46292.83,244614.6,-10.908903,52.13818119643838,-0.099431396,-7.449393e-07,0.09253938,0.0033142806,1.0,43,0.020150095,8.237487e-08,0,-1.2839534838171573e-08,1.0
85,85,32.150223,243883.27,51555.36,249272.95,-11.936232,52.777364080102416,-0.09945197,-6.988849e-07,0.09602014,0.0041073305,1.0,43,0.020183079,8.096779e-08,0,-1.3092122380299997e-08,1.0
86,86,27.835518,247268.61,56680.664,253681.81,-12.910698,53.50534699470154,-0.09943979,-8.2714087e-07,0.10087554,0.0050358996,1.0,43,0.020195039,7.960775e-08,0,-1.3256505838447828e-08,1.0
87,87,24.082958,251067.9,63089.152,258873.2,-14.105421,54.20736764135654,-0.09943359,-6.3029677e-07,0.10475038,0.0062214383,1.0,43,0.020132443,7.776951e-08,0,-1.3498579515435773e-08,1.0
88,88,20.833313,255561.81,67315.68,264278.72,-14.756681,54.8617402324744,-0.09945629,-6.0729764e-07,0.113486856,0.0073629804,1.0,43,0.020187888,7.638863e-08,0,-1.3488027091121068e-08,1.0
89,89,18.021912,259971.81,75257.84,270645.7,-16.144918,55.60775376124366,-0.09947757,-5.8065757e-07,0.11734579,0.009073375,1.0,43,0.020172998,7.453656e-08,0,-1.3738783778470696e-08,1.0
90,90,15.604198,264890.25,81148.234,277041.3,-17.032269,56.2640285390662,-0.09944621,-7.0076607e-07,0.12568967,0.010783722,1.0,43,0.020172175,7.281288e-08,0,-1.3642892125551932e-08,1.0
91,91,13.500899,269966.7,88778.08,284189.3,-18.203362,57.01199209460174,-0.09942507,-7.1337377e-07,0.13278581,0.01295829,1.0,43,0.020174785,7.099065e-08,0,-1.3752404688301596e-08,1.0
92,92,11.686608,277829.62,96564.086,294132.5,-19.165703,57.60287748265546,-0.099439874,-6.800018e-07,0.14103146,0.015200619,1.0,43,0.020210557,6.8712424e-08,0,-1.3851190835385355e-08,1.0
93,93,10.113269,280532.9,105121.6,299581.8,-20.542034,58.2765398613119,-0.09945003,-6.4646196e-07,0.14970511,0.01843273,1.0,43,0.020017784,6.681909e-08,0,-1.4214350849671733e-08,1.0
94,94,8.748621,289741.75,115198.6,311802.8,-21.682306,59.0443628844514,-0.09945061,-6.060783e-07,0.1579186,0.021555975,1.0,43,0.020140512,6.459375e-08,0,-1.4761572525893484e-08,1.0
95,95,7.570237,297606.16,125639.22,323039.7,-22.887821,59.91899983267649,-0.09942989,-7.873816e-07,0.16733447,0.025311861,1.0,43,0.02016468,6.242168e-08,0,-1.4338401031681553e-08,1.0
96,96,6.554112,304894.3,135634.14,333702.22,-23.982187,60.45529799142969,-0.09945527,-5.585993e-07,0.17903472,0.029577205,1.0,43,0.020147229,6.037487e-08,0,-1.492156384562351e-08,1.0
97,97,5.669445,313863.12,148683.56,347299.38,-25.3479,61.065135700424435,-0.09947973,-8.788576e-07,0.18880637,0.034604657,1.0,43,0.020194598,5.814752e-08,0,-1.453470724112154e-08,1.0
98,98,4.907347,323313.0,161589.64,361445.03,-26.55557,61.75755951998872,-0.09946056,-6.2286705e-07,0.20070577,0.04011459,1.0,43,0.020189045,5.5856475e-08,0,-1.5453489233259572e-08,1.0
99,99,4.245922,332820.78,174940.53,375997.16,-27.727755,62.54528945070342,-0.09944981,-6.6604434e-07,0.21426816,0.04638413,1.0,43,0.020157252,5.361012e-08,0,-1.4713725884054915e-08,1.0
100,100,3.6747382,344132.16,190074.55,393135.2,-28.91319,63.44494621347985,-0.09944483,-7.9021265e-07,0.22786088,0.053264007,1.0,43,0.020168247,5.1301047e-08,0,-1.513930962907632e-08,1.0
101,101,3.180988,354167.97,206873.48,410160.44,-30.289679,64.47321047561127,-0.09944996,-7.3373866e-07,0.241854,0.06152553,1.0,43,0.020172369,4.9181654e-08,0,-1.6175885428449427e-08,1.0
102,102,2.752818,365127.06,226100.47,429463.84,-31.767357,65.65211698497296,-0.09945372,-7.144223e-07,0.25570613,0.07087464,1.0,43,0.020182591,4.6994856e-08,0,-1.5807288014436773e-08,1.0
103,103,2.3804083,375341.72,245272.11,448374.62,-33.16315,67.0069772626739,-0.09944511,-6.373422e-07,0.27259663,0.08157081,1.0,43,0.020166054,4.4975906e-08,0,-1.5222462307014418e-08,1.0
104,104,2.060257,386407.12,270167.03,471487.75,-34.96037,68.56237570985104,-0.09942104,-7.74658e-07,0.28593442,0.093883716,1.0,43,0.020170428,4.2780385e-08,0,-1.5973820083777372e-08,1.0
105,105,1.7836765,396259.28,295284.5,494180.5,-36.69274,70.350643554837,-0.0994384,-7.996833e-07,0.30217838,0.10788809,1.0,43,0.020160858,4.0796547e-08,0,-1.7418475920015553e-08,1.0
