True,index,freq,Re(Z),Im(Z),Z,Phase(Z),time,Ewe_meas,I_meas,Cs,Cp,cycle_number,I_Range,Ewe,I,Ns,(QQo),cycle
110,110,7000018.5,73.96495,1610.4076,1612.1052,-87.37029,59.15648739642347,-0.04735188,4.4367174e-05,1.4118389e-05,1.408867e-05,2.0,40,0.010022442,6.2169897e-06,0,3.2486113668309794e-09,2.0
111,111,6057573.0,34.795288,1770.9279,1771.2697,-88.8744,59.57549258964718,-0.047357358,3.1933394e-06,1.483613e-05,1.4830404e-05,2.0,40,0.014306219,8.076816e-06,0,-2.533844805089755e-09,2.0
112,112,5242039.0,169.34163,2152.9827,2159.632,-85.50269,59.85850332307746,-0.047282517,-2.6928781e-05,1.4101956e-05,1.40152515e-05,2.0,40,0.019647647,9.097682e-06,0,1.0471543092172514e-09,2.0
113,113,4536288.0,179.3482,2378.4944,2385.2466,-85.68782,60.95750494863023,-0.04714045,-5.180417e-05,1.4750862e-05,1.4667466e-05,2.0,40,0.021564238,9.040675e-06,0,-1.4421595867988696e-08,2.0
114,114,3925558.5,218.42538,2835.7754,2844.175,-85.5955,61.24048853540444,-0.047330678,7.2121134e-06,1.4297063e-05,1.4212741e-05,2.0,40,0.019906832,6.9991584e-06,0,-1.5331351710158438e-08,2.0
115,115,3397055.0,242.37012,3174.0496,3183.2898,-85.63338,61.5234959355148,-0.047343776,-6.053528e-06,1.4760595e-05,1.4675027e-05,2.0,40,0.021037843,6.608837e-06,0,-1.4473822029871168e-08,2.0
116,116,2939708.2,294.79227,3675.3723,3687.1755,-85.41427,61.942485342064174,-0.047293935,-3.1803385e-05,1.47304e-05,1.4636243e-05,2.0,40,0.020846283,5.653727e-06,0,-2.680507629022324e-08,2.0
117,117,2543924.5,314.98575,4270.53,4282.1304,-85.78162,62.36148741529905,-0.047414392,1.7793373e-06,1.4649883e-05,1.4570615e-05,2.0,40,0.020547612,4.7984554e-06,0,-3.4265315465236096e-08,2.0
118,118,2201436.2,376.08688,4989.9272,5004.08,-85.68981,62.78048231519642,-0.047434326,1.5993859e-05,1.4488379e-05,1.4406542e-05,2.0,40,0.020801222,4.1568524e-06,0,-3.387554761068855e-08,2.0
119,119,1905053.1,213.5314,5050.3916,5054.904,-87.578964,63.19948718845262,-0.047394305,7.881908e-06,1.6541999e-05,1.651248e-05,2.0,40,0.020359615,4.027696e-06,0,-2.885697804610486e-08,2.0
120,120,1648567.4,352.4463,6667.073,6676.3823,-86.973946,63.78548222963582,-0.047258426,-9.408403e-06,1.44803225e-05,1.4439969e-05,2.0,41,0.018944459,2.8375337e-06,0,-3.400608265795846e-08,2.0
121,121,1426616.2,289.58456,7273.4814,7279.2437,-87.72005,64.06849277639412,-0.04726351,-8.637445e-06,1.5338068e-05,1.5313793e-05,2.0,41,0.021824047,2.9981202e-06,0,-3.383270440071239e-08,2.0
122,122,1234551.2,288.62863,8858.735,8863.437,-88.133896,64.48749420963577,-0.047439937,4.7143817e-06,1.45525555e-05,1.4537122e-05,2.0,41,0.02103217,2.3729137e-06,0,-3.308259099300789e-08,2.0
123,123,1068345.5,-1227.3029,10881.413,10950.407,-96.435135,64.90648657621932,-0.047296416,-4.7920444e-06,1.369062e-05,1.3518646e-05,2.0,41,0.020973349,1.915303e-06,0,-3.373240565205116e-08,2.0
124,124,924510.06,229.62218,11699.546,11701.799,-88.875626,65.32549926274805,-0.047282983,-3.9168203e-06,1.4714296e-05,1.470863e-05,2.0,41,0.020266132,1.7318818e-06,0,-3.357481313931091e-08,2.0
125,125,800039.0,-5806.9526,9437.326,11080.786,-121.60471,65.74449733601068,-0.04731214,-5.406564e-06,2.1079486e-05,1.5290327e-05,2.0,41,0.020501595,1.8501933e-06,0,-3.3483527110957923e-08,2.0
126,126,692334.1,-111.9026,15953.192,15953.585,-90.40189,66.16349103589891,-0.047300644,-1.2278341e-06,1.4409762e-05,1.4409053e-05,2.0,41,0.020411046,1.2794019e-06,0,-3.320586392435033e-08,2.0
127,127,599122.25,331.45078,18437.508,18440.486,-88.97011,66.58248617578647,-0.047433916,8.470396e-06,1.440796e-05,1.4403306e-05,2.0,41,0.020817634,1.1289092e-06,0,-3.3292934268835755e-08,2.0
128,128,518454.94,330.7596,20790.018,20792.648,-89.088524,67.00150358237443,-0.047325034,2.805322e-07,1.47657065e-05,1.4761971e-05,2.0,41,0.020359337,9.791604e-07,0,-3.297832616709743e-08,2.0
129,129,448662.03,1004.027,25657.205,25676.842,-87.759026,67.42049976225826,-0.047354303,-3.7123078e-07,1.3825838e-05,1.3804699e-05,2.0,41,0.020283345,7.89947e-07,0,-3.334839624960652e-08,2.0
130,130,388258.97,454.24686,26216.17,26220.105,-89.00734,67.83949548882083,-0.04741204,1.7293071e-06,1.5636135e-05,1.5631442e-05,2.0,41,0.020809012,7.936281e-07,0,-3.3757309316629973e-08,2.0
131,131,335983.9,-26397.037,38290.44,46507.65,-124.58198,68.42549076999421,-0.047389165,-2.99744e-07,1.2371183e-05,8.385776e-06,2.0,42,0.02083026,4.4788894e-07,0,-3.385649889282573e-08,2.0
132,132,290751.2,-1776.2983,34249.39,34295.42,-92.96891,68.8444868165825,-0.047437213,3.078074e-07,1.598254e-05,1.5939664e-05,2.0,42,0.020403624,5.949372e-07,0,-3.3965310091388025e-08,2.0
133,133,251605.19,-1682.0233,40805.223,40839.875,-92.36044,69.26349816980655,-0.047532797,1.1168825e-06,1.5501895e-05,1.54756e-05,2.0,42,0.020448146,5.006907e-07,0,-3.3959464932648777e-08,2.0
134,134,217729.38,-1624.8042,48837.22,48864.24,-91.90552,69.68249858971103,-0.04718753,-1.607041e-06,1.4967601e-05,1.4951052e-05,2.0,42,0.0202054,4.1350077e-07,0,-3.406802194861664e-08,2.0
135,135,188418.58,-341.84277,55319.242,55320.297,-90.35405,70.10149948959588,-0.04736185,2.1803426e-07,1.5269337e-05,1.5268755e-05,2.0,42,0.020763004,3.7532345e-07,0,-3.406298138572808e-08,2.0
136,136,163051.14,963.8165,65004.75,65011.895,-89.15054,70.52049364286358,-0.04734469,-6.4225986e-07,1.5015894e-05,1.5012594e-05,2.0,42,0.02034778,3.129855e-07,0,-3.421338067482315e-08,2.0
137,137,141098.2,655.0429,75127.99,75130.85,-89.50045,70.93948094276129,-0.047351304,9.7716075e-08,1.5014015e-05,1.5012873e-05,2.0,42,0.02038479,2.7132384e-07,0,-3.413972067452351e-08,2.0
138,138,122105.11,2588.258,82961.445,83001.81,-88.21305,71.22248290284188,-0.047377612,8.523738e-08,1.5711224e-05,1.5695945e-05,2.0,42,0.021907236,2.6393684e-07,0,-3.419112589788447e-08,2.0
139,139,105663.59,1651.4213,96275.98,96290.14,-89.0173,71.641482069419,-0.047285907,-9.2070525e-07,1.5645046e-05,1.5640442e-05,2.0,42,0.020363733,2.1148306e-07,0,-3.427811753502111e-08,2.0
140,140,91439.65,6336.2866,108763.88,108948.3,-86.66587,71.92448256284115,-0.04733558,-6.8006875e-07,1.6002981e-05,1.5948852e-05,2.0,42,0.021554803,1.9784433e-07,0,-3.429035760600957e-08,2.0
141,141,79127.08,4135.305,135426.22,135489.34,-88.25099,72.3434845560987,-0.047443513,4.7301216e-07,1.48522495e-05,1.4838413e-05,2.0,42,0.02041685,1.5068971e-07,0,-3.443230699326942e-08,2.0
142,142,68475.36,4775.991,151088.3,151163.77,-88.189445,72.62648979623918,-0.047363676,-4.7165366e-07,1.5383494e-05,1.5368138e-05,2.0,42,0.021225072,1.4041112e-07,0,-3.443622630011885e-08,2.0
143,143,59252.523,1052.7102,175306.84,175310.0,-89.655945,73.04548666943447,-0.047228165,-1.1203666e-06,1.5321963e-05,1.5321411e-05,2.0,42,0.02016391,1.15018594e-07,0,-3.4478947558828644e-08,2.0
144,144,51282.285,-3994.6416,200569.77,200609.55,-91.140976,73.32848310956615,-0.047371574,-1.3342162e-07,1.5473455e-05,1.546732e-05,2.0,42,0.02074207,1.0339523e-07,0,-3.451348831678164e-08,2.0
145,145,44369.8,5792.407,237593.28,237663.88,-88.60343,73.61148570963996,-0.04742542,2.120743e-07,1.5097272e-05,1.5088305e-05,2.0,42,0.021137219,8.893745e-08,0,-3.453444284971753e-08,2.0
146,146,38403.727,10274.192,278442.97,278632.47,-87.88682,73.89448860308039,-0.047396876,-3.2488785e-07,1.4883686e-05,1.4863448e-05,2.0,42,0.021509202,7.719561e-08,0,-3.453776381875093e-08,2.0
147,147,33226.32,17399.223,327802.2,328263.62,-86.961685,74.17748834987287,-0.047440346,6.6857604e-07,1.4612551e-05,1.45714985e-05,2.0,42,0.021700945,6.6108285e-08,0,-3.452585044223986e-08,2.0
148,148,28754.086,20796.334,361359.5,361957.44,-86.706245,74.46049326998764,-0.047403008,8.262985e-08,1.531726e-05,1.5266694e-05,2.0,42,0.021751478,6.0094024e-08,0,-3.458644116926182e-08,2.0
149,149,24884.947,15648.601,407927.47,408227.5,-87.80314,74.74348328341148,-0.047388215,3.7001536e-07,1.5678354e-05,1.5655316e-05,2.0,42,0.021660008,5.305867e-08,0,-3.458304731500148e-08,2.0
150,150,21553.963,29030.678,479843.34,480720.72,-86.5378,75.1934818381269,-0.047297757,-3.135791e-07,1.5388401e-05,1.5332282e-05,2.0,43,0.021452637,4.462599e-08,0,-3.464567754729981e-08,2.0
151,151,18631.234,51756.375,587698.7,589973.25,-84.96716,75.47648755824775,-0.047346346,-2.2856553e-07,1.4535293e-05,1.4423431e-05,2.0,43,0.021413669,3.6296e-08,0,-3.4664714914373285e-08,2.0
152,152,16126.037,75064.14,657066.0,661339.8,-83.482704,75.75949266503449,-0.047252405,-3.4937236e-07,1.5020469e-05,1.482696e-05,2.0,43,0.0211253,3.1943184e-08,0,-3.467898930360894e-08,2.0
153,153,13954.87,-307082.44,1026486.8,1071435.9,-106.65501,76.17850001822808,-0.047306493,-2.9558936e-07,1.1110688e-05,1.0198009e-05,2.0,43,0.019730598,1.8415099e-08,0,-3.469888314733202e-08,2.0
154,154,12080.609,17659.857,931200.5,931367.94,-88.913536,76.46148480501142,-0.04727631,-2.88941e-07,1.4147772e-05,1.4142686e-05,2.0,43,0.018667808,2.004343e-08,0,-3.472089462935705e-08,2.0
155,155,10447.592,59336.87,1088746.8,1090362.5,-86.880455,76.88049303824664,-0.04727605,-2.9976093e-07,1.3991912e-05,1.3950475e-05,2.0,43,0.02001557,1.8356802e-08,0,-3.475664832193607e-08,2.0
156,156,9045.586,130979.66,1107550.9,1115268.9,-83.25549,77.31525847225566,-0.047218647,-3.073218e-07,1.588619e-05,1.5667076e-05,2.0,43,0.020221015,1.8131068e-08,0,-3.4784212824661944e-08,2.0
157,157,7827.7437,193141.3,1334258.9,1348165.5,-81.763336,77.64292080784799,-0.04726435,-3.008783e-07,1.5238544e-05,1.4925787e-05,2.0,43,0.020260012,1.5027837e-08,0,-3.480688670594853e-08,2.0
158,158,6770.8345,379491.2,1572870.5,1618003.5,-76.435326,78.00941247856827,-0.047290992,-2.7752515e-07,1.4944624e-05,1.4122514e-05,2.0,43,0.020411558,1.2615275e-08,0,-3.4835121819195596e-08,2.0
159,159,5860.798,317179.28,1691187.2,1720673.4,-79.37767,78.4219764181762,-0.047669273,2.8986051e-09,1.6057269e-05,1.5511658e-05,2.0,43,0.020246211,1.17664465e-08,0,-3.4846532244990136e-08,2.0
160,160,5071.625,466321.75,1941408.0,1996627.4,-76.49355,78.8846898535121,-0.047348008,-2.386033e-07,1.6164273e-05,1.5282549e-05,2.0,43,0.020215178,1.0124662e-08,0,-3.488494965803213e-08,2.0
161,161,4388.5933,381614.66,2236546.0,2268869.2,-80.317055,79.34684507545899,-0.047399316,-1.93182e-07,1.6215e-05,1.575628e-05,2.0,43,0.02021704,8.910624e-09,0,-3.491539224878319e-08,2.0
162,162,3798.7827,852092.94,2532475.8,2671983.5,-71.40364,79.80882837739773,-0.047353875,-2.3147071e-07,1.6543614e-05,1.4861185e-05,2.0,43,0.020264229,7.583965e-09,0,-3.4948317108668095e-08,2.0
163,163,3286.0488,1164559.4,2883788.5,3110053.8,-68.00968,80.27070338600606,-0.047414076,-2.1268019e-07,1.6795104e-05,1.44402175e-05,2.0,43,0.020322833,6.53456e-09,0,-3.497297647802247e-08,2.0
164,164,2844.088,1498303.5,3011693.8,3363809.2,-63.54987,80.73285044793738,-0.047287527,-2.6810199e-07,1.858088e-05,1.4894475e-05,2.0,43,0.02031163,6.0382823e-09,0,-3.5001439541623526e-08,2.0
165,165,2460.7852,1542750.8,3529577.8,3852012.2,-66.390236,81.1946790032307,-0.04742093,-2.1444937e-07,1.8324143e-05,1.538487e-05,2.0,43,0.020295965,5.2689253e-09,0,-3.502791603077742e-08,2.0
166,166,2129.3164,2043895.0,3907680.5,4409929.0,-62.388382,81.65681529183348,-0.04735948,-2.4206713e-07,1.9127618e-05,1.5018819e-05,2.0,43,0.020315776,4.606826e-09,0,-3.506191303824672e-08,2.0
167,167,1843.2289,2070755.6,3467212.2,4038513.2,-59.15269,82.1189540871128,-0.047037993,-4.9058985e-07,2.4903504e-05,1.835601e-05,2.0,43,0.019908322,4.9296167e-09,0,-3.5112334565767145e-08,2.0
168,168,1594.4913,3145300.5,4360914.5,5376847.5,-54.19905,82.5808458157262,-0.047412004,-2.0586421e-07,2.2888662e-05,1.5056364e-05,2.0,43,0.020305179,3.77641e-09,0,-3.513968468039863e-08,2.0
169,169,1380.4436,3877519.8,4593528.5,6011294.5,-49.831398,83.04268119767221,-0.047367737,-2.409684e-07,2.509892e-05,1.4655879e-05,2.0,43,0.020309802,3.378607e-09,0,-3.516380239336729e-08,2.0
170,170,1194.6187,4202243.5,4766956.5,6354740.5,-48.602665,83.5038146329025,-0.047360525,-2.5253323e-07,2.794793e-05,1.5726657e-05,2.0,43,0.020344215,3.2014233e-09,0,-3.5190303659312467e-08,2.0
171,171,1033.3434,5075621.5,4478915.5,6769240.5,-41.42637,83.96607660150039,-0.0472789,-2.592747e-07,3.4387656e-05,1.5054573e-05,2.0,43,0.020269169,2.9943046e-09,0,-3.522148117342254e-08,2.0
172,172,894.71045,4577697.5,3885780.8,6004549.0,-40.32628,84.42783771679387,-0.04740297,-2.3012987e-07,4.5778266e-05,1.9171459e-05,2.0,43,0.019883018,3.3113257e-09,0,-3.525122329386838e-08,2.0
173,173,774.2569,5346043.5,4915850.5,7262628.0,-42.599487,84.88997384539107,-0.04734007,-2.6847445e-07,4.1815412e-05,1.9157822e-05,2.0,43,0.020206777,2.7822955e-09,0,-3.526083213893185e-08,2.0
174,174,669.7856,6888497.0,4403822.0,8175881.5,-32.590816,85.35184450734232,-0.04739345,-2.2256897e-07,5.3957843e-05,1.5654707e-05,2.0,43,0.020303411,2.48333e-09,0,-3.5293454467880357e-08,2.0
175,175,579.81464,7279650.5,3618567.0,8129412.0,-26.431042,85.8138367159554,-0.047307834,-2.7914538e-07,7.585677e-05,1.50296655e-05,2.0,43,0.020221068,2.487396e-09,0,-3.5322359112537686e-08,2.0
176,176,501.44418,7693109.5,3986603.2,8664695.0,-27.39339,86.2741674577992,-0.047284473,-2.824044e-07,7.961493e-05,1.685365e-05,2.0,43,0.020291727,2.341886e-09,0,-3.535158447790406e-08,2.0
177,177,434.02762,8325782.0,3902736.0,9195107.0,-25.114979,86.73622750639333,-0.04737441,-2.2957119e-07,9.395796e-05,1.6926157e-05,2.0,43,0.020292593,2.2068904e-09,0,-3.537677453528899e-08,2.0
178,178,375.6009,8882725.0,3357946.0,9496242.0,-20.708149,87.19743950161501,-0.047319945,-2.5901403e-07,0.0001261885,1.5778427e-05,2.0,43,0.020372115,2.1452817e-09,0,-3.540680083451386e-08,2.0
179,179,325.10385,8799388.0,3175024.8,9354679.0,-19.840628,87.65872008358565,-0.0473944,-2.1888165e-07,0.00015418812,1.7761815e-05,2.0,43,0.020291355,2.169113e-09,0,-3.54387879824003e-08,2.0
180,180,281.3503,9547414.0,2721177.0,9927634.0,-15.908462,88.11881602543872,-0.047176406,-3.809196e-07,0.00020788156,1.5618452e-05,2.0,43,0.020377377,2.0525914e-09,0,-3.548032578600117e-08,2.0
181,181,243.36427,9365549.0,2710614.0,9749920.0,-16.141708,88.58312879412551,-0.047319293,-2.7471313e-07,0.00024126572,1.8647856e-05,2.0,43,0.020311108,2.0832076e-09,0,-3.551358821420841e-08,2.0
182,182,210.60631,9406712.0,2420791.8,9713211.0,-14.431758,89.04317289599567,-0.047415733,-2.1554816e-07,0.0003121701,1.9390121e-05,2.0,43,0.020237004,2.0834516e-09,0,-3.5537886137349477e-08,2.0
183,183,182.27473,9504336.0,3019483.5,9972446.0,-17.624811,89.49925713098492,-0.047352385,-2.3959032e-07,0.00028917514,2.6510805e-05,2.0,43,0.020275656,2.0331679e-09,0,-3.556806673442035e-08,2.0
184,184,157.72879,9119810.0,1959273.9,9327898.0,-12.124961,89.96666797987564,-0.047328386,-2.6121154e-07,0.00051500805,2.2721486e-05,2.0,43,0.020124717,2.157476e-09,0,-3.559023179919535e-08,2.0
185,185,136.52892,9865764.0,1627828.6,9999156.0,-9.369258,90.42251160150045,-0.0473786,-2.1701936e-07,0.00071612163,1.897918e-05,2.0,43,0.020298013,2.0299726e-09,0,-3.5622908707564894e-08,2.0
186,186,118.14758,9817218.0,1599077.1,9946598.0,-9.251374,90.88990258370177,-0.04739639,-2.0770791e-07,0.00084241456,2.1772865e-05,2.0,43,0.02024328,2.0351962e-09,0,-3.5662028728072174e-08,2.0
187,187,102.25773,10136387.0,1647881.9,10269462.0,-9.233847,91.34232425849768,-0.047397602,-2.1158147e-07,0.0009444912,2.43195e-05,2.0,43,0.020317405,1.9784294e-09,0,-3.568936444265184e-08,2.0
188,188,88.4436,9822614.0,1302765.2,9908630.0,-7.5549994,91.81130225412198,-0.04745406,-1.5604797e-07,0.0013812984,2.3877707e-05,2.0,43,0.020212483,2.0398867e-09,0,-3.5718892577583934e-08,2.0
189,189,76.54279,10442977.0,1185198.1,10510017.0,-6.474928,92.26474003569456,-0.047319982,-2.7648233e-07,0.0017543848,2.231002e-05,2.0,43,0.02032375,1.9337505e-09,0,-3.5745903261985074e-08,2.0
190,190,66.250786,9886701.0,750553.1,9915149.0,-4.3413067,92.71898893723846,-0.047367923,-2.4286797e-07,0.0032007198,1.8340537e-05,2.0,43,0.020238852,2.041205e-09,0,-3.577649936858496e-08,2.0
191,191,57.329906,10863835.0,1332007.1,10945189.0,-6.9901066,93.16362447839492,-0.047403455,-2.3726247e-07,0.0020841663,3.086732e-05,2.0,43,0.020340933,1.8584358e-09,0,-3.5801811888059545e-08,2.0
192,192,49.60321,9631490.0,1060124.9,9689658.0,-6.2811832,93.62938514046255,-0.04737735,-2.2364914e-07,0.0030265881,3.622851e-05,2.0,43,0.020153178,2.0798647e-09,0,-3.583661169084667e-08,2.0
193,193,42.92585,10597039.0,1271282.9,10673022.0,-6.8408446,94.11044582995237,-0.0474799,-1.5245375e-07,0.0029164802,4.1377916e-05,2.0,43,0.02042984,1.914157e-09,0,-3.587648606797019e-08,2.0
194,194,37.1518,10170863.0,991905.44,10219116.0,-5.5701113,94.5471620640892,-0.04738883,-2.3621958e-07,0.004318869,4.0689647e-05,2.0,43,0.020236151,1.9802253e-09,0,-3.5906548323921645e-08,2.0
195,195,32.150223,10654980.0,886356.1,10691783.0,-4.7553167,94.9813618446642,-0.047446642,-1.744474e-07,0.0055850605,3.838346e-05,2.0,43,0.020306805,1.8992907e-09,0,-3.5934251099198556e-08,2.0
196,196,27.835518,10631107.0,-616366.0,10648960.0,3.3181567,95.4753080814553,-0.04733639,-2.4287732e-07,-0.009276457,-3.107743e-05,2.0,43,0.020308696,1.907106e-09,0,-3.596622330976077e-08,2.0
197,197,24.082958,10456306.0,815443.4,10488054.0,-4.459232,95.9523799707822,-0.047319144,-2.8216232e-07,0.008104319,4.8990772e-05,2.0,43,0.020265983,1.932292e-09,0,-3.599668034248952e-08,2.0
198,198,20.833313,10234132.0,826497.8,10267451.0,-4.6171274,96.39673743194726,-0.047398068,-1.8184069e-07,0.009243152,5.9893297e-05,2.0,43,0.02029722,1.976851e-09,0,-3.6016145655316595e-08,2.0
199,199,18.021912,10748608.0,847837.1,10781994.0,-4.510083,96.90372398936597,-0.047126576,-4.5036444e-07,0.010416141,6.440707e-05,2.0,43,0.020314278,1.8840929e-09,0,-3.604286036295533e-08,2.0
200,200,15.604198,10604846.0,620533.56,10622985.0,-3.3487954,97.3490040905017,-0.047367364,-2.3519532e-07,0.016436653,5.608553e-05,2.0,43,0.02028348,1.9093955e-09,0,-3.606731943473602e-08,2.0
201,201,13.500899,10640925.0,699405.2,10663885.0,-3.76052,97.85696387462667,-0.047282778,-2.8285137e-07,0.016854994,7.25029e-05,2.0,43,0.020246845,1.8986368e-09,0,-3.609281887818976e-08,2.0
202,202,11.686608,7933592.0,1390603.8,8054543.0,-9.941837,98.25787162699271,-0.047399595,-2.0303355e-07,0.009793282,0.00029191287,2.0,43,0.019641705,2.438587e-09,0,-3.611059324581836e-08,2.0
203,203,10.113269,10636447.0,1207795.8,10704802.0,-6.478333,98.71551282206201,-0.04732574,-2.4862246e-07,0.01302972,0.00016586884,2.0,43,0.020249296,1.8916086e-09,0,-3.614173036124872e-08,2.0
204,204,8.748621,10855824.0,965358.8,10898662.0,-5.081685,99.23637036679429,-0.047298677,-2.7821426e-07,0.01884481,0.00014785054,2.0,43,0.02028321,1.8610733e-09,0,-3.616582869942045e-08,2.0
205,205,7.570237,10902659.0,973747.0,10946057.0,-5.103705,99.83101026172517,-0.047358513,-2.3973e-07,0.02159059,0.00017086037,2.0,43,0.020293621,1.8539664e-09,0,-3.622258113065355e-08,2.0
206,206,6.554112,10844451.0,930709.2,10884316.0,-4.9053063,100.19432934562792,-0.047375582,-2.0588288e-07,0.026091093,0.00019077348,2.0,43,0.02028448,1.863643e-09,0,-3.623102365835952e-08,2.0
207,207,5.669445,10513201.0,-580853.6,10529235.0,3.1623726,100.60912976533291,-0.04737767,-2.4540068e-07,-0.048329562,-0.00014707967,2.0,43,0.020184793,1.9170237e-09,0,-3.625582244139055e-08,2.0
208,208,4.907347,11313697.0,993834.0,11357264.0,-5.020172,101.0795380276686,-0.0472988,-2.7877294e-07,0.032633185,0.00024988473,2.0,43,0.020326078,1.7896984e-09,0,-3.6310286620677895e-08,2.0
209,209,4.245922,11170188.0,1273721.8,11242574.0,-6.505264,101.61431527973036,-0.047314778,-2.7528117e-07,0.029428868,0.0003777384,2.0,43,0.020273477,1.8032772e-09,0,-3.6328276670453744e-08,2.0
210,210,3.6747382,11148160.0,813881.6,11177830.0,-4.175523,102.2249367487675,-0.04739655,-2.1653518e-07,0.053214803,0.00028212395,2.0,43,0.020252332,1.8118304e-09,0,-3.6348053894588715e-08,2.0
211,211,3.180988,11371697.0,1082975.9,11423149.0,-5.440118,102.9232242218859,-0.04743622,-1.9416908e-07,0.046199717,0.00041524574,2.0,43,0.020289402,1.7761654e-09,0,-3.640309453969712e-08,2.0
212,212,2.752818,11292921.0,1167146.2,11353074.0,-5.9006844,103.72314009992988,-0.047349554,-2.6040448e-07,0.04953559,0.00052352925,2.0,43,0.020248407,1.7835177e-09,0,-3.6486650164568624e-08,2.0
