True,index,freq,Re(Z),Im(Z),Z,Phase(Z),time,Ewe_meas,I_meas,Cs,Cp,cycle_number,I_Range,Ewe,I,Ns,(QQo),cycle
110,110,7000018.5,196.19519,1674.149,1685.606,-83.31594,58.93947650611517,-0.08175512,1.8989414e-05,1.3580847e-05,1.3396858e-05,2.0,40,0.009953601,5.905058e-06,0,1.9568802525517947e-09,2.0
111,111,6057573.0,296.33737,1681.7494,1707.6583,-80.00662,59.358501566021005,-0.08171526,1.1398309e-05,1.5622847e-05,1.5152378e-05,2.0,40,0.014085951,8.248694e-06,0,5.661997414046308e-10,2.0
112,112,5242039.0,220.18443,2281.329,2291.9302,-84.48712,59.6414925394638,-0.08164532,-3.0147505e-05,1.3308588e-05,1.3185757e-05,2.0,40,0.019719495,8.603881e-06,0,2.9513552670456953e-09,2.0
113,113,4536288.0,204.29132,2519.7278,2527.9958,-85.364784,61.01248103127,-0.081653275,-3.2342945e-05,1.392406e-05,1.3833129e-05,2.0,40,0.018975265,7.506051e-06,0,-9.568513717566927e-10,2.0
114,114,3925558.5,184.19629,3004.015,3009.6567,-86.4912,61.29548536470975,-0.08178174,9.606997e-07,1.3496358e-05,1.3445805e-05,2.0,40,0.018560529,6.166992e-06,0,5.269616165013054e-10,2.0
115,115,3397055.0,228.56516,3385.3445,3393.0515,-86.137474,61.57849599144538,-0.08164282,-8.648463e-05,1.3839318e-05,1.377652e-05,2.0,40,0.019632773,5.7861703e-06,0,-2.162483630994817e-09,2.0
116,116,2939708.2,280.57062,3877.3367,3887.4746,-85.8612,61.86150043157977,-0.08167079,-4.9404087e-05,1.39631165e-05,1.3890385e-05,2.0,40,0.02162943,5.563877e-06,0,-1.6073581001856532e-09,2.0
117,117,2543924.5,313.28632,4405.9463,4417.0703,-85.93281,62.280482504778774,-0.08166749,-1.7402814e-05,1.419962e-05,1.4128189e-05,2.0,40,0.02124726,4.8102606e-06,0,-5.092616468415091e-09,2.0
118,118,2201436.2,226.87143,5067.66,5072.736,-87.43667,62.69948367137113,-0.08165372,-7.835407e-05,1.4266141e-05,1.42376075e-05,2.0,40,0.020488722,4.0389887e-06,0,-9.266832896231586e-09,2.0
119,119,1905053.1,76.40687,5700.736,5701.248,-89.23211,63.28549700588337,-0.08162976,-9.32088e-06,1.4654875e-05,1.4652242e-05,2.0,41,0.019469837,3.4150132e-06,0,-1.1054045432550385e-08,2.0
120,120,1648567.4,210.46825,6769.754,6773.025,-88.21928,63.70448193242191,-0.08171433,-4.086279e-06,1.4260691e-05,1.424692e-05,2.0,41,0.019928843,2.9423843e-06,0,-1.0606090491902729e-08,2.0
121,121,1426616.2,72.05117,7805.087,7805.4194,-89.4711,64.12348085900885,-0.081736356,-5.2797827e-08,1.4293389e-05,1.4292172e-05,2.0,41,0.02057417,2.6358825e-06,0,-1.0728226735020138e-08,2.0
122,122,1234551.2,389.86142,9306.202,9314.364,-87.60113,64.54249213225557,-0.08176655,1.9620816e-06,1.385283e-05,1.3828562e-05,2.0,41,0.020432731,2.1936796e-06,0,-1.3649638016413107e-08,2.0
123,123,1068345.5,917.9185,10721.287,10760.51,-85.106476,64.96149631214212,-0.081659146,-7.4102695e-06,1.38950945e-05,1.3793982e-05,2.0,41,0.020551324,1.9098838e-06,0,-1.495884069044109e-08,2.0
124,124,924510.06,120.39272,12442.254,12442.836,-89.44562,65.38048750537564,-0.081713825,-4.0173795e-06,1.3835964e-05,1.38346695e-05,2.0,41,0.020253792,1.6277472e-06,0,-1.3456414811402054e-08,2.0
125,125,800039.0,-1293.5282,9825.366,9910.148,-97.49997,65.79948747195886,-0.08162071,-7.849744e-06,2.0246978e-05,1.990203e-05,2.0,41,0.020450639,2.0636057e-06,0,-1.2696637229433854e-08,2.0
126,126,692334.1,377.22696,16840.916,16845.14,-88.71682,66.21849509185995,-0.08166123,-7.749186e-06,1.3650189e-05,1.3643344e-05,2.0,41,0.020423632,1.2124347e-06,0,-1.2675438622814629e-08,2.0
127,127,599122.25,627.45746,19457.07,19467.186,-88.15295,66.63749465844012,-0.08157843,-1.056294e-05,1.3652973e-05,1.3638789e-05,2.0,41,0.020641254,1.0603102e-06,0,-1.2803327759176882e-08,2.0
128,128,518454.94,412.0883,21800.887,21804.781,-88.91711,67.0564934516733,-0.081827894,6.6752555e-06,1.4081047e-05,1.4076018e-05,2.0,41,0.02038754,9.350032e-07,0,-1.2317839177475963e-08,2.0
129,129,448662.03,395.46835,24762.102,24765.26,-89.08502,67.47548272486893,-0.08162544,-8.890702e-06,1.4325617e-05,1.4321962e-05,2.0,41,0.020260653,8.181078e-07,0,-1.1995041752127487e-08,2.0
130,130,388258.97,2116.152,30300.678,30374.482,-86.005035,67.89449015809805,-0.08172322,-2.036021e-06,1.3528396e-05,1.3462733e-05,2.0,41,0.021046437,6.9289865e-07,0,-1.1231962483319899e-08,2.0
131,131,335983.9,14175.692,31280.037,34342.26,-65.620605,68.31350511134951,-0.08184427,1.0394028e-05,1.51437835e-05,1.2563513e-05,2.0,41,0.02041619,5.944917e-07,0,-1.0850174156746433e-08,2.0
132,132,290751.2,1194.7018,40646.41,40663.965,-88.316414,68.7325055579131,-0.08176633,-1.2762515e-06,1.3467174e-05,1.3455548e-05,2.0,41,0.020592168,5.063984e-07,0,-1.1579676498590361e-08,2.0
133,133,251605.19,-582.5668,44744.457,44748.25,-90.74594,69.15149709783145,-0.08186883,1.2392146e-05,1.4137132e-05,1.41347355e-05,2.0,41,0.020438978,4.567548e-07,0,-1.0832783064751586e-08,2.0
134,134,217729.38,312.49185,51118.52,51119.477,-89.64975,69.73748600567342,-0.08174131,-5.4317417e-07,1.42996305e-05,1.4299096e-05,2.0,42,0.019573739,3.829018e-07,0,-8.546078161327476e-09,2.0
135,135,188418.58,1938.9535,59882.89,59914.273,-88.14546,70.02050324578886,-0.08162024,-1.4543149e-06,1.4105667e-05,1.4090894e-05,2.0,42,0.02171804,3.6248525e-07,0,-8.577510677063978e-09,2.0
136,136,163051.14,1355.0134,68165.32,68178.79,-88.861206,70.43949595899903,-0.081856325,5.644616e-07,1.4319664e-05,1.4314007e-05,2.0,42,0.02074192,3.0422837e-07,0,-8.5366904653467e-09,2.0
137,137,141098.2,1192.5347,79111.82,79120.805,-89.13638,70.8584845122241,-0.08178858,-3.936146e-07,1.4257956e-05,1.4254718e-05,2.0,42,0.020385087,2.576451e-07,0,-8.537160188639456e-09,2.0
138,138,122105.11,5664.3447,87503.13,87686.27,-86.296234,71.27750341212959,-0.08174928,-5.375866e-07,1.4895762e-05,1.4833604e-05,2.0,42,0.019977994,2.278349e-07,0,-8.649828485977186e-09,2.0
139,139,105663.59,3961.2021,105134.99,105209.586,-87.84227,71.56049755893764,-0.081698366,-6.964588e-07,1.43267425e-05,1.4306434e-05,2.0,42,0.021528559,2.0462545e-07,0,-8.626403558977369e-09,2.0
140,140,91439.65,8884.997,114543.84,114887.92,-85.56453,71.97949424546096,-0.081640795,-1.5820832e-06,1.5195459e-05,1.5104578e-05,2.0,42,0.02027719,1.7649539e-07,0,-8.69616603522373e-09,2.0
141,141,79127.08,6403.969,140161.11,140307.33,-87.38397,72.26249953891966,-0.08166216,-1.2881789e-06,1.4350514e-05,1.432062e-05,2.0,42,0.021402765,1.5254203e-07,0,-8.774408406965614e-09,2.0
142,142,68475.36,6764.8857,160746.47,160888.75,-87.59017,72.6815012654697,-0.08170969,-6.376035e-07,1.4459204e-05,1.4433641e-05,2.0,42,0.020153834,1.2526564e-07,0,-8.826476492084752e-09,2.0
143,143,59252.523,3358.8232,185813.45,185843.81,-88.96442,72.96449247896089,-0.0817798,2.8430627e-08,1.44556e-05,1.4450878e-05,2.0,42,0.020836597,1.1211887e-07,0,-8.812826656795626e-09,2.0
144,144,51282.285,2789.727,206916.36,206935.17,-89.22756,73.24749579906347,-0.08179503,-7.6056246e-08,1.4998849e-05,1.4996122e-05,2.0,42,0.021355793,1.032004e-07,0,-8.834559827236553e-09,2.0
145,145,44369.8,11528.618,248013.84,248281.64,-87.33859,73.5304965058167,-0.081763014,-5.772582e-07,1.4462945e-05,1.4431762e-05,2.0,42,0.021766102,8.766698e-08,0,-8.871208129648354e-09,2.0
146,146,38403.727,13644.707,283084.22,283412.88,-87.24047,73.94949020570493,-0.08160377,-1.2544674e-06,1.4639664e-05,1.460573e-05,2.0,42,0.020150734,7.110028e-08,0,-8.872512865483776e-09,2.0
147,147,33226.32,22307.309,320697.97,321472.88,-86.020996,74.23249949913588,-0.08165085,-1.231931e-06,1.4936253e-05,1.4864333e-05,2.0,42,0.020359386,6.333158e-08,0,-8.979698761132039e-09,2.0
148,148,28754.086,16684.45,381062.4,381427.5,-87.49296,74.51550239257631,-0.081703566,-6.003533e-07,1.4525278e-05,1.4497485e-05,2.0,42,0.020488817,5.3716153e-08,0,-8.980727757506222e-09,2.0
149,149,24884.947,14857.72,445666.4,445914.0,-88.09057,74.798485659383,-0.081816584,2.6198967e-07,1.4350714e-05,1.4334782e-05,2.0,42,0.020601919,4.6201553e-08,0,-8.958713137609357e-09,2.0
150,150,21553.963,19714.523,548385.5,548739.75,-87.94109,75.248495147418,-0.08174476,-4.8397874e-07,1.3465021e-05,1.3447641e-05,2.0,43,0.020281624,3.696037e-08,0,-8.98198386575492e-09,2.0
151,151,18631.234,42481.824,595775.6,597288.3,-85.921425,75.53150444084895,-0.0816799,-5.1329124e-07,1.4338238e-05,1.4265704e-05,2.0,43,0.020148704,3.373363e-08,0,-9.028590796706754e-09,2.0
152,152,16126.037,62849.49,700510.3,703324.06,-84.87318,75.81448328096303,-0.08164267,-5.2831984e-07,1.4088927e-05,1.3976423e-05,2.0,43,0.019933796,2.8342264e-08,0,-9.063994043037334e-09,2.0
153,153,13954.87,290266.6,740744.06,795585.6,-68.60187,76.09748996110284,-0.081747346,-4.7224626e-07,1.5396648e-05,1.3347154e-05,2.0,43,0.019826887,2.4921123e-08,0,-9.100260463591001e-09,2.0
154,154,12080.609,91317.42,808493.75,813634.44,-83.55589,76.38049589449656,-0.08164044,-5.429575e-07,1.629501e-05,1.608975e-05,2.0,43,0.019086363,2.3458155e-08,0,-9.137288924761399e-09,2.0
155,155,10447.592,152901.23,993673.4,1005368.4,-81.252235,76.6635054013168,-0.081772946,-4.2431094e-07,1.533064e-05,1.4976045e-05,2.0,43,0.018708093,1.8608198e-08,0,-9.16461004289336e-09,2.0
156,156,9045.586,130716.82,1134206.9,1141714.5,-83.42569,76.95726664192625,-0.081668146,-4.6122153e-07,1.5512835e-05,1.5309488e-05,2.0,43,0.021269297,1.8629262e-08,0,-9.201574127550577e-09,2.0
157,157,7827.7437,271923.88,1327939.4,1355494.6,-78.42745,77.28494313752162,-0.081665166,-5.256568e-07,1.5311061e-05,1.4694885e-05,2.0,43,0.021298869,1.5712986e-08,0,-9.24305389110194e-09,2.0
158,158,6770.8345,352135.75,1490994.0,1532012.6,-76.711655,77.6514174748736,-0.08178394,-4.2879904e-07,1.5765294e-05,1.4932384e-05,2.0,43,0.021257987,1.3875857e-08,0,-9.287897211157575e-09,2.0
159,159,5860.798,468027.97,1772217.1,1832976.8,-75.206406,78.06298072112259,-0.08163804,-5.369423e-07,1.5323092e-05,1.4324069e-05,2.0,43,0.02132047,1.16316095e-08,0,-9.351210033988631e-09,2.0
160,160,5071.625,432566.9,2048318.1,2093495.0,-78.0754,78.52570242312504,-0.08161277,-5.4958724e-07,1.5320595e-05,1.46665025e-05,2.0,43,0.021314865,1.0181474e-08,0,-9.411867831422387e-09,2.0
161,161,4388.5933,604134.44,2049640.6,2136821.2,-73.57704,78.98781716506346,-0.08167869,-4.8721915e-07,1.7693636e-05,1.6279315e-05,2.0,43,0.021058597,9.855104e-09,0,-9.471100731526288e-09,2.0
162,162,3798.7827,878313.6,2545558.8,2692824.5,-70.96364,79.44983201367722,-0.081693724,-4.732333e-07,1.6458587e-05,1.4707631e-05,2.0,43,0.021279657,7.902356e-09,0,-9.525932107497933e-09,2.0
163,163,3286.0488,1097008.9,2918541.8,3117902.2,-69.39998,79.91167878229317,-0.08172788,-4.7854087e-07,1.6595113e-05,1.4540758e-05,2.0,43,0.021349339,6.8473405e-09,0,-9.580500224507379e-09,2.0
164,164,2844.088,1376081.1,3290610.5,3566751.5,-67.30609,80.37285051084473,-0.08170039,-4.60309e-07,1.700594e-05,1.4474644e-05,2.0,43,0.02135854,5.9882335e-09,0,-9.653942787207744e-09,2.0
165,165,2460.7852,1744012.5,3260846.2,3697931.5,-61.8606,80.83467855946219,-0.08179405,-4.603276e-07,1.9834264e-05,1.542265e-05,2.0,43,0.021249577,5.7463416e-09,0,-9.684364119189e-09,2.0
166,166,2129.3164,1858725.6,3756398.8,4191108.8,-63.673065,81.29681140807224,-0.08175858,-4.142732e-07,1.9897945e-05,1.5984306e-05,2.0,43,0.021206768,5.0599422e-09,0,-9.737805053662138e-09,2.0
167,167,1843.2289,1893300.6,4143880.0,4555911.5,-65.44478,81.75895527002285,-0.082030974,-2.453634e-07,2.0836927e-05,1.723842e-05,2.0,43,0.021184342,4.6498583e-09,0,-9.797683389861915e-09,2.0
168,168,1594.4913,3157062.0,4259084.5,5301588.5,-53.45217,82.22081718529807,-0.08174327,-4.5410758e-07,2.3435905e-05,1.5125237e-05,2.0,43,0.02126825,4.011675e-09,0,-9.856278195813535e-09,2.0
169,169,1380.4436,3873674.8,4585008.0,6002304.0,-49.80698,82.68267638057296,-0.08164061,-4.893235e-07,2.5145562e-05,1.467255e-05,2.0,43,0.021329751,3.553594e-09,0,-9.919747556381105e-09,2.0
170,170,1194.6187,4300412.0,4719448.5,6384883.5,-47.659885,83.1448090691847,-0.08180082,-4.1039962e-07,2.8229266e-05,1.5423258e-05,2.0,43,0.021327322,3.3402836e-09,0,-9.99009696685138e-09,2.0
171,171,1033.3434,5158860.0,4720767.5,6992816.5,-42.460995,83.60707514444948,-0.08171858,-4.4507547e-07,3.2625925e-05,1.4869071e-05,2.0,43,0.02140324,3.0607468e-09,0,-1.004418939469091e-08,2.0
172,172,894.71045,5673433.0,4579165.0,7290857.0,-38.907837,84.06880945974262,-0.081712,-4.4202133e-07,3.884645e-05,1.532381e-05,2.0,43,0.02137427,2.931654e-09,0,-1.0099156228669958e-08,2.0
173,173,774.2569,6748496.0,6290986.5,9225980.0,-42.99052,84.53095892167767,-0.081542954,-6.2149036e-07,3.2675056e-05,1.5192485e-05,2.0,43,0.021845618,2.367837e-09,0,-1.015754363462445e-08,2.0
174,174,669.7856,6909886.5,4195944.5,8084088.0,-31.267708,84.99280715695932,-0.08172605,-4.577763e-07,5.6631055e-05,1.5256399e-05,2.0,43,0.021320019,2.637282e-09,0,-1.0218156125051368e-08,2.0
175,175,579.81464,7499062.5,3993322.2,8496032.0,-28.035727,85.45484107223456,-0.081673674,-4.985791e-07,6.873795e-05,1.51856375e-05,2.0,43,0.021353438,2.5133426e-09,0,-1.0281045131082115e-08,2.0
176,176,501.44418,7887117.0,3516167.8,8635395.0,-24.027864,85.91518920075032,-0.08176542,-4.1134942e-07,9.026678e-05,1.4965895e-05,2.0,43,0.021304278,2.4670879e-09,0,-1.0341367455356618e-08,2.0
177,177,434.02762,8178957.0,3062518.2,8733519.0,-20.527847,86.37720730269211,-0.08169421,-4.5481528e-07,0.00011973582,1.4723224e-05,2.0,43,0.021327263,2.442001e-09,0,-1.0394742048553704e-08,2.0
178,178,375.6009,8629337.0,3278076.0,9230993.0,-20.800571,86.83742935120245,-0.08166149,-4.927129e-07,0.00012926308,1.6301054e-05,2.0,43,0.021391554,2.317362e-09,0,-1.0458738791809068e-08,2.0
179,179,325.10385,8402828.0,2992255.5,8919704.0,-19.600864,87.29871249315329,-0.081621155,-5.453971e-07,0.00016360605,1.8411782e-05,2.0,43,0.021201462,2.3769242e-09,0,-1.0514555708001034e-08,2.0
180,180,281.3503,8846212.0,2396710.2,9165134.0,-15.1592655,87.7588087549957,-0.08182564,-3.4285435e-07,0.00023602456,1.6140264e-05,2.0,43,0.021259468,2.3196025e-09,0,-1.056398227609328e-08,2.0
181,181,243.36427,9075419.0,2073085.1,9309184.0,-12.867224,88.22311043037917,-0.08165952,-4.95376e-07,0.00031546137,1.564434e-05,2.0,43,0.02126198,2.283979e-09,0,-1.0624722501587512e-08,2.0
182,182,210.60631,9514080.0,2189390.2,9762743.0,-12.959352,88.68319802553742,-0.081717856,-4.4332495e-07,0.00034516407,1.7359142e-05,2.0,43,0.021366693,2.1885953e-09,0,-1.0703973549197757e-08,2.0
183,183,182.27473,8040447.5,3220823.5,8661553.0,-21.829935,89.1392801272159,-0.081688136,-4.854127e-07,0.00027109825,3.7485992e-05,2.0,43,0.020946601,2.4183424e-09,0,-1.0767390188587288e-08,2.0
184,184,157.72879,9099372.0,1581658.4,9235811.0,-9.860666,89.60664620278112,-0.08166026,-4.5362344e-07,0.00063796446,1.8709912e-05,2.0,43,0.021164222,2.2915392e-09,0,-1.083095638219721e-08,2.0
185,185,136.52892,9585382.0,1494918.8,9701254.0,-8.864337,90.06253249102156,-0.081704326,-4.6574695e-07,0.0007797904,1.8516434e-05,2.0,43,0.021316223,2.1972646e-09,0,-1.0886779900919229e-08,2.0
186,186,118.14758,9299788.0,1415788.2,9406940.0,-8.656173,90.5298792066169,-0.081733786,-4.464722e-07,0.0009514741,2.155246e-05,2.0,43,0.021199048,2.253554e-09,0,-1.0948247399330979e-08,2.0
187,187,102.25773,10008799.0,1023747.7,10061020.0,-5.840175,90.98232362806448,-0.08175512,-4.1512988e-07,0.0015203061,1.5741021e-05,2.0,43,0.021382593,2.1252908e-09,0,-1.0995492649761247e-08,2.0
188,188,88.4436,9789558.0,1431176.5,9893620.0,-8.317389,91.45029959696694,-0.08168143,-4.3550332e-07,0.0012573624,2.6310943e-05,2.0,43,0.021324147,2.1553432e-09,0,-1.1053388958648182e-08,2.0
189,189,76.54279,9611898.0,954568.75,9659181.0,-5.6715136,91.90372953854967,-0.0817411,-4.3330581e-07,0.0021782545,2.127367e-05,2.0,43,0.021275805,2.2026512e-09,0,-1.1107617725865721e-08,2.0
190,190,66.250786,10018913.0,684869.4,10042294.0,-3.9105215,92.3579829201044,-0.081657246,-5.01894e-07,0.0035076914,1.6314396e-05,2.0,43,0.02129216,2.1202486e-09,0,-1.1160962795918679e-08,2.0
191,191,57.329906,10013358.0,715855.7,10038914.0,-4.0891223,92.80262520791621,-0.081715785,-4.4546655e-07,0.0038780503,1.9719275e-05,2.0,43,0.02127686,2.1194384e-09,0,-1.1215562500566866e-08,2.0
192,192,49.60321,9947908.0,608408.3,9966496.0,-3.4998174,93.26835368332104,-0.08176592,-4.1831436e-07,0.0052736974,1.9652622e-05,2.0,43,0.021290354,2.1361926e-09,0,-1.1268125853219334e-08,2.0
193,193,42.92585,9982564.0,420833.5,9991431.0,-2.4139802,93.74941786614363,-0.08165279,-4.49545e-07,0.008810305,1.56299e-05,2.0,43,0.021397853,2.1416204e-09,0,-1.1331280582763497e-08,2.0
194,194,37.1518,10366056.0,1011880.75,10415326.0,-5.575254,94.1861823402287,-0.081713304,-4.9420277e-07,0.0042336113,3.9959854e-05,2.0,43,0.021469895,2.0613753e-09,0,-1.138301714043023e-08,2.0
195,195,32.150223,10021171.0,858513.8,10057878.0,-4.896574,94.62038465417572,-0.08173518,-4.4043838e-07,0.0057661887,4.2011743e-05,2.0,43,0.02132301,2.1200308e-09,0,-1.1435104550053291e-08,2.0
196,196,27.835518,8319559.0,532620.44,8336591.0,-3.6630924,95.35034788885969,-0.0817205,-4.2458103e-07,0.010735023,4.381892e-05,2.0,43,0.019075371,2.2881501e-09,0,-1.155163507214907e-08,2.0
197,197,24.082958,10249071.0,966824.94,10294572.0,-5.3889318,95.82738751152647,-0.08171196,-4.634377e-07,0.006835377,6.0289483e-05,2.0,43,0.01943615,1.888e-09,0,-1.1605321073386854e-08,2.0
198,198,20.833313,10530461.0,1194096.9,10597947.0,-6.469395,96.27176379934826,-0.08172978,-4.468447e-07,0.0063976757,8.121904e-05,2.0,43,0.019512987,1.8412044e-09,0,-1.1656633523622636e-08,2.0
199,199,18.021912,10148309.0,575233.94,10164599.0,-3.24421,96.77874363676528,-0.082002744,-1.08298856e-07,0.015352347,4.9168084e-05,2.0,43,0.019458096,1.9143005e-09,0,-1.1709754150404737e-08,2.0
200,200,15.604198,10113989.0,1236705.9,10189319.0,-6.9713354,97.22399973790743,-0.081716605,-4.8703293e-07,0.008247309,0.000121493984,2.0,43,0.019485883,1.9123834e-09,0,-1.1760660917432307e-08,2.0
201,201,13.500899,10273199.0,783785.25,10303055.0,-4.362882,97.73200474868645,-0.081680104,-4.4653743e-07,0.015040434,8.7040724e-05,2.0,43,0.01945293,1.888074e-09,0,-1.1803800431641864e-08,2.0
202,202,11.686608,10936396.0,639955.4,10955104.0,-3.3489075,98.13286250107922,-0.08186242,-3.4723075e-07,0.021280507,7.261868e-05,2.0,43,0.019615445,1.7905303e-09,0,-1.1851330239904515e-08,2.0
203,203,10.113269,10416713.0,544672.1,10430943.0,-2.9931726,98.59051926943357,-0.08176958,-4.1215023e-07,0.028893052,7.878011e-05,2.0,43,0.019516042,1.8709758e-09,0,-1.1913810789056228e-08,2.0
204,204,8.748621,10678509.0,796283.3,10708157.0,-4.264583,99.1103945474897,-0.0816883,-4.3703974e-07,0.022846146,0.00012633354,2.0,43,0.019504625,1.8214736e-09,0,-1.196321332296208e-08,2.0
205,205,7.570237,10522878.0,994681.1,10569785.0,-5.399872,99.70499337572255,-0.08172309,-4.2747686e-07,0.021136193,0.00018718118,2.0,43,0.019442687,1.839459e-09,0,-1.2058260919161511e-08,2.0
206,206,6.554112,10741938.0,807033.4,10772211.0,-4.2965155,100.06829741960973,-0.08164029,-5.17351e-07,0.030089486,0.00016888384,2.0,43,0.01946731,1.8071786e-09,0,-1.209041594330899e-08,2.0
207,207,5.669445,10775276.0,978571.5,10819620.0,-5.1891603,100.48314890600159,-0.08165551,-4.6664084e-07,0.028687123,0.0002346649,2.0,43,0.019481339,1.8005566e-09,0,-1.2139006533226304e-08,2.0
208,208,4.907347,10687712.0,1050751.8,10739240.0,-5.614933,100.95356082168291,-0.081713974,-4.566217e-07,0.030865494,0.00029547882,2.0,43,0.019441256,1.810301e-09,0,-1.2220356011044887e-08,2.0
209,209,4.245922,11083754.0,1281615.9,11157605.0,-6.595826,101.48830138039193,-0.08175691,-4.318905e-07,0.029247599,0.00038589045,2.0,43,0.01947387,1.7453449e-09,0,-1.2266432849149645e-08,2.0
210,210,3.6747382,11032081.0,1429452.8,11124304.0,-7.3828163,102.09892562276218,-0.08164549,-4.863346e-07,0.030298695,0.0005002854,2.0,43,0.019461328,1.7494423e-09,0,-1.2326402974146803e-08,2.0
211,211,3.180988,11319282.0,1285226.0,11392013.0,-6.4777956,102.79722314924584,-0.08172204,-4.2404093e-07,0.038929477,0.000495492,2.0,43,0.019470382,1.7091257e-09,0,-1.2429694354023215e-08,2.0
212,212,2.752818,11522097.0,1475561.2,11616196.0,-7.2977815,103.59710692058434,-0.08175321,-4.1095828e-07,0.039181888,0.0006322255,2.0,43,0.019492537,1.6780483e-09,0,-1.254809974661174e-08,2.0
