True,index,freq,Re(Z),Im(Z),Z,Phase(Z),time,Ewe_meas,I_meas,Cs,Cp,cycle_number,I_Range,Ewe,I,Ns,(QQo),cycle
0,0,7000018.5,158.92648,1464.8234,1473.4196,-83.8079,2.3134927231876645,-0.06653456,-2.577515e-05,1.5521571e-05,1.534099e-05,1.0,40,0.009944939,6.749564e-06,0,-2.1834749099096167e-09,1.0
1,1,6057573.0,30.39352,2033.7367,2033.9637,-89.1438,2.7324925030989107,-0.0666056,6.9144094e-06,1.2918937e-05,1.2916053e-05,1.0,40,0.01429503,7.028164e-06,0,-1.6160244867933216e-09,1.0
2,2,5242039.0,167.61497,2114.1228,2120.7568,-85.46687,3.0154946765105706,-0.066593155,4.421295e-06,1.4361165e-05,1.4271458e-05,1.0,40,0.019607842,9.245681e-06,0,-2.750084246388143e-09,1.0
3,3,4536288.0,99.15546,2371.3215,2373.3938,-87.605606,4.114500915427925,-0.06660815,3.072933e-05,1.479548e-05,1.4769655e-05,1.0,40,0.021353954,8.997224e-06,0,-5.153256160711964e-09,1.0
4,4,3925558.5,291.78815,2695.7368,2711.4824,-83.82232,4.3975035155017395,-0.06657487,2.523564e-06,1.5039769e-05,1.48656045e-05,1.0,40,0.01980919,7.305668e-06,0,-6.2438369248714785e-09,1.0
5,5,3397055.0,285.24615,3102.2039,3115.2903,-84.74645,4.680497635592474,-0.06665944,1.2583828e-06,1.5102443e-05,1.4975828e-05,1.0,40,0.02100381,6.742168e-06,0,-8.706026498392324e-09,1.0
6,6,2939708.2,171.78423,3640.3442,3644.3953,-87.29827,5.099489548854763,-0.0665601,-4.0789786e-05,1.487214e-05,1.4839095e-05,1.0,40,0.02099337,5.760454e-06,0,-7.637005485283528e-09,1.0
7,7,2543924.5,237.12433,4190.924,4197.627,-86.761635,5.518488688772777,-0.06656142,-1.9281948e-05,1.4928155e-05,1.4880517e-05,1.0,40,0.020493409,4.8821416e-06,0,-3.3986995543955345e-09,1.0
8,8,2201436.2,151.24548,4858.054,4860.408,-88.21679,5.937497055303538,-0.06671551,3.3371296e-05,1.4881671e-05,1.4867258e-05,1.0,40,0.020883601,4.2966763e-06,0,-4.369992350433449e-09,1.0
9,9,1905053.1,640.80255,6313.326,6345.7637,-84.20433,6.522491989802802,-0.06665989,3.2246248e-06,1.3232893e-05,1.3097954e-05,1.0,41,0.019683309,3.101803e-06,0,-1.0152579364295712e-08,1.0
10,10,1648567.4,10.434739,6511.1016,6511.11,-89.90818,6.941502062982181,-0.06667008,5.217169e-06,1.4827195e-05,1.48271565e-05,1.0,41,0.019894315,3.0554415e-06,0,-1.1064573185467768e-08,1.0
11,11,1426616.2,-419.43103,7241.6865,7253.8228,-93.31481,7.3604893895972054,-0.06670472,2.8428933e-06,1.540541e-05,1.5353904e-05,1.0,41,0.020411098,2.8138402e-06,0,-1.201354078579205e-08,1.0
12,12,1234551.2,277.31778,8464.175,8468.717,-88.12345,7.779484102822607,-0.06658905,-3.427065e-06,1.5230928e-05,1.5214595e-05,1.0,41,0.020603651,2.432913e-06,0,-1.2810811533218687e-08,1.0
13,13,1068345.5,-111.43648,10412.456,10413.053,-90.61317,8.198494016047334,-0.06675514,1.0548588e-05,1.430722e-05,1.43055795e-05,1.0,41,0.020355124,1.9547701e-06,0,-1.3778432500765172e-08,1.0
14,14,924510.06,154.56584,11087.937,11089.014,-89.20135,8.617478275933536,-0.066715695,4.7292783e-06,1.5525935e-05,1.5522919e-05,1.0,41,0.020285528,1.8293357e-06,0,-1.3311414944153752e-08,1.0
15,15,800039.0,1046.3243,11382.728,11430.717,-84.74801,9.172499662294285,-0.066407055,-1.832823e-05,1.7476828e-05,1.733039e-05,1.0,41,0.018771412,1.6421902e-06,0,-1.3011562611622039e-08,1.0
16,16,692334.1,-57.021957,15457.827,15457.933,-90.21136,9.455496982409386,-0.06665376,2.0533287e-06,1.487154e-05,1.4871338e-05,1.0,41,0.02173591,1.406133e-06,0,-1.27273752154464e-08,1.0
17,17,599122.25,42.507217,17859.475,17859.525,-89.86363,9.87449097566423,-0.066527344,-1.1009863e-05,1.4874283e-05,1.4874197e-05,1.0,41,0.020566897,1.1515926e-06,0,-1.4072428168004888e-08,1.0
18,18,518454.94,202.91522,20398.197,20399.207,-89.43005,10.293497475533513,-0.06668385,3.7590848e-06,1.5049335e-05,1.5047845e-05,1.0,41,0.020613331,1.0104967e-06,0,-1.6459412125167697e-08,1.0
19,19,448662.03,452.46417,23852.34,23856.63,-88.91326,10.712492642138386,-0.06652468,-9.050848e-06,1.48720155e-05,1.4866666e-05,1.0,41,0.020287352,8.503863e-07,0,-1.5898501550113213e-08,1.0
20,20,388258.97,1495.011,27298.184,27339.09,-86.86527,11.131487942038802,-0.06665268,3.6492129e-06,1.5016368e-05,1.4971464e-05,1.0,41,0.020642651,7.5505994e-07,0,-1.566831179899629e-08,1.0
21,21,335983.9,-5990.78,23231.17,23991.18,-104.46021,11.550486468564486,-0.06677492,1.2105373e-05,2.0390626e-05,1.911919e-05,1.0,41,0.019770272,8.2406416e-07,0,-1.409207174675468e-08,1.0
22,22,290751.2,688.50385,35912.184,35918.78,-88.901665,11.969500381819671,-0.06651749,-7.1830837e-06,1.5242521e-05,1.5236922e-05,1.0,41,0.020080708,5.590587e-07,0,-1.371917579971043e-08,1.0
23,23,251605.19,462.03342,43152.348,43154.82,-89.38656,12.388491895078914,-0.06667405,4.5598217e-06,1.4658722e-05,1.4657043e-05,1.0,41,0.020380469,4.7226402e-07,0,-1.327840425158734e-08,1.0
24,24,217729.38,-384.99713,48019.496,48021.04,-90.45936,12.807490101637086,-0.06669324,4.2320744e-06,1.5222483e-05,1.5221505e-05,1.0,41,0.020231403,4.213029e-07,0,-1.336909246835363e-08,1.0
25,25,188418.58,2404.7507,56448.145,56499.344,-87.560616,13.393482742802007,-0.06663882,-5.3795907e-07,1.4963966e-05,1.4936858e-05,1.0,42,0.019915013,3.524822e-07,0,-1.2656063048288344e-08,1.0
26,26,163051.14,2046.786,62910.86,62944.145,-88.13656,13.676485609583324,-0.06655289,-1.300285e-06,1.5515676e-05,1.549927e-05,1.0,42,0.021770485,3.458699e-07,0,-1.2721242039516214e-08,1.0
27,27,141098.2,205.9738,73629.18,73629.47,-89.83972,14.095482029457344,-0.06666034,-4.992191e-07,1.5319643e-05,1.5319523e-05,1.0,42,0.020381825,2.7681614e-07,0,-1.272773755677391e-08,1.0
28,28,122105.11,2298.3523,85904.055,85934.8,-88.46742,14.37848604292958,-0.066646345,-2.2617476e-07,1.5173041e-05,1.5162188e-05,1.0,42,0.022067457,2.5679304e-07,0,-1.2847165412029386e-08,1.0
29,29,105663.59,5358.7783,97567.54,97714.59,-86.856255,14.797499022824923,-0.06656589,-1.0810676e-06,1.5437941e-05,1.539151e-05,1.0,42,0.02057202,2.1053171e-07,0,-1.3015387190562993e-08,1.0
30,30,91439.65,2024.3134,118367.34,118384.66,-89.020226,15.08049975623726,-0.066720776,9.957885e-08,1.4704616e-05,1.4700316e-05,1.0,42,0.021843875,1.845161e-07,0,-1.301483182217527e-08,1.0
31,31,79127.08,3667.1047,134039.45,134089.61,-88.43287,15.499489349516807,-0.0665663,-7.2085766e-07,1.5005911e-05,1.4994687e-05,1.0,42,0.020284716,1.5127732e-07,0,-1.3126524339898952e-08,1.0
32,32,68475.36,-1705.7904,155108.17,155117.55,-90.63008,15.782496722909855,-0.066644594,-7.4339437e-07,1.4984806e-05,1.4982995e-05,1.0,42,0.0211027,1.3604328e-07,0,-1.319143284696415e-08,1.0
33,33,59252.523,6227.131,172168.61,172281.19,-87.92858,16.06550078970031,-0.06644374,-2.1257506e-06,1.5601247e-05,1.5580863e-05,1.0,42,0.02178957,1.2647678e-07,0,-1.3320786979205431e-08,1.0
34,34,51282.285,1561.6449,197643.73,197649.9,-89.547295,16.48448819629266,-0.06674189,3.0557234e-07,1.5702533e-05,1.5701553e-05,1.0,42,0.02019966,1.0219919e-07,0,-1.3347427229899308e-08,1.0
35,35,44369.8,10444.009,234737.36,234969.58,-87.45246,16.76749650304555,-0.066497944,-1.1090053e-06,1.5280953e-05,1.5250764e-05,1.0,42,0.020595858,8.76533e-08,0,-1.3398096100849719e-08,1.0
36,36,38403.727,4527.7383,268012.5,268050.75,-89.03215,17.050502703146776,-0.06670919,8.300239e-08,1.5462927e-05,1.5458514e-05,1.0,42,0.020904195,7.798596e-08,0,-1.3423219890822796e-08,1.0
37,37,33226.32,17484.7,322314.0,322787.9,-86.8949,17.33348732991726,-0.0667224,2.4280567e-07,1.4861365e-05,1.481776e-05,1.0,42,0.02114958,6.55216e-08,0,-1.347029320504599e-08,1.0
38,38,28754.086,22164.576,362675.88,363352.53,-86.50278,17.616501743352273,-0.066732034,3.2736367e-07,1.5261665e-05,1.5204875e-05,1.0,42,0.021199342,5.834373e-08,0,-1.3581086780722057e-08,1.0
39,39,24884.947,13043.951,417448.0,417651.75,-88.210266,17.899480796797434,-0.06667206,-2.1909709e-07,1.5320786e-05,1.530584e-05,1.0,42,0.021276925,5.0944177e-08,0,-1.3596997873689867e-08,1.0
40,40,21553.963,33352.75,430933.94,432222.7,-85.57433,18.182502836949425,-0.06671526,3.3332404e-07,1.713493e-05,1.7032899e-05,1.0,42,0.021116572,4.8855767e-08,0,-1.3738287879694333e-08,1.0
41,41,18631.234,54590.61,564795.4,567427.5,-84.479195,18.631503951590275,-0.06655997,-5.310947e-07,1.5124721e-05,1.4984728e-05,1.0,43,0.020754049,3.6575685e-08,0,-1.3738313603578788e-08,1.0
42,42,16126.037,7500.4673,652113.9,652157.0,-89.34103,18.91449569838005,-0.066665575,-4.657655e-07,1.5134534e-05,1.5132531e-05,1.0,43,0.0206548,3.1671515e-08,0,-1.3774543910192468e-08,1.0
43,43,13954.87,-136362.2,969621.9,979163.56,-98.00526,19.19750083182589,-0.066713996,-4.3548465e-07,1.1762292e-05,1.1534168e-05,1.0,43,0.02074511,2.1186562e-08,0,-1.3815172263895848e-08,1.0
44,44,12080.609,189380.97,736413.06,760374.5,-75.57794,19.480502765247365,-0.066750236,-3.9937484e-07,1.7889977e-05,1.678022e-05,1.0,43,0.019610438,2.57905e-08,0,-1.3855166047583066e-08,1.0
45,45,10447.592,25260.365,1063350.6,1063650.6,-88.63917,19.763498325337423,-0.06670178,-4.462673e-07,1.4326081e-05,1.4318002e-05,1.0,43,0.019460302,1.8295765e-08,0,-1.3889820923991368e-08,1.0
46,46,9045.586,133124.81,1102431.4,1110440.1,-83.11455,20.198250719317002,-0.06658121,-5.0967833e-07,1.5959962e-05,1.5730579e-05,1.0,43,0.02013914,1.8136177e-08,0,-1.3949765758457053e-08,1.0
47,47,7827.7437,285476.47,1320182.9,1350696.0,-77.798225,20.524939374881797,-0.066582255,-4.8220954e-07,1.540102e-05,1.47130395e-05,1.0,43,0.020230882,1.4978117e-08,0,-1.3996384022712959e-08,1.0
48,48,6770.8345,343714.8,1741469.2,1775064.8,-78.835,20.891403605608502,-0.06661831,-4.859714e-07,1.34977745e-05,1.2991682e-05,1.0,43,0.02045341,1.1522627e-08,0,-1.4057917689914638e-08,1.0
49,49,5860.798,398771.97,1644595.9,1692251.4,-76.37031,21.303969571890775,-0.06633896,-6.175609e-07,1.6512171e-05,1.5595268e-05,1.0,43,0.020125266,1.1892599e-08,0,-1.4128380224804104e-08,1.0
50,50,5071.625,491038.66,1896292.2,1958837.2,-75.48232,21.766694847217877,-0.06670535,-4.1972967e-07,1.6548847e-05,1.550892e-05,1.0,43,0.02013298,1.02780255e-08,0,-1.4186469854321951e-08,1.0
51,51,4388.5933,463873.4,2317772.8,2363736.2,-78.68249,22.22884084249381,-0.06667191,-4.2362188e-07,1.5646743e-05,1.5044149e-05,1.0,43,0.02029015,8.583931e-09,0,-1.4239201600704835e-08,1.0
52,52,3798.7827,793809.3,2556762.0,2677156.2,-72.75177,22.690833077766,-0.06670867,-4.0954296e-07,1.638647e-05,1.4945779e-05,1.0,43,0.020238483,7.559694e-09,0,-1.4298627852489674e-08,1.0
53,53,3286.0488,1022140.9,2910534.8,3084799.0,-70.64941,23.152719526384317,-0.06667028,-4.4671427e-07,1.6640768e-05,1.4813755e-05,1.0,43,0.020332092,6.5910593e-09,0,-1.435763945304279e-08,1.0
54,54,2844.088,1295217.2,3157652.2,3412968.8,-67.697365,23.614824774995213,-0.06659822,-4.5811151e-07,1.7722003e-05,1.5169693e-05,1.0,43,0.020246185,5.9321335e-09,0,-1.4417855671571697e-08,1.0
55,55,2460.7852,1481375.5,3519699.0,3818737.2,-67.17468,24.076681596940034,-0.066565655,-4.763992e-07,1.8375573e-05,1.5610342e-05,1.0,43,0.020209366,5.2921596e-09,0,-1.4476766294056932e-08,1.0
56,56,2129.3164,1963816.5,3784749.2,4263907.0,-62.576275,24.538819858877105,-0.06652891,-5.065869e-07,1.9748895e-05,1.5559714e-05,1.0,43,0.020250306,4.749237e-09,0,-1.4540361431181722e-08,1.0
57,57,1843.2289,2095208.2,3751277.2,4296740.5,-60.815247,25.000973934162175,-0.06670086,-3.686284e-07,2.3017687e-05,1.7544531e-05,1.0,43,0.020003311,4.655462e-09,0,-1.4599432284586501e-08,1.0
58,58,1594.4913,2978619.5,4354089.0,5275440.0,-55.624084,25.46280779609515,-0.066655695,-4.5928473e-07,2.2924543e-05,1.5616291e-05,1.0,43,0.020236053,3.8358987e-09,0,-1.4664366441227199e-08,1.0
59,59,1380.4436,3436091.2,4522479.5,5679748.5,-52.773144,25.924719498048944,-0.0666747,-4.4686325e-07,2.549323e-05,1.6162921e-05,1.0,43,0.020213611,3.5588918e-09,0,-1.4717231702066218e-08,1.0
60,60,1194.6187,3648608.2,4595503.5,5867793.0,-51.55212,26.38682229332335,-0.06661905,-4.8433253e-07,2.8990638e-05,1.7781746e-05,1.0,43,0.02002845,3.413285e-09,0,-1.4780120958949143e-08,1.0
61,61,1033.3434,4676553.5,4518713.0,6502993.0,-44.01659,26.849091808573576,-0.06667301,-4.1414282e-07,3.40848e-05,1.6457492e-05,1.0,43,0.020117123,3.0935174e-09,0,-1.4825881163963662e-08,1.0
62,62,894.71045,5785689.0,4090660.2,7085739.0,-35.261486,27.310838763878564,-0.06665564,-4.5628647e-07,4.3485477e-05,1.4493082e-05,1.0,43,0.020186024,2.848824e-09,0,-1.4855297252084466e-08,1.0
63,63,774.2569,5387526.0,6786774.5,8665203.0,-51.5565,27.772946572484216,-0.06648982,-5.4115105e-07,3.0288073e-05,1.8579798e-05,1.0,43,0.02057191,2.374083e-09,0,-1.4917046585858205e-08,1.0
64,64,669.7856,6958346.5,5101514.5,8628096.0,-36.24702,28.234812754424638,-0.06661937,-4.7354987e-07,4.657847e-05,1.6283717e-05,1.0,43,0.020330535,2.3563176e-09,0,-1.4977414053207048e-08,1.0
65,65,579.81464,7192455.0,4521981.5,8495865.0,-32.158062,28.69684581636102,-0.06663444,-4.4460992e-07,6.0701885e-05,1.7196677e-05,1.0,43,0.020176005,2.3748028e-09,0,-1.503661103093565e-08,1.0
66,66,501.44418,7700878.0,4150627.5,8748213.0,-28.323828,29.157208824850386,-0.06659302,-4.724698e-07,7.6468714e-05,1.7213635e-05,1.0,43,0.020176856,2.3063975e-09,0,-1.5093266463345657e-08,1.0
67,67,434.02762,8010346.0,3891235.5,8905468.0,-25.909378,29.619207246840233,-0.06660783,-4.4276626e-07,9.423566e-05,1.799189e-05,1.0,43,0.020148307,2.2624647e-09,0,-1.515039501158149e-08,1.0
68,68,375.6009,8882772.0,3463859.5,9534252.0,-21.303423,30.08044060206157,-0.06670565,-3.7255788e-07,0.00012233008,1.614658e-05,1.0,43,0.020215953,2.1203501e-09,0,-1.5202798289755915e-08,1.0
69,69,325.10385,8980403.0,3722629.2,9721399.0,-22.51538,30.54169977067795,-0.066675484,-4.1511123e-07,0.00013150681,1.9283696e-05,1.0,43,0.020242967,2.08231e-09,0,-1.5253242738402033e-08,1.0
70,70,281.3503,9395258.0,2952817.0,9848350.0,-17.447308,31.001811472524423,-0.06653383,-5.3202587e-07,0.00019157384,1.722195e-05,1.0,43,0.02022706,2.0538526e-09,0,-1.5320009459271885e-08,1.0
71,71,243.36427,8475705.0,3301234.0,9095918.0,-21.280602,31.466082321217982,-0.066708125,-3.9293133e-07,0.00019810114,2.6094354e-05,1.0,43,0.020038636,2.2030362e-09,0,-1.536415693702474e-08,1.0
72,72,210.60631,9869647.0,2457579.2,10171019.0,-13.982508,31.926165249751648,-0.06668849,-3.8753072e-07,0.00030749725,1.79526e-05,1.0,43,0.020193413,1.9853874e-09,0,-1.5441252011163285e-08,1.0
73,73,182.27473,11542666.0,2373375.0,11784144.0,-11.61908,32.382259004720254,-0.06660741,-4.715014e-07,0.00036789785,1.4923267e-05,1.0,43,0.020495296,1.7392265e-09,0,-1.5499870256132147e-08,1.0
74,74,157.72879,9914649.0,2243658.2,10165346.0,-12.751113,32.84964652029885,-0.06664618,-4.2831488e-07,0.00044973058,2.1908947e-05,1.0,43,0.020153346,1.982554e-09,0,-1.5554070684262488e-08,1.0
75,75,136.52892,10049661.0,1898303.9,10227377.0,-10.696701,33.305540888541145,-0.0666386,-4.8234e-07,0.0006140868,2.1155958e-05,1.0,43,0.020144545,1.9696687e-09,0,-1.5612155991022775e-08,1.0
76,76,118.14758,10434573.0,1354175.5,10522077.0,-7.39439,33.77390685750288,-0.066648096,-4.5658444e-07,0.0009947646,1.6476588e-05,1.0,43,0.020159237,1.915899e-09,0,-1.5670412655013837e-08,1.0
77,77,102.25773,10570522.0,1300472.5,10650219.0,-7.013753,34.2263337589975,-0.06658462,-4.4760822e-07,0.0011968034,1.7844652e-05,1.0,43,0.02021209,1.8978097e-09,0,-1.5716003473809082e-08,1.0
78,78,88.4436,10574357.0,1146783.4,10636359.0,-6.1895065,34.694287301186705,-0.06670196,-3.909201e-07,0.0015691782,1.8241019e-05,1.0,43,0.020187736,1.897993e-09,0,-1.576778925855255e-08,1.0
79,79,76.54279,10383856.0,1344989.1,10470600.0,-7.3802567,35.14772284278297,-0.06656973,-4.993613e-07,0.0015459557,2.5508883e-05,1.0,43,0.020193068,1.9285493e-09,0,-1.582518179904439e-08,1.0
80,80,66.250786,10485016.0,846679.3,10519146.0,-4.616695,35.602001477673184,-0.066660784,-4.7081235e-07,0.002837332,1.838176e-05,1.0,43,0.020166047,1.9170803e-09,0,-1.5885918496857855e-08,1.0
81,81,57.329906,10637596.0,1400751.5,10729425.0,-7.5015106,36.046649312149384,-0.066574596,-4.907389e-07,0.0019818821,3.3779026e-05,1.0,43,0.020195523,1.882256e-09,0,-1.59444972776841e-08,1.0
82,82,49.60321,10915256.0,1170746.6,10977862.0,-6.122016,36.512383814231725,-0.066632,-4.5004782e-07,0.002740611,3.1170064e-05,1.0,43,0.020261524,1.8456713e-09,0,-1.6000238143354878e-08,1.0
83,83,42.92585,10496922.0,1352376.0,10583680.0,-7.3412895,36.9934344770445,-0.06657791,-4.3008407e-07,0.002741598,4.476363e-05,1.0,43,0.020215051,1.910021e-09,0,-1.6066432491775936e-08,1.0
84,84,37.1518,10588018.0,994419.3,10634613.0,-5.365441,37.4301621777995,-0.066597626,-4.6401502e-07,0.004307951,3.7667472e-05,1.0,43,0.020174896,1.8970974e-09,0,-1.611954930250656e-08,1.0
85,85,32.150223,10698274.0,1060967.6,10750754.0,-5.66361,37.86437577175093,-0.066585995,-4.7505839e-07,0.0046658847,4.544231e-05,1.0,43,0.020159224,1.8751452e-09,0,-1.617660453609693e-08,1.0
86,86,27.835518,10654680.0,4624128.5,11614851.0,-23.460833,38.35932894193684,-0.06658023,-4.845096e-07,0.0012364909,0.00019598527,1.0,43,0.020465212,1.7619866e-09,0,-1.6236121837891446e-08,1.0
87,87,24.082958,10803883.0,720583.1,10827887.0,-3.8157868,38.836391177930636,-0.0665832,-4.89007e-07,0.009171201,4.0616917e-05,1.0,43,0.02021449,1.8668915e-09,0,-1.6308832956991568e-08,1.0
88,88,20.833313,10848958.0,388939.78,10855928.0,-2.0531988,39.28073653242609,-0.066621415,-4.6008557e-07,0.019641716,2.5212172e-05,1.0,43,0.020193644,1.860149e-09,0,-1.6368723769074536e-08,1.0
89,89,18.021912,10929337.0,942244.1,10969878.0,-4.927422,39.787721009837696,-0.066672795,-3.6914992e-07,0.009372508,6.914792e-05,1.0,43,0.020150345,1.8368796e-09,0,-1.6445317378817517e-08,1.0
90,90,15.604198,10546787.0,559658.2,10561626.0,-3.0375133,40.233028204296716,-0.06670789,-4.0825802e-07,0.018224508,5.1172894e-05,1.0,43,0.020052087,1.8985795e-09,0,-1.649782887708678e-08,1.0
91,91,13.500899,10917648.0,869051.56,10952182.0,-4.551183,40.74097804175108,-0.06655373,-4.9263843e-07,0.013564752,8.540862e-05,1.0,43,0.020165367,1.8412192e-09,0,-1.655805858035385e-08,1.0
92,92,11.686608,8457000.0,-635797.25,8480866.0,4.2994084,41.14188824748271,-0.066730805,-3.519796e-07,-0.021419682,-0.00012038431,1.0,43,0.019719504,2.3251758e-09,0,-1.659596414480956e-08,1.0
93,93,10.113269,11325768.0,793900.5,11353559.0,-4.009694,41.59953045586008,-0.066650465,-4.354847e-07,0.019822685,9.692384e-05,1.0,43,0.020198682,1.7790617e-09,0,-1.666099095704294e-08,1.0
94,94,8.748621,11362716.0,1052086.2,11411319.0,-5.289996,42.120385707268724,-0.06663038,-4.617896e-07,0.017291361,0.00014698066,1.0,43,0.020227976,1.7726238e-09,0,-1.671118752147856e-08,1.0
95,95,7.570237,11346223.0,913161.94,11382910.0,-4.601337,42.71500370884314,-0.066581324,-4.566124e-07,0.023023048,0.00014816712,1.0,43,0.020193836,1.7740486e-09,0,-1.6800927918992237e-08,1.0
96,96,6.554112,11749968.0,563170.4,11763457.0,-2.7440593,43.078302019421244,-0.06653781,-4.7394101e-07,0.043118782,9.882712e-05,1.0,43,0.020263363,1.7225688e-09,0,-1.6821773312318154e-08,1.0
97,97,5.669445,12579305.0,-623979.6,12594771.0,2.8397532,43.49312571910559,-0.06665768,-3.5948463e-07,-0.044989295,-0.00011042552,1.0,43,0.02034337,1.6152235e-09,0,-1.6886893967255586e-08,1.0
98,98,4.907347,11971717.0,861950.8,12002707.0,-4.1181283,43.963533821486635,-0.06658896,-4.632887e-07,0.03762624,0.00019404275,1.0,43,0.020280037,1.689622e-09,0,-1.6957176530787185e-08,1.0
99,99,4.245922,11183255.0,1480029.4,11280766.0,-7.538905,44.49832523355144,-0.06656563,-4.6762784e-07,0.02532665,0.0004359546,1.0,43,0.020145016,1.7857844e-09,0,-1.700067745230369e-08,1.0
100,100,3.6747382,11648307.0,1393721.6,11731390.0,-6.823012,45.108934862568276,-0.066626444,-4.2208555e-07,0.031075466,0.0004386022,1.0,43,0.020214831,1.7231404e-09,0,-1.7074060809726275e-08,1.0
101,101,3.180988,11649977.0,1144406.8,11706051.0,-5.61031,45.80724113571341,-0.06662231,-4.432039e-07,0.04371975,0.00041784736,1.0,43,0.020196415,1.725297e-09,0,-1.7180460040361408e-08,1.0
102,102,2.752818,12035172.0,1284871.1,12103564.0,-6.0937977,46.60712781370967,-0.06663019,-4.5605054e-07,0.044996947,0.000507079,1.0,43,0.020231053,1.6714955e-09,0,-1.7287965466733823e-08,1.0
103,103,2.3804083,12374720.0,1073775.4,12421219.0,-4.95923,47.52601631070138,-0.06660707,-4.526177e-07,0.062266614,0.00046532208,1.0,43,0.020242145,1.6296424e-09,0,-1.7378438044260412e-08,1.0
