True,index,freq,Re(Z),Im(Z),Z,Phase(Z),time,Ewe_meas,I_meas,Cs,Cp,cycle_number,I_Range,Ewe,I,Ns,(QQo),cycle
0,0,7000018.5,49.918774,1417.8947,1418.7731,-87.983665,2.4694971572898794,-0.009157406,9.742543e-06,1.6035297e-05,1.6015447e-05,1.0,40,0.010096375,7.1162717e-06,0,3.1095037611537336e-09,1.0
1,1,6057573.0,250.35698,1593.288,1612.8376,-81.07,3.021490543469554,-0.009108908,-1.3291043e-05,1.6490249e-05,1.6092905e-05,1.0,40,0.014216397,8.814524e-06,0,-6.8246748928875906e-09,1.0
2,2,5242039.0,270.60934,1819.7351,1839.746,-81.54164,3.4374972032674123,-0.009005558,-7.5228374e-05,1.6684442e-05,1.6323465e-05,1.0,40,0.019532597,1.0617007e-05,0,-1.3528970110504208e-08,1.0
3,3,4536288.0,211.03407,2120.498,2130.9734,-84.31658,4.805494548199931,-0.009065943,-5.6474135e-05,1.6545566e-05,1.6383297e-05,1.0,40,0.018819198,8.831268e-06,0,-1.5143504334698972e-08,1.0
4,4,3925558.5,284.63443,2330.0535,2347.3743,-83.03538,5.221499394654529,-0.00908778,-4.9013375e-05,1.7400142e-05,1.7144304e-05,1.0,40,0.018206988,7.756321e-06,0,-1.7773374584098495e-08,1.0
5,5,3397055.0,315.0398,2702.5745,2720.8748,-83.35103,5.637499334377935,-0.009210413,2.16685e-05,1.733564e-05,1.710323e-05,1.0,40,0.019367317,7.118048e-06,0,-2.192259661102172e-08,1.0
6,6,2939708.2,328.01004,3067.0396,3084.5295,-83.8956,6.05349028747878,-0.009090686,-0.000104178354,1.7652106e-05,1.745249e-05,1.0,40,0.021290282,6.9022785e-06,0,-2.4077475015688933e-08,1.0
7,7,2543924.5,374.0819,3531.9617,3551.7166,-83.954155,6.605501887068385,-0.009099424,-3.719895e-05,1.7713319e-05,1.751682e-05,1.0,40,0.020748213,5.841742e-06,0,-3.022343979129497e-08,1.0
8,8,2201436.2,423.90924,3958.01,3980.646,-83.88683,7.157496366620762,-0.009285257,-1.1975203e-06,1.8265735e-05,1.8058588e-05,1.0,40,0.02094809,5.262485e-06,0,-2.653130634270282e-08,1.0
9,9,1905053.1,441.15778,4666.184,4686.992,-84.599106,7.709497459494742,-0.009134508,-5.0073882e-05,1.7904045e-05,1.7745426e-05,1.0,40,0.020481436,4.3698465e-06,0,-2.058113932433672e-08,1.0
10,10,1648567.4,394.1115,5326.271,5340.832,-85.76817,8.427490000234684,-0.009250788,-1.12403214e-07,1.8125507e-05,1.8026809e-05,1.0,41,0.018893635,3.5375826e-06,0,-1.5611783616287135e-08,1.0
11,11,1426616.2,415.4574,6367.7383,6381.277,-86.26708,8.843493860011222,-0.009229418,7.081212e-06,1.7519746e-05,1.7445484e-05,1.0,41,0.021880286,3.4288257e-06,0,-1.7263975304015527e-08,1.0
12,12,1234551.2,397.55246,7453.295,7463.89,-86.946785,9.395483112923102,-0.00911554,-9.499635e-06,1.7296677e-05,1.7247607e-05,1.0,41,0.021083696,2.8247596e-06,0,-1.620169392641123e-08,1.0
13,13,1068345.5,709.77936,8329.791,8359.977,-85.12961,9.947485272452468,-0.009300423,1.0198499e-05,1.7884397e-05,1.775548e-05,1.0,41,0.020758666,2.483101e-06,0,-1.6205996202573817e-08,1.0
14,14,924510.06,643.7504,9834.82,9855.866,-86.254974,10.499479725345736,-0.009094543,-6.602083e-06,1.7504191e-05,1.7429516e-05,1.0,41,0.020465344,2.0764633e-06,0,-1.5459571021963825e-08,1.0
15,15,800039.0,601.6587,10175.944,10193.716,-86.616295,11.051502391550457,-0.009152859,-8.631703e-08,1.9549436e-05,1.9481331e-05,1.0,41,0.020489916,2.0100538e-06,0,-1.4697338118415991e-08,1.0
16,16,692334.1,1783.9518,12863.041,12986.158,-82.10412,11.603501271136338,-0.009096126,-1.2916735e-05,1.7871489e-05,1.7534228e-05,1.0,41,0.020351002,1.5671303e-06,0,-1.4137562621579984e-08,1.0
17,17,599122.25,1806.3099,14739.323,14849.593,-83.013214,12.155497457337333,-0.009014444,-1.3752852e-05,1.8023004e-05,1.7756327e-05,1.0,41,0.020645421,1.3903021e-06,0,-1.2725827704089611e-08,1.0
18,18,518454.94,2572.5037,17501.127,17689.184,-81.63793,12.707498310221126,-0.009172199,-1.4032129e-07,1.7540546e-05,1.7169576e-05,1.0,41,0.020420868,1.1544269e-06,0,-1.1880051101812228e-08,1.0
19,19,448662.03,3031.416,19478.428,19712.904,-81.15405,13.259479803120485,-0.009212594,4.2205696e-07,1.8211551e-05,1.7780889e-05,1.0,41,0.020320456,1.03082e-06,0,-1.2807319599654458e-08,1.0
20,20,388258.97,4391.176,23032.488,23447.344,-79.20602,13.81148910932825,-0.0092204,2.4872147e-06,1.779745e-05,1.7173239e-05,1.0,41,0.020912416,8.918885e-07,0,-8.057798177985219e-09,1.0
21,21,335983.9,2771.2688,19475.193,19671.377,-81.90133,14.36349500218057,-0.00902363,-1.4222124e-05,2.4323152e-05,2.3840419e-05,1.0,41,0.01914072,9.730239e-07,0,-6.630943145730662e-09,1.0
22,22,290751.2,6827.268,30351.31,31109.703,-77.32281,14.915497295063687,-0.009219469,1.7721376e-06,1.8035209e-05,1.7166602e-05,1.0,41,0.020668507,6.643749e-07,0,-6.209917566364551e-09,1.0
23,23,251605.19,8504.137,32646.023,33735.49,-75.3992,15.467486707988428,-0.00907483,-5.51271e-06,1.9376273e-05,1.8144994e-05,1.0,41,0.020373657,6.039236e-07,0,-6.105547430953114e-09,1.0
24,24,217729.38,10656.575,37256.85,38750.94,-74.03789,16.01950417421176,-0.009151574,-5.8724544e-07,1.9619907e-05,1.8136136e-05,1.0,41,0.020127706,5.194121e-07,0,-4.7323849111980585e-09,1.0
25,25,188418.58,12826.529,42802.723,44683.25,-73.318306,16.57148585372488,-0.009304019,8.481568e-06,1.9734449e-05,1.8108325e-05,1.0,41,0.020782795,4.6511377e-07,0,-4.6500171636378376e-09,1.0
26,26,163051.14,16904.05,48335.105,51205.754,-70.72393,17.12350366663304,-0.009151351,1.0682318e-06,2.0194526e-05,1.799374e-05,1.0,41,0.02043174,3.9901258e-07,0,-4.4695910771568805e-09,1.0
27,27,141098.2,19236.506,53223.945,56593.562,-70.12884,17.842500260769157,-0.009273817,8.2595795e-07,2.1192958e-05,1.8744404e-05,1.0,42,0.018969167,3.3518242e-07,0,-3.8837088568612895e-09,1.0
28,28,122105.11,28146.88,65499.38,71291.06,-66.745476,18.258489507221384,-0.009110193,-4.7761375e-07,1.9899819e-05,1.6797836e-05,1.0,42,0.020777674,2.9144852e-07,0,-3.839995358215257e-09,1.0
29,29,105663.59,32693.092,65706.24,73390.38,-63.54669,18.810497266735183,-0.009249335,7.5425123e-07,2.292388e-05,1.837482e-05,1.0,42,0.020166941,2.7478998e-07,0,-3.771729518456526e-09,1.0
30,30,91439.65,39162.973,73764.766,83516.34,-62.035404,19.22649549986818,-0.0090429885,-5.6831817e-07,2.3595903e-05,1.8407365e-05,1.0,42,0.021350073,2.5563946e-07,0,-3.5531966678250782e-09,1.0
31,31,79127.08,49261.52,75058.695,89780.31,-56.722843,19.778482326044468,-0.009304802,5.564526e-07,2.6797483e-05,1.8729828e-05,1.0,42,0.020192968,2.2491533e-07,0,-3.5875752302543003e-09,1.0
32,32,68475.36,58511.324,82234.4,100926.07,-54.567432,20.19450138582033,-0.0091338,-2.6212115e-07,2.8263914e-05,1.876431e-05,1.0,42,0.021004975,2.0812239e-07,0,-3.6377271241633874e-09,1.0
33,33,59252.523,70236.79,87885.39,112503.55,-51.368637,20.610484925593482,-0.009147718,-3.587856e-07,3.0563042e-05,1.8650802e-05,1.0,42,0.021733865,1.9318382e-07,0,-3.61662403358862e-09,1.0
34,34,51282.285,82992.9,90384.1,122707.41,-47.441086,21.162485965149244,-0.0092091095,3.0035724e-07,3.433687e-05,1.862959e-05,1.0,42,0.020216068,1.6475019e-07,0,-3.444759468899624e-09,1.0
35,35,44369.8,94138.24,91191.01,131064.14,-44.08892,21.57848209157237,-0.00913896,-3.7331316e-07,3.9335137e-05,1.904219e-05,1.0,42,0.020505369,1.5645293e-07,0,-3.405339901412674e-09,1.0
36,36,38403.727,110707.22,88743.59,141885.56,-38.715878,21.99450037800125,-0.009221797,6.8179975e-07,4.669923e-05,1.8268687e-05,1.0,42,0.020900786,1.4730735e-07,0,-3.4228711735180027e-09,1.0
37,37,33226.32,121509.29,84300.64,147888.83,-34.752113,22.410501251084497,-0.009201004,6.134456e-07,5.6820754e-05,1.8462819e-05,1.0,42,0.021076,1.4251245e-07,0,-3.374001170848937e-09,1.0
38,38,28754.086,134262.03,79280.555,155922.1,-30.56148,22.82650185751845,-0.009194986,2.5304962e-07,6.9815826e-05,1.8049781e-05,1.0,42,0.021210812,1.3603469e-07,0,-3.3697616005367888e-09,1.0
39,39,24884.947,141615.36,74583.99,160055.25,-27.774248,23.24249345061253,-0.009074607,-4.4241204e-07,8.5750726e-05,1.8620407e-05,1.0,42,0.021157267,1.3218727e-07,0,-3.3939728049645623e-09,1.0
40,40,21553.963,150984.5,66863.88,165127.52,-23.886286,23.659501443762565,-0.009124465,-1.8668919e-07,0.00011043364,1.8106966e-05,1.0,42,0.021237222,1.2861105e-07,0,-3.3866531514294234e-09,1.0
41,41,18631.234,157594.1,60732.816,168891.61,-21.075413,24.0754904501664,-0.009208252,4.3517375e-08,0.00014065497,1.8188035e-05,1.0,42,0.021115603,1.2502458e-07,0,-3.3787836036541168e-09,1.0
42,42,16126.037,165002.9,52164.035,173052.14,-17.543835,24.491479856573278,-0.009136856,-5.353513e-07,0.00018920006,1.7191338e-05,1.0,42,0.020974582,1.2120383e-07,0,-3.3561626942106354e-09,1.0
43,43,13954.87,157542.2,36133.78,161632.9,-12.917899,24.907501636334928,-0.0091384575,-1.05297e-07,0.0003156319,1.577423e-05,1.0,42,0.02056611,1.2723962e-07,0,-3.314546555158652e-09,1.0
44,44,12080.609,176611.14,42841.977,181733.12,-13.635315,25.32348402941716,-0.00917859,3.562333e-07,0.00030751177,1.7089627e-05,1.0,42,0.020518804,1.1290624e-07,0,-3.24123651237487e-09,1.0
45,45,10447.592,173170.05,35255.527,176722.44,-11.5075245,25.73950260921265,-0.0091869375,-1.12188374e-07,0.0004320925,1.7196804e-05,1.0,42,0.01975131,1.1176459e-07,0,-3.1589777929974776e-09,1.0
46,46,9045.586,172373.61,32296.46,175373.1,-10.612081,26.312249889742816,-0.00908778,4.3704212e-08,0.0005447892,1.847619e-05,1.0,42,0.020073796,1.14463376e-07,0,-3.0345617246977003e-09,1.0
47,47,7827.7437,175554.81,24531.592,177260.52,-7.9548593,26.7929371392529,-0.009160443,-1.3248925e-07,0.0008288154,1.5873959e-05,1.0,42,0.020220947,1.1407474e-07,0,-3.0697772045766353e-09,1.0
48,48,6770.8345,178449.02,19583.855,179520.4,-6.262852,27.33139660480083,-0.00920665,4.6202456e-07,0.0012002722,1.4283956e-05,1.0,42,0.020400353,1.1363807e-07,0,-2.998250623763749e-09,1.0
49,49,5860.798,175157.27,21693.553,176495.55,-7.0602355,27.937985006981762,-0.009333159,1.9248412e-06,0.0012517935,1.8911525e-05,1.0,42,0.020204406,1.1447545e-07,0,-3.018413194076746e-09,1.0
50,50,5071.625,176000.6,16998.465,176819.56,-5.5166225,28.618702719337307,-0.009229418,-4.1689438e-07,0.0018461344,1.7061691e-05,1.0,42,0.020296382,1.1478584e-07,0,-2.9718878969098798e-09,1.0
51,51,4388.5933,177310.0,13784.261,177845.0,-4.4452915,29.298819898307556,-0.009192807,3.3239405e-07,0.0026309423,1.5805017e-05,1.0,42,0.020384341,1.1461858e-07,0,-3.0139965853379634e-09,1.0
52,52,3798.7827,177670.56,11539.619,178044.92,-3.7161143,29.978831850603456,-0.009157779,1.4241797e-07,0.0036306484,1.5251339e-05,1.0,42,0.020463381,1.14933805e-07,0,-2.994164128072383e-09,1.0
53,53,3286.0488,177400.75,10122.896,177689.33,-3.2658877,30.65871278956911,-0.009114423,2.5919755e-07,0.0047845524,1.5528454e-05,1.0,42,0.020427858,1.149639e-07,0,-2.916837067551291e-09,1.0
54,54,2844.088,177131.81,9107.808,177365.81,-2.9434564,31.33884119518916,-0.009175218,-1.272908e-08,0.00614417,1.6201348e-05,1.0,42,0.020414244,1.1509684e-07,0,-3.009842848700354e-09,1.0
55,55,2460.7852,176481.52,7509.251,176641.2,-2.4364536,32.018682054163946,-0.009145705,2.2064361e-07,0.008612908,1.5565354e-05,1.0,42,0.020338602,1.1514076e-07,0,-2.9706088136387777e-09,1.0
56,56,2129.3164,176122.19,7622.434,176287.06,-2.478171,32.69883675313031,-0.00915312,1.9866593e-07,0.009805873,1.8332965e-05,1.0,42,0.020391649,1.15672975e-07,0,-3.0208525690614214e-09,1.0
57,57,1843.2289,174424.2,5718.163,174517.9,-1.8776598,33.37893075874308,-0.009107864,-5.5919e-07,0.0151002575,1.6211285e-05,1.0,42,0.020338137,1.1653896e-07,0,-3.023237861808544e-09,1.0
58,58,1594.4913,177758.05,6035.124,177860.47,-1.9445215,34.058826924388995,-0.009208866,2.957028e-07,0.016539097,1.904256e-05,1.0,42,0.020520901,1.153764e-07,0,-3.0349800719784683e-09,1.0
59,59,1380.4436,176473.92,6133.444,176580.47,-1.9905438,34.73872045001917,-0.009238193,-2.4649225e-08,0.01879737,2.2678823e-05,1.0,42,0.02043735,1.1573959e-07,0,-3.1134125906492707e-09,1.0
60,60,1194.6187,178585.94,6452.4756,178702.47,-2.0692496,35.41881146898959,-0.009112895,-1.12932256e-07,0.020647358,2.6918826e-05,1.0,42,0.020576842,1.15145816e-07,0,-2.993263327945546e-09,1.0
61,61,1033.3434,179309.19,5552.535,179395.14,-1.7736692,36.09910027458682,-0.009169088,-2.01792e-08,0.027738577,2.6573296e-05,1.0,42,0.020592492,1.1478846e-07,0,-2.8930241902291384e-09,1.0
62,62,894.71045,186000.45,1205.5886,186004.36,-0.3713656,36.778849186899606,-0.009179279,4.2365733e-07,0.14754976,6.198556e-06,1.0,42,0.020873927,1.12222786e-07,0,-2.9525993968368722e-09,1.0
63,63,774.2569,172717.55,9290.219,172967.22,-3.0788875,37.45895876587019,-0.00931531,8.4272244e-07,0.022126317,6.3831256e-05,1.0,42,0.020274697,1.1721699e-07,0,-3.0073273764305636e-09,1.0
64,64,669.7856,176941.69,6247.813,177051.95,-2.0222745,38.13883365150832,-0.009209519,2.8024397e-07,0.03803263,4.7359918e-05,1.0,42,0.020473938,1.15638024e-07,0,-2.884525223997119e-09,1.0
65,65,579.81464,178547.8,6032.9014,178649.69,-1.9352148,38.818840883803205,-0.009166088,-4.9606843e-08,0.045499302,5.1886294e-05,1.0,42,0.020537933,1.1496204e-07,0,-2.8587462043070388e-09,1.0
66,66,501.44418,177054.33,5825.631,177150.14,-1.8845271,39.49618763595936,-0.009216208,4.9201134e-07,0.05448219,5.891929e-05,1.0,42,0.020424249,1.1529344e-07,0,-2.8578610294935915e-09,1.0
67,67,434.02762,177720.77,6847.832,177852.64,-2.2065957,40.176198841567384,-0.009264296,7.4326437e-07,0.05354879,7.9384416e-05,1.0,42,0.02046552,1.1507009e-07,0,-2.9277893429432805e-09,1.0
68,68,375.6009,177858.58,7061.395,177998.7,-2.2735803,40.85441892713425,-0.009140358,-3.489297e-08,0.06000715,9.443878e-05,1.0,42,0.020450603,1.1489187e-07,0,-2.980071013223235e-09,1.0
69,69,325.10385,179246.58,8956.685,179470.22,-2.8606055,41.533683492765704,-0.009129067,-3.899054e-08,0.054657623,0.00013613209,1.0,42,0.0205065,1.1426129e-07,0,-2.8651227196179185e-09,1.0
70,70,281.3503,178964.47,10154.762,179252.34,-3.247582,42.21079936492606,-0.009238939,2.6888247e-07,0.055706132,0.00017877747,1.0,42,0.020487376,1.1429349e-07,0,-2.7958364727989566e-09,1.0
71,71,243.36427,178850.25,9800.645,179118.58,-3.1365597,42.8941014239972,-0.009152599,8.989533e-08,0.066728085,0.00019977296,1.0,42,0.020485556,1.1436868e-07,0,-2.7570038706245093e-09,1.0
72,72,210.60631,179425.73,11420.283,179788.81,-3.641911,43.57117924283375,-0.009186919,1.5526938e-07,0.06617164,0.00026699327,1.0,42,0.020458104,1.1378964e-07,0,-2.7589870561593147e-09,1.0
73,73,182.27473,168295.6,16387.846,169091.6,-5.561663,44.24228604804375,-0.009157704,-8.445336e-09,0.053280927,0.0005004624,1.0,42,0.019881178,1.1757638e-07,0,-2.8036408838655943e-09,1.0
74,74,157.72879,177117.95,16927.47,177925.02,-5.4592752,44.93064949411564,-0.0091898255,1.9345097e-07,0.059609722,0.0005395444,1.0,42,0.020244673,1.1378205e-07,0,-2.8611728192511837e-09,1.0
75,75,136.52892,181711.33,16311.54,182441.97,-5.1294775,45.60250744599034,-0.009195619,2.2250603e-07,0.07146617,0.00057126937,1.0,42,0.020485422,1.1228459e-07,0,-2.657664163926259e-09,1.0
76,76,118.14758,180834.4,18036.895,181731.7,-5.695991,46.290904145367676,-0.009073582,-4.5228194e-07,0.07468503,0.0007356914,1.0,42,0.020401344,1.12260786e-07,0,-2.688886041319844e-09,1.0
77,77,102.25773,184793.53,21004.23,185983.4,-6.4845934,46.957331990328385,-0.0092687495,6.4361984e-07,0.07409983,0.00094511,1.0,42,0.020556083,1.10526436e-07,0,-2.626955840283311e-09,1.0
78,78,88.4436,185828.4,21338.623,187049.55,-6.5505667,47.64730292974855,-0.00922856,5.6651186e-07,0.08433101,0.0010975056,1.0,42,0.020553138,1.09880716e-07,0,-2.569286303220903e-09,1.0
79,79,76.54279,184573.67,24377.576,186176.55,-7.5237966,48.314728268174804,-0.009221592,6.655974e-07,0.085295334,0.0014623671,1.0,42,0.020443978,1.0980963e-07,0,-2.4526818308857735e-09,1.0
80,80,66.250786,185614.6,25916.617,187415.17,-7.9485908,48.982990353222704,-0.009222152,5.976158e-07,0.09269383,0.0017725477,1.0,42,0.020388536,1.0878808e-07,0,-2.4382962623275734e-09,1.0
81,81,57.329906,188610.89,30217.342,191016.11,-9.102006,49.637627797688765,-0.0091540525,1.3254662e-07,0.091871895,0.0022990857,1.0,42,0.020489987,1.0726837e-07,0,-2.3749824831133832e-09,1.0
82,82,49.60321,191911.81,31219.379,194434.55,-9.239691,50.57537224216503,-0.009221052,1.7631761e-07,0.102774665,0.0026496453,1.0,43,0.020551875,1.05700735e-07,0,-2.2484976334805e-09,1.0
83,83,42.92585,193542.48,34415.1,196578.47,-10.082764,51.28341643579188,-0.009220605,1.8512632e-07,0.10773386,0.0033020102,1.0,43,0.020497695,1.04272324e-07,0,-2.239679588883566e-09,1.0
84,84,37.1518,196175.81,38081.96,199837.89,-10.985716,51.92717731973971,-0.009142072,1.7505131e-07,0.11249184,0.004085112,1.0,43,0.02053737,1.0277015e-07,0,-2.295740209470962e-09,1.0
85,85,32.150223,198789.48,42324.734,203245.28,-12.019502,52.56639516339055,-0.009120683,1.7899931e-07,0.11696121,0.005072119,1.0,43,0.020539057,1.0105551e-07,0,-2.2002261159011187e-09,1.0
86,86,27.835518,201791.25,45699.59,206901.33,-12.760505,53.29433186465758,-0.00919576,1.8312429e-07,0.12511475,0.006103888,1.0,43,0.020523636,9.919528e-08,0,-2.2903886669827976e-09,1.0
87,87,24.082958,205060.75,52834.56,211757.89,-14.448196,53.99639829798252,-0.009164076,1.6955744e-07,0.12508126,0.0077866237,1.0,43,0.020600941,9.728535e-08,0,-2.2536113429774377e-09,1.0
88,88,20.833313,206953.72,56799.098,214606.56,-15.347117,54.650762515782844,-0.009201898,1.7832883e-07,0.1344994,0.009421439,1.0,43,0.02042938,9.519457e-08,0,-1.8730440385422834e-09,1.0
89,89,18.021912,211203.94,61307.938,219922.19,-16.18687,55.39674844456022,-0.009208056,2.4474735e-07,0.14404646,0.011194325,1.0,43,0.020444382,9.296189e-08,0,-2.2264550733248867e-09,1.0
90,90,15.604198,215672.72,68470.95,226280.78,-17.613403,56.05202580898185,-0.009123795,1.2069094e-07,0.14896092,0.013639226,1.0,43,0.020496095,9.057815e-08,0,-2.003063048147248e-09,1.0
91,91,13.500899,220207.92,73517.38,232155.84,-18.461813,56.79998976452043,-0.009212268,1.8744461e-07,0.16034941,0.016080081,1.0,43,0.020450054,8.808761e-08,0,-1.8619494496670244e-09,1.0
92,92,11.686608,224008.88,81231.414,238282.44,-19.931955,57.39086843258701,-0.009134824,1.9676534e-07,0.16765158,0.019483708,1.0,43,0.020383755,8.5544514e-08,0,-1.9919900635131508e-09,1.0
93,93,10.113269,230128.11,90334.68,247223.19,-21.432034,58.06451073123026,-0.0091649145,1.7277905e-07,0.1742104,0.023259731,1.0,43,0.0204782,8.283285e-08,0,-2.374210196825525e-09,1.0
94,94,8.748621,235822.72,97454.086,255165.94,-22.452932,58.8313990609895,-0.009168808,1.6744349e-07,0.18667255,0.027229218,1.0,43,0.020464545,8.020093e-08,0,-2.1757634935622624e-09,1.0
95,95,7.570237,242041.44,106206.24,264317.66,-23.691559,59.70701694258605,-0.009177864,1.9949348e-07,0.19795232,0.031960115,1.0,43,0.020458953,7.74029e-08,0,-1.5510666596739102e-09,1.0
96,96,6.554112,249056.88,116157.88,274812.62,-25.003922,60.242322807986056,-0.00915504,4.9178553e-08,0.20905359,0.037349228,1.0,43,0.020489579,7.4558365e-08,0,-2.4418663601861982e-09,1.0
97,97,5.669445,256052.81,126364.88,285536.56,-26.266846,60.85214529032237,-0.00926124,3.596968e-07,0.22215351,0.043509346,1.0,43,0.020475777,7.170983e-08,0,-1.391191060871143e-09,1.0
98,98,4.907347,264124.7,138295.52,298140.06,-27.636526,61.544549989834195,-0.009226567,9.685294e-08,0.23451209,0.050459247,1.0,43,0.020521503,6.883175e-08,0,-2.2510984734943743e-09,1.0
99,99,4.245922,271419.84,150419.66,310314.03,-28.995024,62.332297893910436,-0.009204516,2.765266e-07,0.24919741,0.058553096,1.0,43,0.02048536,6.6014934e-08,0,-2.001163032305205e-09,1.0
100,100,3.6747382,280489.62,164179.84,325006.84,-30.341848,63.2319275100308,-0.009201321,2.162813e-07,0.26379943,0.06731759,1.0,43,0.020535763,6.318563e-08,0,-1.0613611578117096e-09,1.0
101,101,3.180988,287675.7,180824.1,339786.2,-32.152206,64.26023745219572,-0.009246792,1.0859419e-07,0.2766953,0.07836153,1.0,43,0.020497505,6.0324716e-08,0,-2.0153303100766745e-09,1.0
102,102,2.752818,296803.72,197018.95,356242.78,-33.57629,65.43917134820367,-0.009160965,1.9941035e-07,0.29345033,0.08975496,1.0,43,0.020465553,5.744833e-08,0,-2.493939219813828e-09,1.0
103,103,2.3804083,305649.9,216862.16,374768.0,-35.356144,66.79404405254172,-0.00920234,2.3768659e-07,0.30830806,0.10323511,1.0,43,0.0204589,5.459084e-08,0,-1.3130378273859359e-09,1.0
104,104,2.060257,315818.84,238071.22,395499.0,-37.009792,68.3503771397809,-0.009201507,2.2677976e-07,0.32448292,0.11757497,1.0,43,0.020454552,5.171834e-08,0,-4.2867254835464596e-10,1.0
