True,index,freq,Re(Z),Im(Z),Z,Phase(Z),time,Ewe_meas,I_meas,Cs,Cp,cycle_number,I_Range,Ewe,I,Ns,(QQo),cycle
110,110,7000018.5,41.222603,1158.2246,1158.958,-87.96163,82.67248920668499,-0.008364701,-2.8938073e-05,1.9630355e-05,1.9605519e-05,2.0,40,0.009976294,8.607985e-06,0,-1.996665259597958e-08,2.0
111,111,6057573.0,260.1176,1489.3844,1511.9282,-80.09334,83.22449853961007,-0.00828395,-6.739553e-05,1.7640656e-05,1.711851e-05,2.0,40,0.014149692,9.358706e-06,0,-2.6849929930666545e-08,2.0
112,112,5242039.0,249.38058,1631.0854,1650.0396,-81.30723,83.6404886393284,-0.008334889,-4.659468e-05,1.861415e-05,1.818896e-05,2.0,40,0.019339653,1.1720721e-05,0,-3.0684618458792554e-08,2.0
113,113,4536288.0,232.15729,1858.5232,1872.967,-82.87978,85.00948598436662,-0.008349478,-3.4445347e-05,1.8877807e-05,1.8587767e-05,2.0,40,0.019472899,1.0396819e-05,0,-2.019386661194902e-08,2.0
114,114,3925558.5,293.30548,2135.138,2155.1897,-82.17819,85.42549755077926,-0.008307221,-7.344226e-05,1.898859e-05,1.8636896e-05,2.0,40,0.018508554,8.5879e-06,0,-2.4310951470206355e-08,2.0
115,115,3397055.0,349.52435,2436.347,2461.291,-81.835915,85.84148983724299,-0.008294868,-1.2825894e-05,1.9229961e-05,1.8842164e-05,2.0,40,0.019582467,7.956177e-06,0,-2.5328458452600935e-08,2.0
116,116,2939708.2,385.39005,2750.228,2777.099,-82.02307,86.25748719033436,-0.008264983,-5.7162524e-05,1.9685533e-05,1.9306424e-05,2.0,40,0.021328807,7.680247e-06,0,-2.77597798646825e-08,2.0
117,117,2543924.5,420.12595,3168.995,3196.7227,-82.44811,86.80949705655803,-0.008386518,-2.295243e-06,1.9742147e-05,1.9401154e-05,2.0,40,0.02060964,6.447115e-06,0,-3.357170845002284e-08,2.0
118,118,2201436.2,634.7648,3802.7344,3855.3489,-80.52338,87.36150654943776,-0.008380928,-5.476767e-06,1.9011572e-05,1.8496205e-05,2.0,40,0.020866202,5.4122734e-06,0,-3.809485344122897e-08,2.0
119,119,1905053.1,598.25134,4134.891,4177.946,-81.767365,87.91348620227654,-0.008502519,1.6682254e-05,2.020454e-05,1.9790261e-05,2.0,40,0.02040787,4.8846664e-06,0,-3.147835531328427e-08,2.0
120,120,1648567.4,608.2655,4781.259,4819.795,-82.749855,88.46548201519181,-0.008374388,-3.9487415e-05,2.0191621e-05,1.9870033e-05,2.0,40,0.020056292,4.1612334e-06,0,-3.269593873830464e-08,2.0
121,121,1426616.2,709.9467,5825.758,5868.8564,-83.052,89.18449292934383,-0.008472354,-1.3228192e-06,1.9149638e-05,1.8869414e-05,2.0,41,0.019434422,3.3114495e-06,0,-3.267727332001711e-08,2.0
122,122,1234551.2,731.6785,6580.1494,6620.704,-83.65507,89.73650082221138,-0.008572128,1.428412e-05,1.959184e-05,1.935256e-05,2.0,41,0.02055762,3.1050504e-06,0,-3.1949275625377834e-08,2.0
123,123,1068345.5,1218.8495,7497.3394,7595.768,-80.76615,90.28949924846529,-0.008529368,6.8503014e-06,1.9870155e-05,1.9358522e-05,2.0,41,0.02084755,2.744627e-06,0,-3.197450358555108e-08,2.0
124,124,924510.06,1619.0302,8759.128,8907.501,-79.52769,90.84149868806708,-0.008572593,1.4440543e-05,1.965385e-05,1.900455e-05,2.0,41,0.020231983,2.2713423e-06,0,-3.309538038528438e-08,2.0
125,125,800039.0,2450.9785,8690.408,9029.424,-74.24982,91.3935026342806,-0.008375339,-3.324646e-06,2.2891212e-05,2.1204549e-05,2.0,41,0.020146303,2.2311838e-06,0,-3.2739038295912024e-08,2.0
126,126,692334.1,2543.5842,11264.578,11548.184,-77.27579,91.94550074046128,-0.008448729,7.2186845e-07,2.0407484e-05,1.941744e-05,2.0,41,0.020413602,1.7676894e-06,0,-3.311322560939642e-08,2.0
127,127,599122.25,3199.2957,12784.935,13179.152,-75.95084,92.49748836670187,-0.008384058,-7.0083775e-07,2.0778118e-05,1.9553669e-05,2.0,41,0.020579234,1.5614991e-06,0,-3.31753963314488e-08,2.0
128,128,518454.94,4214.0405,14672.533,15265.692,-73.97562,93.04950655289576,-0.008289652,-7.047144e-06,2.092204e-05,1.9327745e-05,2.0,41,0.020623842,1.3509929e-06,0,-3.298232378481695e-08,2.0
129,129,448662.03,4943.8066,16430.348,17158.018,-73.25373,93.60148569915327,-0.0084828995,9.70316e-06,2.1590069e-05,1.9797637e-05,2.0,41,0.020206317,1.1776604e-06,0,-3.2790856532902996e-08,2.0
130,130,388258.97,7137.816,18161.94,19514.21,-68.5447,94.15349521869211,-0.008453835,4.9248065e-06,2.2570253e-05,1.9550545e-05,2.0,41,0.0209229,1.0721878e-06,0,-3.092132477260792e-08,2.0
131,131,335983.9,3173.7454,19657.066,19911.627,-80.828415,94.70550065822317,-0.008420409,-1.6971029e-06,2.4098108e-05,2.348588e-05,2.0,41,0.019424465,9.755338e-07,0,-3.2346069511651386e-08,2.0
132,132,290751.2,10875.412,22188.797,24710.672,-63.889103,95.25750511113438,-0.00847541,3.273054e-06,2.4669758e-05,1.9891304e-05,2.0,41,0.020315763,8.221453e-07,0,-3.236694067529476e-08,2.0
133,133,251605.19,13110.182,24158.684,27486.703,-61.512665,95.80948308398365,-0.00844737,-1.9246184e-07,2.6183476e-05,2.0226862e-05,2.0,41,0.020415619,7.4274527e-07,0,-3.32284587982217e-08,2.0
134,134,217729.38,15985.839,26752.533,31164.805,-59.139786,96.36150385692599,-0.00838527,-3.3041638e-06,2.7323618e-05,2.0134423e-05,2.0,41,0.020249553,6.497571e-07,0,-3.1783024210781716e-08,2.0
135,135,188418.58,20367.75,28091.064,34698.027,-54.05558,96.91348286977154,-0.008368688,-5.6188546e-06,3.0069637e-05,1.9708566e-05,2.0,41,0.020747213,5.979364e-07,0,-3.171407184054607e-08,2.0
136,136,163051.14,23556.705,29497.932,37749.785,-51.389545,97.46549254932324,-0.008399616,-1.0881716e-06,3.3090608e-05,2.0205001e-05,2.0,41,0.020159712,5.3403517e-07,0,-3.1683669148174926e-08,2.0
137,137,141098.2,27432.414,29651.697,40395.055,-47.22639,97.88148411575821,-0.008583642,1.2898659e-05,3.804075e-05,2.0497071e-05,2.0,41,0.0219423,5.4319275e-07,0,-3.153401027406094e-08,2.0
138,138,122105.11,31460.807,27850.904,42017.32,-41.51709,98.4334976086684,-0.008431477,-4.285534e-06,4.6800124e-05,2.0562169e-05,2.0,41,0.020076195,4.778076e-07,0,-3.103292888472393e-08,2.0
139,139,105663.59,36331.047,29518.373,46811.1,-39.09329,98.84949056172627,-0.008522772,5.883829e-06,5.1027273e-05,2.0290347e-05,2.0,41,0.021775143,4.651705e-07,0,-3.159468710373877e-08,2.0
140,140,91439.65,40003.832,28676.367,49220.33,-35.634487,99.40150093464763,-0.00838322,3.0235203e-06,6.069619e-05,2.0602538e-05,2.0,41,0.020392356,4.143076e-07,0,-3.098321102886498e-08,2.0
141,141,79127.08,44686.89,29599.604,53600.883,-33.519608,99.98348898891709,-0.008427545,4.92755e-07,6.795307e-05,2.0722255e-05,2.0,42,0.019659748,3.667803e-07,0,-3.143765473680086e-08,2.0
142,142,68475.36,48031.69,28344.406,55771.4,-30.545654,100.39949444870581,-0.008588617,1.8413998e-06,8.2000864e-05,2.1180202e-05,2.0,42,0.020349557,3.648744e-07,0,-3.1303999736666e-08,2.0
143,143,59252.523,50824.9,27364.688,57723.45,-28.298513,100.81549918846576,-0.008335356,-5.468988e-07,9.815733e-05,2.2059681e-05,2.0,42,0.020912098,3.6228082e-07,0,-3.126195002343637e-08,2.0
144,144,51282.285,54140.086,25389.402,59797.746,-25.124584,101.23149438152905,-0.008362651,-3.4220858e-07,0.00012223632,2.2036145e-05,2.0,42,0.021455402,3.587995e-07,0,-3.122352409952632e-08,2.0
145,145,44369.8,56532.85,21310.133,60415.934,-20.654,101.64748456128291,-0.008488042,2.407579e-07,0.00016832417,2.0941887e-05,2.0,42,0.021823578,3.6122222e-07,0,-3.117122284732924e-08,2.0
146,146,38403.727,58593.18,19119.18,61633.625,-18.071703,102.19948592086439,-0.008424769,-2.8188742e-08,0.00021675919,2.085838e-05,2.0,42,0.02018639,3.2752237e-07,0,-3.1181133759038935e-08,2.0
147,147,33226.32,60582.055,17171.092,62968.496,-15.8246,102.61550562063348,-0.008447761,8.928235e-07,0.00027895873,2.074384e-05,2.0,42,0.020446045,3.2470277e-07,0,-3.115980853546516e-08,2.0
148,148,28754.086,62153.094,15454.76,64045.74,-13.963762,103.03148940039682,-0.008345063,-8.201282e-07,0.00035814452,2.0854623e-05,2.0,42,0.020533934,3.206136e-07,0,-3.1070492455035474e-08,2.0
149,149,24884.947,62715.645,13683.778,64191.105,-12.308333,103.44749142011278,-0.008328312,-3.6493023e-07,0.00046738784,2.1239277e-05,2.0,42,0.020520065,3.1967147e-07,0,-3.10492576106184e-08,2.0
150,150,21553.963,63910.08,11473.155,64931.742,-10.177349,103.8645001599507,-0.00837165,2.4783617e-07,0.0006435912,2.0093785e-05,2.0,42,0.020645175,3.1795196e-07,0,-3.108945753637106e-08,2.0
151,151,18631.234,63981.883,10295.445,64804.918,-9.141212,104.28048796634539,-0.0083984425,-2.3903567e-08,0.0008297235,2.0941496e-05,2.0,42,0.020475682,3.1595877e-07,0,-3.097946046114518e-08,2.0
152,152,16126.037,65050.566,8867.907,65652.234,-7.7628965,104.6965049461287,-0.008447258,4.4377333e-07,0.0011129389,2.0305542e-05,2.0,42,0.020469487,3.117866e-07,0,-3.090731439029525e-08,2.0
153,153,13954.87,64031.01,10305.517,64855.023,-9.143102,105.11249709923868,-0.008436935,6.8683187e-07,0.0011066864,2.7943248e-05,2.0,42,0.019877147,3.0648584e-07,0,-3.0994784112503854e-08,2.0
154,154,12080.609,64979.195,7628.371,65425.438,-6.695712,105.52849546566722,-0.008539652,1.7177323e-06,0.0017270283,2.3478471e-05,2.0,42,0.019882064,3.038889e-07,0,-3.1113543427511676e-08,2.0
155,155,10447.592,65241.06,5381.6816,65462.65,-4.7156057,105.94448385873693,-0.008468647,6.2797733e-07,0.0028306486,1.9130874e-05,2.0,42,0.019502493,2.9791786e-07,0,-3.1128381404289605e-08,2.0
156,156,9045.586,65176.863,4263.242,65316.145,-3.7424061,106.51725857928977,-0.008427769,2.3014547e-07,0.0041270847,1.758257e-05,2.0,42,0.020363212,3.1176384e-07,0,-3.118097386045311e-08,2.0
157,157,7827.7437,65099.438,3802.5225,65210.4,-3.3429046,106.99695001542568,-0.008416403,5.1361985e-07,0.0053470195,1.8181161e-05,2.0,42,0.020433819,3.1335216e-07,0,-3.113927517822389e-08,2.0
158,158,6770.8345,64896.08,3696.1045,65001.246,-3.259714,107.53541188096278,-0.008369749,-4.5319766e-08,0.0063596573,2.0562638e-05,2.0,42,0.020570783,3.1646752e-07,0,-3.115073430015563e-08,2.0
159,159,5860.798,64547.816,2840.591,64610.29,-2.519821,108.14198796314304,-0.0080576865,-1.7219525e-06,0.009559929,1.8478586e-05,2.0,42,0.020650467,3.1961576e-07,0,-3.1454162004502745e-08,2.0
160,160,5071.625,64499.68,2871.4473,64563.566,-2.549055,108.82270762215921,-0.008382419,2.4411506e-07,0.010928792,2.161717e-05,2.0,42,0.02075792,3.2151135e-07,0,-3.155132624245402e-08,2.0
161,161,4388.5933,64768.082,1968.8976,64798.0,-1.7412095,109.502825254458,-0.008463131,5.9780626e-07,0.01841924,1.7005708e-05,2.0,42,0.02096199,3.234975e-07,0,-3.120680399829211e-08,2.0
162,162,3798.7827,64650.043,1949.7152,64679.438,-1.7274019,110.18283142008295,-0.008437737,6.102852e-07,0.02148842,1.952605e-05,2.0,42,0.02106303,3.2565265e-07,0,-3.0951961652028085e-08,2.0
163,163,3286.0488,64990.145,2723.0627,65047.168,-2.3992684,110.86270729238458,-0.00840936,6.78826e-07,0.017786417,3.117073e-05,2.0,42,0.021198543,3.2589494e-07,0,-3.091248112744497e-08,2.0
164,164,2844.088,64382.254,2392.6543,64426.7,-2.1283183,111.54280519134772,-0.008417167,4.0224322e-07,0.023388218,3.22571e-05,2.0,42,0.021132702,3.2801157e-07,0,-3.077794722144785e-08,2.0
165,165,2460.7852,64235.37,2074.7205,64268.867,-1.8499376,112.22270410364581,-0.008414112,1.5341205e-07,0.031173592,3.2486634e-05,2.0,42,0.021151586,3.2911092e-07,0,-3.03976621068893e-08,2.0
166,166,2129.3164,64487.918,2405.677,64532.773,-2.1363885,112.90280613594223,-0.008410478,2.778283e-07,0.031070096,4.317741e-05,2.0,42,0.021254102,3.293536e-07,0,-3.020953177970694e-08,2.0
167,167,1843.2289,63971.05,2337.9563,64013.758,-2.093063,113.5829429149162,-0.008399933,1.8470237e-07,0.03693214,4.9264105e-05,2.0,42,0.021143032,3.3028888e-07,0,-3.002670422020021e-08,2.0
168,168,1594.4913,64459.36,2783.0745,64519.41,-2.472247,114.26284561387729,-0.008441631,4.4266045e-07,0.03586519,6.673321e-05,2.0,42,0.021281665,3.2984903e-07,0,-2.9767783199447668e-08,2.0
169,169,1380.4436,64659.49,3140.2588,64735.7,-2.7804475,114.94268233950424,-0.008480441,7.255763e-07,0.036714364,8.6393135e-05,2.0,42,0.021319838,3.2933664e-07,0,-2.942802289702722e-08,2.0
170,170,1194.6187,64678.086,3599.7766,64778.184,-3.1856143,115.62284943847044,-0.008418956,2.148756e-07,0.037009675,0.00011429017,2.0,42,0.021307925,3.2893675e-07,0,-2.942986307482778e-08,2.0
171,171,1033.3434,64746.58,4170.0327,64880.727,-3.685071,116.30309899072745,-0.008442543,6.972662e-07,0.036934823,0.00015257506,2.0,42,0.021310115,3.2845062e-07,0,-2.953873233910483e-08,2.0
172,172,894.71045,65289.62,4605.3877,65451.848,-4.0348363,116.98284731639433,-0.008446121,4.3204417e-07,0.038625263,0.00019123175,2.0,42,0.02141325,3.2716036e-07,0,-2.9468373181237025e-08,2.0
173,173,774.2569,64977.98,5374.2793,65199.85,-4.7281284,117.6629725486855,-0.008369042,3.6592496e-07,0.03824854,0.00025987354,2.0,42,0.021327095,3.2710344e-07,0,-2.9118887674155245e-08,2.0
174,174,669.7856,65123.277,5253.237,65334.812,-4.611838,118.3428315409983,-0.00846738,7.328401e-07,0.045233205,0.00029243008,2.0,42,0.021265863,3.2549053e-07,0,-2.910058029354702e-08,2.0
175,175,579.81464,65837.33,6247.047,66133.04,-5.420345,119.02284493329353,-0.008456722,6.615055e-07,0.04393961,0.00039207464,2.0,42,0.021394834,3.2351204e-07,0,-2.9224344462901502e-08,2.0
176,176,501.44418,65984.664,6822.3564,66336.42,-5.903011,119.7001806187618,-0.008365688,5.1678813e-07,0.046522506,0.0004920711,2.0,42,0.021353645,3.2189925e-07,0,-2.9260046907824922e-08,2.0
177,177,434.02762,66435.555,7854.9214,66898.305,-6.742987,120.3802043844189,-0.008389071,2.7279933e-07,0.046683233,0.00064359757,2.0,42,0.021390798,3.1975097e-07,0,-2.8899848005697374e-08,2.0
178,178,375.6009,66678.74,8660.76,67238.85,-7.4005947,121.05843793661916,-0.008447668,7.4699466e-07,0.048925754,0.00081172504,2.0,42,0.02135477,3.1759572e-07,0,-2.85264800481312e-08,2.0
179,179,325.10385,67016.29,9407.5,67673.36,-7.990757,121.7377023422523,-0.0084368605,7.1477297e-07,0.052038383,0.0010056266,2.0,42,0.021308998,3.1488017e-07,0,-2.8523760791354905e-08,2.0
180,180,281.3503,67771.445,10563.544,68589.77,-8.859412,122.41480477440928,-0.008336622,-8.4431164e-08,0.053550445,0.0012701752,2.0,42,0.021361003,3.114313e-07,0,-2.873537110084692e-08,2.0
181,181,243.36427,68739.375,12021.923,69782.72,-9.920206,123.09812819349463,-0.008390635,2.092872e-07,0.05439881,0.0016145128,2.0,42,0.021445766,3.07322e-07,0,-2.824827577482303e-08,2.0
182,182,210.60631,68918.05,13001.282,70133.664,-10.683208,123.7752107323322,-0.008453723,6.024629e-07,0.058124945,0.0019974774,2.0,42,0.021305375,3.0378243e-07,0,-2.8043984302588734e-08,2.0
183,183,182.27473,70215.95,13806.506,71560.46,-11.124108,124.44628153750091,-0.008466989,6.698859e-07,0.06324262,0.0023541339,2.0,42,0.02138909,2.9889537e-07,0,-2.7949622062798064e-08,2.0
184,184,157.72879,70317.4,16113.026,72139.91,-12.9063425,125.13463634360414,-0.008455716,2.7000448e-07,0.06262273,0.0031241733,2.0,42,0.021257877,2.946757e-07,0,-2.7627878061580723e-08,2.0
185,185,136.52892,71856.86,16828.752,73801.19,-13.181012,125.80652445546002,-0.008418192,-1.2130948e-07,0.06926975,0.003601809,2.0,42,0.021329226,2.8900925e-07,0,-2.795027252954934e-08,2.0
186,186,118.14758,72911.69,19622.871,75506.1,-15.063213,126.49490243484615,-0.008411075,3.815684e-07,0.06864877,0.0046365373,2.0,42,0.021338888,2.8261144e-07,0,-2.7693008457059932e-08,2.0
187,187,102.25773,73790.266,21606.941,76888.64,-16.320854,127.16135062646936,-0.008398089,3.0390154e-07,0.07203286,0.0056884363,2.0,42,0.021267636,2.766031e-07,0,-2.7762527843082197e-08,2.0
188,188,88.4436,75548.81,23773.115,79200.91,-17.467342,127.8513129526109,-0.008458157,6.2872346e-07,0.07569507,0.006819923,2.0,42,0.02134046,2.6944716e-07,0,-2.7647089066195186e-08,2.0
189,189,76.54279,76918.89,25999.287,81194.08,-18.675722,128.51773359761864,-0.008420875,7.2184906e-07,0.079975024,0.008200278,2.0,42,0.021285662,2.621578e-07,0,-2.7542299772923724e-08,2.0
190,190,66.250786,78591.31,28495.734,83597.85,-19.929695,129.18596514934325,-0.008471795,5.873755e-07,0.084304206,0.009795322,2.0,42,0.021280883,2.5456256e-07,0,-2.755732685046988e-08,2.0
191,191,57.329906,80869.016,30913.17,86576.1,-20.919968,129.84062963379256,-0.008451897,4.866134e-07,0.089803934,0.011449497,2.0,42,0.021326626,2.4633385e-07,0,-2.7178935418273456e-08,2.0
192,192,49.60321,82330.0,33428.03,88857.54,-22.098377,130.52534417292918,-0.008401554,1.6849653e-07,0.09598415,0.013584154,2.0,42,0.021207877,2.3867278e-07,0,-2.6946462682618132e-08,2.0
193,193,42.92585,84812.55,36974.203,92521.67,-23.554893,131.233429246553,-0.008597764,1.3567786e-06,0.10027725,0.01601449,2.0,42,0.021263748,2.2982452e-07,0,-2.712950727318623e-08,2.0
194,194,37.1518,87541.82,40839.5,96599.35,-25.009718,131.87817546384758,-0.008458213,8.6507544e-07,0.10489623,0.018748749,2.0,42,0.02132842,2.2079257e-07,0,-2.7187666772097707e-08,2.0
195,195,32.150223,90798.06,43878.19,100844.35,-25.792171,132.5173857875343,-0.008462647,3.6126596e-07,0.11282035,0.021359038,2.0,42,0.021328406,2.1149827e-07,0,-2.6619388060205176e-08,2.0
196,196,27.835518,93095.1,47988.836,104735.984,-27.270283,133.24533328876714,-0.008355813,1.2835854e-07,0.11914632,0.025013197,2.0,42,0.021270335,2.0308526e-07,0,-2.6863690577892287e-08,2.0
197,197,24.082958,96698.88,51707.066,109655.34,-28.134418,133.9473964688077,-0.008474311,5.393217e-07,0.12780869,0.028418465,2.0,42,0.021258352,1.9386518e-07,0,-2.6555253044311536e-08,2.0
198,198,20.833313,100148.03,57448.934,115455.66,-29.840315,134.60178351325158,-0.0084562,4.4191205e-07,0.132978,0.032924056,2.0,42,0.021315334,1.8461922e-07,0,-2.607956291185904e-08,2.0
199,199,18.021912,104100.87,62218.254,121276.96,-30.865612,135.347747148684,-0.008483329,1.1038481e-06,0.14193891,0.037357733,2.0,42,0.02131585,1.7576174e-07,0,-2.651598909409852e-08,2.0
200,200,15.604198,108344.75,68101.98,127970.56,-32.15213,136.00302008647122,-0.008309457,6.959531e-08,0.14976798,0.04241488,2.0,42,0.021352202,1.6685244e-07,0,-2.6483113960680803e-08,2.0
201,201,13.500899,113118.39,73464.97,134880.95,-33.00179,137.023007441574,-0.00843987,3.563285e-07,0.16046382,0.04760324,2.0,43,0.021332264,1.5815624e-07,0,-2.5905233708284964e-08,2.0
202,202,11.686608,117778.32,80565.24,142697.2,-34.373745,137.61389480298385,-0.008377295,3.5675686e-07,0.16903785,0.053882588,2.0,43,0.021361344,1.49697e-07,0,-2.5604873682014348e-08,2.0
203,203,10.113269,124227.79,87286.72,151827.25,-35.093197,138.2875016349426,-0.008332281,3.70109e-07,0.18029363,0.059590537,2.0,43,0.021473179,1.4143166e-07,0,-2.4794009454262343e-08,2.0
204,204,8.748621,128078.65,94369.92,159090.61,-36.383247,139.05338756463607,-0.008489504,4.5427498e-07,0.19277331,0.0678305,2.0,43,0.021277146,1.3374232e-07,0,-2.4863980077967282e-08,2.0
205,205,7.570237,134117.44,102932.72,169063.98,-37.50559,139.92902307293843,-0.008427378,3.7901918e-07,0.20424771,0.0757115,2.0,43,0.021303317,1.2600742e-07,0,-2.5796973345748795e-08,2.0
206,206,6.554112,140755.84,111654.5,179663.39,-38.42319,140.46532328505418,-0.008469578,6.40177e-07,0.21748538,0.083996914,2.0,43,0.02130883,1.18604184e-07,0,-2.4235664154915492e-08,2.0
207,207,5.669445,146669.53,122608.45,191166.9,-39.89395,141.0751507540408,-0.008448729,1.3882993e-07,0.22895977,0.094183445,2.0,43,0.021322303,1.11537624e-07,0,-2.5801679925907294e-08,2.0
208,208,4.907347,153739.0,133090.19,203343.75,-40.882385,141.76755182692432,-0.0083342,5.5335704e-07,0.24368416,0.10438971,2.0,43,0.021302866,1.04762826e-07,0,-2.424172728019257e-08,2.0
209,209,4.245922,160569.56,145803.94,216890.23,-42.240772,142.55530514431302,-0.008412407,2.4029666e-07,0.25708625,0.116181605,2.0,43,0.021314735,9.827429e-08,0,-2.4681666011571894e-08,2.0
210,210,3.6747382,167783.84,159354.5,231398.52,-43.52399,143.4549416404043,-0.008427862,3.9545327e-07,0.27178743,0.12889525,2.0,43,0.021314152,9.211015e-08,0,-2.5746952522786396e-08,2.0
211,211,3.180988,176075.67,174123.67,247632.19,-44.680637,144.48421406259877,-0.00840596,5.0698577e-07,0.28734276,0.14206977,2.0,43,0.021317756,8.608637e-08,0,-2.406416746088386e-08,2.0
212,212,2.752818,183820.02,191598.97,265518.28,-46.18704,145.66309825194185,-0.008405807,3.4701702e-07,0.3017515,0.15712559,2.0,43,0.021317625,8.0286846e-08,0,-2.339674307709553e-08,2.0
213,213,2.3804083,192407.89,210358.3,285081.4,-47.55186,147.01696604958852,-0.008423359,3.0397283e-07,0.31784034,0.17305754,2.0,43,0.02131173,7.475665e-08,0,-2.485324844903304e-08,2.0
214,214,2.060257,199849.6,232732.48,306764.2,-49.347,148.5733574835176,-0.008395275,3.5871898e-07,0.33192638,0.19104974,2.0,43,0.021281457,6.9373996e-08,0,-2.559269730110921e-08,2.0
