True,index,freq,Re(Z),Im(Z),Z,Phase(Z),time,Ewe_meas,I_meas,Cs,Cp,cycle_number,I_Range,Ewe,I,Ns,(QQo),cycle
110,110,7000018.5,261.53354,1852.3289,1870.7009,-81.96343,82.89649615067174,-0.06285401,-8.47216e-06,1.2274473e-05,1.2034563e-05,2.0,40,0.010102651,5.400463e-06,0,-2.7459043801974922e-08,2.0
111,111,6057573.0,405.53595,2098.7998,2137.62,-79.06392,83.44850044357008,-0.0628198,-2.7189293e-05,1.2518448e-05,1.2067893e-05,2.0,40,0.014254139,6.6682283e-06,0,-2.7578462045080224e-08,2.0
112,112,5242039.0,340.06976,2358.4045,2382.7966,-81.7948,83.86449795667431,-0.06282181,4.9553734e-07,1.28736465e-05,1.2611427e-05,2.0,40,0.019611165,8.230314e-06,0,-2.8359905150600817e-08,2.0
113,113,4536288.0,305.85626,2804.2769,2820.907,-83.77548,85.36850618806784,-0.0628985,-1.2435197e-05,1.251119e-05,1.236411e-05,2.0,40,0.020741025,7.3526085e-06,0,-2.133727851969051e-08,2.0
114,114,3925558.5,369.61807,3091.555,3113.5718,-83.18223,85.7845062345441,-0.06284437,-2.8752132e-05,1.3114197e-05,1.2929385e-05,2.0,40,0.019408219,6.2334257e-06,0,-2.2978697566772313e-08,2.0
115,115,3397055.0,425.71906,3455.7297,3481.8535,-82.97699,86.20049596091849,-0.06286632,-3.6380337e-05,1.3557444e-05,1.3354767e-05,2.0,40,0.020447437,5.8725723e-06,0,-2.549634760262462e-08,2.0
116,116,2939708.2,432.84,3961.0894,3984.668,-83.76386,86.75250356047763,-0.062911205,-2.9068418e-05,1.3667884e-05,1.3506607e-05,2.0,40,0.020401016,5.1198786e-06,0,-2.3311398333231322e-08,2.0
117,117,2543924.5,560.5839,4648.88,4682.5566,-83.1242,87.30448881335906,-0.06291205,-2.655669e-05,1.34575985e-05,1.3264722e-05,2.0,40,0.02069632,4.419876e-06,0,-2.3952446029089932e-08,2.0
118,118,2201436.2,333.52844,5437.157,5447.3774,-86.48974,88.0235014075588,-0.06297036,1.572865e-06,1.3296647e-05,1.3246799e-05,2.0,41,0.019980859,3.6679776e-06,0,-2.990978189183598e-08,2.0
119,119,1905053.1,320.20926,6328.3843,6336.48,-87.10337,88.57549524705973,-0.06294299,3.718109e-06,1.3201406e-05,1.3167694e-05,2.0,41,0.020375304,3.2155556e-06,0,-2.950658148431589e-08,2.0
120,120,1648567.4,363.28384,7225.519,7234.646,-87.12171,89.1275072733115,-0.06295317,4.049577e-06,1.33611675e-05,1.3327476e-05,2.0,41,0.019858666,2.7449396e-06,0,-3.006106634449581e-08,2.0
121,121,1426616.2,297.03024,8261.109,8266.447,-87.9408,89.67950119284797,-0.06293019,2.686462e-06,1.3504379e-05,1.3486944e-05,2.0,41,0.020578634,2.489417e-06,0,-2.9824415748497776e-08,2.0
122,122,1234551.2,311.7975,9655.072,9660.105,-88.15035,90.2315032724,-0.0628789,-2.1961725e-06,1.3352281e-05,1.3338371e-05,2.0,41,0.020436231,2.1155288e-06,0,-2.950282283586445e-08,2.0
123,123,1068345.5,507.17197,11142.891,11154.427,-87.39397,90.78348503194866,-0.062934384,-3.3842423e-06,1.3369358e-05,1.3341719e-05,2.0,41,0.020627128,1.8492324e-06,0,-2.9570020303331213e-08,2.0
124,124,924510.06,621.46564,12866.035,12881.036,-87.234604,91.33550759151694,-0.06289384,-1.2799798e-06,1.3380235e-05,1.3349089e-05,2.0,41,0.020290926,1.5752557e-06,0,-2.9258366597525133e-08,2.0
125,125,800039.0,313.27985,14364.038,14367.454,-88.75058,91.88750281769899,-0.062872045,-3.5015598e-06,1.3849446e-05,1.3842861e-05,2.0,41,0.020666486,1.4384236e-06,0,-2.975921727768771e-08,2.0
126,126,692334.1,512.2603,17334.018,17341.586,-88.30727,92.43950596396462,-0.06298432,6.2581216e-06,1.32618825e-05,1.3250309e-05,2.0,41,0.020428378,1.1779994e-06,0,-3.013513551171501e-08,2.0
127,127,599122.25,696.296,19934.133,19946.29,-87.99948,92.99150780352647,-0.06291087,2.3196123e-06,1.3326232e-05,1.3309993e-05,2.0,41,0.020737562,1.0396702e-06,0,-3.0181580913536426e-08,2.0
128,128,518454.94,766.11316,22695.031,22707.959,-88.066605,93.54349094969803,-0.062921286,2.2097438e-06,1.3526279e-05,1.3510882e-05,2.0,41,0.020421382,8.99305e-07,0,-2.9101776541606246e-08,2.0
129,129,448662.03,1286.8933,26201.766,26233.35,-87.188194,94.09549241591594,-0.06291892,2.1427054e-06,1.3538491e-05,1.3505911e-05,2.0,41,0.0202123,7.704811e-07,0,-2.869783725749326e-08,2.0
130,130,388258.97,1315.6139,30603.36,30631.625,-87.538414,94.64749553546426,-0.062915005,1.9713855e-06,1.3394594e-05,1.3369885e-05,2.0,41,0.02085995,6.809939e-07,0,-2.799070790432021e-08,2.0
131,131,335983.9,-1591.1039,35241.445,35277.344,-92.585075,95.19950814839103,-0.06293075,-8.833361e-07,1.3441505e-05,1.3414164e-05,2.0,41,0.020379405,5.77691e-07,0,-2.7420860190908848e-08,2.0
132,132,290751.2,3110.809,40922.23,41040.297,-85.65287,95.751493534568,-0.062868126,-6.5987416e-07,1.3376402e-05,1.3299549e-05,2.0,41,0.020532483,5.0030053e-07,0,-2.733202763585278e-08,2.0
133,133,251605.19,3195.718,46048.35,46159.11,-86.03008,96.30348905411665,-0.062966414,4.850314e-06,1.3736828e-05,1.3670984e-05,2.0,41,0.020383019,4.4158173e-07,0,-2.7226156964110892e-08,2.0
134,134,217729.38,2122.1907,52287.914,52330.96,-87.675835,97.02248260829947,-0.06290888,-3.116645e-07,1.3979828e-05,1.3956837e-05,2.0,42,0.019481368,3.7227232e-07,0,-2.6880023879026203e-08,2.0
135,135,188418.58,2256.5068,61384.41,61425.87,-87.89474,97.43849542803946,-0.062897325,-2.4535896e-07,1.3760629e-05,1.374206e-05,2.0,42,0.021684093,3.5301238e-07,0,-2.6939932443551407e-08,2.0
136,136,163051.14,2609.2012,70588.04,70636.24,-87.883095,97.99050169429393,-0.062953815,8.784424e-08,1.3828185e-05,1.3809318e-05,2.0,42,0.020782668,2.9422102e-07,0,-2.6926002713614375e-08,2.0
137,137,141098.2,2382.982,80823.36,80858.484,-88.31119,98.54248926715809,-0.062924564,-2.321353e-07,1.3956025e-05,1.3943903e-05,2.0,42,0.020201754,2.4984087e-07,0,-2.688697045940971e-08,2.0
138,138,122105.11,7665.266,95320.33,95628.04,-85.402405,98.95848712688894,-0.06300051,8.192526e-07,1.3674164e-05,1.3586305e-05,2.0,42,0.021876864,2.2877039e-07,0,-2.689200058421785e-08,2.0
139,139,105663.59,4573.0825,106434.25,106532.445,-87.53973,99.51148597986321,-0.06292563,3.4356708e-07,1.4151855e-05,1.4125778e-05,2.0,42,0.0203606,1.9112112e-07,0,-2.6858546577797566e-08,2.0
140,140,91439.65,5161.8257,121212.13,121321.99,-87.56153,99.92750551961944,-0.062969655,4.8288297e-07,1.4359505e-05,1.4333512e-05,2.0,42,0.02159143,1.7796799e-07,0,-2.6847592915517836e-08,2.0
141,141,79127.08,7391.595,142354.33,142546.1,-87.02765,100.47950402580318,-0.06293848,1.8022483e-07,1.412942e-05,1.4091429e-05,2.0,42,0.020339409,1.4268655e-07,0,-2.6820445442174152e-08,2.0
142,142,68475.36,8841.206,162721.11,162961.12,-86.88998,100.89549860559055,-0.062878825,-1.6899604e-07,1.4283739e-05,1.4241695e-05,2.0,42,0.021144517,1.2975191e-07,0,-2.6841058267653435e-08,2.0
143,143,59252.523,9000.266,187528.75,187744.61,-87.25225,101.31149505198118,-0.06292723,3.7485734e-07,1.4323377e-05,1.4290459e-05,2.0,42,0.021898152,1.1663798e-07,0,-2.6807237675023957e-08,2.0
144,144,51282.285,7365.277,217791.03,217915.53,-88.0631,101.86348609157722,-0.06297476,6.769566e-07,1.4249932e-05,1.4233654e-05,2.0,42,0.020202968,9.271009e-08,0,-2.6757334817137885e-08,2.0
145,145,44369.8,21947.795,259924.4,260849.39,-85.17344,102.27949157796684,-0.06296022,6.393339e-07,1.3800206e-05,1.3702507e-05,2.0,42,0.020613886,7.902601e-08,0,-2.6729452542354358e-08,2.0
146,146,38403.727,25827.137,289326.38,290476.84,-84.89893,102.69548770438996,-0.06292304,1.543359e-07,1.4323817e-05,1.4210578e-05,2.0,42,0.020862065,7.182006e-08,0,-2.6709818100466896e-08,2.0
147,147,33226.32,27928.58,335029.34,336191.4,-85.23475,103.11149391086656,-0.06291361,-2.670018e-08,1.4297334e-05,1.4198666e-05,2.0,42,0.021063365,6.2652894e-08,0,-2.663759820758808e-08,2.0
148,148,28754.086,40806.926,389823.78,391953.8,-84.02402,103.52748411727953,-0.06300796,8.801566e-07,1.4198819e-05,1.4044915e-05,2.0,42,0.021209477,5.411218e-08,0,-2.6624981860790826e-08,2.0
149,149,24884.947,58629.734,437960.7,441867.62,-82.37515,103.94349949705065,-0.0628841,1.8000105e-08,1.4603209e-05,1.434611e-05,2.0,42,0.02115974,4.7887056e-08,0,-2.663917157247416e-08,2.0
150,150,21553.963,51902.59,526833.56,529384.06,-84.37349,104.52750205810298,-0.062929355,1.7983114e-08,1.40158545e-05,1.3881126e-05,2.0,43,0.02092913,3.9534868e-08,0,-2.6618018824937024e-08,2.0
151,151,18631.234,67468.81,603047.0,606809.44,-83.6163,104.94349277121364,-0.06296766,7.638455e-08,1.4165352e-05,1.3990235e-05,2.0,43,0.020808034,3.429089e-08,0,-2.661603035606957e-08,2.0
152,152,16126.037,95090.52,700289.94,706716.5,-82.26725,105.35948700425797,-0.06292764,3.604733e-08,1.4093361e-05,1.3838209e-05,2.0,43,0.020650027,2.9219676e-08,0,-2.6617938260256293e-08,2.0
153,153,13954.87,161302.61,794233.44,810447.56,-78.51981,105.7754966240318,-0.06292628,3.3551864e-08,1.4359728e-05,1.3790902e-05,2.0,43,0.020387042,2.515529e-08,0,-2.662148637859237e-08,2.0
154,154,12080.609,111092.98,900364.2,907192.0,-82.96601,106.1914833104529,-0.062985286,7.686874e-08,1.46323155e-05,1.441289e-05,2.0,43,0.019942813,2.1983013e-08,0,-2.6625305346814275e-08,2.0
155,155,10447.592,154385.08,1056035.0,1067260.4,-81.68267,106.60749655691325,-0.06297945,4.962342e-08,1.4425326e-05,1.4123472e-05,2.0,43,0.019435853,1.8210976e-08,0,-2.662697492417982e-08,2.0
156,156,9045.586,190606.23,1147742.5,1163461.9,-80.570915,107.18024581074133,-0.0629298,3.3756713e-08,1.5329888e-05,1.4918445e-05,2.0,43,0.020224743,1.7383245e-08,0,-2.6619978922039256e-08,2.0
157,157,7827.7437,240703.38,1331431.5,1353014.4,-79.75244,107.65994908689754,-0.06288173,-3.451487e-08,1.5270902e-05,1.4787594e-05,2.0,43,0.020191982,1.4923701e-08,0,-2.6634073301957785e-08,2.0
158,158,6770.8345,331037.8,1582894.2,1617139.5,-78.18772,108.19840516577824,-0.0629423,-7.2695583e-09,1.4849986e-05,1.4227706e-05,2.0,43,0.020277016,1.2538817e-08,0,-2.6638092093041255e-08,2.0
159,159,5860.798,390212.44,1746816.0,1789869.2,-77.40772,108.80398807459278,-0.06293859,-1.9597918e-08,1.5545913e-05,1.48070285e-05,2.0,43,0.020212773,1.1292877e-08,0,-2.66307789364621e-08,2.0
160,160,5071.625,477583.06,2001660.4,2057845.9,-76.58049,109.48472152026807,-0.06290364,-3.3863067e-08,1.567771e-05,1.4833297e-05,2.0,43,0.020252805,9.8417505e-09,0,-2.6637315472246398e-08,2.0
161,161,4388.5933,626340.44,2264855.8,2349866.8,-74.54134,110.16485243255738,-0.062924735,-1.0308747e-09,1.601232e-05,1.4874723e-05,2.0,43,0.020267896,8.6251255e-09,0,-2.6634638740514773e-08,2.0
162,162,3798.7827,746915.2,2560503.5,2667219.5,-73.7377,110.84484499819519,-0.0629429,1.5018373e-09,1.6362525e-05,1.5079382e-05,2.0,43,0.020276079,7.601954e-09,0,-2.663135236505259e-08,2.0
163,163,3286.0488,941575.75,2923823.2,3071694.5,-72.14958,111.52470463049394,-0.06288961,-2.9970877e-08,1.6565136e-05,1.5008635e-05,2.0,43,0.02033372,6.619708e-09,0,-2.663911598911807e-08,2.0
164,164,2844.088,1145133.9,3168145.0,3368749.8,-70.12749,112.20480564945319,-0.06294948,-1.4662846e-08,1.766331e-05,1.5622289e-05,2.0,43,0.020235911,6.00695e-09,0,-2.6638424589204945e-08,2.0
165,165,2460.7852,1371819.5,3550166.0,3805991.0,-68.87297,112.88469141509268,-0.06293388,-2.2968663e-08,1.8217877e-05,1.5851107e-05,2.0,43,0.020289414,5.330915e-09,0,-2.664134924539457e-08,2.0
166,166,2129.3164,1715644.9,3883221.8,4245332.5,-66.1637,113.56383072734752,-0.06293673,-3.247001e-09,1.9248095e-05,1.6104554e-05,2.0,43,0.02026083,4.7724953e-09,0,-2.6638427060054494e-08,2.0
167,167,1843.2289,1919287.0,4267118.5,4678885.0,-65.782486,114.24395129297045,-0.06300224,1.4463385e-08,2.0235137e-05,1.683026e-05,2.0,43,0.020239636,4.3257393e-09,0,-2.663772770478549e-08,2.0
168,168,1594.4913,2317179.5,4761685.0,5295561.0,-64.05105,114.92383748527209,-0.06288712,-2.6953968e-08,2.0962221e-05,1.6948634e-05,2.0,43,0.020253506,3.8246193e-09,0,-2.6637702245003404e-08,2.0
169,169,1380.4436,2760133.5,5126448.0,5822268.0,-61.70151,115.60372101090616,-0.06291031,-5.2582814e-09,2.2489765e-05,1.7435468e-05,2.0,43,0.020259839,3.4797158e-09,0,-2.6638021663062023e-08,2.0
170,170,1194.6187,3230124.0,5552137.5,6423389.5,-59.81,116.28384864320105,-0.062943235,-7.3999185e-09,2.3995544e-05,1.7927616e-05,2.0,43,0.020254057,3.1531728e-09,0,-2.6640302811680346e-08,2.0
171,171,1033.3434,4059942.2,5972929.5,7222120.0,-55.79512,116.9640715821588,-0.06291523,-2.2391367e-08,2.5786243e-05,1.7637354e-05,2.0,43,0.02030523,2.811533e-09,0,-2.66452466592165e-08,2.0
172,172,894.71045,4323921.5,6335757.0,7670600.5,-55.687897,117.64384598779725,-0.06294429,1.3900845e-09,2.8076252e-05,1.9154792e-05,2.0,43,0.020218797,2.635882e-09,0,-2.6648954127555464e-08,2.0
173,173,774.2569,5651874.5,6863749.0,8891273.0,-50.530647,118.32394946008571,-0.06285958,-5.280259e-08,2.9948404e-05,1.7847138e-05,2.0,43,0.020320866,2.2854845e-09,0,-2.6649086009691735e-08,2.0
174,174,669.7856,5862656.5,7181822.0,9270885.0,-50.774593,119.00385111905052,-0.06295138,-1.056584e-08,3.3086417e-05,1.9855306e-05,2.0,43,0.020205837,2.179494e-09,0,-2.664963592948339e-08,2.0
175,175,579.81464,6576806.0,7674494.0,10107039.0,-49.404438,119.68382125801872,-0.06297631,1.5860065e-08,3.5766894e-05,2.0622098e-05,2.0,43,0.02024544,2.003103e-09,0,-2.6653392806642436e-08,2.0
176,176,501.44418,7605100.5,8163251.0,11156891.0,-47.027245,120.36118777017691,-0.062956296,-2.20416e-09,3.8880728e-05,2.08149e-05,2.0,43,0.020278595,1.8175847e-09,0,-2.665623069936866e-08,2.0
177,177,434.02762,8880743.0,8304945.0,12158935.0,-43.08105,121.04121265580761,-0.06296289,-1.2856467e-08,4.415359e-05,2.059911e-05,2.0,43,0.020244915,1.6650237e-09,0,-2.6660007768715428e-08,2.0
178,178,375.6009,9419499.0,8694974.0,12819108.0,-42.70956,121.7194501546619,-0.06295817,-2.0924324e-09,4.8733236e-05,2.2420547e-05,2.0,43,0.020251002,1.5797513e-09,0,-2.665845132437165e-08,2.0
179,179,325.10385,10568019.0,8779227.0,13738918.0,-39.717613,122.39869837364677,-0.06291236,9.430999e-10,5.5762437e-05,2.2769276e-05,2.0,43,0.020255987,1.474351e-09,0,-2.6659860567945928e-08,2.0
180,180,281.3503,11398207.0,8139060.5,14005836.0,-35.5293,123.07480048575962,-0.06292641,-8.610458e-09,6.950218e-05,2.3470857e-05,2.0,43,0.020176835,1.440602e-09,0,-2.666554178178303e-08,2.0
181,181,243.36427,13024839.0,8308533.0,15449212.0,-32.533764,123.75810899815406,-0.06292779,-1.2502649e-08,7.8711644e-05,2.2765385e-05,2.0,43,0.02026933,1.3119977e-09,0,-2.667704322934868e-08,2.0
182,182,210.60631,13910525.0,8222493.0,16158963.0,-30.587278,124.43517556364532,-0.06290092,-1.3228947e-08,9.1906295e-05,2.3797169e-05,2.0,43,0.020245021,1.2528664e-09,0,-2.6679195729689466e-08,2.0
183,183,182.27473,15180403.0,7057509.5,16740761.0,-24.934153,125.10724687555921,-0.062929764,-1.6413463e-08,0.00012372065,2.1988455e-05,2.0,43,0.020202858,1.2068064e-09,0,-2.6682463673782525e-08,2.0
184,184,157.72879,16080905.0,7637749.0,17802548.0,-25.405739,125.79562850833281,-0.06295592,-1.5947895e-08,0.00013211246,2.431701e-05,2.0,43,0.020270128,1.1386082e-09,0,-2.6687445562729332e-08,2.0
185,185,136.52892,16581965.0,7385980.0,18152528.0,-24.009266,126.46751987354946,-0.06289597,-1.5836155e-08,0.0001578292,2.6129397e-05,2.0,43,0.020235386,1.114742e-09,0,-2.6691373047347058e-08,2.0
186,186,118.14758,17108708.0,6147357.0,18179600.0,-19.763952,127.15589515957981,-0.062925905,-2.3825388e-08,0.00021913253,2.5056193e-05,2.0,43,0.020240463,1.1133613e-09,0,-2.6694662310182595e-08,2.0
187,187,102.25773,17890298.0,5292815.5,18656812.0,-16.480766,127.82235785786179,-0.06291402,-3.7233885e-08,0.00029406085,2.36666e-05,2.0,43,0.020212062,1.083361e-09,0,-2.6705007167240828e-08,2.0
188,188,88.4436,18277792.0,5478171.0,19081092.0,-16.684383,128.51229605064145,-0.06298258,-5.072119e-09,0.00032848693,2.7075894e-05,2.0,43,0.020219434,1.0596581e-09,0,-2.6707149421091918e-08,2.0
189,189,76.54279,19083106.0,5240702.5,19789642.0,-15.356285,129.1797356823954,-0.06293163,-1.1366663e-08,0.00039675855,2.7824633e-05,2.0,43,0.020259053,1.02372e-09,0,-2.6711005683143244e-08,2.0
190,190,66.250786,20243352.0,3827082.5,20601938.0,-10.705633,129.84798856746056,-0.06292643,-1.5202982e-08,0.0006277132,2.1661113e-05,2.0,43,0.02029899,9.852952e-10,0,-2.671456334236565e-08,2.0
191,191,57.329906,16711627.0,3378218.8,17049658.0,-11.428211,130.50264275856898,-0.062941074,-4.6936414e-08,0.0008217716,3.2262302e-05,2.0,43,0.020257467,1.1881451e-09,0,-2.6718673798889025e-08,2.0
192,192,49.60321,20478668.0,4025585.5,20870582.0,-11.121095,131.18737927105394,-0.06293925,-3.1889112e-08,0.00079704216,2.9653113e-05,2.0,43,0.020266205,9.710417e-10,0,-2.6725142718929896e-08,2.0
193,193,42.92585,19029326.0,4518127.0,19558342.0,-13.356405,131.89544597131317,-0.062971294,-1.1888105e-08,0.0008206213,4.3792083e-05,2.0,43,0.020215224,1.0335858e-09,0,-2.6728593189965108e-08,2.0
194,194,37.1518,20366158.0,2879025.2,20568646.0,-8.0462,132.53919645524002,-0.06290029,-4.1107448e-08,0.0014879722,2.9152405e-05,2.0,43,0.020257434,9.848696e-10,0,-2.6731192319554983e-08,2.0
195,195,32.150223,20726938.0,2599277.2,20889284.0,-7.147906,133.17838299224968,-0.06293252,1.9487147e-09,0.0019045112,2.948775e-05,2.0,43,0.020243956,9.691072e-10,0,-2.673200095798325e-08,2.0
196,196,27.835518,18534026.0,5382157.5,19299682.0,-16.192944,133.90632553349133,-0.062951975,-1.7167709e-08,0.0010623421,8.2618426e-05,2.0,43,0.020189203,1.04609e-09,0,-2.6735703288562403e-08,2.0
197,197,24.082958,21225008.0,1694899.9,21292572.0,-4.565604,134.60840890018153,-0.06292682,-1.5351967e-08,0.003899117,2.4705754e-05,2.0,43,0.020399021,9.580347e-10,0,-2.6737627172582633e-08,2.0
198,198,20.833313,21919678.0,3046424.5,22130364.0,-7.912355,135.2627825046511,-0.06292557,-3.7915263e-10,0.0025076757,4.7519854e-05,2.0,43,0.020275302,9.1617575e-10,0,-2.6742916196563845e-08,2.0
199,199,18.021912,21508666.0,1649115.6,21571794.0,-4.3844123,136.00871872675634,-0.06299627,3.933419e-08,0.005355107,3.129665e-05,2.0,43,0.020273313,9.398066e-10,0,-2.6755308333050585e-08,2.0
200,200,15.604198,21716180.0,2113647.5,21818798.0,-5.559119,136.6630277178192,-0.06299348,1.24147865e-08,0.004825542,4.52845e-05,2.0,43,0.020245722,9.279027e-10,0,-2.6760192264418008e-08,2.0
201,201,13.500899,21913316.0,2468685.8,22051934.0,-6.427663,137.41099522000877,-0.06295977,2.7108255e-08,0.0047752005,5.9845275e-05,2.0,43,0.020245137,9.1806623e-10,0,-2.676524746042524e-08,2.0
202,202,11.686608,21027118.0,1715807.5,21097006.0,-4.6649857,138.0018866613973,-0.06293504,-4.0139057e-08,0.007937123,5.2499912e-05,2.0,43,0.020252505,9.599705e-10,0,-2.676737538920262e-08,2.0
203,203,10.113269,21029382.0,1965223.4,21121008.0,-5.3388605,138.67554112002836,-0.06296865,-1.4793278e-08,0.008007864,6.932841e-05,2.0,43,0.020239621,9.582697e-10,0,-2.676397165470787e-08,2.0
204,204,8.748621,21634046.0,2004046.8,21726670.0,-5.2924294,139.44241950314608,-0.062931746,-2.8145912e-08,0.009077634,7.723284e-05,2.0,43,0.020261101,9.325452e-10,0,-2.676822506364138e-08,2.0
205,205,7.570237,21705240.0,2276194.2,21824264.0,-5.986636,140.31799618474906,-0.062919244,-2.403025e-08,0.009236369,0.00010047101,2.0,43,0.020244326,9.276064e-10,0,-2.678310034860074e-08,2.0
206,206,6.554112,21582716.0,2460615.8,21722528.0,-6.50413,140.8543142102135,-0.06295611,-1.4346332e-08,0.009868758,0.00012662789,2.0,43,0.020212295,9.3047614e-10,0,-2.6774493589658013e-08,2.0
207,207,5.669445,21944164.0,2584046.8,22095784.0,-6.7159667,141.46414407916018,-0.06293004,-1.0658993e-08,0.010863736,0.00014858026,2.0,43,0.020259643,9.1690083e-10,0,-2.678706464333105e-08,2.0
208,208,4.907347,22200156.0,2139366.8,22303000.0,-5.504436,142.15655805871938,-0.06293362,-1.6264488e-08,0.015159613,0.00013948645,2.0,43,0.020241313,9.075601e-10,0,-2.6778872607811285e-08,2.0
209,209,4.245922,22788174.0,2088216.8,22883652.0,-5.2357326,142.94433710948215,-0.06293302,-1.3918011e-08,0.017950334,0.00014947653,2.0,43,0.020237882,8.843816e-10,0,-2.6790708053173616e-08,2.0
210,210,3.6747382,22187996.0,2301411.5,22307032.0,-5.92173,143.84390933890245,-0.06294588,-6.4036625e-09,0.018819125,0.00020031082,2.0,43,0.020239271,9.073045e-10,0,-2.6803932025302106e-08,2.0
211,211,3.180988,22901972.0,2159218.0,23003534.0,-5.3859754,144.87221754770144,-0.06295108,-1.795918e-08,0.023171898,0.00020415755,2.0,43,0.020265343,8.8096647e-10,0,-2.6795088388828308e-08,2.0
212,212,2.752818,22908710.0,2607264.0,23056600.0,-6.4929543,146.05115960372495,-0.06293282,-1.4538742e-08,0.022174692,0.00028355484,2.0,43,0.020249283,8.7824237e-10,0,-2.6799012263362294e-08,2.0
