True,index,freq,Re(Z),Im(Z),Z,Phase(Z),time,Ewe_meas,I_meas,Cs,Cp,cycle_number,I_Range,Ewe,I,Ns,(QQo),cycle
0,0,7000018.5,362.12244,1613.2738,1653.4161,-77.34883,2.4664848104293924,-0.076545775,3.9269264e-05,1.4093306e-05,1.3417287e-05,1.0,40,0.010098239,6.1075e-06,0,6.7475192641318746e-09,1.0
1,1,6057573.0,406.89713,1790.2949,1835.9524,-77.19537,3.0184798766567837,-0.07648715,-3.132528e-06,1.4675636e-05,1.3954788e-05,1.0,40,0.014210283,7.740006e-06,0,8.617036152871707e-09,1.0
2,2,5242039.0,362.92468,2023.8223,2056.1057,-79.83342,3.4344811764603946,-0.07647606,1.0709901e-05,1.5001943e-05,1.4534543e-05,1.0,40,0.019519221,9.493297e-06,0,7.907123031259288e-09,1.0
3,3,4536288.0,360.3886,2348.5796,2376.0693,-81.27603,4.80250217471621,-0.07650252,-2.890643e-06,1.493875e-05,1.45950835e-05,1.0,40,0.018385189,7.737648e-06,0,-9.818607430778078e-09,1.0
4,4,3925558.5,446.27228,2616.9329,2654.7122,-80.3223,5.354477774322731,-0.07648124,-2.0230855e-05,1.5492664e-05,1.5054848e-05,1.0,40,0.02044912,7.702952e-06,0,-1.1280213632542453e-08,1.0
5,5,3397055.0,461.44928,2985.5432,3020.994,-81.21382,5.770478274062043,-0.076539874,-1.7328413e-05,1.5692574e-05,1.5326437e-05,1.0,40,0.021226672,7.0263873e-06,0,-1.083432876722491e-08,1.0
6,6,2939708.2,612.02167,3416.5989,3470.9824,-79.844215,6.322494166932302,-0.07656519,1.1714595e-05,1.5846083e-05,1.5353418e-05,1.0,40,0.02033999,5.8600094e-06,0,-9.612744450350874e-09,1.0
7,7,2543924.5,618.1915,3864.7725,3913.9019,-80.91221,6.874499286495848,-0.076543,1.8351406e-06,1.6187956e-05,1.5784106e-05,1.0,40,0.020751396,5.3019717e-06,0,-6.508039228666323e-09,1.0
8,8,2201436.2,748.7731,4417.577,4480.586,-80.37988,7.426489899371518,-0.076504916,-1.8891267e-05,1.6365522e-05,1.5908474e-05,1.0,40,0.020756798,4.632608e-06,0,-8.78816707705078e-09,1.0
9,9,1905053.1,846.81226,5155.763,5224.8433,-80.67269,7.978502432262758,-0.07657918,-1.17281925e-05,1.620392e-05,1.5778272e-05,1.0,40,0.02039539,3.9035413e-06,0,-8.36496697698092e-09,1.0
10,10,1648567.4,795.78906,6110.9897,6162.587,-82.58054,8.697496279753977,-0.076560386,1.2358919e-08,1.5797992e-05,1.5534557e-05,1.0,41,0.018913062,3.0690135e-06,0,-1.0850022808117248e-08,1.0
11,11,1426616.2,903.8428,7005.4565,7063.523,-82.64832,9.113486806192668,-0.076548986,-1.4032412e-07,1.5924894e-05,1.5664145e-05,1.0,41,0.021839889,3.0919257e-06,0,-1.0525775012172605e-08,1.0
12,12,1234551.2,1163.8713,8031.599,8115.49,-81.75458,9.665487312391633,-0.07656853,1.8466206e-06,1.6051255e-05,1.572112e-05,1.0,41,0.020896912,2.5749414e-06,0,-9.111263758141542e-09,1.0
13,13,1068345.5,1234.4213,9275.126,9356.909,-82.41909,10.217497071920661,-0.0765379,-1.4028824e-06,1.6061593e-05,1.578205e-05,1.0,41,0.020845735,2.227844e-06,0,-9.787992675818596e-09,1.0
14,14,924510.06,1639.6309,10500.501,10627.742,-81.12505,10.769482218165649,-0.07659014,7.1184495e-06,1.6394511e-05,1.6004293e-05,1.0,41,0.020360868,1.9158226e-06,0,-9.167130437633534e-09,1.0
15,15,800039.0,2353.777,12330.743,12553.386,-79.193,11.321491044393042,-0.076604076,5.178059e-06,1.613317e-05,1.556598e-05,1.0,41,0.020754091,1.6532664e-06,0,-8.935876660343764e-09,1.0
16,16,692334.1,2291.2678,13897.28,14084.896,-80.63777,11.873500217247056,-0.07656128,2.1650526e-06,1.654149e-05,1.6103746e-05,1.0,41,0.020396464,1.4481088e-06,0,-8.471991886636942e-09,1.0
17,17,599122.25,3033.0986,15907.547,16194.127,-79.20496,12.425489710149122,-0.07654587,6.045466e-07,1.6699423e-05,1.6113609e-05,1.0,41,0.020519577,1.2671e-06,0,-7.499556363227732e-09,1.0
18,18,518454.94,3515.059,17929.217,18270.535,-78.90774,12.977481176349102,-0.07650557,-2.1980334e-06,1.7121736e-05,1.6487997e-05,1.0,41,0.020512855,1.1227287e-06,0,-7.659958076617259e-09,1.0
19,19,448662.03,4499.3237,20457.445,20946.383,-77.59609,13.529493095906219,-0.07651658,-1.9671234e-06,1.7340013e-05,1.6539947e-05,1.0,41,0.020214584,9.650632e-07,0,-7.745417521126304e-09,1.0
20,20,388258.97,6198.6875,23178.293,23992.854,-75.02749,14.081484295456903,-0.076484576,-3.2315425e-06,1.7685494e-05,1.650503e-05,1.0,41,0.020916136,8.717653e-07,0,-7.049158762268032e-09,1.0
21,21,335983.9,7806.121,28503.352,29552.945,-74.68413,14.633502108365064,-0.0765585,1.7144054e-06,1.6619031e-05,1.545952e-05,1.0,41,0.020646188,6.9861693e-07,0,-7.189664322535489e-09,1.0
22,22,290751.2,9140.613,29713.203,31087.38,-72.900635,15.185500214603962,-0.07653141,1.1427165e-06,1.8422525e-05,1.6829834e-05,1.0,41,0.020532623,6.6048096e-07,0,-7.3085245511587495e-09,1.0
23,23,251605.19,11976.422,33381.754,35465.14,-70.26346,15.737493174121482,-0.07655204,3.0588985e-06,1.8949222e-05,1.6788284e-05,1.0,41,0.020411607,5.7554e-07,0,-7.636235347654797e-09,1.0
24,24,217729.38,15777.398,37389.59,40582.11,-67.12157,16.289501840336015,-0.07656685,2.798193e-06,1.9550254e-05,1.6595279e-05,1.0,41,0.020272238,4.995363e-07,0,-6.1053612824840304e-09,1.0
25,25,188418.58,18541.705,41259.15,45233.973,-65.80103,16.841488613252295,-0.07651302,-1.4494381e-06,2.0472748e-05,1.7032846e-05,1.0,41,0.020690165,4.5740322e-07,0,-5.58258654862382e-09,1.0
26,26,163051.14,23143.332,45629.562,51163.18,-63.105858,17.393499812780647,-0.07660132,6.6491793e-06,2.1391932e-05,1.7014827e-05,1.0,41,0.02035122,3.9777083e-07,0,-5.1166038077023285e-09,1.0
27,27,141098.2,26551.78,51231.695,57703.41,-62.60371,18.112503206910333,-0.07652514,-2.5895537e-07,2.201709e-05,1.735539e-05,1.0,42,0.01914937,3.3185856e-07,0,-4.442244109585442e-09,1.0
28,28,122105.11,32253.176,56023.57,64644.473,-60.070652,18.528489520045696,-0.07660225,1.7035363e-07,2.3265668e-05,1.747408e-05,1.0,42,0.020662144,3.196274e-07,0,-4.4876430239618116e-09,1.0
29,29,105663.59,38551.44,60147.06,71441.46,-57.342033,19.080479786236538,-0.07656992,1.03675674e-07,2.5042656e-05,1.7750413e-05,1.0,42,0.02030808,2.842618e-07,0,-4.4748589472231655e-09,1.0
30,30,91439.65,46279.996,64007.133,78985.766,-54.1314,19.496493432699936,-0.076579444,2.0183013e-07,2.7193008e-05,1.7857321e-05,1.0,42,0.021503435,2.7224445e-07,0,-4.519281221466374e-09,1.0
31,31,79127.08,55705.523,66473.07,86728.164,-50.036438,20.048489245556993,-0.07657414,6.493554e-08,3.025863e-05,1.7775443e-05,1.0,42,0.02027639,2.3379245e-07,0,-4.434562094233898e-09,1.0
32,32,68475.36,64750.8,68096.16,93966.766,-46.44252,20.464489878650056,-0.07655291,2.3330668e-07,3.4132117e-05,1.792503e-05,1.0,42,0.021101274,2.2456102e-07,0,-4.3893098595327495e-09,1.0
33,33,59252.523,74265.234,68361.88,100938.95,-42.629875,20.8804910183826,-0.07655917,-6.544016e-08,3.9291557e-05,1.8022278e-05,1.0,42,0.021765666,2.1563199e-07,0,-4.376436177635846e-09,1.0
34,34,51282.285,83237.77,70309.98,108958.8,-40.187393,21.432485071272822,-0.076539315,-3.3829815e-07,4.4140354e-05,1.8379984e-05,1.0,42,0.020203646,1.8542464e-07,0,-4.455614723630516e-09,1.0
35,35,44369.8,95059.86,65269.29,115310.266,-34.47398,21.848502344364533,-0.076574266,1.6085497e-07,5.495709e-05,1.760782e-05,1.0,42,0.020565907,1.7835278e-07,0,-4.42926209679268e-09,1.0
36,36,38403.727,102922.81,62029.18,120169.56,-31.076391,22.264489377470454,-0.076613545,3.154435e-07,6.681142e-05,1.7801387e-05,1.0,42,0.020844415,1.7345836e-07,0,-4.433683315863925e-09,1.0
37,37,33226.32,110909.92,57752.055,125045.234,-27.506504,22.680487023928436,-0.076577656,6.027945e-08,8.2941224e-05,1.769176e-05,1.0,42,0.021041306,1.6826955e-07,0,-4.387014965766175e-09,1.0
38,38,28754.086,117873.125,53091.383,129277.875,-24.247337,23.09649045698461,-0.07661304,3.903165e-07,0.00010425491,1.758313e-05,1.0,42,0.021186495,1.6388339e-07,0,-4.456903340812662e-09,1.0
39,39,24884.947,124954.45,46226.184,133230.9,-20.301664,23.512502583413152,-0.07650989,-6.452397e-07,0.00013835517,1.6655646e-05,1.0,42,0.021255612,1.5953965e-07,0,-4.456340568784375e-09,1.0
40,40,21553.963,128070.86,41423.81,134603.4,-17.923513,23.929496843222296,-0.076559246,-1.0753257e-07,0.0001782555,1.6882273e-05,1.0,42,0.021123571,1.5693192e-07,0,-4.501271369450579e-09,1.0
41,41,18631.234,131293.6,36387.43,136242.62,-15.490475,24.34548432964948,-0.07655075,-7.642844e-08,0.00023476164,1.6745722e-05,1.0,42,0.021100774,1.5487646e-07,0,-4.424615377227702e-09,1.0
42,42,16126.037,135854.36,31204.973,139392.1,-12.936129,24.761480962770293,-0.07658826,5.2795673e-07,0.00031627776,1.5850392e-05,1.0,42,0.021021688,1.5080975e-07,0,-4.404427905970781e-09,1.0
43,43,13954.87,138175.31,25696.666,140544.42,-10.535028,25.177486715867417,-0.076560706,1.1056822e-07,0.00044383094,1.4836925e-05,1.0,42,0.020729551,1.4749466e-07,0,-4.346738530810591e-09,1.0
44,44,12080.609,136962.03,19977.166,138411.3,-8.298593,25.593486442259746,-0.0766331,3.4394102e-07,0.0006594736,1.3737955e-05,1.0,42,0.020295046,1.4662854e-07,0,-4.3929642484520235e-09,1.0
45,45,10447.592,137561.3,15647.068,138448.33,-6.489284,26.00950264869607,-0.076638915,5.331724e-07,0.0009735785,1.2435449e-05,1.0,42,0.019789785,1.4293987e-07,0,-4.3404988928133925e-09,1.0
46,46,9045.586,137521.0,12710.715,138107.16,-5.2806993,26.58225336924079,-0.07658561,-1.0138489e-07,0.0013842465,1.1725221e-05,1.0,42,0.02023679,1.4652963e-07,0,-4.332646357473793e-09,1.0
47,47,7827.7437,136586.95,8821.784,136871.55,-3.6954474,27.061939738719957,-0.07654591,-8.05247e-08,0.0023047673,9.574445e-06,1.0,42,0.020260105,1.4802276e-07,0,-4.351025745672625e-09,1.0
48,48,6770.8345,135798.7,6253.1396,135942.6,-2.6364436,27.600394964247243,-0.076583974,2.9533018e-07,0.0037590647,7.953622e-06,1.0,42,0.020378724,1.4990684e-07,0,-4.336890762279783e-09,1.0
49,49,5860.798,134228.47,4778.4307,134313.5,-2.0388248,28.206957686430542,-0.0765218,4.9464016e-10,0.005683006,7.192988e-06,1.0,42,0.020369455,1.5165605e-07,0,-4.3952927585536965e-09,1.0
50,50,5071.625,133431.88,3519.0918,133478.27,-1.5107514,28.887675478777965,-0.0765784,2.5267883e-07,0.008917485,6.1984415e-06,1.0,42,0.020457387,1.532638e-07,0,-4.406320298920087e-09,1.0
51,51,4388.5933,132209.98,2451.2932,132232.7,-1.0621941,29.566834204364568,-0.07648994,8.114156e-08,0.0147944745,5.0840795e-06,1.0,42,0.020485664,1.5492131e-07,0,-4.395591304406329e-09,1.0
52,52,3798.7827,131028.07,1987.6547,131043.15,-0.86909235,30.246833143333788,-0.07659109,4.6109398e-07,0.02107826,4.8494e-06,1.0,42,0.020472314,1.5622575e-07,0,-4.398181067529094e-09,1.0
53,53,3286.0488,130423.06,1283.3596,130429.375,-0.56377083,30.92667464229453,-0.076651976,3.5940099e-07,0.037739642,3.6537906e-06,1.0,42,0.020547306,1.5753588e-07,0,-4.4809338423242984e-09,1.0
54,54,2844.088,129551.164,1199.164,129556.71,-0.5303316,31.606824114598567,-0.076499015,3.4392794e-08,0.04666578,3.997936e-06,1.0,42,0.020535853,1.585086e-07,0,-4.3431805421852865e-09,1.0
55,55,2460.7852,129887.54,1839.197,129900.56,-0.8112494,32.28667486688937,-0.07650926,1.8991277e-07,0.03516561,7.0494075e-06,1.0,42,0.020657547,1.5902584e-07,0,-4.413053325826076e-09,1.0
56,56,2129.3164,129117.29,1565.0674,129126.77,-0.69446445,32.96683719252178,-0.07648707,4.7989396e-08,0.047758084,7.015851e-06,1.0,42,0.020607129,1.5958835e-07,0,-4.276267011635563e-09,1.0
57,57,1843.2289,129423.625,1488.815,129432.19,-0.65906864,33.64694981148932,-0.0765569,-2.967737e-08,0.05799628,7.673562e-06,1.0,42,0.020651447,1.5955418e-07,0,-4.373310711002097e-09,1.0
58,58,1594.4913,129060.34,2169.9792,129078.586,-0.96326214,34.32683341711527,-0.076577604,1.511726e-07,0.045998365,1.3000054e-05,1.0,42,0.020655608,1.600235e-07,0,-4.436711031332881e-09,1.0
59,59,1380.4436,128759.55,2716.029,128788.19,-1.2084069,35.00669190275221,-0.07655448,5.9350786e-08,0.04244896,1.887921e-05,1.0,42,0.02064193,1.6027813e-07,0,-4.389463780917424e-09,1.0
60,60,1194.6187,129042.37,2462.3782,129065.86,-1.0931817,35.68680753505032,-0.07657682,1.0125754e-07,0.05410484,1.9693498e-05,1.0,42,0.020666094,1.6012054e-07,0,-4.4782763398885095e-09,1.0
61,61,1033.3434,128923.81,2790.3044,128954.01,-1.2398618,36.3670619406621,-0.076551445,8.9337384e-08,0.05519807,2.584386e-05,1.0,42,0.02066662,1.602635e-07,0,-4.557665923335384e-09,1.0
62,62,894.71045,128857.94,3445.8872,128904.0,-1.5318246,37.046849226317136,-0.076594554,4.296088e-08,0.05162221,3.6889767e-05,1.0,42,0.020661782,1.6028814e-07,0,-4.3683788332810674e-09,1.0
63,63,774.2569,129514.15,3292.7715,129556.0,-1.4563758,37.72696240525693,-0.07653316,2.5193472e-07,0.062427144,4.032567e-05,1.0,42,0.020677287,1.5960116e-07,0,-4.28661731050855e-09,1.0
64,64,669.7856,129487.79,4730.2227,129574.16,-2.0920994,38.40681865091028,-0.07662642,2.390834e-07,0.05023458,6.69467e-05,1.0,42,0.020685147,1.5963946e-07,0,-4.413052650851531e-09,1.0
65,65,579.81464,129796.95,4660.0264,129880.58,-2.0561748,39.08683588320855,-0.076554984,1.5154522e-07,0.0589037,7.5828226e-05,1.0,42,0.020697145,1.593552e-07,0,-4.352741423280311e-09,1.0
66,66,501.44418,129502.68,5023.9414,129600.09,-2.2216249,39.76418852867209,-0.076555595,1.9307091e-08,0.063176125,9.493612e-05,1.0,42,0.020637793,1.5924212e-07,0,-4.23815539958699e-09,1.0
67,67,434.02762,130068.625,6621.13,130237.04,-2.9141202,40.44422072099405,-0.07655753,-8.23863e-08,0.05538226,0.00014314159,1.0,42,0.0206513,1.5856702e-07,0,-4.197566690425308e-09,1.0
68,68,375.6009,130238.27,6579.781,130404.375,-2.8921869,41.12245933988015,-0.07659916,1.4372257e-07,0.06439944,0.00016395347,1.0,42,0.020639714,1.582747e-07,0,-4.20670844902244e-09,1.0
69,69,325.10385,130830.2,7839.374,131064.86,-3.4290755,41.80169907883101,-0.076613374,2.3666196e-07,0.062447727,0.0002234122,1.0,42,0.020688418,1.578487e-07,0,-4.028486668438407e-09,1.0
70,70,281.3503,131107.5,8675.148,131394.2,-3.7856405,42.47879633764387,-0.076584324,1.7575786e-07,0.06520724,0.0002842479,1.0,42,0.020666989,1.5728996e-07,0,-3.917170908082647e-09,1.0
71,71,243.36427,131559.05,9449.55,131897.98,-4.1083536,43.1621148500999,-0.076573536,1.481926e-07,0.06920735,0.00035522057,1.0,42,0.020669427,1.5670769e-07,0,-3.84996143887643e-09,1.0
72,72,210.60631,132008.31,10642.206,132436.6,-4.609086,43.839208855555626,-0.076591,6.2889406e-08,0.071009606,0.00045852648,1.0,42,0.020671833,1.5608853e-07,0,-3.981265009277498e-09,1.0
73,73,182.27473,131987.52,13421.442,132668.16,-5.80629,44.51125016747392,-0.07657466,3.2158027e-08,0.06505706,0.000665824,1.0,42,0.020616831,1.5540151e-07,0,-3.8472611671238614e-09,1.0
74,74,157.72879,133605.19,13283.286,134263.89,-5.6777983,45.19964977355994,-0.076576985,1.48565e-07,0.075963266,0.0007435261,1.0,42,0.020691091,1.5410764e-07,0,-3.9152782158851095e-09,1.0
75,75,136.52892,134285.84,14495.487,135065.94,-6.1609383,45.87150111209485,-0.07656298,6.996694e-08,0.08041974,0.00092626794,1.0,42,0.020693235,1.5320839e-07,0,-3.774673859294827e-09,1.0
76,76,118.14758,134969.4,16500.262,135974.27,-6.96993,46.55989359813975,-0.07664497,2.3498538e-07,0.08164027,0.0012021888,1.0,42,0.020683123,1.5211057e-07,0,-3.8459098733151604e-09,1.0
77,77,102.25773,135325.1,17644.916,136470.6,-7.428834,47.22635093642748,-0.07656217,7.9465536e-08,0.08820727,0.00147457,1.0,42,0.020645566,1.5128217e-07,0,-3.78339790549356e-09,1.0
78,78,88.4436,136518.16,19546.123,137910.33,-8.1480055,47.91628822256462,-0.07658837,2.4820903e-07,0.09206468,0.0018493569,1.0,42,0.020629093,1.4958339e-07,0,-3.732977890898622e-09,1.0
79,79,76.54279,138168.6,21529.855,139835.95,-8.85678,48.58373070761445,-0.07653909,2.1580134e-07,0.09657722,0.0022893872,1.0,42,0.020681001,1.4789474e-07,0,-3.7092122242701936e-09,1.0
80,80,66.250786,138971.98,24056.947,141038.83,-9.820943,49.25196340601542,-0.076546654,2.7149036e-07,0.09985931,0.0029053083,1.0,42,0.020633284,1.4629506e-07,0,-3.5864717375931023e-09,1.0
81,81,57.329906,141127.34,25756.951,143458.52,-10.343133,49.90663698379649,-0.076581456,1.1466679e-07,0.10778156,0.0034744071,1.0,42,0.020696612,1.4426897e-07,0,-3.734606675570993e-09,1.0
82,82,49.60321,142490.88,29209.545,145453.94,-11.584708,50.59236504297587,-0.07661153,1.556421e-07,0.109846324,0.0044298004,1.0,42,0.020682294,1.4219137e-07,0,-3.79328505666601e-09,1.0
83,83,42.92585,144247.8,31746.174,147699.86,-12.411835,51.300440863269614,-0.07653404,9.399273e-08,0.11679113,0.00539551,1.0,42,0.020660497,1.3988164e-07,0,-3.582699277536763e-09,1.0
84,84,37.1518,146503.33,35325.465,150702.06,-13.556611,51.94519233392202,-0.07653794,-7.475068e-08,0.12126974,0.0066633066,1.0,42,0.02069369,1.3731524e-07,0,-3.5322071078627774e-09,1.0
85,85,32.150223,148629.89,38453.2,153523.6,-14.505382,52.5843811109371,-0.07659802,9.23166e-08,0.12873708,0.00807641,1.0,42,0.020687435,1.3475085e-07,0,-3.851365154741555e-09,1.0
86,86,27.835518,150961.7,41636.855,156598.42,-15.419427,53.31230034548207,-0.07657427,6.8569555e-08,0.13732287,0.009707871,1.0,42,0.020663535,1.3195239e-07,0,-3.650734700586769e-09,1.0
87,87,24.082958,154731.52,44488.14,161000.11,-16.04091,54.272371271130396,-0.076517716,-5.6691533e-08,0.14854774,0.011342328,1.0,43,0.020761814,1.2895528e-07,0,-3.2191480626551084e-09,1.0
88,88,20.833313,156391.7,49412.895,164012.19,-17.534243,54.92677255556919,-0.076599084,-8.12929e-08,0.15460429,0.014032978,1.0,43,0.020640412,1.2584682e-07,0,-3.6509125075620357e-09,1.0
89,89,18.021912,160051.11,54504.406,169077.17,-18.805954,55.672722324336064,-0.076638184,-9.594921e-09,0.1620271,0.016837629,1.0,43,0.020708427,1.2247914e-07,0,-3.2440834944657362e-09,1.0
90,90,15.604198,162659.55,60443.0,173526.61,-20.384666,56.32799427543068,-0.07656687,-7.818298e-08,0.16874568,0.020473521,1.0,43,0.020660007,1.1905959e-07,0,-3.5891382034710282e-09,1.0
91,91,13.500899,166595.38,66148.0,179247.25,-21.655941,57.07596337763243,-0.07660632,-1.0256957e-07,0.17821355,0.024269965,1.0,43,0.020683099,1.1538865e-07,0,-3.720702247180599e-09,1.0
92,92,11.686608,170144.58,72891.8,185101.03,-23.19082,57.66688516570139,-0.07657315,-5.525811e-08,0.18683274,0.028972944,1.0,43,0.020660417,1.1161698e-07,0,-3.6010223546654173e-09,1.0
93,93,10.113269,174752.83,79836.805,192126.17,-24.553555,58.34053629098344,-0.07651291,-5.401041e-08,0.19711761,0.03403758,1.0,43,0.020700874,1.07746246e-07,0,-3.051735124921764e-09,1.0
94,94,8.748621,178731.3,87410.05,198960.78,-26.061335,59.10741576741566,-0.076565266,-1.952078e-08,0.20812257,0.040170472,1.0,43,0.02067031,1.0389138e-07,0,-2.9397298597710157e-09,1.0
95,95,7.570237,183132.11,96402.04,206955.84,-27.762636,59.983010609052144,-0.07658155,-3.0005513e-08,0.21808429,0.047319643,1.0,43,0.02065228,9.979075e-08,0,-3.9135021920444735e-09,1.0
96,96,6.554112,188221.75,106080.18,216056.55,-29.40524,60.51929823451792,-0.07653492,9.6350774e-08,0.22891384,0.055183046,1.0,43,0.020666575,9.565355e-08,0,-2.725634144291315e-09,1.0
97,97,5.669445,193139.3,116165.016,225382.12,-31.025106,61.12913013013895,-0.076594315,-1.737932e-07,0.24165969,0.06419719,1.0,43,0.020633576,9.15493e-08,0,-4.028342649957415e-09,1.0
98,98,4.907347,198788.1,128619.46,236769.23,-32.90359,61.82153970966465,-0.07654837,1.4583175e-07,0.25215447,0.074409686,1.0,43,0.020675348,8.732278e-08,0,-2.6443669247113474e-09,1.0
99,99,4.245922,204561.12,141797.9,248901.39,-34.72897,62.609304920450086,-0.076570965,-1.9295628e-07,0.26434937,0.08579525,1.0,43,0.020665096,8.3025235e-08,0,-3.5309439288748004e-09,1.0
100,100,3.6747382,210611.03,156247.56,262240.94,-36.570885,63.50892952317372,-0.07657914,-3.2482752e-08,0.27719188,0.09840247,1.0,43,0.020656517,7.876923e-08,0,-4.0929661793198434e-09,1.0
101,101,3.180988,216389.53,173694.02,277478.0,-38.753716,64.53816981203272,-0.07658621,7.8155885e-08,0.28805354,0.11287189,1.0,43,0.020664562,7.4472794e-08,0,-2.6032614632589297e-09,1.0
102,102,2.752818,223654.19,193043.45,295443.7,-40.79858,65.71713277473464,-0.07659484,-8.113049e-08,0.29949358,0.12786399,1.0,43,0.02065711,6.991894e-08,0,-2.697036064427986e-09,1.0
103,103,2.3804083,230496.1,215009.97,315210.62,-43.00916,67.0719568124041,-0.07657038,-1.0440325e-07,0.31096396,0.14468569,1.0,43,0.02068404,6.561974e-08,0,-4.239912704886785e-09,1.0
104,104,2.060257,238501.7,240263.27,338540.25,-45.21081,68.627285819588,-0.07658163,-1.1626138e-08,0.3215225,0.16194424,1.0,43,0.020665348,6.104251e-08,0,-4.454812893750986e-09,1.0
105,105,1.7836765,245781.52,268829.5,364249.72,-47.564407,70.41565782458929,-0.076560184,1.3226022e-08,0.3319152,0.18079339,1.0,43,0.020671245,5.67502e-08,0,-3.050492324201157e-09,1.0
