True,index,freq,Re(Z),Im(Z),Z,Phase(Z),time,Ewe_meas,I_meas,Cs,Cp,cycle_number,I_Range,Ewe,I,Ns,(QQo),cycle
0,0,7000018.5,333.38998,1847.1664,1877.0116,-79.76899,2.4664767037902493,0.029459696,3.0580548e-05,1.23087775e-05,1.19204615e-05,1.0,40,0.010129726,5.3967306e-06,0,9.600121447549428e-09,1.0
1,1,6057573.0,505.44,2147.3513,2206.0342,-76.754906,3.0184877700230572,0.02956545,-4.6669138e-05,1.2235406e-05,1.1593114e-05,1.0,40,0.014304626,6.484317e-06,0,6.532540170208594e-09,1.0
2,2,5242039.0,452.0067,2458.389,2499.5972,-79.58179,3.4344786430883687,0.029497351,-6.221009e-06,1.2350066e-05,1.19462175e-05,1.0,40,0.019732896,7.89443e-06,0,4.7142957118669275e-09,1.0
3,3,4536288.0,404.8635,2829.1062,2857.9287,-81.855896,4.666500701598125,0.029530274,2.6351656e-06,1.2401387e-05,1.215251e-05,1.0,40,0.021090455,7.3796296e-06,0,-3.17172078704036e-09,1.0
4,4,3925558.5,558.1718,3227.6665,3275.5742,-80.188675,5.082485628052382,0.02949206,-1.23793925e-05,1.2561169e-05,1.2196422e-05,1.0,40,0.019698177,6.013656e-06,0,-4.624487173524964e-09,1.0
5,5,3397055.0,587.9423,3609.2852,3656.8586,-80.74795,5.498502767790342,0.02943896,-8.80715e-06,1.2980648e-05,1.2645104e-05,1.0,40,0.02085544,5.7031025e-06,0,-3.690892808498979e-09,1.0
6,6,2939708.2,644.5244,4062.5298,4113.3394,-80.9851,6.050479967350839,0.029470708,-2.8659098e-05,1.3326599e-05,1.2999401e-05,1.0,40,0.020950861,5.0933945e-06,0,-7.485485183148436e-09,1.0
7,7,2543924.5,710.658,4711.349,4764.6455,-81.422195,6.602502046880545,0.02944941,-5.141892e-06,1.3279161e-05,1.2983746e-05,1.0,40,0.02052836,4.3084756e-06,0,-8.885836560599121e-09,1.0
8,8,2201436.2,707.68085,5532.407,5577.4854,-82.71056,7.321492534392746,0.02953877,-9.246398e-06,1.3067721e-05,1.2857345e-05,1.0,41,0.020016212,3.5887522e-06,0,-8.960819410687136e-09,1.0
9,9,1905053.1,760.824,6476.756,6521.2896,-83.30017,7.873484267300228,0.029452877,-2.2501756e-06,1.2898984e-05,1.27234125e-05,1.0,41,0.020507604,3.144716e-06,0,-8.219355074004398e-09,1.0
10,10,1648567.4,875.29395,7522.104,7572.859,-83.36275,8.425486400170485,0.029419135,4.841003e-06,1.2834356e-05,1.2662897e-05,1.0,41,0.019871138,2.6239943e-06,0,-7.746255627681522e-09,1.0
11,11,1426616.2,994.95844,8556.715,8614.366,-83.36754,8.977482693066122,0.029412298,3.2562884e-06,1.30378485e-05,1.2863921e-05,1.0,41,0.020620923,2.393783e-06,0,-7.846801898393905e-09,1.0
12,12,1234551.2,1096.1484,9901.505,9961.995,-83.68278,9.529485172621207,0.029408962,5.2134387e-06,1.3019964e-05,1.2862327e-05,1.0,41,0.020365322,2.0443015e-06,0,-7.537206045683654e-09,1.0
13,13,1068345.5,1586.0536,11318.132,11428.722,-82.022865,10.082491945504444,0.029411925,6.41082e-06,1.3162357e-05,1.2908859e-05,1.0,41,0.020678602,1.8093539e-06,0,-7.014693008039153e-09,1.0
14,14,924510.06,1695.0818,13000.668,13110.708,-82.57144,10.634502958419034,0.029445555,1.3326573e-06,1.3241672e-05,1.3020326e-05,1.0,41,0.020208925,1.541406e-06,0,-7.603452698305091e-09,1.0
15,15,800039.0,1103.4319,15960.883,15998.9795,-86.045235,11.186500024661655,0.02939307,9.85399e-06,1.2463845e-05,1.2404558e-05,1.0,41,0.020817302,1.3011644e-06,0,-6.848627092539219e-09,1.0
16,16,692334.1,3324.6675,17475.242,17788.69,-79.2282,11.73848709082813,0.029522672,-4.926128e-06,1.3154708e-05,1.26952045e-05,1.0,41,0.02037084,1.1451568e-06,0,-6.537889372302807e-09,1.0
17,17,599122.25,4086.918,19703.44,20122.834,-78.28179,12.290486637066351,0.029466366,4.611572e-07,1.34822585e-05,1.2926128e-05,1.0,41,0.020726537,1.0300009e-06,0,-5.991586339915145e-09,1.0
18,18,518454.94,4990.946,22528.992,23075.203,-77.50875,12.842497809935594,0.029443711,4.6398877e-06,1.3625968e-05,1.2988524e-05,1.0,41,0.020498734,8.883447e-07,0,-4.866100652074736e-09,1.0
19,19,448662.03,6734.606,25501.855,26376.117,-75.20688,13.394502369483234,0.029487569,-1.9950578e-06,1.391006e-05,1.3003219e-05,1.0,41,0.020283312,7.6900295e-07,0,-4.961533300685359e-09,1.0
20,20,388258.97,8625.576,28601.404,29873.75,-73.217804,13.946500075719086,0.02937224,6.868917e-06,1.4332149e-05,1.3137312e-05,1.0,41,0.02086114,6.9831003e-07,0,-5.151959098169653e-09,1.0
21,21,335983.9,11753.726,32960.45,34993.445,-70.37372,14.499491301976377,0.029351745,1.2285996e-05,1.4371712e-05,1.2750328e-05,1.0,41,0.0204327,5.8390077e-07,0,-5.284804743142659e-09,1.0
22,22,290751.2,13810.734,35244.84,37854.13,-68.60221,15.051490101526724,0.029393926,6.5504837e-06,1.553113e-05,1.34638e-05,1.0,41,0.020464592,5.406172e-07,0,-6.156227831002386e-09,1.0
23,23,251605.19,17988.592,39998.527,43857.402,-65.78506,15.603478954435559,0.029378574,9.246919e-06,1.581454e-05,1.3154027e-05,1.0,41,0.020500675,4.6743935e-07,0,-5.853342650453897e-09,1.0
24,24,217729.38,22884.51,43157.36,48849.344,-62.0649,16.155486767325783,0.029477807,-3.2840748e-07,1.6937458e-05,1.3220276e-05,1.0,41,0.020229857,4.1412753e-07,0,-6.118549579209937e-09,1.0
25,25,188418.58,26169.719,49142.17,55675.914,-61.963326,16.87449042816297,0.029470634,4.1396996e-07,1.7188662e-05,1.33910935e-05,1.0,42,0.019985668,3.5896434e-07,0,-6.1883971001091e-09,1.0
26,26,163051.14,31586.521,53186.113,61858.477,-59.29449,17.290493247885024,0.029488891,5.0299815e-07,1.8352619e-05,1.3567384e-05,1.0,42,0.021822212,3.5277642e-07,0,-6.145484745740899e-09,1.0
27,27,141098.2,37940.848,56988.35,68462.984,-56.345715,17.842484500753926,0.029448312,4.638853e-07,1.9793042e-05,1.3714282e-05,1.0,42,0.020408351,2.980932e-07,0,-6.023434265611311e-09,1.0
28,28,122105.11,48067.77,60299.11,77113.51,-51.439705,18.394490740349283,0.02955811,6.456282e-08,2.1616004e-05,1.32171035e-05,1.0,42,0.020131852,2.6106778e-07,0,-5.886650154923561e-09,1.0
29,29,105663.59,53745.094,61581.28,81736.09,-48.887154,18.810485080088256,0.029362252,1.5547583e-06,2.4459414e-05,1.3884036e-05,1.0,42,0.021428928,2.6217216e-07,0,-5.776112320059923e-09,1.0
30,30,91439.65,63041.188,61967.535,88397.77,-44.50792,19.362493826280115,0.029410005,7.9727494e-07,2.8088036e-05,1.3802799e-05,1.0,42,0.020351011,2.3022085e-07,0,-5.601976711258307e-09,1.0
31,31,79127.08,70905.31,61260.434,93703.81,-40.826202,19.77849837942631,0.029525653,4.3036027e-07,3.283333e-05,1.4033324e-05,1.0,42,0.021285517,2.2715743e-07,0,-5.555255551132355e-09,1.0
32,32,68475.36,79381.29,60089.773,99559.88,-37.124866,20.33049696564558,0.02942711,1.217085e-06,3.8679893e-05,1.4090215e-05,1.0,42,0.020204421,2.0293737e-07,0,-5.363214378713208e-09,1.0
33,33,59252.523,86750.56,58087.17,104402.01,-33.805805,20.746488905366277,0.029350234,1.5346434e-06,4.6241617e-05,1.4314487e-05,1.0,42,0.02082153,1.9943612e-07,0,-5.207389797953136e-09,1.0
34,34,51282.285,93983.11,56683.88,109753.76,-31.09537,21.162479245133,0.029425992,1.3455985e-06,5.4751144e-05,1.46040575e-05,1.0,42,0.021318033,1.9423511e-07,0,-5.051659839446801e-09,1.0
35,35,44369.8,101608.97,50546.145,113486.984,-26.448393,21.57850153153413,0.029524554,2.1244661e-07,7.096506e-05,1.4077598e-05,1.0,42,0.021705827,1.912627e-07,0,-4.9581723088713375e-09,1.0
36,36,38403.727,106275.02,45660.902,115668.92,-23.250706,21.994487151299836,0.02937971,1.391044e-06,9.076163e-05,1.4143532e-05,1.0,42,0.022009963,1.9028415e-07,0,-4.7837307417730116e-09,1.0
37,37,33226.32,110787.68,41827.703,118420.72,-20.683945,22.546494350855937,0.029337918,1.6678132e-06,0.000114518036,1.428718e-05,1.0,42,0.020247662,1.7098074e-07,0,-4.515046573229209e-09,1.0
38,38,28754.086,114109.82,38513.84,120434.08,-18.65034,22.962493010651087,0.02944328,1.0582131e-06,0.00014371554,1.4697335e-05,1.0,42,0.020317588,1.6870298e-07,0,-4.347720954476948e-09,1.0
39,39,24884.947,118357.64,34260.62,123216.56,-16.14398,23.37848551038769,0.029489432,8.036079e-07,0.00018667587,1.4432463e-05,1.0,42,0.020386927,1.6545606e-07,0,-4.202339986563497e-09,1.0
40,40,21553.963,120179.89,30352.99,123953.664,-14.174369,23.794501556811156,0.02944915,1.2623448e-06,0.00024327166,1.4587327e-05,1.0,42,0.020315632,1.6389698e-07,0,-4.096791939743339e-09,1.0
41,41,18631.234,122488.88,27721.387,125586.63,-12.752216,24.210495576582616,0.029384032,1.2651387e-06,0.00030815098,1.5014352e-05,1.0,42,0.020276247,1.6145226e-07,0,-3.870422211426034e-09,1.0
42,42,16126.037,125478.36,23404.426,127642.414,-10.565492,24.62647940966417,0.029494165,6.1866115e-07,0.00042169116,1.4177525e-05,1.0,42,0.020225901,1.5845752e-07,0,-3.793848465773303e-09,1.0
43,43,13954.87,125110.6,19554.355,126629.52,-8.883263,25.042483136086958,0.029432718,8.300564e-07,0.0005832448,1.3908103e-05,1.0,42,0.01989329,1.5709836e-07,0,-3.6453157240757695e-09,1.0
44,44,12080.609,127933.69,17364.49,129106.75,-7.729543,25.458503129164455,0.029408831,1.4145129e-06,0.0007586985,1.3724464e-05,1.0,42,0.019616397,1.5193936e-07,0,-3.4727021464134496e-09,1.0
45,45,10447.592,128245.74,13797.896,128985.86,-6.1408033,25.87450088225887,0.029419769,1.2506121e-06,0.0011040559,1.263376e-05,1.0,42,0.019114062,1.4818727e-07,0,-3.4185759298131687e-09,1.0
46,46,9045.586,128653.9,11437.673,129161.32,-5.0803905,26.306260929472046,0.029455429,1.2195084e-06,0.0015383166,1.2063023e-05,1.0,42,0.021688757,1.6791991e-07,0,-3.263832607037381e-09,1.0
47,47,7827.7437,129347.484,8767.656,129644.3,-3.8777905,26.786935618991265,0.029463796,1.2040495e-06,0.0023189962,1.060621e-05,1.0,42,0.021775715,1.6796508e-07,0,-3.191969452523239e-09,1.0
48,48,6770.8345,129395.25,6411.5454,129554.0,-2.8366907,27.32539751121658,0.029399572,1.3968197e-06,0.003666192,8.979228e-06,1.0,42,0.021859385,1.6872798e-07,0,-2.927064130348489e-09,1.0
49,49,5860.798,128515.56,4270.771,128586.51,-1.903327,27.93097892665537,0.029351128,1.5290582e-06,0.0063585355,7.0142114e-06,1.0,42,0.021866031,1.7004919e-07,0,-2.686101980932159e-09,1.0
50,50,5071.625,127611.43,2008.3713,127627.234,-0.9016567,28.61170565233624,0.02943676,9.8148e-07,0.015625322,3.8692815e-06,1.0,42,0.021929726,1.7182639e-07,0,-2.6028605672389196e-09,1.0
51,51,4388.5933,126431.45,416.6832,126432.14,-0.18883039,29.291848751308862,0.029422525,1.3446697e-06,0.08703397,9.4533516e-07,1.0,42,0.021955607,1.7365527e-07,0,-2.408285333113226e-09,1.0
52,52,3798.7827,125475.414,-410.597,125476.086,0.18749005,30.192808100764523,0.029485203,1.1070131e-06,-0.10203753,-1.0926209e-06,1.0,42,0.02012541,1.6039239e-07,0,-2.054390556418712e-09,1.0
53,53,3286.0488,124754.15,-1380.9966,124761.79,0.63422376,30.87271957306075,0.029479502,8.3247903e-07,-0.035071436,-4.297101e-06,1.0,42,0.020221673,1.6208226e-07,0,-2.0092512912357475e-09,1.0
54,54,2844.088,123526.44,-1645.5614,123537.4,0.7632224,31.552831552020507,0.029436126,1.4746735e-06,-0.034006584,-6.033847e-06,1.0,42,0.0202443,1.6387183e-07,0,-1.6865420186318314e-09,1.0
55,55,2460.7852,122271.54,-1156.836,122277.01,0.5420709,32.23268193099648,0.029402142,1.3817339e-06,-0.055908084,-5.004131e-06,1.0,42,0.020197643,1.651794e-07,0,-1.5926755714087045e-09,1.0
56,56,2129.3164,121583.03,-1386.3743,121590.94,0.65329796,32.912839989963686,0.029410172,1.1530179e-06,-0.053913735,-7.0090314e-06,1.0,42,0.020238606,1.6644832e-07,0,-1.2620476767197797e-09,1.0
57,57,1843.2289,120982.016,-1370.9362,120989.78,0.6492328,33.59297471557511,0.029469011,1.0427574e-06,-0.06298304,-8.086502e-06,1.0,42,0.020263024,1.6747715e-07,0,-1.2661956041980134e-09,1.0
58,58,1594.4913,120397.914,-717.2386,120400.05,0.34132034,34.27281018788926,0.029404994,1.4096721e-06,-0.13916638,-4.938651e-06,1.0,42,0.020281387,1.6845e-07,0,-1.1763974017229285e-09,1.0
59,59,1380.4436,119809.125,-99.04247,119809.164,0.047364626,34.952713393518934,0.029421315,1.3537971e-06,-1.1640724,-7.955049e-07,1.0,42,0.020278038,1.6925281e-07,0,-9.803357752878512e-10,1.0
60,60,1194.6187,120222.21,283.78085,120222.55,-0.13524468,35.63282041248749,0.02943976,1.0433163e-06,0.46946988,2.6157852e-06,1.0,42,0.020347241,1.6924646e-07,0,-8.434145218174403e-10,1.0
61,61,1033.3434,118851.38,1237.0623,118857.82,-0.5963405,36.31308041809825,0.029482948,1.1975325e-06,0.12450417,1.3486881e-05,1.0,42,0.020242985,1.703126e-07,0,-7.08697453740248e-10,1.0
62,62,894.71045,119618.23,1305.0137,119625.34,-0.62506205,36.99283207708504,0.02944889,1.0818704e-06,0.13630839,1.6222071e-05,1.0,42,0.020330006,1.6994731e-07,0,-3.833983407359249e-10,1.0
63,63,774.2569,119426.59,1923.5138,119442.086,-0.92274,37.6729514960316,0.029454237,1.1574883e-06,0.106866054,2.7715047e-05,1.0,42,0.02031987,1.701232e-07,0,-1.9134273861470203e-10,1.0
64,64,669.7856,119695.58,2924.0615,119731.29,-1.3994089,38.352809475007234,0.02940924,1.138677e-06,0.08126394,4.846805e-05,1.0,42,0.020332702,1.6981944e-07,0,-1.213644762248192e-10,1.0
65,65,579.81464,119748.81,3581.3284,119802.35,-1.7130346,39.03284705395345,0.029423906,1.1774172e-06,0.07664553,6.849272e-05,1.0,42,0.020326238,1.6966477e-07,0,2.053586578267572e-10,1.0
66,66,501.44418,119929.83,4796.7427,120025.72,-2.290395,39.710168179444736,0.029455187,1.291403e-06,0.06616847,0.000105680614,1.0,42,0.020334758,1.6942e-07,0,5.826661495697364e-10,1.0
67,67,434.02762,120223.31,5422.233,120345.52,-2.5823667,40.39020799842547,0.029514715,1.1671735e-06,0.0676277,0.00013728435,1.0,42,0.020327363,1.6890834e-07,0,7.362235599299469e-10,1.0
68,68,375.6009,120450.02,6178.1035,120608.36,-2.936233,41.06945096401614,0.029429754,1.0850366e-06,0.068586454,0.00017996742,1.0,42,0.020325443,1.6852432e-07,0,8.154479246585102e-10,1.0
69,69,325.10385,120511.734,7298.47,120732.54,-3.4657323,41.74867768964759,0.02942575,1.3310744e-06,0.06707585,0.00024512137,1.0,42,0.020302383,1.6816e-07,0,8.795070450228821e-10,1.0
70,70,281.3503,121341.09,8176.3574,121616.26,-3.8549485,42.42580889513192,0.02944874,1.2711014e-06,0.06918515,0.00031271545,1.0,42,0.020348571,1.6731785e-07,0,1.0311354042274395e-09,1.0
71,71,243.36427,121298.5,9167.664,121644.45,-4.3221617,43.10908548758016,0.02951794,1.0358663e-06,0.07133532,0.0004051701,1.0,42,0.020295952,1.668465e-07,0,1.1597057794033984e-09,1.0
72,72,210.60631,122078.87,10405.259,122521.51,-4.871768,43.786173759697704,0.02943661,1.2794826e-06,0.07262663,0.0005238139,1.0,42,0.02032409,1.6588181e-07,0,1.5034617313579456e-09,1.0
73,73,182.27473,123579.01,11649.937,124126.92,-5.3854237,44.457256298250286,0.029401006,1.2483786e-06,0.07494973,0.00066021475,1.0,42,0.020397004,1.6432377e-07,0,1.5340060031761274e-09,1.0
74,74,157.72879,124094.85,13944.971,124875.914,-6.4116282,45.145643237661716,0.02945459,9.837156e-07,0.07235883,0.0009023383,1.0,42,0.020386212,1.6325176e-07,0,1.6386549224789438e-09,1.0
75,75,136.52892,124781.23,14756.219,125650.71,-6.7442884,45.81752753621549,0.029428488,1.1098077e-06,0.07899878,0.0010895337,1.0,42,0.020364549,1.620727e-07,0,1.9619891153676632e-09,1.0
76,76,118.14758,124544.87,16236.221,125598.72,-7.427445,46.505898448929656,0.029414328,1.2915887e-06,0.08296795,0.001386468,1.0,42,0.020280257,1.6146866e-07,0,2.224719177462105e-09,1.0
77,77,102.25773,126527.11,18978.156,127942.484,-8.530362,47.17233837387175,0.029440524,1.1232175e-06,0.0820106,0.0018044648,1.0,42,0.020362087,1.5915032e-07,0,2.451581696876821e-09,1.0
78,78,88.4436,127366.34,20336.375,128979.664,-9.071749,47.862274273327785,0.029443039,1.085036e-06,0.08848713,0.002199808,1.0,42,0.020324029,1.5757546e-07,0,2.6343409654217247e-09,1.0
79,79,76.54279,128530.93,22390.588,130466.62,-9.881981,48.529725611719186,0.029417701,9.723539e-07,0.092864625,0.0027351587,1.0,42,0.020319875,1.557477e-07,0,2.8518554591564865e-09,1.0
80,80,66.250786,130530.01,24906.9,132885.05,-10.802953,49.19798660345259,0.029446654,1.0334442e-06,0.096451595,0.0033884146,1.0,42,0.02037857,1.5335488e-07,0,2.9793566369649633e-09,1.0
81,81,57.329906,131387.22,27675.688,134270.42,-11.895014,49.85262924790004,0.02942465,1.2535929e-06,0.10030913,0.0042616385,1.0,42,0.020320717,1.5134172e-07,0,3.2427989292319235e-09,1.0
82,82,49.60321,133625.12,30218.936,136999.48,-12.742925,50.53734661368071,0.02941021,1.388066e-06,0.10617718,0.005165967,1.0,42,0.02033299,1.4841655e-07,0,3.407380552127575e-09,1.0
83,83,42.92585,135637.1,33977.34,139828.05,-14.063301,51.2454497673607,0.029508436,9.354758e-07,0.10912189,0.006443206,1.0,42,0.020364035,1.4563626e-07,0,3.5590623753947416e-09,1.0
84,84,37.1518,138119.45,36811.07,142940.69,-14.9233675,51.889155637909425,0.029507672,1.0177986e-06,0.11637558,0.0077180397,1.0,42,0.020368582,1.4249673e-07,0,3.839667769676862e-09,1.0
85,85,32.150223,140585.8,39564.895,146047.08,-15.718132,52.52738908157335,0.029458206,1.1863558e-06,0.12511982,0.009182489,1.0,42,0.020334681,1.3923375e-07,0,4.025498969889623e-09,1.0
86,86,27.835518,141595.25,44814.65,148517.9,-17.562489,53.25532242280315,0.029436471,1.0130492e-06,0.12758535,0.011616711,1.0,42,0.02026545,1.3645123e-07,0,4.420628776395263e-09,1.0
87,87,24.082958,145159.0,47661.21,152783.27,-18.176973,53.95736613616464,0.02943788,1.0680864e-06,0.13865809,0.013493475,1.0,42,0.020202398,1.3222913e-07,0,4.615965963526042e-09,1.0
88,88,20.833313,149546.52,51493.594,158163.69,-19.000204,54.855766658860375,0.029459566,9.247915e-07,0.14835718,0.015725391,1.0,43,0.020286381,1.2826195e-07,0,4.832122482400342e-09,1.0
89,89,18.021912,153039.56,56778.16,163232.56,-20.355013,55.601703654298035,0.029455075,9.304245e-07,0.15553851,0.018818587,1.0,43,0.020276248,1.2421694e-07,0,5.347094808118754e-09,1.0
90,90,15.604198,157469.22,61699.895,169125.48,-21.396336,56.257026325387415,0.029418446,8.9767593e-07,0.16530815,0.02200113,1.0,43,0.020319916,1.2014698e-07,0,5.143352699788162e-09,1.0
91,91,13.500899,161910.11,67046.07,175242.86,-22.494173,57.003965320880525,0.029443841,8.987934e-07,0.17582642,0.025736537,1.0,43,0.020298624,1.1583139e-07,0,5.247966272132038e-09,1.0
92,92,11.686608,166693.12,73838.39,182314.86,-23.891428,57.5948599356052,0.029448573,8.8007744e-07,0.18443759,0.03025309,1.0,43,0.020323196,1.1147307e-07,0,5.4863086071985155e-09,1.0
93,93,10.113269,171931.88,79011.95,189218.02,-24.68133,58.26852479422814,0.029499214,9.104327e-07,0.19917543,0.03472933,1.0,43,0.020261344,1.0707936e-07,0,6.199365426348284e-09,1.0
94,94,8.748621,177879.98,86356.125,197733.83,-25.895372,59.034402643941576,0.029424055,9.855202e-07,0.21066257,0.040180165,1.0,43,0.020306157,1.026944e-07,0,6.632456537020307e-09,1.0
95,95,7.570237,184296.55,94072.95,206917.7,-27.04174,59.909963912243256,0.029447353,9.289996e-07,0.2234837,0.04619342,1.0,43,0.020321745,9.821173e-08,0,5.865472578717871e-09,1.0
96,96,6.554112,191054.62,101999.56,216577.42,-28.096706,60.44632495104452,0.029474042,9.761715e-07,0.23807181,0.05280539,1.0,43,0.020319395,9.382047e-08,0,7.149629451081379e-09,1.0
97,97,5.669445,198499.55,109612.24,226752.98,-28.907656,61.0561361,0.029462695,8.246554e-07,0.25610644,0.059845656,1.0,43,0.020309817,8.9568026e-08,0,6.0676059794501695e-09,1.0
98,98,4.907347,206445.23,118595.49,238085.12,-29.875845,61.748564959532814,0.029454423,1.0322075e-06,0.27346715,0.06785424,1.0,43,0.020321537,8.535408e-08,0,7.614970934609018e-09,1.0
99,99,4.245922,214658.78,128416.48,250138.33,-30.889357,62.53632801029016,0.02944577,8.14664e-07,0.29189545,0.07693224,1.0,43,0.020320874,8.123855e-08,0,6.88740645223936e-09,1.0
100,100,3.6747382,223430.4,138295.14,262767.38,-31.75597,63.43594074639259,0.02944603,9.368488e-07,0.31317478,0.086747654,1.0,43,0.020308567,7.728725e-08,0,6.644456366943713e-09,1.0
101,101,3.180988,232097.9,149630.31,276149.72,-32.809315,64.46524130189209,0.02946808,9.83015e-07,0.33437863,0.09817218,1.0,43,0.020313716,7.3560514e-08,0,8.373099355152514e-09,1.0
102,102,2.752818,242422.94,161592.17,291343.28,-33.686283,65.64415634455509,0.029422106,8.928909e-07,0.35778514,0.11006593,1.0,43,0.020321347,6.975053e-08,0,8.585446307282776e-09,1.0
103,103,2.3804083,251778.64,174426.44,306295.72,-34.71332,66.99897355563007,0.02943775,8.9155606e-07,0.38331547,0.12430801,1.0,43,0.020313682,6.632049e-08,0,7.417549666473578e-09,1.0
104,104,2.060257,262631.97,189023.17,323582.0,-35.743565,68.55528437616886,0.029447539,9.3164294e-07,0.40868032,0.13945854,1.0,43,0.020328546,6.2823474e-08,0,7.549592629018603e-09,1.0
105,105,1.7836765,272179.28,204745.16,340590.88,-36.952084,70.34366352783763,0.029430002,9.541261e-07,0.43580323,0.15748952,1.0,43,0.020318072,5.965536e-08,0,9.430663482057738e-09,1.0
