True,index,freq,Re(Z),Im(Z),Z,Phase(Z),time,Ewe_meas,I_meas,Cs,Cp,cycle_number,I_Range,Ewe,I,Ns,(QQo),cycle
110,110,7000018.5,313.4717,2013.4291,2037.6853,-81.15064,82.85648748211679,0.029484216,2.3901215e-05,1.1292357e-05,1.1025113e-05,2.0,40,0.010184808,4.998224e-06,0,1.817734088395273e-08,2.0
111,111,6057573.0,515.13525,2204.2266,2263.6208,-76.84587,83.40850305501954,0.029573666,-4.3934146e-05,1.1919698e-05,1.1302392e-05,2.0,40,0.014313853,6.3234324e-06,0,1.3987348040213435e-08,2.0
112,112,5242039.0,478.0445,2504.8918,2550.0999,-79.19534,83.82449331475073,0.029516468,-1.3091843e-06,1.21207895e-05,1.1694846e-05,2.0,40,0.019825984,7.774591e-06,0,1.2102399601650346e-08,2.0
113,113,4536288.0,416.0987,2869.9158,2899.923,-81.750374,85.32848613287206,0.029428674,4.265535e-05,1.2225041e-05,1.197335e-05,2.0,40,0.019896133,6.8609174e-06,0,4.745893929812222e-09,2.0
114,114,3925558.5,548.1347,3224.7183,3270.9722,-80.35312,85.74450753928977,0.029423457,4.6785743e-05,1.2572653e-05,1.2219593e-05,2.0,40,0.018999968,5.8086607e-06,0,3.1621562429089423e-09,2.0
115,115,3397055.0,619.519,3624.3018,3676.8691,-80.29991,86.16049830571865,0.029490942,-1.8091245e-05,1.2926865e-05,1.2559882e-05,2.0,40,0.020011399,5.4425104e-06,0,1.7971741286379523e-09,2.0
116,116,2939708.2,598.7805,4064.7021,4108.5693,-81.6199,86.57648963216343,0.029464988,6.8585914e-06,1.3319477e-05,1.30365715e-05,2.0,40,0.021914087,5.3337512e-06,0,3.679047355849501e-09,2.0
117,117,2543924.5,740.2735,4628.7544,4687.576,-80.91367,87.12848640503944,0.02937209,3.612486e-05,1.3516112e-05,1.31790275e-05,2.0,40,0.021134438,4.5086067e-06,0,1.4076088201142096e-09,2.0
118,118,2201436.2,584.0173,5581.9663,5612.4346,-84.027115,87.84650363909896,0.029515702,-6.2147697e-06,1.29517e-05,1.2811461e-05,2.0,41,0.019896269,3.5450337e-06,0,3.8444519323654644e-09,2.0
119,119,1905053.1,658.40326,6451.387,6484.897,-84.17279,88.39848737200373,0.029487811,-3.6468107e-06,1.2949707e-05,1.2816221e-05,2.0,41,0.020517081,3.1638253e-06,0,2.9427351513371393e-09,2.0
120,120,1648567.4,757.20166,7486.5874,7524.782,-84.22468,88.95050057154731,0.029417645,5.9359645e-06,1.2895243e-05,1.2764666e-05,2.0,41,0.019844476,2.637216e-06,0,3.6062463048371166e-09,2.0
121,121,1426616.2,955.72174,8625.989,8678.772,-83.677666,89.50249857109156,0.029479614,-5.5294736e-06,1.2933143e-05,1.2776305e-05,2.0,41,0.020540219,2.3667194e-06,0,2.7907310230349657e-09,2.0
122,122,1234551.2,1235.0265,9580.693,9659.968,-82.65463,90.0544852373132,0.029323926,1.0191045e-05,1.34559405e-05,1.3235995e-05,2.0,41,0.020264084,2.0977382e-06,0,2.7939914034908538e-09,2.0
123,123,1068345.5,1362.3041,11261.113,11343.216,-83.10221,90.6064982235257,0.029422265,5.9452755e-06,1.3229002e-05,1.3038191e-05,2.0,41,0.020678058,1.8229449e-06,0,3.1713318108465867e-09,2.0
124,124,924510.06,1831.9055,12997.639,13126.1,-81.97749,91.15850499641965,0.02940423,5.546769e-06,1.3244758e-05,1.2986782e-05,2.0,41,0.02027459,1.5446013e-06,0,3.539828174258513e-09,2.0
125,125,800039.0,1551.99,14985.911,15066.062,-84.08734,91.7105060093163,0.029370673,1.1829762e-05,1.3274734e-05,1.31338675e-05,2.0,41,0.020567987,1.3651867e-06,0,5.059719492353645e-09,2.0
126,126,692334.1,2875.7756,16988.74,17230.42,-80.39231,92.2625035555393,0.029534856,-4.546243e-06,1.3531415e-05,1.3154485e-05,2.0,41,0.0202711,1.1764716e-06,0,4.307066419666642e-09,2.0
127,127,599122.25,4222.7324,20169.684,20606.98,-78.17532,92.81450280841091,0.029459491,-1.3954352e-06,1.3170601e-05,1.2617551e-05,2.0,41,0.020766446,1.0077384e-06,0,4.269767251292874e-09,2.0
128,128,518454.94,5472.762,22548.854,23203.49,-76.35771,93.36650179463322,0.029543111,-5.041583e-06,1.3613965e-05,1.2856624e-05,2.0,41,0.020424979,8.802546e-07,0,4.057261466651221e-09,2.0
129,129,448662.03,6333.2026,25379.756,26158.01,-75.98869,93.91850387418526,0.029445909,-1.8330479e-06,1.3976981e-05,1.3157665e-05,2.0,41,0.020300893,7.7608706e-07,0,4.415456305271231e-09,2.0
130,130,388258.97,8914.3125,28695.174,30047.928,-72.74231,94.47049224705552,0.029517287,-4.792051e-06,1.4285314e-05,1.3028021e-05,2.0,41,0.020858249,6.94166e-07,0,4.117709294914284e-09,2.0
131,131,335983.9,10777.163,35204.074,36816.76,-72.978874,95.02250621994608,0.029451722,3.6417591e-06,1.3455775e-05,1.2302784e-05,2.0,41,0.020254752,5.501503e-07,0,4.9385924758217965e-09,2.0
132,132,290751.2,13809.475,37106.65,39592.992,-69.58693,95.57448411287623,0.02942616,4.6864416e-06,1.4751863e-05,1.2957276e-05,2.0,41,0.020442745,5.163223e-07,0,5.328855204888584e-09,2.0
133,133,251605.19,17971.703,40200.996,44035.24,-65.91315,96.12649349906133,0.029442107,4.1538583e-06,1.5734891e-05,1.3114045e-05,2.0,41,0.020418417,4.636836e-07,0,5.483326005916389e-09,2.0
134,134,217729.38,23101.535,43743.305,49468.754,-62.16075,96.67848528528702,0.029526658,-5.3469807e-06,1.6710579e-05,1.3066304e-05,2.0,41,0.020295765,4.1027442e-07,0,6.400750640974155e-09,2.0
135,135,188418.58,25540.486,49353.773,55570.777,-62.63852,97.39750446609105,0.029419098,6.367264e-07,1.7114966e-05,1.3499691e-05,2.0,42,0.019965101,3.5927337e-07,0,7.097381604821182e-09,2.0
136,136,163051.14,31029.979,52782.434,61227.812,-59.549385,97.81349144587875,0.029510207,1.9512508e-07,1.849298e-05,1.3743212e-05,2.0,42,0.021802405,3.5608662e-07,0,7.150950147281559e-09,2.0
137,137,141098.2,39114.895,56792.266,68958.945,-55.443405,98.36548819209565,0.02941759,6.750941e-07,1.9861382e-05,1.347121e-05,2.0,42,0.020377327,2.954994e-07,0,7.2926998701137906e-09,2.0
138,138,122105.11,44623.24,59783.145,74600.66,-53.261665,98.91748813827871,0.029399255,1.3377758e-06,2.1802563e-05,1.4001668e-05,2.0,42,0.020138118,2.699456e-07,0,7.502905615196139e-09,2.0
139,139,105663.59,53713.688,60614.516,80989.38,-48.45417,99.33348541139276,0.029361488,1.4059437e-06,2.4849527e-05,1.391923e-05,2.0,42,0.021466576,2.6505418e-07,0,7.596989882509033e-09,2.0
140,140,91439.65,63917.293,61090.812,88416.67,-43.704742,99.8854946642823,0.029437935,7.849824e-07,2.8491131e-05,1.3601699e-05,2.0,42,0.0203889,2.3060016e-07,0,7.687845975372495e-09,2.0
141,141,79127.08,70916.63,61198.35,93671.805,-40.792942,100.3014948440541,0.029430164,6.4752913e-07,3.286664e-05,1.4028685e-05,2.0,42,0.021287898,2.2726046e-07,0,7.78035736829974e-09,2.0
142,142,68475.36,79566.234,59197.45,99172.195,-36.649326,100.8535069769423,0.029433649,7.130895e-07,3.926294e-05,1.3989717e-05,2.0,42,0.020218372,2.0387138e-07,0,7.916920019103774e-09,2.0
143,143,59252.523,86598.54,57267.87,103821.56,-33.476784,101.26950752999983,0.02947488,4.888432e-07,4.6903173e-05,1.4270829e-05,2.0,42,0.020828897,2.0062207e-07,0,8.039638102545648e-09,2.0
144,144,51282.285,94897.26,56125.156,110252.086,-30.601376,101.68549845644156,0.029430369,1.247258e-06,5.5296194e-05,1.4329687e-05,2.0,42,0.021338567,1.9354343e-07,0,8.193126551789338e-09,2.0
145,145,44369.8,101946.484,50378.586,113714.94,-26.297064,102.10149959617411,0.029534278,3.6964255e-07,7.1201095e-05,1.3974735e-05,2.0,42,0.021717591,1.9098275e-07,0,8.288306067847608e-09,2.0
146,146,38403.727,106608.305,46005.496,116111.31,-23.342016,102.51749964265036,0.029439313,9.017621e-07,9.008179e-05,1.4141889e-05,2.0,42,0.022006387,1.8952836e-07,0,8.332888430124561e-09,2.0
147,147,33226.32,110778.62,41451.863,118280.0,-20.515171,103.06950590884662,0.02939307,1.5020495e-06,0.00011555636,1.4192514e-05,2.0,42,0.020203147,1.7080781e-07,0,8.55083752234551e-09,2.0
148,148,28754.086,114667.414,37756.03,120723.375,-18.224934,103.48549083524267,0.029425824,1.2418568e-06,0.00014660008,1.4339175e-05,2.0,42,0.020327419,1.6838014e-07,0,8.61947395537251e-09,2.0
149,149,24884.947,118508.89,33233.668,123080.6,-15.665188,103.90149760167697,0.029462006,4.393007e-07,0.00019244433,1.4030801e-05,2.0,42,0.02037238,1.6552063e-07,0,8.647630146200451e-09,2.0
150,150,21553.963,120032.195,30643.467,123882.0,-14.321353,104.31848586149863,0.029381536,1.590333e-06,0.00024096562,1.4743971e-05,2.0,42,0.020301256,1.6387575e-07,0,8.75428098555944e-09,2.0
151,151,18631.234,122639.6,26645.916,125500.91,-12.2581415,104.73450105459779,0.029482296,5.2981915e-07,0.00032058844,1.4451583e-05,2.0,42,0.020271387,1.6152383e-07,0,8.922044509926607e-09,2.0
152,152,16126.037,124178.65,22743.742,126244.266,-10.378883,105.15048390100128,0.029407155,1.3845258e-06,0.00043394088,1.4084164e-05,2.0,42,0.02002123,1.585912e-07,0,8.97222053239144e-09,2.0
153,153,13954.87,123707.516,20268.219,125356.89,-9.304663,105.56649290744099,0.029417085,1.2200663e-06,0.0005627024,1.4710028e-05,2.0,42,0.019745639,1.5751539e-07,0,9.087625121793903e-09,2.0
154,154,12080.609,126853.06,18645.006,128215.98,-8.361528,105.98250668719993,0.029454442,1.085407e-06,0.00070659205,1.4942027e-05,2.0,42,0.019486308,1.5198034e-07,0,9.111903858241454e-09,2.0
155,155,10447.592,128806.81,14310.053,129599.27,-6.3393946,106.39849180026795,0.02947313,5.504939e-07,0.0010645417,1.2978964e-05,2.0,42,0.019089038,1.4729278e-07,0,9.184142463869942e-09,2.0
156,156,9045.586,129330.44,11552.488,129845.375,-5.1044188,106.83026672745473,0.029434375,1.2660711e-06,0.001523028,1.2056076e-05,2.0,42,0.02168697,1.670215e-07,0,9.378920981581157e-09,2.0
157,157,7827.7437,129318.43,8605.051,129604.414,-3.8069386,107.3109396303189,0.029420737,1.2236061e-06,0.002362817,1.0415914e-05,2.0,42,0.021705829,1.6747754e-07,0,9.500400898146941e-09,2.0
158,158,6770.8345,129373.625,5537.6387,129492.086,-2.4509616,107.84942512252019,0.02947164,6.404537e-07,0.004244762,7.762759e-06,2.0,42,0.021808183,1.6841325e-07,0,9.742423175003525e-09,2.0
159,159,5860.798,129106.055,4327.6494,129178.56,-1.9198421,108.45500032466953,0.029355954,2.1420105e-06,0.006274965,7.042625e-06,2.0,42,0.021883955,1.6940857e-07,0,1.0029265403983917e-08,2.0
160,160,5071.625,128392.766,2241.471,128412.33,-1.0001637,109.13571566368773,0.029482929,1.0131425e-06,0.014000382,4.2657234e-06,2.0,42,0.021931978,1.707934e-07,0,1.0104855345806642e-08,2.0
161,161,4388.5933,127403.23,153.86314,127403.32,-0.0691953,110.03682349315204,0.029461838,1.0367961e-06,0.23570034,3.4376995e-07,2.0,42,0.020190768,1.5847914e-07,0,1.016925231008751e-08,2.0
162,162,3798.7827,126067.81,-257.17233,126068.08,0.11688049,110.71680720544828,0.029466664,1.1157667e-06,-0.16291139,-6.779375e-07,2.0,42,0.02020353,1.6025889e-07,0,1.0428797607025272e-08,2.0
163,163,3286.0488,125057.12,-866.8729,125060.125,0.39715743,111.3967127577489,0.02947298,8.304302e-07,-0.055871543,-2.6845028e-06,2.0,42,0.020219086,1.6167492e-07,0,1.0702324740806012e-08,2.0
164,164,2844.088,123842.01,-1621.9438,123852.625,0.75035304,112.07583521665947,0.029438717,1.158605e-06,-0.034501765,-5.9170125e-06,2.0,42,0.020257244,1.6355926e-07,0,1.0864448152287092e-08,2.0
165,165,2460.7852,123118.16,-1363.1914,123125.7,0.6343656,112.75571338229929,0.02945405,9.585715e-07,-0.047444906,-5.815751e-06,2.0,42,0.020305282,1.6491505e-07,0,1.120593774848475e-08,2.0
166,166,2129.3164,121962.484,-1374.5,121970.23,0.64568806,113.4358367745881,0.029420085,1.1727606e-06,-0.054379497,-6.905848e-06,2.0,42,0.020299265,1.6642804e-07,0,1.1307933601408237e-08,2.0
167,167,1843.2289,121168.64,-1601.2797,121179.22,0.7571367,114.11595787355327,0.029462062,1.135138e-06,-0.053922955,-9.415681e-06,2.0,42,0.02030655,1.6757453e-07,0,1.166020849548419e-08,2.0
168,168,1594.4913,120741.13,-430.40372,120741.9,0.20424035,114.79581233252247,0.029464448,1.011281e-06,-0.23191132,-2.9468497e-06,2.0,42,0.02032414,1.6832716e-07,0,1.203785606235809e-08,2.0
169,169,1380.4436,120159.086,277.46265,120159.41,-0.13230301,115.47569956482039,0.029418726,1.2034924e-06,0.4155248,2.2155953e-06,2.0,42,0.020321913,1.6912462e-07,0,1.2277332834812447e-08,2.0
170,170,1194.6187,120210.516,272.46017,120210.83,-0.1298621,116.15583991711901,0.029415222,1.2543389e-06,0.48897633,2.5119252e-06,2.0,42,0.020349385,1.692808e-07,0,1.2593973057736957e-08,2.0
171,171,1033.3434,120027.85,863.3264,120030.95,-0.41210526,116.83610989604495,0.02941673,1.1306682e-06,0.17840229,9.229198e-06,2.0,42,0.020362908,1.6964714e-07,0,1.2870786752260166e-08,2.0
172,172,894.71045,119092.53,1267.1089,119099.27,-0.6095869,117.5158339550544,0.02941729,1.1857985e-06,0.14038597,1.5890346e-05,2.0,42,0.020301193,1.7045606e-07,0,1.2980778563173207e-08,2.0
173,173,774.2569,120101.31,2682.0747,120131.26,-1.2793034,118.19597257400164,0.029394504,1.365717e-06,0.07664154,3.8202685e-05,2.0,42,0.020385433,1.69693e-07,0,1.3240902783470294e-08,2.0
174,174,669.7856,120059.695,2843.671,120093.37,-1.356824,118.87584945964045,0.029458895,1.2029336e-06,0.083561264,4.6851732e-05,2.0,42,0.020373842,1.6965002e-07,0,1.3585961766553368e-08,2.0
175,175,579.81464,119753.695,3663.3093,119809.71,-1.7521524,119.55584898528468,0.029454404,1.1390495e-06,0.07493028,7.0051996e-05,2.0,42,0.020333566,1.697155e-07,0,1.3697512997286942e-08,2.0
176,176,501.44418,120253.14,4935.6045,120354.38,-2.3502977,120.2331810707401,0.029386623,8.321075e-07,0.06430684,0.000108146894,2.0,42,0.020368936,1.6924133e-07,0,1.374892261631317e-08,2.0
177,177,434.02762,120108.766,5340.6646,120227.445,-2.545993,120.91323184969951,0.029445592,1.1587922e-06,0.06866058,0.00013548488,2.0,42,0.020344283,1.6921497e-07,0,1.4003019358285407e-08,2.0
178,178,375.6009,120451.23,5948.7153,120598.03,-2.827365,121.59144492194173,0.029440524,8.792291e-07,0.07123121,0.00017331504,2.0,42,0.020340648,1.6866484e-07,0,1.4338769153327213e-08,2.0
179,179,325.10385,120421.52,7054.0347,120627.95,-3.352433,122.2706829275703,0.029465305,1.0941629e-06,0.069400154,0.00023732292,2.0,42,0.020282097,1.6813762e-07,0,1.4390747331383223e-08,2.0
180,180,281.3503,121293.06,8396.249,121583.32,-3.959859,122.94779199971526,0.029408924,1.1301094e-06,0.06737324,0.0003212995,2.0,42,0.020360237,1.6745913e-07,0,1.442268839950531e-08,2.0
181,181,243.36427,121952.69,9108.561,122292.37,-4.2714505,123.63112848546007,0.029372463,1.3210167e-06,0.071798205,0.00039830373,2.0,42,0.020358738,1.6647594e-07,0,1.4744759102542027e-08,2.0
182,182,210.60631,122479.78,10275.007,122910.016,-4.7953978,124.30818633097806,0.029458802,1.2692389e-06,0.07354729,0.000513992,2.0,42,0.02037214,1.657484e-07,0,1.5124555736929896e-08,2.0
183,183,182.27473,122814.32,11724.912,123372.734,-5.45342,124.98026017620577,0.029390106,1.2645826e-06,0.07447046,0.0006726124,2.0,42,0.020344516,1.6490286e-07,0,1.5148197024669012e-08,2.0
184,184,157.72879,123284.17,13508.386,124022.03,-6.2530184,125.66863551563438,0.029495934,1.0665973e-06,0.074697435,0.00088616565,2.0,42,0.02031808,1.6382637e-07,0,1.5530319938746058e-08,2.0
185,185,136.52892,124257.63,14082.006,125053.04,-6.4656925,126.34054421415203,0.029450586,1.1848667e-06,0.08278106,0.0010497152,2.0,42,0.020353809,1.6276141e-07,0,1.5532307946421773e-08,2.0
186,186,118.14758,125079.88,16272.363,126133.92,-7.412308,127.02888614020776,0.029452989,1.0632448e-06,0.08278367,0.0013777872,2.0,42,0.020346593,1.6130944e-07,0,1.580977339749909e-08,2.0
187,187,102.25773,126769.305,18096.7,128054.47,-8.124255,127.69536486515426,0.029426029,1.0947211e-06,0.08600518,0.0017176468,2.0,42,0.020377673,1.5913285e-07,0,1.593650944404611e-08,2.0
188,188,88.4436,127354.44,20459.664,128987.41,-9.126662,128.38528657794814,0.029470205,1.0166816e-06,0.08795391,0.0022128785,2.0,42,0.020335164,1.5765232e-07,0,1.6179793791601503e-08,2.0
189,189,76.54279,128667.56,22582.398,130634.25,-9.954576,129.0527424496977,0.029517809,1.1204236e-06,0.092075855,0.0027515143,2.0,42,0.020350896,1.557853e-07,0,1.6368458529292795e-08,2.0
190,190,66.250786,130343.84,24962.45,132712.62,-10.841574,129.72100282809697,0.029442256,1.0058789e-06,0.09623696,0.0034048017,2.0,42,0.020361433,1.5342499e-07,0,1.6557685982805282e-08,2.0
191,191,57.329906,131826.22,27066.13,134576.11,-11.602541,130.3756509658706,0.029392455,1.1412835e-06,0.102568194,0.0041488637,2.0,42,0.020350667,1.512205e-07,0,1.689273947035108e-08,2.0
192,192,49.60321,133985.98,30524.994,137419.14,-12.834204,131.06037049167207,0.029426383,1.0567254e-06,0.10511259,0.005186465,2.0,42,0.020382648,1.4832467e-07,0,1.7182598057292313e-08,2.0
193,193,42.92585,135628.11,32935.914,139569.9,-13.649486,131.76843151196954,0.029423922,1.1787197e-06,0.11257229,0.006268843,2.0,42,0.020355884,1.4584722e-07,0,1.7253580760753746e-08,2.0
194,194,37.1518,138249.6,36737.168,143047.44,-14.881341,132.41219450256904,0.029393386,1.5041003e-06,0.116609685,0.007691053,2.0,42,0.020371063,1.4240774e-07,0,1.7348978130596316e-08,2.0
195,195,32.150223,140100.97,40529.41,145845.52,-16.134478,133.05137543959427,0.029419415,1.1660544e-06,0.122142226,0.009432358,2.0,42,0.020323485,1.393494e-07,0,1.784284473785696e-08,2.0
196,196,27.835518,142752.86,44271.016,149460.03,-17.22989,133.77830467410968,0.029441958,1.0196611e-06,0.12915206,0.011331572,2.0,42,0.020339336,1.3608546e-07,0,1.788892334857047e-08,2.0
197,197,24.082958,145403.88,48691.38,153339.94,-18.514147,134.48038566744071,0.02945776,8.6898405e-07,0.13572448,0.013685221,2.0,42,0.020255193,1.3209339e-07,0,1.824264254632318e-08,2.0
198,198,20.833313,150346.39,51771.0,159010.3,-19.000881,135.37873821682297,0.029438084,8.835601e-07,0.14756224,0.0156422,2.0,43,0.02037514,1.2813723e-07,0,1.897474345599834e-08,2.0
199,199,18.021912,153811.3,56783.66,163958.22,-20.26301,136.1247360122652,0.029459026,8.7153876e-07,0.15552345,0.018654184,2.0,43,0.020366896,1.2422004e-07,0,1.8642362701619772e-08,2.0
200,200,15.604198,158275.38,61706.51,169878.75,-21.299221,136.7800353766943,0.02950756,8.0288527e-07,0.16529043,0.02180879,2.0,43,0.020389747,1.2002529e-07,0,1.891231015568066e-08,2.0
201,201,13.500899,162503.66,67310.3,175892.34,-22.499722,137.5279941855697,0.029416358,8.672742e-07,0.17513621,0.025647502,2.0,43,0.020360034,1.1575282e-07,0,1.921492824254371e-08,2.0
202,202,11.686608,167722.53,73884.766,183275.22,-23.77435,138.11887600031332,0.029427016,9.3203533e-07,0.18432182,0.029955672,2.0,43,0.020416424,1.1139762e-07,0,1.911559551249642e-08,2.0
203,203,10.113269,172254.16,80192.62,190006.19,-24.964249,138.7925202989427,0.029390907,8.568174e-07,0.19624302,0.034956463,2.0,43,0.020342035,1.07059854e-07,0,1.886947787470847e-08,2.0
204,204,8.748621,178265.27,86756.695,198255.47,-25.950884,139.55836841530981,0.029406652,8.519939e-07,0.20968992,0.0401544,2.0,43,0.020347748,1.0263398e-07,0,1.9628630088300526e-08,2.0
205,205,7.570237,184862.56,93700.6,207253.39,-26.878916,140.43400019026012,0.02943134,9.2532156e-07,0.22437179,0.045861654,2.0,43,0.0203586,9.823048e-08,0,2.0121049141410454e-08,2.0
206,206,6.554112,191541.05,101543.57,216792.69,-27.929852,140.9703073890123,0.029417234,6.5164846e-07,0.23914088,0.052464973,2.0,43,0.020354006,9.388696e-08,0,1.9379071464616753e-08,2.0
207,207,5.669445,198801.6,109876.945,227145.36,-28.929277,141.5801237646665,0.029430276,1.0449457e-06,0.25548947,0.0597831,2.0,43,0.02033632,8.952998e-08,0,2.051307653431669e-08,2.0
208,208,4.907347,206856.31,118718.25,238502.73,-29.852226,142.27252158420742,0.029431656,7.315594e-07,0.27318436,0.06768682,2.0,43,0.020352058,8.53326e-08,0,2.0100772329148026e-08,2.0
209,209,4.245922,214980.61,128307.38,250358.64,-30.830118,143.0603089016222,0.029429698,9.4738937e-07,0.29214364,0.07673166,2.0,43,0.02034672,8.1270294e-08,0,1.984725315573114e-08,2.0
210,210,3.6747382,223871.9,138690.86,263351.06,-31.778624,143.9599733177456,0.029425386,9.4265914e-07,0.31228122,0.086610675,2.0,43,0.020366479,7.733585e-08,0,2.148376167175186e-08,2.0
211,211,3.180988,233241.92,150487.56,277575.75,-32.830086,144.98818725990714,0.02942927,8.4070797e-07,0.33247384,0.09772274,2.0,43,0.02038471,7.343837e-08,0,2.1073252586774948e-08,2.0
212,212,2.752818,242555.75,161645.72,291483.5,-33.680565,146.16710752921063,0.02945637,8.803516e-07,0.3576666,0.1099965,2.0,43,0.020361254,6.985388e-08,0,2.0119874220964582e-08,2.0
213,213,2.3804083,252738.55,175216.12,307534.5,-34.73242,147.5219560735859,0.02944545,9.2710724e-07,0.3815879,0.12386684,2.0,43,0.02035729,6.619514e-08,0,2.1202085723738743e-08,2.0
214,214,2.060257,262557.84,189091.44,323561.72,-35.761044,149.07828462749603,0.029449029,9.3509766e-07,0.40853274,0.13952638,2.0,43,0.020365115,6.294044e-08,0,2.3055994870621316e-08,2.0
