True,index,freq,Re(Z),Im(Z),Z,Phase(Z),time,Ewe_meas,I_meas,Cs,Cp,cycle_number,I_Range,Ewe,I,Ns,(QQo),cycle
110,110,7000018.5,394.633,2059.8745,2097.336,-79.154625,82.92747732545831,-0.035138372,1.9454526e-05,1.10377405e-05,1.0646962e-05,2.0,40,0.0101615265,4.8449683e-06,0,9.71242570149918e-09,2.0
111,111,6057573.0,491.28876,2223.2847,2276.919,-77.539345,83.47949852506281,-0.0350898,-2.7319538e-05,1.1817522e-05,1.1267341e-05,2.0,40,0.014314372,6.286729e-06,0,9.189939751511439e-09,2.0
112,112,5242039.0,492.87973,2523.0906,2570.7812,-78.9466,83.89550086480449,-0.0350713,-1.8556384e-05,1.2033364e-05,1.15910425e-05,2.0,40,0.019775178,7.692283e-06,0,6.433210563526032e-09,2.0
113,113,4536288.0,422.07474,2837.7327,2868.95,-81.54004,85.26348866309854,-0.035134047,-1.539347e-05,1.2363688e-05,1.2096091e-05,2.0,40,0.018168202,6.3327007e-06,0,-5.796284629089173e-09,2.0
114,114,3925558.5,507.25745,3238.7578,3278.2407,-81.098595,85.81550004929886,-0.035146214,-3.820367e-05,1.2518151e-05,1.2218432e-05,2.0,40,0.019175012,5.8491773e-06,0,-1.1337228776034368e-08,2.0
115,115,3397055.0,615.39655,3684.4346,3735.4746,-80.51765,86.23148292241967,-0.035164624,-1.4016666e-05,1.2715888e-05,1.2370772e-05,2.0,40,0.020215154,5.4116695e-06,0,-1.543978621329832e-08,2.0
116,116,2939708.2,630.8903,4065.5837,4114.2427,-81.17929,86.7834990019619,-0.03512343,-3.3515113e-05,1.33165895e-05,1.3003462e-05,2.0,40,0.02030167,4.9344853e-06,0,-1.9647489095998288e-08,2.0
117,117,2543924.5,708.7727,4738.5303,4791.245,-81.492966,87.33550548154744,-0.035150092,-2.1551847e-05,1.3202988e-05,1.291406e-05,2.0,40,0.02059652,4.298782e-06,0,-2.8644421328446e-08,2.0
118,118,2201436.2,664.4622,5704.2573,5742.827,-83.35583,88.0544909289747,-0.035149515,-6.4270585e-06,1.2674035e-05,1.2504364e-05,2.0,41,0.020062592,3.4935044e-06,0,-2.8408736057671765e-08,2.0
119,119,1905053.1,551.4913,6546.1006,6569.2905,-85.18436,88.60649183523492,-0.03515622,6.5109936e-07,1.2762341e-05,1.2672397e-05,2.0,41,0.020432562,3.1103148e-06,0,-2.868945695075611e-08,2.0
120,120,1648567.4,901.3823,7551.5273,7605.1333,-83.19314,89.15849890143727,-0.035157226,-1.2334268e-06,1.278435e-05,1.260476e-05,2.0,41,0.019858088,2.6111427e-06,0,-2.8511310699079455e-08,2.0
121,121,1426616.2,936.6669,8663.583,8714.07,-83.829414,89.71050391430617,-0.03515594,-3.2315445e-06,1.28770225e-05,1.2728241e-05,2.0,41,0.020632528,2.3677258e-06,0,-2.778926021850678e-08,2.0
122,122,1234551.2,853.4118,10128.326,10164.217,-85.18364,90.26249903385178,-0.03518974,1.3140354e-06,1.2728385e-05,1.2638654e-05,2.0,41,0.020487662,2.0156656e-06,0,-2.6975845539706e-08,2.0
123,123,1068345.5,1368.7201,11491.428,11572.653,-83.20762,90.81450194006902,-0.03511143,-3.3414133e-06,1.2963863e-05,1.27825215e-05,2.0,41,0.02057834,1.7781869e-06,0,-2.7194316271854844e-08,2.0
124,124,924510.06,1829.7577,13374.088,13498.676,-82.209526,91.36648423297447,-0.03518208,1.1091954e-06,1.2871949e-05,1.2635439e-05,2.0,41,0.020435944,1.5139221e-06,0,-2.702298256029323e-08,2.0
125,125,800039.0,2245.8032,15115.578,15281.503,-81.54908,91.91850319251535,-0.035147667,-3.1794038e-06,1.3160858e-05,1.2876611e-05,2.0,41,0.020371413,1.3330765e-06,0,-2.707977038661724e-08,2.0
126,126,692334.1,2659.8018,17385.572,17587.855,-81.30182,92.4704879920755,-0.035145562,-8.0140035e-07,1.3222556e-05,1.2920152e-05,2.0,41,0.020406052,1.1602355e-06,0,-2.7458398917807534e-08,2.0
127,127,599122.25,3406.8513,20146.824,20432.846,-80.402016,93.02249252496404,-0.035171647,-1.0788644e-06,1.3185545e-05,1.2818983e-05,2.0,41,0.020773789,1.016686e-06,0,-2.6699837427596408e-08,2.0
128,128,518454.94,4536.1406,23374.6,23810.68,-79.01753,93.57450148454518,-0.035166506,1.5300478e-06,1.313303e-05,1.26563855e-05,2.0,41,0.020343054,8.543668e-07,0,-2.768377207605768e-08,2.0
129,129,448662.03,5627.4155,26812.246,27396.43,-78.14668,94.12648439072655,-0.03517679,-5.444202e-07,1.3230237e-05,1.2672026e-05,2.0,41,0.020337556,7.423433e-07,0,-2.7638657596623674e-08,2.0
130,130,388258.97,7625.606,30546.299,31483.746,-75.98312,94.67850092364824,-0.035134066,-3.4903871e-06,1.3419614e-05,1.2632358e-05,2.0,41,0.020893248,6.6362014e-07,0,-2.70018985845467e-08,2.0
131,131,335983.9,6531.0244,34854.305,35460.918,-79.38695,95.23049353653914,-0.035192627,2.2451243e-06,1.3590806e-05,1.31298e-05,2.0,41,0.020379184,5.746942e-07,0,-2.708437205612826e-08,2.0
132,132,290751.2,12027.465,39313.355,41112.04,-72.98911,95.78250622938504,-0.03516943,3.0845862e-07,1.3923824e-05,1.2732119e-05,2.0,41,0.020597793,5.010161e-07,0,-2.741153880572532e-08,2.0
133,133,251605.19,16006.173,43067.984,45946.152,-69.612465,96.334492148977,-0.03517709,5.952338e-07,1.4687437e-05,1.2904964e-05,2.0,41,0.02036354,4.4320447e-07,0,-2.8245331129375255e-08,2.0
134,134,217729.38,19720.44,47678.13,51595.54,-67.52923,96.88648300184286,-0.035181466,6.0454425e-07,1.5331474e-05,1.3091759e-05,2.0,41,0.020222703,3.9194674e-07,0,-2.8791722621494306e-08,2.0
135,135,188418.58,22811.906,53828.82,58463.023,-67.03345,97.60550671597593,-0.03517573,2.4704995e-08,1.5692116e-05,1.33029735e-05,2.0,42,0.019922279,3.4076717e-07,0,-2.84767750935973e-08,2.0
136,136,163051.14,28059.43,59399.28,65693.27,-64.71458,98.02148324242444,-0.035168126,-1.0287689e-07,1.6432934e-05,1.3434938e-05,2.0,42,0.021775564,3.3147327e-07,0,-2.850056601495352e-08,2.0
137,137,141098.2,34242.457,64454.617,72985.914,-62.019875,98.57348574863863,-0.035148583,-3.4351342e-07,1.7500264e-05,1.3648174e-05,2.0,42,0.020414885,2.7970992e-07,0,-2.8492538514222804e-08,2.0
138,138,122105.11,45271.383,67052.484,80904.48,-55.97422,99.1254950815055,-0.035180815,-2.0140384e-07,1.9438889e-05,1.33523e-05,2.0,42,0.020024136,2.4750344e-07,0,-2.8483302589651297e-08,2.0
139,139,105663.59,53584.023,73558.09,91005.72,-53.92821,99.5424914213072,-0.035194546,-1.347259e-07,2.0476904e-05,1.3377898e-05,2.0,42,0.021431692,2.3549829e-07,0,-2.851104647020936e-08,2.0
140,140,91439.65,62397.418,77034.49,99135.016,-50.99276,100.09448627420352,-0.03517787,3.2140318e-07,2.2594377e-05,1.3643213e-05,2.0,42,0.020399604,2.0577598e-07,0,-2.846096654967203e-08,2.0
141,141,79127.08,73319.47,78733.26,107585.64,-47.03914,100.51050117393606,-0.035147052,-4.314239e-07,2.5546817e-05,1.36818435e-05,2.0,42,0.02141264,1.990288e-07,0,-2.846533225038793e-08,2.0
142,142,68475.36,84960.74,78880.46,115932.98,-42.874683,101.06248605353176,-0.035178598,2.632928e-07,2.9465673e-05,1.3640845e-05,2.0,42,0.02020499,1.7428164e-07,0,-2.8569096656243766e-08,2.0
143,143,59252.523,95123.67,75990.46,121750.0,-38.619946,101.478498739918,-0.035184074,2.4332671e-08,3.5347133e-05,1.3770014e-05,2.0,42,0.0208594,1.7132977e-07,0,-2.8561669631402114e-08,2.0
144,144,51282.285,105968.28,76818.62,130883.06,-35.93914,101.89448721302324,-0.03515989,-1.4776329e-07,4.0400457e-05,1.3917216e-05,2.0,42,0.021345928,1.630916e-07,0,-2.8573337879284288e-08,2.0
145,145,44369.8,116689.22,70711.2,136442.11,-31.21498,102.31148613951518,-0.035207942,1.3999477e-07,5.072761e-05,1.3624608e-05,2.0,42,0.021705473,1.5908192e-07,0,-2.8613271467643624e-08,2.0
146,146,38403.727,126044.836,64596.465,141633.34,-27.134594,102.86348888571956,-0.035175227,7.2199335e-08,6.4156106e-05,1.3345181e-05,2.0,42,0.020228636,1.4282396e-07,0,-2.870366366246202e-08,2.0
147,147,33226.32,132243.42,60008.824,145221.84,-24.407383,103.27948991881567,-0.035182398,8.128991e-09,7.982203e-05,1.3629789e-05,2.0,42,0.020382224,1.4035233e-07,0,-2.8724002995642668e-08,2.0
148,148,28754.086,138224.98,54354.734,148528.06,-21.466427,103.69549505857867,-0.0351434,-6.7711032e-09,0.00010183175,1.3637693e-05,2.0,42,0.02047351,1.378427e-07,0,-2.8708372696431105e-08,2.0
149,149,24884.947,144150.98,47509.297,151778.27,-18.241192,104.11149747835589,-0.035170995,-2.465109e-08,0.00013461852,1.3189941e-05,2.0,42,0.020562114,1.3547469e-07,0,-2.8769800378782802e-08,2.0
150,150,21553.963,147250.05,42085.99,153146.36,-15.950628,104.52850579147344,-0.03519883,2.1896547e-07,0.00017545084,1.3250039e-05,2.0,42,0.020496555,1.3383638e-07,0,-2.8739057556042546e-08,2.0
151,151,18631.234,151184.55,37347.785,155729.33,-13.876212,104.94449098457699,-0.035138726,1.3720134e-07,0.000228725,1.3155353e-05,2.0,42,0.02042737,1.3117227e-07,0,-2.8782126132935045e-08,2.0
152,152,16126.037,153839.73,32901.81,157318.77,-12.07202,105.36048673765617,-0.03513705,-2.8353992e-07,0.00029996646,1.3120523e-05,2.0,42,0.020294547,1.2900271e-07,0,-2.878042873569717e-08,2.0
153,153,13954.87,155395.77,28427.932,157974.66,-10.366992,105.77650283739786,-0.035129372,-2.0848053e-07,0.00040118909,1.2991663e-05,2.0,42,0.020029336,1.267883e-07,0,-2.8852846818947162e-08,2.0
154,154,12080.609,154104.1,24222.76,155996.2,-8.932913,106.19248789720587,-0.03512518,-2.9285212e-07,0.0005438857,1.3113748e-05,2.0,42,0.019596085,1.2561898e-07,0,-2.8857060891100913e-08,2.0
155,155,10447.592,156310.9,20766.691,157684.36,-7.5677156,106.60850893027964,-0.035157245,-2.5355297e-07,0.00073356164,1.27231315e-05,2.0,42,0.019159779,1.2150716e-07,0,-2.892803651102661e-08,2.0
156,156,9045.586,156904.3,17993.764,157932.69,-6.542093,107.04026551076095,-0.035145655,-1.3474528e-08,0.0009778256,1.2692915e-05,2.0,42,0.021736309,1.3763021e-07,0,-2.8938260755945162e-08,2.0
157,157,7827.7437,157036.84,15462.699,157796.28,-5.6235256,107.52093969364068,-0.03515542,-2.118318e-07,0.0013149166,1.2626277e-05,2.0,42,0.021775426,1.3799708e-07,0,-2.9024380399445387e-08,2.0
158,158,6770.8345,156782.78,13237.25,157340.61,-4.8260655,108.05941875916324,-0.0351739,-1.3288044e-08,0.0017757432,1.25688075e-05,2.0,42,0.021818971,1.3867349e-07,0,-2.8935261569631938e-08,2.0
159,159,5860.798,157212.7,11934.459,157665.05,-4.3411574,108.66699841473019,-0.035060883,-8.9518727e-07,0.002275415,1.3037528e-05,2.0,42,0.021914793,1.3899589e-07,0,-2.888326760387135e-08,2.0
160,160,5071.625,156742.11,10211.2,157074.38,-3.7273524,109.34769514042273,-0.035162967,-4.644063e-08,0.0030732383,1.2987905e-05,2.0,42,0.021938778,1.3967127e-07,0,-2.897563359326859e-08,2.0
161,161,4388.5933,156255.75,9844.248,156565.55,-3.6049192,110.24882104988501,-0.035142377,-3.764778e-07,0.0036839377,1.4564144e-05,2.0,42,0.020158976,1.2875742e-07,0,-2.893188923824456e-08,2.0
162,162,3798.7827,157061.0,8104.2505,157269.95,-2.953807,110.92881761552417,-0.03512453,-1.19078734e-07,0.00516967,1.3727677e-05,2.0,42,0.020218572,1.2855966e-07,0,-2.8907653958358122e-08,2.0
163,163,3286.0488,157763.89,7724.742,157952.89,-2.8031886,111.60869090115011,-0.0351685,2.465323e-07,0.0062699215,1.4995983e-05,2.0,42,0.020293571,1.2847863e-07,0,-2.8825136932044e-08,2.0
164,164,2844.088,157191.31,7516.6123,157370.92,-2.737698,112.28883450677677,-0.03524038,2.6497125e-07,0.007444833,1.6984402e-05,2.0,42,0.0202836,1.2889039e-07,0,-2.8946808443716382e-08,2.0
165,165,2460.7852,157734.31,6788.871,157880.34,-2.4644842,112.96868339241337,-0.035148356,-2.023329e-07,0.00952684,1.7615212e-05,2.0,42,0.020314042,1.2866732e-07,0,-2.8961109670360783e-08,2.0
166,166,2129.3164,157327.2,6763.394,157472.52,-2.4615924,113.64884118470945,-0.035200767,2.411311e-07,0.0110513475,2.0386144e-05,2.0,42,0.020272678,1.2873788e-07,0,-2.899056854266588e-08,2.0
167,167,1843.2289,157221.8,6362.18,157350.47,-2.3172824,114.32897247033543,-0.03519406,1.7016949e-07,0.013571721,2.2187622e-05,2.0,42,0.020270813,1.2882589e-07,0,-2.8961893153917924e-08,2.0
168,168,1594.4913,158044.34,6897.847,158194.8,-2.499089,115.0088176226418,-0.03517405,2.2418226e-07,0.01447053,2.7512317e-05,2.0,42,0.020305939,1.2836034e-07,0,-2.8951033356280378e-08,2.0
169,169,1380.4436,157796.64,6100.7734,157914.53,-2.214081,115.68868224160542,-0.035104387,-3.489306e-08,0.01889803,2.8206043e-05,2.0,42,0.02028421,1.2845055e-07,0,-2.9062488389646448e-08,2.0
170,170,1194.6187,158603.61,6587.6694,158740.36,-2.378438,116.36785046051955,-0.03518726,4.873364e-08,0.020223627,3.4829554e-05,2.0,42,0.020320335,1.2800989e-07,0,-2.9109189857409647e-08,2.0
171,171,1033.3434,158596.95,6596.2393,158734.06,-2.3816283,117.04808286615298,-0.035175078,-1.5279002e-07,0.02334958,4.032103e-05,2.0,42,0.020326195,1.2805188e-07,0,-2.914778372760354e-08,2.0
172,172,894.71045,158807.2,6761.4233,158951.08,-2.43797,117.72781295177992,-0.035183944,-6.0409356e-08,0.026308706,4.7604586e-05,2.0,42,0.020305082,1.2774423e-07,0,-2.9140670069925217e-08,2.0
173,173,774.2569,159655.8,7123.039,159814.61,-2.5545557,118.40796229074476,-0.03518482,2.1710477e-07,0.028858233,5.7328085e-05,2.0,42,0.020333173,1.2722975e-07,0,-2.916709361756394e-08,2.0
174,174,669.7856,160182.17,7904.042,160377.06,-2.8249164,119.08783525638864,-0.035160337,3.4206117e-08,0.030063195,7.302122e-05,2.0,42,0.020320002,1.2670142e-07,0,-2.924137615434811e-08,2.0
175,175,579.81464,160073.47,8459.04,160296.83,-3.0249665,119.76781190201291,-0.0351519,-1.6471016e-07,0.03244964,9.03654e-05,2.0,42,0.020296123,1.2661587e-07,0,-2.913221100014122e-08,2.0
176,176,501.44418,160611.44,9322.379,160881.77,-3.321895,120.44518348082784,-0.035135727,1.5210307e-07,0.034046367,0.00011431695,2.0,42,0.020295419,1.2615115e-07,0,-2.9102376976501333e-08,2.0
177,177,434.02762,161438.86,9068.87,161693.38,-3.2152262,121.12521961980383,-0.035190914,-1.1051097e-07,0.040434267,0.00012719542,2.0,42,0.020341413,1.2580239e-07,0,-2.9189151261147394e-08,2.0
178,178,375.6009,161347.4,10973.435,161720.14,-3.8907642,121.80344298531418,-0.03516095,3.3481535e-07,0.038614545,0.00017779022,2.0,42,0.020302217,1.255392e-07,0,-2.92982647811587e-08,2.0
179,179,325.10385,161749.42,11656.354,162168.88,-4.121853,122.48269528430683,-0.035208613,2.7670518e-07,0.041998647,0.00021698301,2.0,42,0.020260492,1.2493453e-07,0,-2.9136775871986683e-08,2.0
180,180,281.3503,163105.34,12656.595,163595.67,-4.4371276,123.15981672979251,-0.035195217,7.369131e-08,0.044694684,0.00026751368,2.0,42,0.020359661,1.244511e-07,0,-2.9000107591583556e-08,2.0
181,181,243.36427,162717.45,13574.88,163282.72,-4.768919,123.843102842191,-0.035159685,8.114139e-08,0.04817562,0.00033298056,2.0,42,0.020289183,1.24258e-07,0,-2.9114576283047812e-08,2.0
182,182,210.60631,164284.16,14803.875,164949.81,-5.1490955,124.52019546102383,-0.035155922,1.9306047e-08,0.051047366,0.00041116914,2.0,42,0.020340169,1.2331125e-07,0,-2.924136780228872e-08,2.0
183,183,182.27473,164705.89,16046.912,165485.75,-5.5646324,125.19228442627355,-0.03512371,-3.975402e-09,0.054412935,0.0005116393,2.0,42,0.020287732,1.2259504e-07,0,-2.913931259275948e-08,2.0
184,184,157.72879,165214.42,18074.455,166200.16,-6.243329,125.88064707236845,-0.035119776,7.741632e-08,0.055826955,0.0006602547,2.0,42,0.02030124,1.2214934e-07,0,-2.9264191670664235e-08,2.0
185,185,136.52892,167218.61,20451.742,168464.64,-6.972954,126.55253971755155,-0.03517763,4.5194962e-08,0.05699873,0.00084005605,2.0,42,0.020338641,1.2072944e-07,0,-2.9102606577661124e-08,2.0
186,186,118.14758,167838.14,21428.338,169200.52,-7.275741,127.24088289696374,-0.035155084,5.5811135e-08,0.06286469,0.0010082783,2.0,42,0.020298177,1.1996522e-07,0,-2.910394683443387e-08,2.0
187,187,102.25773,169389.94,23845.44,171060.1,-8.013014,127.90735092860996,-0.03518262,4.0166015e-08,0.06527076,0.001268329,2.0,42,0.020312,1.187419e-07,0,-2.9048997290612673e-08,2.0
188,188,88.4436,170113.62,26976.477,172239.3,-9.010883,128.59730810803012,-0.03514616,1.03677685e-07,0.066706546,0.0016363433,2.0,42,0.020299315,1.1785531e-07,0,-2.9068181590268694e-08,2.0
189,189,76.54279,172210.12,29198.037,174667.83,-9.622924,129.26472373976867,-0.03514778,1.4277179e-08,0.07121347,0.0019899567,2.0,42,0.020325074,1.16364156e-07,0,-2.9043636703463783e-08,2.0
190,190,66.250786,173786.33,32846.26,176863.12,-10.702863,129.9329782514833,-0.035174478,2.0145957e-07,0.07313801,0.002522554,2.0,42,0.020321954,1.1490216e-07,0,-2.904277221601682e-08,2.0
191,191,57.329906,175862.84,36029.555,179515.66,-11.578144,130.58763441594056,-0.035145096,2.0237078e-08,0.07705131,0.0031037957,2.0,42,0.020342253,1.13317434e-07,0,-2.909083945392036e-08,2.0
192,192,49.60321,177649.53,39601.074,182009.89,-12.566729,131.27234708840842,-0.035144407,-7.1212156e-08,0.08102208,0.0038355472,2.0,42,0.020302895,1.1154831e-07,0,-2.9154576097375757e-08,2.0
193,193,42.92585,181109.45,43053.707,186156.53,-13.37226,132.24145878778654,-0.035143588,2.0630209e-08,0.08611736,0.004606332,2.0,43,0.020307409,1.09087814e-07,0,-2.9332801425366898e-08,2.0
194,194,37.1518,184432.5,47263.793,190392.27,-14.373643,132.88516673832783,-0.03516753,6.176815e-08,0.0906383,0.0055856057,2.0,43,0.020364327,1.06959845e-07,0,-2.9268670365320856e-08,2.0
195,195,32.150223,186832.25,51785.965,193876.44,-15.492254,133.52339036864578,-0.035128385,1.9736325e-08,0.09559255,0.0068202163,2.0,43,0.02030315,1.0472211e-07,0,-2.9159754285201938e-08,2.0
196,196,27.835518,190002.28,57234.934,198435.64,-16.764029,134.25030234988662,-0.03511523,4.9672565e-08,0.09989865,0.008310797,2.0,43,0.020296272,1.0228138e-07,0,-2.907773970431076e-08,2.0
197,197,24.082958,193514.88,62380.19,203320.67,-17.866905,134.9523881165369,-0.03514724,6.327662e-08,0.105940886,0.009972268,2.0,43,0.020264335,9.966687e-08,0,-2.9006514256210023e-08,2.0
198,198,20.833313,197598.39,69505.21,209466.22,-19.379318,135.60676764098753,-0.035129335,3.3554358e-08,0.10991183,0.012101834,2.0,43,0.020303123,9.692791e-08,0,-2.930798224951609e-08,2.0
199,199,18.021912,202246.97,75889.805,216016.44,-20.567766,136.35270906309597,-0.03518332,8.883647e-08,0.11636861,0.014362469,2.0,43,0.020309566,9.401861e-08,0,-2.8991551855904418e-08,2.0
200,200,15.604198,207114.58,83058.86,223148.44,-21.852194,137.00801138754468,-0.03516781,4.1487677e-08,0.1227984,0.017012846,2.0,43,0.020321263,9.106612e-08,0,-2.9246017024050572e-08,2.0
201,201,13.500899,212338.97,91003.26,231018.25,-23.198782,137.75599022305687,-0.035154376,2.4382487e-08,0.12953898,0.020101191,2.0,43,0.020319967,8.795828e-08,0,-2.9321612175925932e-08,2.0
202,202,11.686608,217602.78,99471.36,239260.36,-24.566257,138.34686945113936,-0.035086557,3.9718444e-08,0.1369095,0.023664003,2.0,43,0.020287573,8.479287e-08,0,-2.9229957780117586e-08,2.0
203,203,10.113269,224102.06,109341.8,249353.89,-26.008244,139.02053334974335,-0.035124026,4.6683244e-08,0.14392704,0.027674673,2.0,43,0.020341475,8.157673e-08,0,-2.8802194612119673e-08,2.0
204,204,8.748621,230360.53,118802.125,259190.89,-27.28118,139.78736802618369,-0.035134263,7.057637e-08,0.1531286,0.032171052,2.0,43,0.020314272,7.837572e-08,0,-2.8644967197777563e-08,2.0
205,205,7.570237,237159.73,130745.484,270811.97,-28.867823,140.66297694778768,-0.035163645,6.215875e-08,0.16079922,0.037480175,2.0,43,0.020325206,7.505283e-08,0,-2.937886247791008e-08,2.0
206,206,6.554112,244422.06,142729.61,283043.97,-30.282679,141.1993208132626,-0.03511875,1.4504907e-07,0.17013443,0.043262593,2.0,43,0.02031374,7.176885e-08,0,-2.8490048792049588e-08,2.0
207,207,5.669445,251098.14,156134.42,295682.66,-31.873611,141.80913908223738,-0.03512518,-3.287419e-08,0.17979638,0.05013333,2.0,43,0.02026946,6.8551394e-08,0,-2.942967936024073e-08,2.0
208,208,4.907347,259987.45,171396.42,311400.4,-33.39482,142.5015509284276,-0.035165165,1.8488332e-07,0.189222,0.057324033,2.0,43,0.020325428,6.527104e-08,0,-2.8367507196279995e-08,2.0
209,209,4.245922,268341.03,189083.64,328267.47,-35.17003,143.2893311258813,-0.035161,-7.1414874e-08,0.19824131,0.06577281,2.0,43,0.020342965,6.19707e-08,0,-2.9067203297847992e-08,2.0
210,210,3.6747382,276729.53,207691.66,345998.62,-36.88904,144.18891810195055,-0.03515324,1.01554704e-07,0.20853294,0.07513876,2.0,43,0.02031885,5.8725238e-08,0,-2.9388300507256283e-08,2.0
211,211,3.180988,284251.8,229891.84,365580.84,-38.96459,145.2172459907888,-0.03514237,1.469946e-07,0.2176379,0.08606266,2.0,43,0.020302719,5.553551e-08,0,-2.825699104733855e-08,2.0
212,212,2.752818,295095.53,254497.4,389679.75,-40.775265,146.396177620074,-0.035149556,3.234412e-08,0.22717431,0.09689699,2.0,43,0.02032185,5.215013e-08,0,-2.8349538114178014e-08,2.0
213,213,2.3804083,304234.47,281948.7,414793.53,-42.82275,147.75003933775588,-0.035157233,8.59983e-09,0.23713662,0.10956574,2.0,43,0.020314824,4.897575e-08,0,-2.945327995289462e-08,2.0
