True,index,freq,Re(Z),Im(Z),Z,Phase(Z),time,Ewe_meas,I_meas,Cs,Cp,cycle_number,I_Range,Ewe,I,Ns,(QQo),cycle
0,0,7000018.5,418.48727,2277.9695,2316.0908,-79.590225,2.4694764639425557,-0.06065099,5.7237494e-06,9.980977e-06,9.65512e-06,1.0,40,0.010222476,4.413677e-06,0,3.000063394923005e-09,1.0
1,1,6057573.0,574.4947,2421.4792,2488.6956,-76.653366,3.021490676823305,-0.060619783,-2.2240263e-05,1.0850275e-05,1.0272087e-05,1.0,40,0.014411978,5.790977e-06,0,3.4840465523302554e-09,1.0
2,2,5242039.0,487.23627,2803.6292,2845.652,-80.14117,3.437483896588674,-0.060629714,5.5748096e-06,1.0829273e-05,1.0511794e-05,1.0,40,0.019956758,7.0130704e-06,0,1.5164953419647039e-09,1.0
3,3,4536288.0,423.30783,3171.0496,3199.1787,-82.39646,4.805483214877313,-0.06063305,-2.0026215e-05,1.10641095e-05,1.0870401e-05,1.0,40,0.018345727,5.7345114e-06,0,-1.977290866951383e-09,1.0
4,4,3925558.5,520.1917,3634.682,3671.7178,-81.8552,5.357502041122643,-0.06074864,4.209718e-05,1.1154556e-05,1.0930663e-05,1.0,40,0.01947997,5.3054105e-06,0,-4.912540862038542e-09,1.0
5,5,3397055.0,575.97595,3995.72,4037.0195,-81.79742,5.77349400750245,-0.060713742,1.4672845e-05,1.172526e-05,1.1486584e-05,1.0,40,0.02055551,5.091754e-06,0,-2.6249830699024795e-09,1.0
6,6,2939708.2,602.47925,4601.531,4640.8047,-82.54069,6.325499660422793,-0.06067169,-1.9598283e-05,1.1765586e-05,1.156729e-05,1.0,40,0.020574158,4.433317e-06,0,1.4505702318451263e-09,1.0
7,7,2543924.5,533.53973,5404.228,5430.5015,-84.36167,7.0444781479018275,-0.060675584,-4.7343374e-06,1.15766325e-05,1.1464886e-05,1.0,41,0.019949397,3.6735828e-06,0,-2.125505175974417e-09,1.0
8,8,2201436.2,527.19653,6244.0146,6266.2314,-85.17383,7.596481560758548,-0.0607203,3.1892494e-06,1.15784405e-05,1.1496485e-05,1.0,41,0.020503387,3.2720443e-06,0,-2.508955382161165e-09,1.0
9,9,1905053.1,549.80225,7140.046,7161.1826,-85.59676,8.148491480358643,-0.06067847,-2.1123753e-06,1.1700705e-05,1.1631736e-05,1.0,41,0.020569025,2.8722943e-06,0,-1.8466071748327472e-09,1.0
10,10,1648567.4,355.39185,8516.922,8524.334,-87.610565,8.700483026535949,-0.06072954,-1.3805387e-06,1.1335242e-05,1.1315537e-05,1.0,41,0.019909274,2.335581e-06,0,-2.05978255108145e-09,1.0
11,11,1426616.2,664.99854,9625.619,9648.5625,-86.04793,9.252497692796169,-0.06071756,1.7251953e-07,1.1590024e-05,1.15349685e-05,1.0,41,0.020520631,2.1268072e-06,0,-1.5677732606604877e-09,1.0
12,12,1234551.2,623.02686,11159.181,11176.56,-86.80444,9.805481159040937,-0.06078346,3.742317e-06,1.1552572e-05,1.1516673e-05,1.0,41,0.020519286,1.8359216e-06,0,-5.157879079552193e-10,1.0
13,13,1068345.5,939.0174,12686.814,12721.518,-85.76696,10.357481665239902,-0.060674597,-2.8833172e-06,1.17423715e-05,1.1678395e-05,1.0,41,0.020570569,1.6169902e-06,0,-8.911155227337985e-10,1.0
14,14,924510.06,999.0082,14636.105,14670.16,-86.09525,10.909492598118959,-0.060698092,1.6287432e-06,1.1762048e-05,1.1707504e-05,1.0,41,0.020328606,1.3857112e-06,0,2.0297982217698519e-10,1.0
15,15,800039.0,769.99115,16463.225,16481.22,-87.322205,11.461486197687918,-0.060714785,2.7721212e-06,1.2083537e-05,1.2057162e-05,1.0,41,0.020772938,1.2604005e-06,0,-7.019804335889211e-10,1.0
16,16,692334.1,2041.4294,19693.28,19798.805,-84.08179,12.013504143891623,-0.060680334,-2.4606022e-06,1.1673104e-05,1.1549003e-05,1.0,41,0.020413846,1.0310646e-06,0,-1.4991823424471324e-09,1.0
17,17,599122.25,2016.8937,22391.08,22481.732,-84.85293,12.565482756792335,-0.060781673,3.7106602e-06,1.186396e-05,1.1768475e-05,1.0,41,0.020816673,9.259372e-07,0,-1.2751213982843032e-09,1.0
18,18,518454.94,2196.8347,25296.7,25391.91,-85.03673,13.117495369660901,-0.06068656,1.3382431e-06,1.2135152e-05,1.2044318e-05,1.0,41,0.02031662,8.0012177e-07,0,-1.7981547880275962e-09,1.0
19,19,448662.03,3406.292,29065.44,29264.357,-83.31577,13.669496729242383,-0.060701184,2.189259e-06,1.220461e-05,1.2039258e-05,1.0,41,0.0201675,6.891489e-07,0,-2.2718434481387503e-09,1.0
20,20,388258.97,4840.875,33857.56,34201.875,-81.86313,14.221498915430857,-0.06067443,-4.5592783e-06,1.210718e-05,1.1864637e-05,1.0,41,0.020850575,6.096325e-07,0,-2.8284750729028476e-09,1.0
21,21,335983.9,7110.882,37032.16,37708.69,-79.13042,14.773502141673816,-0.060713723,2.2935412e-06,1.2791534e-05,1.2336664e-05,1.0,41,0.020376705,5.4037156e-07,0,-3.4184496394907963e-09,1.0
22,22,290751.2,6738.5923,43476.14,43995.266,-81.18954,15.325504434556933,-0.060625445,-4.42334e-06,1.2590635e-05,1.2295261e-05,1.0,41,0.020558696,4.6729338e-07,0,-3.240450797455373e-09,1.0
23,23,251605.19,8619.434,50920.18,51644.547,-80.39242,15.877497740759281,-0.060687583,-2.0434748e-06,1.2422546e-05,1.2076513e-05,1.0,41,0.020199466,3.9112487e-07,0,-2.9470266055934897e-09,1.0
24,24,217729.38,8398.983,57739.78,58347.453,-81.72365,16.596501188265393,-0.0607184,-1.9302261e-07,1.26598325e-05,1.2397509e-05,1.0,42,0.019746432,3.3842835e-07,0,-2.1546056296997624e-09,1.0
25,25,188418.58,11087.64,65816.47,66743.87,-80.43757,17.012493074667873,-0.06068315,-5.64221e-07,1.2833993e-05,1.2479818e-05,1.0,42,0.021837605,3.2718518e-07,0,-2.1844279782631384e-09,1.0
26,26,163051.14,12950.715,75628.38,76729.22,-80.28284,17.564494594262214,-0.06077955,2.3572763e-07,1.2906589e-05,1.2538903e-05,1.0,42,0.02081095,2.712259e-07,0,-2.140080316509104e-09,1.0
27,27,141098.2,19388.166,87938.67,90050.6,-77.566696,18.116501660464564,-0.060691252,-5.9666725e-08,1.2826812e-05,1.2232221e-05,1.0,42,0.02044812,2.2707367e-07,0,-2.2083454955412504e-09,1.0
28,28,122105.11,25209.693,96890.03,100115.97,-75.41566,18.532496826868737,-0.06073215,1.1298812e-07,1.345263e-05,1.2599657e-05,1.0,42,0.021956595,2.1931162e-07,0,-2.202667449222102e-09,1.0
29,29,105663.59,27072.742,111656.91,114892.12,-76.37087,19.084502399753546,-0.06070262,-5.347934e-07,1.3489914e-05,1.2740893e-05,1.0,42,0.020511411,1.7852757e-07,0,-2.2400572832354095e-09,1.0
30,30,91439.65,37086.21,127015.43,132318.95,-73.72315,19.500488179532113,-0.06070411,-7.978176e-08,1.3703424e-05,1.2626935e-05,1.0,42,0.021734595,1.6425912e-07,0,-2.2383744499383024e-09,1.0
31,31,79127.08,45370.207,143642.88,150637.75,-72.47106,20.052502205740893,-0.060770176,3.4729197e-07,1.4002671e-05,1.2732435e-05,1.0,42,0.02030908,1.3482065e-07,0,-2.261180457743311e-09,1.0
32,32,68475.36,57692.29,160066.45,170146.03,-70.17947,20.46850043881568,-0.06073241,-9.356441e-08,1.452063e-05,1.2851165e-05,1.0,42,0.021105433,1.2404305e-07,0,-2.2451426301588227e-09,1.0
33,33,59252.523,73641.33,176685.58,191417.97,-67.37396,20.884486085240496,-0.06072602,-2.35674e-07,1.52024e-05,1.2952361e-05,1.0,42,0.021788443,1.1382652e-07,0,-2.29269713929033e-09,1.0
34,34,51282.285,88466.79,200396.55,219055.12,-66.18053,21.436488004837884,-0.060745545,2.5323516e-07,1.548683e-05,1.296093e-05,1.0,42,0.020263305,9.250322e-08,0,-2.3329535445196904e-09,1.0
35,35,44369.8,121100.4,217858.34,249254.02,-60.931736,21.85249010458938,-0.060706772,-5.2659834e-07,1.6464875e-05,1.2578316e-05,1.0,42,0.020606445,8.267247e-08,0,-2.3427776286233382e-09,1.0
36,36,38403.727,147738.5,231468.33,274598.34,-57.451267,22.26849161766586,-0.060711935,-5.5569174e-08,1.790421e-05,1.2721623e-05,1.0,42,0.020871555,7.600758e-08,0,-2.371261343271098e-09,1.0
37,37,33226.32,175566.02,247572.55,303505.5,-54.65765,22.68449414407951,-0.060712066,1.463271e-07,1.934797e-05,1.2873815e-05,1.0,42,0.021100322,6.952204e-08,0,-2.3534669834732982e-09,1.0
38,38,28754.086,207947.84,255641.3,329537.22,-50.87385,23.100485683855368,-0.06074478,-9.896562e-08,2.1651576e-05,1.3029947e-05,1.0,42,0.021172948,6.425055e-08,0,-2.338475098048952e-09,1.0
39,39,24884.947,244569.98,263168.66,359266.22,-47.097828,23.516485970263602,-0.060825832,4.5233776e-07,2.4302404e-05,1.3040217e-05,1.0,42,0.02121328,5.904613e-08,0,-2.364855144038971e-09,1.0
40,40,21553.963,283295.2,262371.66,386128.28,-42.804073,23.933490896743024,-0.06071078,-4.371977e-07,2.8143366e-05,1.29941145e-05,1.0,42,0.021197878,5.489854e-08,0,-2.388360512915947e-09,1.0
41,41,18631.234,316047.7,260693.14,409691.4,-39.517647,24.34950459652464,-0.06076727,7.0895425e-08,3.276792e-05,1.3267661e-05,1.0,42,0.021054411,5.1390902e-08,0,-2.47725321295854e-09,1.0
42,42,16126.037,351933.2,251530.84,432579.16,-35.553844,24.765486936288653,-0.06076934,2.796829e-07,3.923749e-05,1.3266383e-05,1.0,42,0.02083467,4.816383e-08,0,-2.4661782144768354e-09,1.0
43,43,13954.87,388208.25,253435.02,463610.78,-33.137814,25.347496323898667,-0.060715046,-1.8543491e-07,4.5001576e-05,1.3447883e-05,1.0,43,0.020320106,4.38301e-08,0,-2.4793547976767164e-09,1.0
44,44,12080.609,419017.8,250815.58,488348.62,-30.903885,25.763504717004253,-0.06072563,-1.9573336e-07,5.2526295e-05,1.3855616e-05,1.0,43,0.019894091,4.073748e-08,0,-2.4995308823595585e-09,1.0
45,45,10447.592,455015.5,233177.67,511283.62,-27.133368,26.179492710070917,-0.060670555,-2.5724484e-07,6.533065e-05,1.3588363e-05,1.0,43,0.019430596,3.8003556e-08,0,-2.5171415447536007e-09,1.0
46,46,9045.586,463025.53,218599.53,512033.6,-25.27252,26.75226689732517,-0.06069638,-1.8632879e-07,8.0488564e-05,1.467019e-05,1.0,43,0.020137912,3.932928e-08,0,-2.5437446297172063e-09,1.0
47,47,7827.7437,495470.6,201357.72,534823.4,-22.116673,27.232935586827807,-0.060675528,-2.073913e-07,0.00010097532,1.4313013e-05,1.0,43,0.020233508,3.783213e-08,0,-2.5696644295532965e-09,1.0
48,48,6770.8345,513018.22,186478.67,545858.94,-19.975864,27.77141417239909,-0.060730547,-1.7215675e-07,0.00012605172,1.4711138e-05,1.0,43,0.020169184,3.6949444e-08,0,-2.590878304115051e-09,1.0
49,49,5860.798,529193.06,169437.75,555656.75,-17.754097,28.377981134544825,-0.06070474,-2.0685121e-07,0.00016027036,1.4902542e-05,1.0,43,0.020195857,3.6345924e-08,0,-2.6243989045031545e-09,1.0
50,50,5071.625,546599.06,156183.78,568475.06,-15.946618,29.05869980690477,-0.060764626,-1.9778186e-07,0.00020092644,1.5166525e-05,1.0,43,0.020225793,3.557903e-08,0,-2.663791874478948e-09,1.0
51,51,4388.5933,556532.3,142572.98,574504.4,-14.369067,29.73883143920102,-0.060748268,-1.7964311e-07,0.00025436512,1.566554e-05,1.0,43,0.020262115,3.526886e-08,0,-2.7011613514708783e-09,1.0
52,52,3798.7827,563186.0,131301.8,578289.4,-13.123577,30.418838591504027,-0.060725257,-1.9627333e-07,0.000319084,1.6449623e-05,1.0,43,0.020229403,3.4981454e-08,0,-2.7327794369344332e-09,1.0
53,53,3286.0488,569554.06,121035.41,582272.6,-11.997396,31.098680997129122,-0.060717635,-1.6243547e-07,0.00040016003,1.7290431e-05,1.0,43,0.02023174,3.4746165e-08,0,-2.7594184875435747e-09,1.0
54,54,2844.088,576820.94,114728.37,588119.9,-11.249192,31.77882910943299,-0.06070793,-1.5990274e-07,0.00048776015,1.8561634e-05,1.0,43,0.020239465,3.4413844e-08,0,-2.801014221746266e-09,1.0
55,55,2460.7852,581374.4,111323.58,591936.75,-10.839979,32.45871410172549,-0.06074033,-1.7349744e-07,0.0005809775,2.0548636e-05,1.0,43,0.020273607,3.4249616e-08,0,-2.833343763180143e-09,1.0
56,56,2129.3164,587712.8,99606.42,596093.75,-9.619167,33.13881592069811,-0.060715176,-1.9385226e-07,0.0007503996,2.095261e-05,1.0,43,0.020259518,3.3987135e-08,0,-2.872818301894268e-09,1.0
57,57,1843.2289,589316.7,95417.58,596991.4,-9.197073,33.81897512631258,-0.060674112,-2.07987e-07,0.0009049248,2.3117089e-05,1.0,43,0.020249635,3.3919477e-08,0,-2.9002479725034026e-09,1.0
58,58,1594.4913,596422.2,93386.59,603689.06,-8.899003,34.498813905287534,-0.060735207,-1.6750072e-07,0.0010688419,2.557737e-05,1.0,43,0.020311058,3.36449e-08,0,-2.9315622201592415e-09,1.0
59,59,1380.4436,597949.8,94334.31,605345.3,-8.965258,35.178678177588154,-0.06069662,-1.9048132e-07,0.0012221704,2.968006e-05,1.0,43,0.020275697,3.349443e-08,0,-2.9767828481357456e-09,1.0
60,60,1194.6187,602876.75,93179.13,610035.0,-8.785974,35.85881042321853,-0.06068166,-1.8657043e-07,0.0014297898,3.3358e-05,1.0,43,0.020350665,3.3359832e-08,0,-2.9909521350583816e-09,1.0
61,61,1033.3434,607352.3,93183.55,614459.1,-8.722635,36.539079788839445,-0.060732335,-1.9416855e-07,0.0016528605,3.80127e-05,1.0,43,0.020359736,3.3134402e-08,0,-3.009924687024749e-09,1.0
62,62,894.71045,608818.7,93755.5,615995.4,-8.754536,37.2188497944735,-0.060727883,-1.6137359e-07,0.0018973214,4.3952085e-05,1.0,43,0.020338256,3.3016896e-08,0,-3.064035676933567e-09,1.0
63,63,774.2569,609695.5,99281.07,617725.94,-9.248705,37.898938466765685,-0.06068559,-1.9673847e-07,0.0020704684,5.3482272e-05,1.0,43,0.020291008,3.2847915e-08,0,-3.1243427505079357e-09,1.0
64,64,669.7856,617759.25,105665.25,626730.94,-9.706283,38.57883823240991,-0.060731888,-1.8800432e-07,0.0022488069,6.392258e-05,1.0,43,0.02036773,3.2498363e-08,0,-3.1383524779137565e-09,1.0
65,65,579.81464,624645.0,111983.98,634603.6,-10.163799,39.25880338471325,-0.06073504,-1.7403713e-07,0.0024511793,7.6327626e-05,1.0,43,0.02042892,3.2191622e-08,0,-3.1686721757692038e-09,1.0
66,66,501.44418,628603.56,121797.01,640294.44,-10.965642,39.93619621687685,-0.060674336,-1.8059235e-07,0.002605919,9.4291965e-05,1.0,43,0.020406304,3.1870186e-08,0,-3.214359858567242e-09,1.0
67,67,434.02762,634941.06,132317.75,648581.6,-11.771606,40.61621003583423,-0.06071378,-2.0902957e-07,0.0027713072,0.00011534309,1.0,43,0.0204293,3.1498427e-08,0,-3.2615750519637337e-09,1.0
68,68,375.6009,642331.75,142993.52,658055.6,-12.550323,41.29443502801587,-0.06074141,-1.770354e-07,0.0029633108,0.00013992157,1.0,43,0.020434191,3.1052377e-08,0,-3.293834886243192e-09,1.0
69,69,325.10385,649527.56,157274.97,668297.44,-13.611476,41.97368978033046,-0.060634613,-2.1087322e-07,0.0031127082,0.00017239236,1.0,43,0.020414654,3.054726e-08,0,-3.3530021191092227e-09,1.0
70,70,281.3503,658069.0,169804.1,679623.6,-14.468648,42.65081951915636,-0.060743235,-1.4530197e-07,0.003331383,0.00020796199,1.0,43,0.020408161,3.0028623e-08,0,-3.39234644697364e-09,1.0
71,71,243.36427,670519.5,185263.45,695642.8,-15.44539,43.33409779155045,-0.06070409,-1.8755736e-07,0.0035299908,0.00025036896,1.0,43,0.020444727,2.9389689e-08,0,-3.4334356768505663e-09,1.0
72,72,210.60631,680485.6,203309.19,710207.94,-16.634607,44.01118043708266,-0.060734015,-1.6180186e-07,0.0037169931,0.0003046034,1.0,43,0.0204197,2.8751721e-08,0,-3.442706511497498e-09,1.0
73,73,182.27473,696326.75,223246.16,731238.5,-17.776134,44.68226092230179,-0.0606694,-1.8135592e-07,0.0039111967,0.00036455205,1.0,43,0.02045799,2.7977178e-08,0,-3.5065157350421876e-09,1.0
74,74,157.72879,711839.8,242086.67,751878.9,-18.782444,45.37062804834932,-0.060689986,-1.9485755e-07,0.0041681016,0.0004321,1.0,43,0.020493055,2.7255792e-08,0,-3.5592982575109023e-09,1.0
75,75,136.52892,724013.06,270007.3,772721.75,-20.452072,46.04252509356593,-0.06069293,-1.9569558e-07,0.0043173768,0.00052713853,1.0,43,0.020437906,2.6449243e-08,0,-3.579406732394134e-09,1.0
76,76,118.14758,744076.4,290183.8,798659.06,-21.305384,46.73090371294529,-0.060718846,-1.7802245e-07,0.0046421816,0.0006128379,1.0,43,0.020456705,2.5613815e-08,0,-3.602336771300828e-09,1.0
77,77,102.25773,763443.56,319902.78,827758.3,-22.734957,47.397330197884,-0.060697608,-1.8364658e-07,0.004865259,0.00072666607,1.0,43,0.020489173,2.4752604e-08,0,-3.638065449186076e-09,1.0
78,78,88.4436,785789.3,346152.6,858653.9,-23.77425,48.087263297318714,-0.06069317,-1.9860082e-07,0.005198596,0.0008448605,1.0,43,0.02044003,2.3804738e-08,0,-3.6805362289336556e-09,1.0
79,79,76.54279,807875.0,378439.2,892120.06,-25.100168,48.75472218241339,-0.06065563,-1.9666402e-07,0.005494393,0.0009887018,1.0,43,0.020449173,2.2921997e-08,0,-3.709703369707033e-09,1.0
80,80,66.250786,832257.3,413729.62,929421.56,-26.432772,49.42297434745706,-0.060723096,-1.7954957e-07,0.005806474,0.0011505891,1.0,43,0.020435836,2.1987693e-08,0,-3.761932589029386e-09,1.0
81,81,57.329906,870351.2,444048.06,977082.3,-27.030407,50.07764600525479,-0.060719423,-1.6327317e-07,0.0062518553,0.0012912388,1.0,43,0.02047762,2.0957929e-08,0,-3.7771857463773345e-09,1.0
82,82,49.60321,894904.0,489607.1,1020082.5,-28.683321,50.763354891125346,-0.06070353,-1.7388824e-07,0.0065533393,0.0015096888,1.0,43,0.020456761,2.0054026e-08,0,-3.806792878582001e-09,1.0
83,83,42.92585,930233.75,530323.75,1070783.9,-29.68735,51.47145615142654,-0.06063642,-1.8785548e-07,0.006991336,0.0017148996,1.0,43,0.020437798,1.9086762e-08,0,-3.86552576748595e-09,1.0
84,84,37.1518,969145.9,578438.2,1128642.8,-30.831017,52.115169995318865,-0.060658947,-1.7385106e-07,0.0074059935,0.0019452897,1.0,43,0.020447133,1.8116568e-08,0,-3.894941637264671e-09,1.0
85,85,32.150223,1014548.0,629284.1,1193861.9,-31.809696,52.753355465625646,-0.060737815,-1.6504248e-07,0.0078666415,0.0021856204,1.0,43,0.020477379,1.7152217e-08,0,-3.899682788804186e-09,1.0
86,86,27.835518,1054606.5,678600.4,1254070.8,-32.759785,53.48132358022849,-0.060672753,-1.743633e-07,0.008425714,0.002467123,1.0,43,0.020408481,1.6273788e-08,0,-3.933289581928351e-09,1.0
87,87,24.082958,1116222.4,749032.1,1344247.5,-33.863274,54.183373400213895,-0.06068967,-1.7426092e-07,0.0088228695,0.0027393799,1.0,43,0.02054641,1.5284693e-08,0,-3.950757163349447e-09,1.0
88,88,20.833313,1161720.6,799850.3,1410445.1,-34.5476,54.837742018004064,-0.060703643,-1.6260299e-07,0.009551093,0.0030715538,1.0,43,0.02043156,1.4485895e-08,0,-4.010851423803111e-09,1.0
89,89,18.021912,1227508.6,869985.3,1504543.8,-35.32675,55.58372256010625,-0.060663633,-2.1930046e-07,0.010150965,0.003394076,1.0,43,0.020461034,1.3599494e-08,0,-4.033781033095682e-09,1.0
90,90,15.604198,1291861.1,932629.94,1593331.0,-35.826553,56.23900627120747,-0.060747076,-1.7856286e-07,0.010936272,0.0037469338,1.0,43,0.020417755,1.28145095e-08,0,-4.1057693113475645e-09,1.0
91,91,13.500899,1358193.9,1014949.9,1695527.6,-36.769993,56.9869601734099,-0.06070929,-1.7825559e-07,0.011614829,0.0041619064,1.0,43,0.0204266,1.2047341e-08,0,-4.150035174529289e-09,1.0
92,92,11.686608,1439362.5,1093574.8,1807669.8,-37.226234,57.577896281465655,-0.060652833,-2.2476631e-07,0.012453265,0.0045576603,1.0,43,0.020435123,1.1304677e-08,0,-4.179679245800415e-09,1.0
93,93,10.113269,1525203.6,1180913.0,1928937.9,-37.749393,58.2515080467856,-0.0606198,-2.1737303e-07,0.013326334,0.0049947067,1.0,43,0.020421341,1.0586832e-08,0,-4.168452527587857e-09,1.0
94,94,8.748621,1624015.8,1272623.6,2063249.4,-38.08323,59.018380056513706,-0.060724307,-1.8479227e-07,0.014294881,0.005438474,1.0,43,0.020445313,9.909279e-09,0,-4.160606763862836e-09,1.0
95,95,7.570237,1724504.8,1367152.8,2200687.0,-38.406673,59.89300223143073,-0.06073556,-1.6263103e-07,0.015377779,0.0059348685,1.0,43,0.020448517,9.291879e-09,0,-4.301939282395516e-09,1.0
96,96,6.554112,1819582.6,1465284.2,2336223.2,-38.844,60.42932129689143,-0.060691886,-1.9236252e-07,0.016572362,0.006519278,1.0,43,0.020422775,8.741791e-09,0,-4.235863599776618e-09,1.0
97,97,5.669445,1943098.5,1574249.1,2500778.2,-39.013515,61.039112739177654,-0.060674727,-1.6413023e-07,0.01783225,0.0070664724,1.0,43,0.02045505,8.179473e-09,0,-4.366849026668667e-09,1.0
98,98,4.907347,2071044.1,1698062.5,2678178.5,-39.34855,61.73152101205778,-0.060685813,-1.8902908e-07,0.019099398,0.0076779975,1.0,43,0.020459037,7.639161e-09,0,-4.2786334330070264e-09,1.0
99,99,4.245922,2207475.8,1818720.8,2860191.2,-39.484825,62.51933096945868,-0.06068772,-1.8224104e-07,0.020610193,0.008333433,1.0,43,0.020449422,7.1496693e-09,0,-4.420330573845517e-09,1.0
100,100,3.6747382,2370068.8,1950703.6,3069604.2,-39.456356,63.41891578558716,-0.060663864,-1.8531381e-07,0.022202527,0.008966444,1.0,43,0.020473009,6.6695924e-09,0,-4.481905391026226e-09,1.0
101,101,3.180988,2524747.2,2078647.9,3270340.2,-39.464947,64.44823202109546,-0.060689278,-1.8698988e-07,0.024070058,0.009724183,1.0,43,0.020458829,6.255872e-09,0,-4.4088849900488656e-09,1.0
102,102,2.752818,2694864.5,2223780.5,3493922.5,-39.52918,65.62708909044159,-0.060688123,-1.8538506e-07,0.025998643,0.01053193,1.0,43,0.020441206,5.8505036e-09,0,-4.501728365518357e-09,1.0
103,103,2.3804083,2879823.8,2361768.2,3724424.0,-39.355473,66.98202254148782,-0.060682606,-1.777497e-07,0.028309446,0.011383812,1.0,43,0.020450871,5.491016e-09,0,-4.694626127087388e-09,1.0
104,104,2.060257,3098636.5,2524899.5,3997082.2,-39.1746,68.53837093539187,-0.060690492,-1.8510899e-07,0.030595295,0.012208342,1.0,43,0.02043894,5.1134648e-09,0,-4.774259979419431e-09,1.0
