True,index,freq,Re(Z),Im(Z),Z,Phase(Z),time,Ewe_meas,I_meas,Cs,Cp,cycle_number,I_Range,Ewe,I,Ns,(QQo),cycle
110,110,7000018.5,239.66432,1915.1455,1930.0833,-82.867,83.00450260916841,-0.012553822,1.9975476e-05,1.1871872e-05,1.16888195e-05,2.0,40,0.010169418,5.268901e-06,0,5.8196882174270064e-08,2.0
111,111,6057573.0,538.0188,2245.1152,2308.6807,-76.52379,83.55648402203224,-0.012471638,-6.0418522e-05,1.1702613e-05,1.10670635e-05,2.0,40,0.014307473,6.197251e-06,0,5.467024386802782e-08,2.0
112,112,5242039.0,461.28854,2504.5215,2546.6477,-79.56409,83.97249486847431,-0.012447341,-5.3553118e-05,1.2122581e-05,1.1724839e-05,2.0,40,0.019733962,7.748996e-06,0,5.57789691049331e-08,2.0
113,113,4536288.0,417.62524,2886.7766,2916.8289,-81.76823,85.20450415366213,-0.01255712,-2.3882942e-06,1.2153639e-05,1.190449e-05,2.0,40,0.020780824,7.1244576e-06,0,4.950084852419244e-08,2.0
114,114,3925558.5,533.69006,3349.9556,3392.201,-80.94813,85.62048926673015,-0.012546444,-3.4929126e-05,1.2102626e-05,1.1803059e-05,2.0,40,0.019608825,5.7805614e-06,0,4.767475816835661e-08,2.0
115,115,3397055.0,617.88666,3697.0376,3748.3157,-80.51184,86.03648731313297,-0.012507765,-5.8613776e-05,1.2672541e-05,1.2328184e-05,2.0,40,0.020789642,5.5463956e-06,0,4.600687073858604e-08,2.0
116,116,2939708.2,740.769,4176.1553,4241.3457,-79.94146,86.58849213938811,-0.012570926,-8.769942e-06,1.2964007e-05,1.256855e-05,2.0,40,0.020974882,4.9453365e-06,0,4.140239410443256e-08,2.0
117,117,2543924.5,731.2538,4763.5576,4819.3584,-81.27265,87.14049499222892,-0.012577764,-1.1170037e-05,1.3133622e-05,1.2831248e-05,2.0,40,0.020546928,4.2634156e-06,0,3.913903663874684e-08,2.0
118,118,2201436.2,619.1213,5703.3706,5736.876,-83.804596,87.8595077197242,-0.0126390625,8.875825e-07,1.2676006e-05,1.2528373e-05,2.0,41,0.019961586,3.479522e-06,0,4.360241771731547e-08,2.0
119,119,1905053.1,739.1015,6597.4307,6638.7017,-83.60788,88.41150651927455,-0.012693876,8.3419e-06,1.2663047e-05,1.2506091e-05,2.0,41,0.020507514,3.089085e-06,0,4.3753529801424665e-08,2.0
120,120,1648567.4,822.0691,7538.257,7582.9487,-83.77632,88.9635066788469,-0.01249476,-7.2929583e-06,1.2806856e-05,1.265634e-05,2.0,41,0.019787632,2.6094904e-06,0,4.182797586362715e-08,2.0
121,121,1426616.2,961.17267,8624.87,8678.263,-83.64108,89.51550249170396,-0.012564647,4.760544e-07,1.2934821e-05,1.2776149e-05,2.0,41,0.020587781,2.3723392e-06,0,4.283571864529397e-08,2.0
122,122,1234551.2,1228.7695,10039.105,10114.025,-83.021805,90.0674902779574,-0.012624585,5.0141853e-06,1.2841507e-05,1.26519635e-05,2.0,41,0.020459455,2.0228795e-06,0,4.385320120634104e-08,2.0
123,123,1068345.5,1427.8746,11469.727,11558.264,-82.90372,90.61949297084357,-0.012531892,-5.3525664e-06,1.2988391e-05,1.2790169e-05,2.0,41,0.020638684,1.7856214e-06,0,4.3595095083959495e-08,2.0
124,124,924510.06,1786.1279,13363.59,13482.425,-82.38718,91.17148278371315,-0.012628255,6.392198e-06,1.2882061e-05,1.2655975e-05,2.0,41,0.020294886,1.5052846e-06,0,4.391732036067353e-08,2.0
125,125,800039.0,2423.6025,14481.969,14683.367,-80.49941,91.72349030329497,-0.012539103,-4.2892625e-06,1.3736666e-05,1.33624235e-05,2.0,41,0.020429691,1.3913492e-06,0,4.4501128981951787e-08,2.0
126,126,692334.1,3221.0913,17039.594,17341.371,-79.295364,92.27550342280301,-0.012546705,-1.6989709e-06,1.3491032e-05,1.3025571e-05,2.0,41,0.020303223,1.1707968e-06,0,4.370315686728037e-08,2.0
127,127,599122.25,3881.6433,19884.65,20259.973,-78.95431,92.82748446238111,-0.012703677,9.878199e-06,1.3359394e-05,1.2869004e-05,2.0,41,0.020707292,1.022079e-06,0,4.372829789754581e-08,2.0
128,128,518454.94,4541.565,22691.457,23141.479,-78.68212,93.37949896857026,-0.012627287,5.0663266e-06,1.3528409e-05,1.3007364e-05,2.0,41,0.020430163,8.8283736e-07,0,4.443337481864557e-08,2.0
129,129,448662.03,5931.169,25810.008,26482.734,-77.05806,93.93150715480442,-0.012557772,-4.0639393e-06,1.3743985e-05,1.3054591e-05,2.0,41,0.020174542,7.617998e-07,0,4.5118948066694427e-08,2.0
130,130,388258.97,7633.7544,29991.062,30947.344,-75.719505,94.48348702103249,-0.01263623,6.51324e-06,1.3668057e-05,1.28364145e-05,2.0,41,0.020937422,6.765499e-07,0,4.471051793307268e-08,2.0
131,131,335983.9,10827.955,31976.803,33760.34,-71.29292,95.03549520726665,-0.012572827,-1.4196439e-06,1.4813805e-05,1.3289941e-05,2.0,41,0.02032284,6.019738e-07,0,4.485620533728765e-08,2.0
132,132,290751.2,12029.748,37921.656,39784.004,-72.399605,95.58749355349573,-0.012550618,-3.382381e-06,1.4434818e-05,1.311502e-05,2.0,41,0.020673823,5.196516e-07,0,4.449801226177996e-08,2.0
133,133,251605.19,16475.826,42084.133,45194.324,-68.61979,96.13948523302679,-0.012611934,6.4178835e-07,1.5030802e-05,1.3033202e-05,2.0,41,0.02037048,4.507309e-07,0,4.4974107376667797e-08,2.0
134,134,217729.38,18737.377,47433.54,51000.293,-68.4448,96.69150789923151,-0.01258626,9.434615e-07,1.541053e-05,1.3330404e-05,2.0,41,0.020289114,3.9782347e-07,0,4.587304549518597e-08,2.0
135,135,188418.58,22160.86,53021.047,57465.95,-67.31686,97.4104865467234,-0.012555964,-2.9881318e-07,1.5931186e-05,1.3561993e-05,2.0,42,0.019955844,3.472638e-07,0,4.6993643839214746e-08,2.0
136,136,163051.14,26828.234,58010.69,63913.96,-65.18085,97.82649563314044,-0.012625107,7.693373e-07,1.6826287e-05,1.3861584e-05,2.0,42,0.02179879,3.410646e-07,0,4.7064419553890165e-08,2.0
137,137,141098.2,34198.543,64175.363,72718.76,-61.9472,98.37849760605604,-0.012633435,8.280063e-07,1.7576416e-05,1.3689074e-05,2.0,42,0.020326307,2.7951944e-07,0,4.721989170125577e-08,2.0
138,138,122105.11,41323.22,68064.51,79626.54,-58.73729,98.79448882580618,-0.012551307,1.2008668e-10,1.914986e-05,1.3992372e-05,2.0,42,0.02186769,2.7462818e-07,0,4.732284428985207e-08,2.0
139,139,105663.59,50276.797,73032.266,88664.92,-55.45574,99.3464905853325,-0.012574913,2.1207381e-07,2.0624335e-05,1.399284e-05,2.0,42,0.020494081,2.311408e-07,0,4.7319947507873136e-08,2.0
140,140,91439.65,59688.254,76208.64,96801.055,-51.931187,99.76248873842997,-0.012651266,8.3806395e-07,2.2839225e-05,1.4155644e-05,2.0,42,0.021654224,2.2369822e-07,0,4.741148630147821e-08,2.0
141,141,79127.08,70142.09,78623.49,105363.97,-48.263004,100.31450497798505,-0.012536849,4.962508e-09,2.5582482e-05,1.4245021e-05,2.0,42,0.020268409,1.9236565e-07,0,4.751277470835093e-08,2.0
142,142,68475.36,81707.47,80197.29,114488.93,-44.465584,100.73050593110383,-0.012633491,4.3576156e-07,2.898185e-05,1.4220619e-05,2.0,42,0.021024942,1.836417e-07,0,4.7544664752039246e-08,2.0
143,143,59252.523,90440.914,79583.51,120470.305,-41.346172,101.14648829752696,-0.012640012,1.0448028e-06,3.3751276e-05,1.4729104e-05,2.0,42,0.021691224,1.8005453e-07,0,4.765785651801756e-08,2.0
144,144,51282.285,103003.164,81467.24,131326.17,-38.34117,101.69849360370426,-0.012572044,4.199302e-07,3.8095157e-05,1.4659974e-05,2.0,42,0.020336194,1.5485256e-07,0,4.782171789864916e-08,2.0
145,145,44369.8,112511.55,74693.07,135047.78,-33.579,102.11449781016563,-0.012581583,4.9312695e-07,4.802334e-05,1.46905495e-05,2.0,42,0.020603696,1.5256597e-07,0,4.789645664096278e-08,2.0
146,146,38403.727,120697.62,71601.45,140337.75,-30.677692,102.53048598990426,-0.0126682585,1.2319853e-06,5.7879523e-05,1.5066749e-05,2.0,42,0.020897329,1.489074e-07,0,4.800364133919505e-08,2.0
147,147,33226.32,129416.42,66111.1,145324.77,-27.059769,102.94650446300511,-0.012672953,1.2714705e-06,7.245419e-05,1.4994535e-05,2.0,42,0.021113401,1.4528426e-07,0,4.813301305301801e-08,2.0
148,148,28754.086,137511.31,62117.387,150890.45,-24.309916,103.36249602944008,-0.012593601,3.5641878e-07,8.910609e-05,1.5101156e-05,2.0,42,0.021265065,1.4093048e-07,0,4.818335924868992e-08,2.0
149,149,24884.947,142491.19,58936.305,154198.66,-22.470657,103.77849170254194,-0.012627082,1.1057072e-06,0.000108517685,1.585277e-05,2.0,42,0.021267666,1.379238e-07,0,4.821992322606603e-08,2.0
150,150,21553.963,146452.23,53842.836,156036.23,-20.185839,104.1954851890041,-0.012486151,-3.2101024e-08,0.00013714029,1.6329392e-05,2.0,42,0.021199806,1.3586464e-07,0,4.82383054955573e-08,2.0
151,151,18631.234,152045.62,50112.645,160091.06,-18.241678,104.61148491539643,-0.012647763,1.1787179e-06,0.00017046342,1.670289e-05,2.0,42,0.021185772,1.3233576e-07,0,4.8300932671865404e-08,2.0
152,152,16126.037,156820.78,45174.414,163197.69,-16.069784,105.02748373520444,-0.012549331,9.734374e-08,0.0002184741,1.674006e-05,2.0,42,0.021112531,1.2936783e-07,0,4.832678261720701e-08,2.0
153,153,13954.87,157128.58,42288.83,162719.81,-15.063381,105.4435030616296,-0.012625871,9.861344e-07,0.0002696924,1.8215418e-05,2.0,42,0.020684645,1.2711817e-07,0,4.830170882829312e-08,2.0
154,154,12080.609,160869.89,41075.83,166031.16,-14.323611,105.85948596135131,-0.012595856,6.296498e-07,0.00032073396,1.963082e-05,2.0,42,0.020389602,1.2280587e-07,0,4.8412660355325334e-08,2.0
155,155,10447.592,163210.8,36573.35,167258.4,-12.630562,106.27550472776056,-0.012594327,7.685934e-07,0.00041652317,1.9915571e-05,2.0,42,0.0198636,1.1875995e-07,0,4.8458113987797484e-08,2.0
156,156,9045.586,165346.5,33201.9,168647.06,-11.354107,106.84826523499214,-0.012610649,6.840356e-07,0.00052993244,2.0539448e-05,2.0,42,0.020286595,1.2029024e-07,0,4.852435604241911e-08,2.0
157,157,7827.7437,167059.67,30930.918,169898.95,-10.489469,107.32893360452726,-0.012569211,5.5570865e-07,0.00065734104,2.1786875e-05,2.0,42,0.02028201,1.1937689e-07,0,4.8664477699566114e-08,2.0
158,158,6770.8345,168924.31,30040.742,171574.67,-10.083805,107.86742035005591,-0.01259224,5.124986e-07,0.00078246923,2.398735e-05,2.0,42,0.020325445,1.1846413e-07,0,4.879008472525381e-08,2.0
159,159,5860.798,169946.61,29352.215,172462.75,-9.799129,108.47397675222601,-0.012537408,7.0023987e-07,0.00092517206,2.6798694e-05,2.0,42,0.020363923,1.18077224e-07,0,4.881132192453919e-08,2.0
160,160,5071.625,172153.25,27337.947,174310.38,-9.023229,109.15472331792262,-0.012544041,7.6244794e-07,0.001147908,2.8235301e-05,2.0,42,0.020441229,1.17269146e-07,0,4.891352753610424e-08,2.0
161,161,4388.5933,173104.06,26837.828,175172.16,-8.812899,109.83481833689439,-0.012540631,7.063863e-07,0.0013512865,3.1718457e-05,2.0,42,0.020445956,1.1671921e-07,0,4.9077688049566447e-08,2.0
162,162,3798.7827,174450.3,26746.404,176488.75,-8.716609,110.51482039585244,-0.0125116585,4.5010475e-07,0.0015664275,3.5975518e-05,2.0,42,0.020461835,1.1593847e-07,0,4.925908357753804e-08,2.0
163,163,3286.0488,177338.38,27793.771,179503.19,-8.907354,111.19471744148905,-0.012569473,6.071144e-07,0.0017426037,4.1778156e-05,2.0,42,0.02056899,1.1458843e-07,0,4.938203664229353e-08,2.0
164,164,2844.088,177743.48,27806.217,179905.34,-8.891294,111.87481790044694,-0.012590899,5.6315923e-07,0.0020124968,4.8076283e-05,2.0,42,0.02048201,1.13848806e-07,0,4.957321549327571e-08,2.0
165,165,2460.7852,180037.17,28303.537,182248.39,-8.934311,112.55471169274824,-0.012559132,4.6090733e-07,0.0022851026,5.511372e-05,2.0,42,0.020520438,1.1259599e-07,0,4.967589917165998e-08,2.0
166,166,2129.3164,182860.45,29214.873,185179.52,-9.077201,113.23481225837895,-0.012523061,4.7506242e-07,0.0025584442,6.367927e-05,2.0,42,0.020537097,1.1090372e-07,0,4.982120775233777e-08,2.0
167,167,1843.2289,184491.3,28947.22,186748.44,-8.917173,113.91494565067114,-0.0126089165,9.727254e-07,0.0029828676,7.1669405e-05,2.0,42,0.020470422,1.0961495e-07,0,4.997601319716368e-08,2.0
168,168,1594.4913,188442.22,30148.805,190838.73,-9.089699,114.59480736296973,-0.012598966,4.193733e-07,0.0033107614,8.262948e-05,2.0,42,0.020549355,1.0767916e-07,0,5.014291098078042e-08,2.0
169,169,1380.4436,191992.19,31151.777,194503.05,-9.216234,115.27468046194554,-0.012567051,5.804804e-07,0.003700996,9.493612e-05,2.0,42,0.0205912,1.05865695e-07,0,5.034954837400936e-08,2.0
170,170,1194.6187,193710.83,31476.826,196251.56,-9.229545,115.95481164091325,-0.012588663,7.1514e-07,0.0042325286,0.00010888186,2.0,42,0.020517476,1.04546814e-07,0,5.044621885580655e-08,2.0
171,171,1033.3434,198306.23,30642.096,200659.66,-8.783823,116.63509415320004,-0.012544823,4.305482e-07,0.0050263996,0.00011721247,2.0,42,0.020558072,1.0245245e-07,0,5.051350287082659e-08,2.0
172,172,894.71045,201675.77,31370.635,204101.03,-8.8414955,117.31484805216314,-0.012627715,6.4492326e-07,0.0056704083,0.00013395859,2.0,42,0.020610133,1.0098005e-07,0,5.061900338447427e-08,2.0
173,173,774.2569,202502.3,32581.434,205106.62,-9.140223,117.9949424311344,-0.012633864,6.560984e-07,0.006309063,0.00015920104,2.0,42,0.02053005,1.00094525e-07,0,5.08264826055543e-08,2.0
174,174,669.7856,207619.4,30216.525,209806.72,-8.280578,118.67484121010057,-0.012561163,6.1866183e-07,0.007863933,0.00016311357,2.0,42,0.020598166,9.817686e-08,0,5.0901685117586944e-08,2.0
175,175,579.81464,210610.5,29284.684,212636.72,-7.9160304,119.35482321573363,-0.012534576,5.9687034e-07,0.009373255,0.00017778494,2.0,42,0.020594088,9.6851046e-08,0,5.096481022439588e-08,2.0
176,176,501.44418,212965.34,28976.752,214927.64,-7.748267,120.03219463452115,-0.012613667,6.048792e-07,0.010953371,0.00019909607,2.0,42,0.020575373,9.573163e-08,0,5.1038117523418886e-08,2.0
177,177,434.02762,215186.42,28719.55,217094.47,-7.601976,120.71220309348428,-0.01263092,4.936872e-07,0.0127680665,0.00022345131,2.0,42,0.020562023,9.4714636e-08,0,5.122907474243199e-08,2.0
178,178,375.6009,216375.95,27944.172,218172.94,-7.358811,121.39044552572886,-0.012595725,4.8847204e-07,0.0151635995,0.0002487614,2.0,42,0.020527758,9.408939e-08,0,5.1430657445582085e-08,2.0
179,179,325.10385,218852.33,27955.742,220630.61,-7.279422,122.0697108113527,-0.012643869,5.763825e-07,0.017511647,0.00028114964,2.0,42,0.02056443,9.320751e-08,0,5.152068785085816e-08,2.0
180,180,281.3503,220740.9,28367.023,222556.14,-7.3228445,122.74681804350985,-0.012576069,5.771275e-07,0.019941553,0.0003239719,2.0,42,0.020580199,9.247194e-08,0,5.1540427368891727e-08,2.0
181,181,243.36427,222566.11,29040.184,224452.67,-7.433894,123.430121355952,-0.012597122,5.985464e-07,0.022519771,0.00037697548,2.0,42,0.020565234,9.1623924e-08,0,5.177210912143594e-08,2.0
182,182,210.60631,224802.81,29589.904,226741.84,-7.4985104,124.10717277476215,-0.012674443,5.903513e-07,0.025539078,0.00043493963,2.0,42,0.02059204,9.081711e-08,0,5.195426093324546e-08,2.0
183,183,182.27473,226763.62,31607.629,228955.86,-7.9350924,124.77828253994812,-0.012635429,5.8457755e-07,0.027624965,0.0005264802,2.0,42,0.020595042,8.995202e-08,0,5.205003974121188e-08,2.0
184,184,157.72879,228226.94,33216.742,230631.5,-8.280833,125.46665926603964,-0.012567796,6.4604035e-07,0.030377507,0.00063012826,2.0,42,0.020584183,8.9251394e-08,0,5.219449022412073e-08,2.0
185,185,136.52892,229489.6,33110.67,231865.89,-8.209958,126.13854228457785,-0.012598333,5.847637e-07,0.035206877,0.00071794266,2.0,42,0.020542223,8.859528e-08,0,5.2177612298810137e-08,2.0
186,186,118.14758,233757.72,29345.871,235592.55,-7.155461,127.08190979607753,-0.012603662,5.250314e-07,0.045903765,0.0007122283,2.0,43,0.020541104,8.718911e-08,0,5.22901506763866e-08,2.0
187,187,102.25773,236115.45,32338.744,238319.75,-7.798797,127.74834190771799,-0.01262071,5.196679e-07,0.048128337,0.00088619045,2.0,43,0.020585451,8.637745e-08,0,5.235683340956045e-08,2.0
188,188,88.4436,236921.23,35577.92,239577.67,-8.540164,128.43827815380064,-0.012561014,4.851596e-07,0.05057933,0.001115428,2.0,43,0.020490482,8.552751e-08,0,5.246298017490009e-08,2.0
189,189,76.54279,240345.4,38928.73,243477.64,-9.2002945,129.10474853216147,-0.012557753,5.277316e-07,0.05341283,0.0013654252,2.0,43,0.020572513,8.449447e-08,0,5.25596084633199e-08,2.0
190,190,66.250786,242668.12,42755.574,246405.88,-9.99236,129.77300613722764,-0.012552555,5.03317e-07,0.056187067,0.0016916859,2.0,43,0.020561155,8.3444256e-08,0,5.263021417467072e-08,2.0
191,191,57.329906,245577.89,46809.16,249999.2,-10.791596,130.4276439283385,-0.012581956,5.024045e-07,0.05930729,0.002079182,2.0,43,0.020575903,8.230388e-08,0,5.2793491705236346e-08,2.0
192,192,49.60321,249807.36,51058.793,254972.0,-11.551728,131.11336558751645,-0.012551921,5.083637e-07,0.06284052,0.002519973,2.0,43,0.02065018,8.098999e-08,0,5.2926484923565156e-08,2.0
193,193,42.92585,251535.73,55867.254,257665.23,-12.5223875,131.82146098118392,-0.01254281,4.977114e-07,0.06636574,0.0031199448,2.0,43,0.02052114,7.964264e-08,0,5.2956154069318295e-08,2.0
194,194,37.1518,256557.62,60378.527,263566.66,-13.243065,132.46518690508674,-0.012582981,5.5976295e-07,0.07095088,0.0037234188,2.0,43,0.020606095,7.818172e-08,0,5.298495810993191e-08,2.0
195,195,32.150223,260018.0,66348.77,268349.62,-14.314693,133.1034025887202,-0.0125928745,5.232433e-07,0.07461107,0.004561073,2.0,43,0.020556007,7.660159e-08,0,5.321504753654141e-08,2.0
196,196,27.835518,263915.3,72200.82,273613.3,-15.300356,133.8313265432662,-0.012547916,5.025253e-07,0.07919152,0.005514276,2.0,43,0.0205191,7.499306e-08,0,5.320586207511744e-08,2.0
197,197,24.082958,270093.9,74665.22,280224.22,-15.453018,134.53339574995334,-0.012601798,5.625748e-07,0.088509925,0.006283727,2.0,43,0.02054087,7.330156e-08,0,5.337831594611369e-08,2.0
198,198,20.833313,274559.47,85872.45,287675.12,-17.36783,135.18774442108406,-0.012525241,5.0177096e-07,0.08896269,0.00792704,2.0,43,0.02053479,7.1381876e-08,0,5.3677827431483156e-08,2.0
199,199,18.021912,281529.8,92911.31,296465.1,-18.264078,135.93370898986177,-0.012513606,4.850941e-07,0.09504969,0.009335568,2.0,43,0.020600025,6.9485495e-08,0,5.351973624588741e-08,2.0
200,200,15.604198,287748.16,101276.71,305050.78,-19.390182,136.59002275433159,-0.012580782,4.724397e-07,0.100709185,0.011100537,2.0,43,0.02058636,6.7485026e-08,0,5.364255077172232e-08,2.0
201,201,13.500899,294787.62,108937.94,314272.53,-20.281649,137.33798686988303,-0.012608077,4.818442e-07,0.10821272,0.013002407,2.0,43,0.020556232,6.540893e-08,0,5.380476385725963e-08,2.0
202,202,11.686608,300451.97,119249.65,323252.0,-21.648172,137.92889959126478,-0.01254391,5.2678087e-07,0.114202216,0.015541979,2.0,43,0.020484451,6.336991e-08,0,5.3749172100121044e-08,2.0
203,203,10.113269,309185.38,129023.48,335026.34,-22.650845,138.60254599657492,-0.012582254,4.9920027e-07,0.12197192,0.018090036,2.0,43,0.020509945,6.1218906e-08,0,5.364195855306707e-08,2.0
204,204,8.748621,319015.1,140264.4,348489.22,-23.73411,139.37038816636777,-0.012591234,4.929524e-07,0.12969793,0.021011125,2.0,43,0.020566925,5.9017392e-08,0,5.4088004266585246e-08,2.0
205,205,7.570237,328231.1,151081.33,361332.56,-24.716118,140.24602786134346,-0.012555089,5.204677e-07,0.13915533,0.024328046,2.0,43,0.020549048,5.6870178e-08,0,5.436027353513989e-08,2.0
206,206,6.554112,338295.66,164222.92,376049.34,-25.893885,140.78230828678352,-0.0125868,3.790267e-07,0.14786743,0.028200084,2.0,43,0.020567013,5.4692325e-08,0,5.3941754369141e-08,2.0
207,207,5.669445,348876.72,177232.14,391313.44,-26.930931,141.39212343576946,-0.012572678,6.164315e-07,0.15839341,0.03249171,2.0,43,0.020557335,5.253419e-08,0,5.459044121591362e-08,2.0
208,208,4.907347,359167.47,192619.69,407558.12,-28.204433,142.0845504552999,-0.0125633245,4.3374078e-07,0.16837308,0.037609268,2.0,43,0.02055933,5.044515e-08,0,5.435753282776052e-08,2.0
209,209,4.245922,369854.0,208169.55,424413.16,-29.372658,142.8722927060735,-0.0125731435,5.540354e-07,0.18006566,0.04331992,2.0,43,0.020541258,4.83992e-08,0,5.418864727855342e-08,2.0
210,210,3.6747382,381023.53,227233.05,443637.0,-30.81081,143.77194053545827,-0.012586968,5.454968e-07,0.19059971,0.050004568,2.0,43,0.020578004,4.638478e-08,0,5.516442197813958e-08,2.0
211,211,3.180988,393152.16,247722.73,464688.25,-32.214775,144.80120805100887,-0.0125636505,4.7493452e-07,0.20197248,0.0573985,2.0,43,0.020583969,4.4296296e-08,0,5.490128079670183e-08,2.0
212,212,2.752818,403408.4,269201.1,484982.03,-33.715836,145.98016546698636,-0.012598892,5.2008386e-07,0.21476613,0.066171065,2.0,43,0.020542812,4.2357883e-08,0,5.432604375894634e-08,2.0
213,213,2.3804083,415781.5,297248.6,511107.6,-35.56156,147.33502881138702,-0.012557213,5.448273e-07,0.22493075,0.076078825,2.0,43,0.02056659,4.0239257e-08,0,5.501221768372745e-08,2.0
214,214,2.060257,426876.1,325767.6,536980.2,-37.348816,148.89138347192784,-0.012573213,5.385688e-07,0.2371324,0.08727505,2.0,43,0.020557731,3.8283964e-08,0,5.611670261783234e-08,2.0
