True,index,freq,Re(Z),Im(Z),Z,Phase(Z),time,Ewe_meas,I_meas,Cs,Cp,cycle_number,I_Range,Ewe,I,Ns,(QQo),cycle
110,110,7000018.5,342.9125,1366.0464,1408.4288,-75.90847,82.84547998823109,0.015769731,-6.779066e-06,1.6643915e-05,1.565729e-05,2.0,40,0.01004408,7.131408e-06,0,1.7102895454767917e-08,2.0
111,111,6057573.0,416.6839,1568.2037,1622.6178,-75.11989,83.39748622782645,0.0157745,1.137968e-05,1.6754018e-05,1.5649177e-05,2.0,40,0.014196534,8.749154e-06,0,1.7324163629125108e-08,2.0
112,112,5242039.0,425.53894,1821.3394,1870.3905,-76.84928,83.81350240754546,0.01580148,-2.3003055e-05,1.6669748e-05,1.5806881e-05,2.0,40,0.019632738,1.0496598e-05,0,1.4699550706655333e-08,2.0
113,113,4536288.0,457.16647,2056.4197,2106.6235,-77.4663,85.18148255252163,0.015852548,-4.1999152e-05,1.706113e-05,1.6257636e-05,2.0,40,0.019257715,9.141508e-06,0,1.117239328803373e-08,2.0
114,114,3925558.5,575.75696,2367.8962,2436.8892,-76.33367,85.59749934563297,0.015820278,-4.3710857e-05,1.712206e-05,1.6166268e-05,2.0,40,0.018405218,7.552751e-06,0,7.535891148571672e-09,2.0
115,115,3397055.0,664.3224,2610.2974,2693.5063,-75.72131,86.01349736537668,0.015764514,-2.9756813e-05,1.7948476e-05,1.685666e-05,2.0,40,0.019333968,7.1779923e-06,0,3.985650282157632e-09,2.0
116,116,2939708.2,808.665,2980.8213,3088.5652,-74.821594,86.42950037182891,0.01572656,-9.6629865e-06,1.8162682e-05,1.6917582e-05,2.0,40,0.021112053,6.8355534e-06,0,1.3723205404862308e-09,2.0
117,117,2543924.5,960.69586,3347.4912,3482.619,-73.98706,86.9815056513471,0.01570845,-3.7757123e-05,1.8689449e-05,1.726726e-05,2.0,40,0.02084364,5.9850477e-06,0,1.8756734950864383e-09,2.0
118,118,2201436.2,1179.2655,3997.0618,4167.3936,-73.562195,87.53349767756299,0.015718382,-5.1604793e-06,1.8087276e-05,1.6638947e-05,2.0,40,0.0206549,4.9563114e-06,0,-4.456544016734713e-09,2.0
119,119,1905053.1,1473.869,4367.3174,4609.3115,-71.35165,88.08550693045254,0.015725425,5.8166966e-06,1.9129264e-05,1.7173375e-05,2.0,40,0.020573389,4.4634407e-06,0,-1.0252854137249203e-08,2.0
120,120,1648567.4,1589.8834,5115.951,5357.3022,-72.73633,88.8045014446543,0.015665952,3.6361616e-06,1.8870658e-05,1.7208678e-05,2.0,41,0.018984891,3.5437408e-06,0,-8.181018374268373e-09,2.0
121,121,1426616.2,2078.205,5863.082,6220.504,-70.48282,89.22048282439937,0.015710576,2.1110523e-06,1.902773e-05,1.6903936e-05,2.0,41,0.021872548,3.516202e-06,0,-8.426063464761293e-09,2.0
122,122,1234551.2,2409.0303,6517.8076,6948.7583,-69.71531,89.77248839728418,0.015675193,-1.3637754e-06,1.9779232e-05,1.7401959e-05,2.0,41,0.020853639,3.0010597e-06,0,-8.39647156630156e-09,2.0
123,123,1068345.5,3325.8018,7257.612,7983.3506,-65.38037,90.32449738346622,0.01578048,-4.360023e-06,2.052649e-05,1.6964137e-05,2.0,41,0.02073652,2.5974707e-06,0,-8.096162232048442e-09,2.0
124,124,924510.06,3655.3716,7854.24,8663.188,-65.04268,90.87649943635915,0.015743665,9.751219e-07,2.1918171e-05,1.801595e-05,2.0,41,0.020150585,2.326001e-06,0,-8.235343390393643e-09,2.0
125,125,800039.0,4931.077,8194.175,9563.474,-58.961384,91.42849922258756,0.01572932,-2.6449545e-06,2.4277486e-05,1.7823084e-05,2.0,41,0.020582596,2.1522092e-06,0,-7.469768645214537e-09,2.0
126,126,692334.1,6117.3022,9058.994,10931.0,-55.969868,91.98050188881462,0.015711898,1.2246545e-06,2.5376074e-05,1.7428683e-05,2.0,41,0.02050709,1.8760488e-06,0,-7.495352276832278e-09,2.0
127,127,599122.25,7276.0938,9732.746,12151.867,-53.218613,92.53250623503118,0.01573869,2.8112318e-06,2.7294132e-05,1.7508706e-05,2.0,41,0.02044189,1.6822015e-06,0,-6.991085282838958e-09,2.0
128,128,518454.94,8832.001,10259.57,13537.468,-49.276325,93.08448228790076,0.015845748,-8.265011e-06,2.9921264e-05,1.7185548e-05,2.0,41,0.020634498,1.5242509e-06,0,-7.644464734256988e-09,2.0
129,129,448662.03,10018.102,10464.531,14486.849,-46.248592,93.63649132745923,0.015765762,-7.518278e-06,3.3898545e-05,1.7687757e-05,2.0,41,0.020353243,1.4049461e-06,0,-8.062605090808065e-09,2.0
130,130,388258.97,11457.869,10455.06,15510.997,-42.37978,94.18849210036569,0.015751677,-1.592821e-06,3.920777e-05,1.7813354e-05,2.0,41,0.020792859,1.3405237e-06,0,-7.891271295115823e-09,2.0
131,131,335983.9,12904.907,10284.769,16501.912,-38.553646,94.74148756664363,0.015744485,1.74048e-06,4.6058216e-05,1.7890712e-05,2.0,41,0.020411795,1.2369352e-06,0,-6.535937466734964e-09,2.0
132,132,290751.2,14130.034,9805.043,17198.742,-34.757362,95.29350713951862,0.015712084,3.2060161e-06,5.5827626e-05,1.8144907e-05,2.0,41,0.02055612,1.1952106e-06,0,-6.901082328405275e-09,2.0
133,133,251605.19,15612.032,9366.141,18206.047,-30.960844,95.8454952723987,0.015791753,-1.611442e-06,6.7536705e-05,1.7874336e-05,2.0,41,0.020393375,1.120143e-06,0,-7.126286445158374e-09,2.0
134,134,217729.38,16936.76,8828.726,19099.744,-27.531948,96.3974920186156,0.015748192,-2.1738215e-06,8.279519e-05,1.7690742e-05,2.0,41,0.020329257,1.0643732e-06,0,-7.2955391313357745e-09,2.0
135,135,188418.58,17491.32,8031.317,19247.035,-24.6627,96.94950193815748,0.01575,-6.375227e-07,0.000105174295,1.831283e-05,2.0,41,0.020220999,1.0506033e-06,0,-7.3602647234435205e-09,2.0
136,136,163051.14,18553.44,7335.9653,19951.104,-21.573668,97.50148612438352,0.01575162,5.9524086e-07,0.0001330574,1.7989527e-05,2.0,41,0.020627474,1.0339014e-06,0,-7.0049216773382385e-09,2.0
137,137,141098.2,19327.957,6556.3677,20409.701,-18.737799,98.0535042839183,0.015732951,1.3531478e-06,0.00017204233,1.7753691e-05,2.0,41,0.020302424,9.947438e-07,0,-7.56152335960921e-09,2.0
138,138,122105.11,19698.045,5934.572,20572.605,-16.766357,98.46948875699309,0.015743107,-8.072908e-08,0.00021963267,1.827667e-05,2.0,41,0.021794243,1.0593817e-06,0,-7.840929925895443e-09,2.0
139,139,105663.59,20102.447,5085.236,20735.67,-14.1960745,99.02149747658405,0.015777724,4.2019798e-07,0.00029619905,1.7814338e-05,2.0,41,0.020357776,9.817757e-07,0,-9.180970230237427e-09,2.0
140,140,91439.65,20471.271,4448.36,20949.006,-12.259652,99.43750613633892,0.015696341,3.2656096e-06,0.0003912782,1.764244e-05,2.0,41,0.021619007,1.0319825e-06,0,-8.998941937551525e-09,2.0
141,141,79127.08,20593.947,3668.759,20918.186,-10.101128,99.98948536257376,0.015791716,-7.2855e-06,0.00054824643,1.6864216e-05,2.0,41,0.020451939,9.777109e-07,0,-9.53950896239686e-09,2.0
142,142,68475.36,20798.598,3271.6562,21054.344,-8.939475,100.40548772897455,0.015785716,-2.602114e-06,0.00071042485,1.7154183e-05,2.0,41,0.02142602,1.0176532e-06,0,-1.0282719043508415e-08,2.0
143,143,59252.523,20939.217,2894.7031,21138.355,-7.8708615,100.95749666183838,0.015760694,-8.553912e-07,0.0009279172,1.7401027e-05,2.0,41,0.02019913,9.555677e-07,0,-1.0652881566691086e-08,2.0
144,144,51282.285,21191.205,2634.8635,21354.383,-7.0876446,101.37350356162642,0.015725797,2.7982073e-06,0.0011778626,1.7932336e-05,2.0,41,0.020984145,9.826622e-07,0,-1.2201367762822595e-08,2.0
145,145,44369.8,21047.014,2223.044,21164.09,-6.029384,101.7894910480536,0.01567184,6.3531083e-06,0.001613558,1.780252e-05,2.0,41,0.021534279,1.0174914e-06,0,-1.2630652264961444e-08,2.0
146,146,38403.727,21157.773,1947.57,21247.22,-5.2592473,102.34148566095973,0.015737573,2.414599e-06,0.0021279121,1.7878685e-05,2.0,41,0.020223675,9.5182685e-07,0,-1.0773283549858625e-08,2.0
147,147,33226.32,21156.393,1776.4541,21230.844,-4.799737,102.75749856067705,0.015809864,-6.7082174e-06,0.0026963975,1.887806e-05,2.0,41,0.020587659,9.697052e-07,0,-1.0422935145096229e-08,2.0
148,148,28754.086,21147.463,1657.8296,21212.346,-4.4824653,103.1734900737938,0.015748417,2.3699085e-06,0.0033387253,2.039309e-05,2.0,41,0.020837098,9.8231e-07,0,-1.1096950848043777e-08,2.0
149,149,24884.947,21138.406,1401.8417,21184.838,-3.7941449,103.58949100019527,0.01582831,-3.9205343e-06,0.004562306,1.9977084e-05,2.0,41,0.02097392,9.90044e-07,0,-1.1783310372295888e-08,2.0
150,150,21553.963,21222.549,1315.6097,21263.287,-3.5472908,104.00648600669228,0.015758999,8.98786e-07,0.0056126234,2.1486183e-05,2.0,41,0.021120397,9.9328e-07,0,-1.1534964023899283e-08,2.0
151,151,18631.234,21141.309,1233.0665,21177.238,-3.3379939,104.42248799974914,0.015752627,-2.1235298e-06,0.006927747,2.3486935e-05,2.0,41,0.020999243,9.91595e-07,0,-1.206140742220728e-08,2.0
152,152,16126.037,21166.36,1176.5201,21199.033,-3.1814795,104.83850081954733,0.01574726,2.8931804e-06,0.00838867,2.583805e-05,2.0,41,0.020849219,9.834986e-07,0,-1.1104677245756416e-08,2.0
153,153,13954.87,21491.084,1277.606,21529.025,-3.402126,105.25449297259911,0.015743311,3.1592424e-07,0.008926833,3.1437103e-05,2.0,41,0.020736765,9.632004e-07,0,-1.0069408420745872e-08,2.0
154,154,12080.609,21070.645,1051.4794,21096.863,-2.856837,105.67050712570199,0.015757155,-2.1998803e-06,0.012529407,3.1124062e-05,2.0,41,0.020231994,9.590049e-07,0,-9.596763303632116e-09,2.0
155,155,10447.592,21296.783,1184.0061,21329.67,-3.182114,106.08650061211665,0.015721548,3.0365688e-06,0.012866191,3.9645107e-05,2.0,41,0.019794092,9.280074e-07,0,-8.92914296573593e-09,2.0
156,156,9045.586,21246.879,1062.385,21273.424,-2.8625157,106.65926991935703,0.015735952,1.0961774e-06,0.01656157,4.1303854e-05,2.0,41,0.020247998,9.517978e-07,0,-8.96438974393406e-09,2.0
157,157,7827.7437,21369.19,1238.0057,21405.021,-3.3156757,107.13994495553197,0.015717823,1.2544623e-06,0.016423317,5.4938253e-05,2.0,41,0.020315375,9.4909393e-07,0,-9.714062376858024e-09,2.0
158,158,6770.8345,21291.959,1258.3278,21329.11,-3.382174,107.678431354434,0.01574618,-1.0509144e-06,0.018680314,6.50169e-05,2.0,41,0.020301487,9.518207e-07,0,-9.683388142514954e-09,2.0
159,159,5860.798,21369.201,1447.5308,21418.172,-3.8752453,108.28496530326083,0.01590116,-1.0123454e-05,0.018760119,8.568926e-05,2.0,41,0.020329537,9.491724e-07,0,-1.0922792346057087e-08,2.0
160,160,5071.625,21434.04,1475.6517,21484.775,-3.938381,108.96569669561723,0.015715195,8.2616117e-07,0.021266164,0.000100321784,2.0,41,0.020357724,9.475419e-07,0,-1.1459258238231227e-08,2.0
161,161,4388.5933,21441.094,1511.6007,21494.312,-4.0326896,109.64583982124168,0.015705619,8.056771e-07,0.023991518,0.00011865466,2.0,41,0.020335307,9.460785e-07,0,-1.1678383180643514e-08,2.0
162,162,3798.7827,21507.725,1699.0452,21574.73,-4.5168133,110.32581345354265,0.01577953,-1.4028673e-06,0.024658732,0.000152929,2.0,41,0.020342017,9.428631e-07,0,-1.1957765541424593e-08,2.0
163,163,3286.0488,21455.59,1855.5039,21535.674,-4.9427066,111.00571836584277,0.015773494,2.481639e-06,0.026102629,0.00019377202,2.0,41,0.020315293,9.4333217e-07,0,-1.1158244284576074e-08,2.0
164,164,2844.088,21690.191,2274.6597,21809.137,-5.98675,111.68580885147094,0.015731592,-1.0565027e-06,0.024601448,0.00026761877,2.0,41,0.020357333,9.334314e-07,0,-1.2050346405732388e-08,2.0
165,165,2460.7852,21729.742,2491.578,21872.121,-6.5410876,112.36570949710585,0.015777463,-1.8330314e-06,0.025958044,0.00033685198,2.0,41,0.020393524,9.323981e-07,0,-1.2150940647998611e-08,2.0
166,166,2129.3164,21899.443,2714.5703,22067.045,-7.06612,113.04585006274283,0.01572971,9.025108e-07,0.027534604,0.0004166704,2.0,41,0.020377982,9.2345766e-07,0,-1.1063152094371809e-08,2.0
167,167,1843.2289,21984.773,2880.5078,22172.676,-7.464536,113.72595390837523,0.015721977,5.1494105e-08,0.02997587,0.00050591055,2.0,41,0.02036078,9.182825e-07,0,-1.047090500511643e-08,2.0
168,168,1594.4913,22258.156,3342.884,22507.785,-8.54124,114.40583591400355,0.015748173,-3.0604386e-07,0.029859098,0.0006586486,2.0,41,0.020424698,9.074503e-07,0,-1.0683215670277215e-08,2.0
169,169,1380.4436,22396.2,3695.931,22699.111,-9.370774,115.08570183963457,0.01575613,-1.2541307e-07,0.031194469,0.00082700397,2.0,41,0.020390019,8.9827387e-07,0,-1.1236964560969318e-08,2.0
170,170,1194.6187,22522.443,4231.9453,22916.584,-10.641741,115.76584299192473,0.015739193,1.092215e-07,0.031481165,0.0010735719,2.0,41,0.020391088,8.897961e-07,0,-1.0321852101265843e-08,2.0
171,171,1033.3434,22723.479,4794.9316,23223.863,-11.915315,116.44606734422268,0.015732989,-1.5592923e-06,0.032121297,0.0013692696,2.0,41,0.020345472,8.760589e-07,0,-9.84378773439993e-09,2.0
172,172,894.71045,23110.1,4992.4995,23643.219,-12.190333,117.12585398985539,0.01576101,-1.2036168e-06,0.035630308,0.0015887021,2.0,41,0.020356134,8.6097134e-07,0,-1.0753246775371928e-08,2.0
173,173,774.2569,23415.816,5474.617,24047.285,-13.159375,117.80595178215299,0.015670499,1.6827609e-06,0.037547525,0.0019460622,2.0,41,0.020335894,8.456628e-07,0,-1.1195681335435125e-08,2.0
174,174,669.7856,23865.088,6317.9907,24687.232,-14.828189,118.48580672111711,0.015751844,-9.391882e-07,0.037610177,0.002463307,2.0,41,0.02039826,8.262675e-07,0,-1.0845319287276389e-08,2.0
175,175,579.81464,24277.303,6841.922,25222.992,-15.7391,119.165823580086,0.015738616,-8.4421856e-07,0.040119253,0.0029519966,2.0,41,0.020355169,8.0700846e-07,0,-1.065617781738748e-08,2.0
176,176,501.44418,24857.498,7378.322,25929.42,-16.532194,119.84320563889924,0.015711805,1.6138564e-06,0.04301698,0.0034831287,2.0,41,0.020371776,7.856626e-07,0,-1.0730666003317957e-08,2.0
177,177,434.02762,25124.844,8284.929,26455.582,-18.249996,120.52319156451267,0.015792591,-3.991305e-06,0.044260263,0.0043406715,2.0,41,0.020315586,7.6791304e-07,0,-1.1569778735846981e-08,2.0
178,178,375.6009,25929.482,9113.379,27484.39,-19.364935,121.20243447678513,0.015784804,-9.876106e-07,0.046495836,0.005112116,2.0,41,0.020375088,7.4133305e-07,0,-1.1521320759863723e-08,2.0
179,179,325.10385,26740.021,9866.767,28502.312,-20.253494,122.13272129435063,0.015741745,-5.2359815e-07,0.049616158,0.0059458325,2.0,42,0.020433355,7.1690164e-07,0,-1.2139708316527159e-08,2.0
180,180,281.3503,27470.256,10676.065,29471.908,-21.238163,122.80979348650726,0.015749479,-4.5934254e-07,0.052986044,0.0069529237,2.0,42,0.020384107,6.916453e-07,0,-1.19149915108572e-08,2.0
181,181,243.36427,28328.58,11698.877,30649.18,-22.439196,123.49310607890948,0.0157195,-2.9972594e-07,0.055900946,0.0081446,2.0,42,0.020402927,6.656924e-07,0,-1.2682699457794951e-08,2.0
182,182,210.60631,29337.918,12568.501,31916.777,-23.190517,124.1701915244048,0.015731126,-3.8875635e-07,0.060126413,0.009323826,2.0,42,0.020401835,6.3921976e-07,0,-1.268764465697488e-08,2.0
183,183,182.27473,30430.26,13775.303,33402.99,-24.355518,124.8422851296782,0.015739622,-3.7199598e-07,0.063385874,0.010780133,2.0,42,0.020461198,6.1255594e-07,0,-1.2938518027722266e-08,2.0
184,184,157.72879,31608.674,14349.145,34713.2,-24.416254,125.53063604241288,0.01571881,-4.5525098e-07,0.07032069,0.012015612,2.0,42,0.020357031,5.864349e-07,0,-1.3202069919639866e-08,2.0
185,185,136.52892,32819.125,15844.425,36443.664,-25.770332,126.20251026094775,0.015707035,-1.3415398e-07,0.07357309,0.013906822,2.0,42,0.0204244,5.6043757e-07,0,-1.3169806600971927e-08,2.0
186,186,118.14758,34080.164,17056.291,38110.035,-26.586847,126.89088392033591,0.015757024,-1.7159077e-07,0.07897883,0.015819808,2.0,42,0.020396892,5.352105e-07,0,-1.2942261704460358e-08,2.0
187,187,102.25773,35502.81,18047.775,39826.77,-26.946407,127.55734867198044,0.015753223,-3.8298668e-07,0.086238325,0.017709142,2.0,42,0.020336377,5.106208e-07,0,-1.3077807064591754e-08,2.0
188,188,88.4436,37150.254,19320.441,41873.867,-27.477236,128.24730078471475,0.015791846,-5.655141e-07,0.09314008,0.019828258,2.0,42,0.020375878,4.8660127e-07,0,-1.324503056012648e-08,2.0
189,189,76.54279,38787.883,20535.414,43888.53,-27.898024,128.914727936477,0.015753707,-2.786866e-07,0.10125404,0.022167524,2.0,42,0.020359885,4.638999e-07,0,-1.333047137695045e-08,2.0
190,190,66.250786,40471.312,21796.707,45967.637,-28.305653,129.58296924820752,0.015715288,-3.0345797e-07,0.11021437,0.024780817,2.0,42,0.0203413,4.4251348e-07,0,-1.3737088087815844e-08,2.0
191,191,57.329906,42537.254,23053.887,48382.844,-28.456333,130.2376467459835,0.015805261,-7.4785333e-07,0.12041893,0.027340112,2.0,42,0.02040977,4.21839e-07,0,-1.3444955416627677e-08,2.0
192,192,49.60321,44353.19,24291.393,50569.53,-28.708675,130.9233811518352,0.015744038,-4.0179907e-07,0.13208635,0.03047789,2.0,42,0.02034273,4.0227246e-07,0,-1.3422846788833986e-08,2.0
193,193,42.92585,46238.895,25797.035,52948.3,-29.157484,131.63143518546713,0.015734889,-1.4011667e-07,0.14372471,0.034116697,2.0,42,0.020349467,3.843271e-07,0,-1.393339207417426e-08,2.0
194,194,37.1518,48175.953,27475.758,55460.254,-29.69702,132.2751791360497,0.015784375,-5.155995e-07,0.15591599,0.038267165,2.0,42,0.020349387,3.6691839e-07,0,-1.3910969386946112e-08,2.0
195,195,32.150223,50404.85,28977.54,58140.75,-29.894417,132.91337215303793,0.015772711,-1.7327065e-07,0.17083412,0.04243619,2.0,42,0.020357318,3.5013855e-07,0,-1.3388621222933002e-08,2.0
196,196,27.835518,52697.33,30410.324,60842.387,-29.988182,133.641314800916,0.015752375,-2.677941e-07,0.18801814,0.046970952,2.0,42,0.020343242,3.343597e-07,0,-1.337679408026313e-08,2.0
197,197,24.082958,54885.277,32463.436,63767.297,-30.603384,134.34338619429036,0.015771408,-3.9602878e-07,0.20357096,0.05276048,2.0,42,0.020369139,3.1942923e-07,0,-1.3099544100271329e-08,2.0
198,198,20.833313,57199.598,34047.59,66566.0,-30.762875,134.99776622539503,0.015740907,-1.1050652e-07,0.22437549,0.058700696,2.0,42,0.020328943,3.053953e-07,0,-1.384332804487867e-08,2.0
199,199,18.021912,59611.45,36442.523,69868.32,-31.438875,135.7437254608376,0.015726784,-2.7625065e-08,0.24233206,0.06592758,2.0,42,0.020369485,2.9154108e-07,0,-1.3334901035957654e-08,2.0
200,200,15.604198,61946.363,38832.8,73111.82,-32.082687,136.4000327186659,0.015751956,-3.6399487e-07,0.26265153,0.07409727,2.0,42,0.020366814,2.7857075e-07,0,-1.4315864244057015e-08,2.0
201,201,13.500899,64302.34,41679.48,76628.78,-32.950493,137.14796422084328,0.015754461,-3.009493e-07,0.28283632,0.083675034,2.0,42,0.020361997,2.6572258e-07,0,-1.4578072997723525e-08,2.0
202,202,11.686608,67016.164,44606.496,80504.07,-33.648056,137.73889048892306,0.015698856,-2.3827636e-07,0.30530474,0.09373334,2.0,42,0.020380475,2.531608e-07,0,-1.4598523011524595e-08,2.0
203,203,10.113269,70582.64,48025.89,85372.1,-34.23218,138.41253820087877,0.015737666,-2.7142912e-07,0.32768244,0.1036984,2.0,42,0.020500895,2.4013576e-07,0,-1.3600343035744385e-08,2.0
204,204,8.748621,72080.49,51731.586,88722.91,-35.6667,139.17940485061263,0.015738942,-1.816559e-07,0.3516614,0.11955419,2.0,42,0.020343168,2.2928879e-07,0,-1.2526707381944291e-08,2.0
205,205,7.570237,74868.82,55962.254,93472.53,-36.777042,140.05499945225893,0.015745258,-1.9525233e-07,0.3756777,0.13465975,2.0,42,0.020329433,2.1749098e-07,0,-1.4842916154081089e-08,2.0
206,206,6.554112,77682.76,61313.53,98964.44,-38.283363,140.5913225710683,0.015685143,-3.5262868e-08,0.39604995,0.15202124,2.0,42,0.02038404,2.0597338e-07,0,-1.2823196056338206e-08,2.0
207,207,5.669445,80919.09,66424.13,104690.33,-39.381577,141.4291537841491,0.015703179,2.7582226e-07,0.42262354,0.17013448,2.0,43,0.020379473,1.9466432e-07,0,-1.2165337428241429e-08,2.0
208,208,4.907347,84345.48,72856.984,111455.375,-40.820206,142.12153576369747,0.01565891,-6.271279e-07,0.44514567,0.19021401,2.0,43,0.020364499,1.8271437e-07,0,-1.3883416290413268e-08,2.0
209,209,4.245922,87740.984,79859.86,118642.65,-42.30775,142.90932374782278,0.015712382,-7.165338e-08,0.46937457,0.21266448,2.0,43,0.02033976,1.7143718e-07,0,-1.4393726487787461e-08,2.0
210,210,3.6747382,91548.71,87852.69,126882.87,-43.819763,143.8089736038819,0.015767485,-1.357631e-07,0.4929906,0.23634303,2.0,43,0.020350523,1.6038827e-07,0,-1.1640815782803453e-08,2.0
211,211,3.180988,95865.34,97113.54,136459.53,-45.370586,144.83723981273943,0.015652379,-4.0546962e-07,0.5152029,0.26093367,2.0,43,0.020361613,1.4921356e-07,0,-1.357621791944208e-08,2.0
212,212,2.752818,100401.87,107180.99,146861.5,-46.87047,146.0161270420358,0.01575415,-2.6847957e-07,0.53941727,0.28730583,2.0,43,0.020362446,1.3865068e-07,0,-1.5775615959781005e-08,2.0
213,213,2.3804083,105101.94,118682.76,158530.8,-48.472847,147.37101806642022,0.015730077,-1.0168104e-07,0.56335354,0.31573957,2.0,43,0.020324592,1.2820595e-07,0,-1.3856559946598561e-08,2.0
214,214,2.060257,110709.62,131709.55,172058.2,-49.950977,148.9273231269617,0.015731568,-1.7549695e-07,0.5865182,0.3436887,2.0,43,0.020377941,1.18436326e-07,0,-1.1456772803721568e-08,2.0
