True,index,freq,Re(Z),Im(Z),Z,Phase(Z),time,Ewe_meas,I_meas,Cs,Cp,cycle_number,I_Range,Ewe,I,Ns,(QQo),cycle
110,110,7000018.5,320.6076,1800.1724,1828.4993,-79.9016,82.8995010308281,0.034345143,-3.4160095e-07,1.2630102e-05,1.2241805e-05,2.0,40,0.010162065,5.5575983e-06,0,-2.4917330320530734e-08,2.0
111,111,6057573.0,547.7805,1958.2689,2033.4406,-74.37226,83.4514898037014,0.034331262,-3.1449927e-05,1.3416807e-05,1.2443165e-05,2.0,40,0.014324218,7.044326e-06,0,-2.8717590925408685e-08,2.0
112,112,5242039.0,567.5114,2182.7686,2255.3376,-75.42599,83.86748902345425,0.034414023,-2.910563e-05,1.3909522e-05,1.3028801e-05,2.0,40,0.019755434,8.7594135e-06,0,-3.1209640303065573e-08,2.0
113,113,4536288.0,562.36084,2485.602,2548.4246,-77.25161,85.09950430862955,0.03439772,-3.567332e-05,1.4115229e-05,1.34278835e-05,2.0,40,0.02099137,8.236999e-06,0,-3.992874567467513e-08,2.0
114,114,3925558.5,718.4199,2826.1743,2916.057,-75.73737,85.5155048884044,0.034315947,-2.1533231e-05,1.4345633e-05,1.34749025e-05,2.0,40,0.01966839,6.7448577e-06,0,-4.2144716451449284e-08,2.0
115,115,3397055.0,777.3051,3157.356,3251.6304,-76.16947,85.93148837485933,0.034338545,-1.5114369e-05,1.4838637e-05,1.3990678e-05,2.0,40,0.020805553,6.3984985e-06,0,-4.010539820752494e-08,2.0
116,116,2939708.2,974.37946,3572.7153,3703.2026,-74.74484,86.48350530772586,0.034305643,-9.476936e-06,1.5153659e-05,1.4104554e-05,2.0,40,0.020936785,5.653697e-06,0,-4.565566063608786e-08,2.0
117,117,2543924.5,1137.445,4140.699,4294.0854,-74.63979,87.03550266727689,0.03431712,-2.6184582e-05,1.5109226e-05,1.4049091e-05,2.0,40,0.020581301,4.7929416e-06,0,-4.77009356290681e-08,2.0
118,118,2201436.2,1340.3009,4666.119,4854.7993,-73.97376,87.587487066834,0.0342874,-8.435036e-06,1.5493808e-05,1.4312888e-05,2.0,40,0.020842278,4.2931288e-06,0,-4.9814532113123906e-08,2.0
119,119,1905053.1,1582.1862,5653.165,5870.3994,-74.364334,88.30650163433165,0.03425992,-3.4717787e-06,1.4778194e-05,1.3704695e-05,2.0,41,0.019660573,3.3491033e-06,0,-5.3479393675470674e-08,2.0
120,120,1648567.4,1916.9585,6213.0493,6502.054,-72.85304,88.85949062058353,0.034288205,-1.1067965e-06,1.5538484e-05,1.4187865e-05,2.0,41,0.019872203,3.0562962e-06,0,-5.290150188847696e-08,2.0
121,121,1426616.2,2542.816,7018.3184,7464.764,-70.08398,89.41149512681295,0.03430458,-2.0434723e-06,1.589571e-05,1.4051215e-05,2.0,41,0.020253235,2.7131782e-06,0,-5.19306252439075e-08,2.0
122,122,1234551.2,3225.156,7910.3945,8542.598,-67.81873,89.96350608635112,0.034256548,1.4127331e-06,1.6297194e-05,1.3974273e-05,2.0,41,0.020870296,2.4430856e-06,0,-5.1777424430560536e-08,2.0
123,123,1068345.5,3804.1414,8879.279,9659.87,-66.808304,90.5154838192102,0.03432487,-2.090027e-06,1.6777634e-05,1.4175669e-05,2.0,41,0.02047087,2.1191663e-06,0,-5.1732066612026353e-08,2.0
124,124,924510.06,4658.993,9771.0,10824.909,-64.50733,91.06748571209027,0.03430853,-7.250497e-07,1.7618522e-05,1.43548605e-05,2.0,41,0.020331992,1.8782598e-06,0,-5.2577735473139205e-08,2.0
125,125,800039.0,5802.582,10267.252,11793.49,-60.526848,91.62049504506285,0.03429748,-2.3972857e-06,1.937558e-05,1.4685153e-05,2.0,41,0.020777281,1.7617585e-06,0,-5.258461644811834e-08,2.0
126,126,692334.1,7425.6265,11336.121,13551.663,-56.773552,92.17248763123644,0.034256473,2.5170054e-06,2.027869e-05,1.4190042e-05,2.0,41,0.0203698,1.5031218e-06,0,-5.3356642019341254e-08,2.0
127,127,599122.25,8821.719,12117.808,14988.795,-53.945522,92.72448752415949,0.034338936,-1.8609783e-06,2.1922024e-05,1.4328321e-05,2.0,41,0.020766975,1.3855e-06,0,-5.354563975229314e-08,2.0
128,128,518454.94,10456.254,12449.026,16257.66,-49.972244,93.27648307036725,0.034301043,-8.088468e-07,2.46589e-05,1.4458672e-05,2.0,41,0.020517677,1.2620313e-06,0,-5.3164619521923995e-08,2.0
129,129,448662.03,12167.645,12906.594,17737.861,-46.688046,93.82849610989797,0.034272123,9.658096e-07,2.7484584e-05,1.4551572e-05,2.0,41,0.020112965,1.1339002e-06,0,-5.2745160848944454e-08,2.0
130,130,388258.97,14115.557,13003.17,19191.96,-42.651093,94.38050650947844,0.034317233,-2.3060384e-06,3.152459e-05,1.4471354e-05,2.0,41,0.020847613,1.086268e-06,0,-5.317591030965079e-08,2.0
131,131,335983.9,16455.38,11648.041,20160.764,-35.293003,94.93249634900712,0.034208234,4.5803013e-06,4.066762e-05,1.3575022e-05,2.0,41,0.020641144,1.0238275e-06,0,-5.331152375082285e-08,2.0
132,132,290751.2,17778.709,12050.986,21478.1,-34.130695,95.4845020819048,0.034309816,-2.5890893e-06,4.542302e-05,1.4299785e-05,2.0,41,0.020539898,9.563182e-07,0,-5.561571571599523e-08,2.0
133,133,251605.19,19222.715,11546.242,22423.838,-30.991392,96.03648488144972,0.034305755,-2.166375e-06,5.4784778e-05,1.4525173e-05,2.0,41,0.020208202,9.0119283e-07,0,-5.534575322825061e-08,2.0
134,134,217729.38,20584.564,10847.725,23267.95,-27.788488,96.58848653433961,0.03428727,1.7181329e-06,6.738519e-05,1.464622e-05,2.0,41,0.020237528,8.6975984e-07,0,-5.463058376389856e-08,2.0
135,135,188418.58,21941.64,9910.695,24076.076,-24.30795,97.14050738725928,0.03424628,4.593338e-06,8.5229956e-05,1.4442058e-05,2.0,41,0.02017222,8.378533e-07,0,-5.406960879330603e-08,2.0
136,136,163051.14,22811.568,9050.821,24541.496,-21.641422,97.69248370677815,0.03427805,-6.170392e-07,0.00010784707,1.4668382e-05,2.0,41,0.020516168,8.359787e-07,0,-5.3036895416211235e-08,2.0
137,137,141098.2,23685.535,7975.253,24992.184,-18.609102,98.24448298630887,0.03433033,-1.4345356e-06,0.00014143411,1.4402394e-05,2.0,41,0.020310951,8.126922e-07,0,-5.2418554582377256e-08,2.0
138,138,122105.11,24533.957,7262.246,25586.232,-16.489172,98.6605006060854,0.034294985,-1.8330417e-06,0.0001794797,1.445921e-05,2.0,41,0.021854712,8.5415905e-07,0,-5.195544262947591e-08,2.0
139,139,105663.59,24952.023,6463.2725,25775.52,-14.5220375,99.21249063228606,0.034277212,-1.2169828e-07,0.00023304633,1.4653197e-05,2.0,41,0.020535843,7.967189e-07,0,-5.272928037552384e-08,2.0
140,140,91439.65,24787.914,5001.5864,25287.479,-11.407699,99.62849563875352,0.0342828,1.8969052e-06,0.00034799884,1.3613892e-05,2.0,41,0.021657681,8.564587e-07,0,-5.2859767687894846e-08,2.0
141,141,79127.08,25300.084,4519.0356,25700.504,-10.127226,100.1805085716478,0.034326732,-2.9373139e-06,0.0004450914,1.3761238e-05,2.0,41,0.020191219,7.856351e-07,0,-5.3962763185833436e-08,2.0
142,142,68475.36,25688.635,4369.0454,26057.523,-9.652332,100.59649312469992,0.034297314,2.5632562e-07,0.00053198484,1.4955677e-05,2.0,41,0.021090748,8.0939185e-07,0,-5.4900135040617846e-08,2.0
143,143,59252.523,25860.81,3763.1067,26133.168,-8.279222,101.14850251094322,0.03425476,1.8335908e-06,0.0007137839,1.4800476e-05,2.0,41,0.020085242,7.6857276e-07,0,-5.437227500903595e-08,2.0
144,144,51282.285,26123.188,3413.6094,26345.277,-7.4448586,101.56449399734265,0.034322523,4.6675174e-07,0.0009091571,1.5263742e-05,2.0,41,0.020792572,7.8923335e-07,0,-5.510599109181334e-08,2.0
145,145,44369.8,26143.865,2884.439,26302.504,-6.29595,101.98048324379488,0.034314923,6.7952515e-09,0.001243573,1.4955461e-05,2.0,41,0.02134561,8.1154286e-07,0,-5.466145576637358e-08,2.0
146,146,38403.727,26037.123,2793.5977,26186.56,-6.124001,102.39649894353352,0.034280304,2.2078916e-06,0.001483484,1.6883158e-05,2.0,41,0.021765046,8.311533e-07,0,-5.477333336148781e-08,2.0
147,147,33226.32,26147.598,2297.1716,26248.312,-5.0207734,102.94849224973586,0.03426618,2.781442e-06,0.0020851842,1.5970869e-05,2.0,41,0.020201592,7.696339e-07,0,-5.566607209533774e-08,2.0
148,148,28754.086,26287.326,2020.5531,26364.865,-4.395349,103.36448541618302,0.03429029,-2.0735646e-07,0.0027393675,1.6089396e-05,2.0,41,0.020439837,7.75268e-07,0,-5.619833548955613e-08,2.0
149,149,24884.947,26039.613,1778.7186,26100.293,-3.9077003,103.7804827959335,0.03432927,-1.412186e-06,0.0035956397,1.6699363e-05,2.0,41,0.02050807,7.8574095e-07,0,-5.695366996851053e-08,2.0
150,150,21553.963,26359.156,1771.9679,26418.648,-3.8458652,104.19750534908962,0.03429247,1.9831136e-08,0.0041671307,1.8746821e-05,2.0,41,0.02067418,7.825601e-07,0,-5.701426864392703e-08,2.0
151,151,18631.234,26405.973,1730.837,26462.637,-3.7502122,104.6134955555026,0.03431408,4.648913e-07,0.0049353996,2.11139e-05,2.0,41,0.020548638,7.7651515e-07,0,-5.647209031619838e-08,2.0
152,152,16126.037,26308.564,1551.7844,26354.29,-3.3756235,105.02948416196159,0.034272216,1.2470059e-06,0.0063600577,2.2050643e-05,2.0,41,0.020330332,7.71424e-07,0,-5.6023144109341654e-08,2.0
153,153,13954.87,26077.568,1360.8092,26113.05,-2.9871635,105.44548468836001,0.03427725,2.6864716e-06,0.008381025,2.2760216e-05,2.0,41,0.020056862,7.680781e-07,0,-5.5086255347902127e-08,2.0
154,154,12080.609,25517.273,1329.5929,25551.889,-2.9827337,105.86150886813994,0.034335528,-1.5909557e-06,0.009908606,2.6828966e-05,2.0,41,0.019506438,7.634049e-07,0,-5.469853172666856e-08,2.0
155,155,10447.592,26399.652,1433.1868,26438.525,-3.1074283,106.27748835456441,0.034366608,-4.732453e-06,0.010629213,3.1234336e-05,2.0,41,0.019242391,7.2781637e-07,0,-5.455832266022437e-08,2.0
156,156,9045.586,26542.242,1446.912,26581.65,-3.1203084,106.70925242840894,0.034299288,-1.5127399e-06,0.0121602155,3.602978e-05,2.0,41,0.021854429,8.2216224e-07,0,-5.35708768280977e-08,2.0
157,157,7827.7437,26408.225,1525.5785,26452.254,-3.306249,107.18994381124503,0.034303557,-8.721504e-07,0.013327509,4.432949e-05,2.0,41,0.02183693,8.255225e-07,0,-5.3517229954078654e-08,2.0
158,158,6770.8345,26561.264,1420.2375,26599.207,-3.0607054,107.72839831680176,0.034323864,-3.1722192e-07,0.016550723,4.7184738e-05,2.0,41,0.02185054,8.2147335e-07,0,-5.393170267414702e-08,2.0
159,159,5860.798,26534.154,1695.9543,26588.299,-3.6571364,108.33497173231444,0.034507945,-1.1577821e-05,0.016012134,6.51473e-05,2.0,41,0.021855325,8.2199034e-07,0,-5.4411164625596104e-08,2.0
160,160,5071.625,26574.982,1849.1022,26639.236,-3.9802573,109.01568315132317,0.034292955,-5.574431e-07,0.016971182,8.1769314e-05,2.0,41,0.021877551,8.2125297e-07,0,-5.51106594061442e-08,2.0
161,161,4388.5933,26733.506,2042.5807,26811.424,-4.3692107,109.69580769028107,0.034296904,-4.773681e-07,0.017754791,0.00010304675,2.0,41,0.021910707,8.172153e-07,0,-5.437770817872768e-08,2.0
162,162,3798.7827,26879.11,2124.8865,26962.969,-4.520029,110.37585166923236,0.03432765,-3.9357096e-07,0.01971696,0.00012245486,2.0,41,0.021925854,8.1318393e-07,0,-5.410293549856249e-08,2.0
163,163,3286.0488,26924.912,2291.3086,27022.23,-4.864148,111.05571818155295,0.034297165,-2.5577012e-07,0.021137934,0.0001519803,2.0,41,0.021932302,8.116392e-07,0,-5.455404822782997e-08,2.0
164,164,2844.088,26950.602,2684.6594,27083.986,-5.6886997,111.7358222938492,0.034228638,4.5558383e-07,0.020844327,0.00020480527,2.0,41,0.02191112,8.0900645e-07,0,-5.413996251514972e-08,2.0
165,165,2460.7852,27006.043,2845.23,27155.51,-6.014228,112.63672308331297,0.034325372,-2.8646868e-06,0.02273155,0.00024954442,2.0,41,0.020112578,7.4064445e-07,0,-5.4118307378391565e-08,2.0
166,166,2129.3164,27169.691,3279.5325,27366.904,-6.8826213,113.31682132894639,0.034334168,-2.1347125e-06,0.022791242,0.00032729586,2.0,41,0.020143684,7.3606003e-07,0,-5.432810905944368e-08,2.0
167,167,1843.2289,27255.48,3649.119,27498.678,-7.625736,113.99694917455781,0.034284905,-1.1347225e-06,0.023662075,0.0004166825,2.0,41,0.020137087,7.322929e-07,0,-5.340779026208667e-08,2.0
168,168,1594.4913,27673.621,4188.625,27988.816,-8.606849,114.67682966020948,0.03424438,-1.18279635e-08,0.023830136,0.0005337039,2.0,41,0.020143826,7.197098e-07,0,-5.3032106520397014e-08,2.0
169,169,1380.4436,27760.967,4471.837,28118.83,-9.150804,115.35670286583627,0.034268975,-1.1961744e-06,0.025781933,0.00065206806,2.0,41,0.02012508,7.1571543e-07,0,-5.282027255909662e-08,2.0
170,170,1194.6187,28070.54,5001.0303,28512.549,-10.101791,116.0368327114702,0.03427505,2.837306e-06,0.026639825,0.00081955525,2.0,41,0.02014975,7.066976e-07,0,-5.2821314546359115e-08,2.0
171,171,1033.3434,28270.643,5579.767,28816.02,-11.164949,116.71710802373127,0.03427492,-1.1365848e-06,0.027603196,0.00103496,2.0,41,0.020104818,6.976959e-07,0,-5.2679954024954316e-08,2.0
172,172,894.71045,28865.2,6118.0737,29506.45,-11.966925,117.39683301607147,0.034353845,-3.3469917e-06,0.029075215,0.0012500243,2.0,41,0.020149995,6.829014e-07,0,-5.328256653145205e-08,2.0
173,173,774.2569,29085.754,7156.0493,29953.133,-13.822111,118.07697680837009,0.034235254,1.3829435e-06,0.028725112,0.0016395471,2.0,41,0.020147527,6.7263505e-07,0,-5.361414867376229e-08,2.0
174,174,669.7856,29627.22,7578.7754,30581.203,-14.348823,119.00783146591857,0.034294575,-1.1624419e-06,0.03135345,0.0019256363,2.0,42,0.020134907,6.5840794e-07,0,-5.392877681296366e-08,2.0
175,175,579.81464,30243.182,8420.89,31393.652,-15.559292,119.68783448488102,0.034261785,-9.868088e-07,0.03259665,0.002345337,2.0,42,0.02017748,6.4272484e-07,0,-5.4622207638456326e-08,2.0
176,176,501.44418,30805.785,9292.177,32176.715,-16.785275,120.36520825038315,0.03425545,-8.566207e-07,0.034157027,0.0028486007,2.0,42,0.02014698,6.2613543e-07,0,-5.518335516066802e-08,2.0
177,177,434.02762,31535.086,10210.911,33147.01,-17.941706,121.0452234026452,0.034334783,-1.1106683e-06,0.03591189,0.0034078346,2.0,42,0.020167837,6.0843604e-07,0,-5.478788395540196e-08,2.0
178,178,375.6009,32384.41,11148.677,34249.715,-18.996569,121.72443735491834,0.03431511,-8.901474e-07,0.038007576,0.0040271976,2.0,42,0.020179216,5.891791e-07,0,-5.454765700557434e-08,2.0
179,179,325.10385,33129.484,12247.72,35320.95,-20.28897,122.40371346721804,0.034289435,-8.394869e-07,0.039970793,0.0048060524,2.0,42,0.020125857,5.6979945e-07,0,-5.4264563855550955e-08,2.0
180,180,281.3503,34212.445,13262.916,36693.273,-21.189493,123.08080077936756,0.03427572,-1.0790061e-06,0.042651445,0.005572356,2.0,42,0.020160483,5.494327e-07,0,-5.3839454741083475e-08,2.0
181,181,243.36427,35335.5,14275.725,38110.285,-21.998964,123.7641025451303,0.034262735,-9.292606e-07,0.045810513,0.006428018,2.0,42,0.020160157,5.289952e-07,0,-5.4498882869975456e-08,2.0
182,182,210.60631,36556.64,15417.808,39674.887,-22.867645,124.44119612398208,0.034272943,-8.9052105e-07,0.049014676,0.007401845,2.0,42,0.020178039,5.0858466e-07,0,-5.5204025815445197e-08,2.0
183,183,182.27473,37811.26,16673.572,41324.32,-23.795963,125.11327340922435,0.034368265,-1.2077076e-06,0.05236788,0.008525323,2.0,42,0.020164622,4.8796016e-07,0,-5.49662087741546e-08,2.0
184,184,157.72879,38958.535,18350.51,43064.008,-25.221685,125.8016579486175,0.034287177,-7.053874e-07,0.054987125,0.009984547,2.0,42,0.020116765,4.671364e-07,0,-5.563953500078532e-08,2.0
185,185,136.52892,40660.992,19597.861,45137.484,-25.733225,126.47353587378166,0.03424494,-5.815308e-07,0.059482172,0.011213197,2.0,42,0.020180577,4.470913e-07,0,-5.520740420045556e-08,2.0
186,186,118.14758,42276.203,20735.525,47087.57,-26.126911,127.16192206653068,0.03429506,-8.834445e-07,0.06496512,0.012597889,2.0,42,0.020126484,4.274267e-07,0,-5.551273733260902e-08,2.0
187,187,102.25773,44222.6,22395.783,49570.25,-26.859156,127.82834737814846,0.03432312,-8.713385e-07,0.06949567,0.01418561,2.0,42,0.020228129,4.0806995e-07,0,-5.552622580276534e-08,2.0
188,188,88.4436,45607.547,24005.242,51539.305,-27.75979,128.51829298425582,0.034326695,-1.1253857e-06,0.07496311,0.016262326,2.0,42,0.020108506,3.9015868e-07,0,-5.579259860598048e-08,2.0
189,189,76.54279,47859.406,25697.879,54322.223,-28.23336,129.18574584268208,0.034328114,-1.1550001e-06,0.080913045,0.018107481,2.0,42,0.020189717,3.716659e-07,0,-5.584579355895395e-08,2.0
190,190,66.250786,50011.285,26986.572,56827.844,-28.351728,129.8539763277222,0.034291577,-7.174966e-07,0.08901873,0.02007495,2.0,42,0.020132847,3.5427786e-07,0,-5.596463194830253e-08,2.0
191,191,57.329906,52184.254,28742.328,59576.152,-28.845333,130.5086416388549,0.03425677,-5.610461e-07,0.096586615,0.022481017,2.0,42,0.020132868,3.37935e-07,0,-5.628003113412995e-08,2.0
192,192,49.60321,54541.11,30472.291,62476.34,-29.192232,131.19435844468535,0.034271043,-7.69462e-07,0.10529439,0.025048647,2.0,42,0.02012207,3.2207504e-07,0,-5.658790592295304e-08,2.0
193,193,42.92585,56982.375,32409.078,65554.09,-29.629324,131.9024320783501,0.034305662,-1.0274211e-06,0.11440225,0.027962003,2.0,42,0.020134047,3.0713636e-07,0,-5.664030450134621e-08,2.0
194,194,37.1518,59457.72,34411.48,68697.67,-30.060349,132.5461722688924,0.034293775,-8.2254536e-07,0.12449071,0.031236302,2.0,42,0.02012061,2.9288634e-07,0,-5.6541936889667944e-08,2.0
195,195,32.150223,62419.234,37051.055,72587.48,-30.692688,133.18539365925244,0.034301713,-8.65197e-07,0.13360895,0.034810744,2.0,42,0.02021595,2.7850467e-07,0,-5.6994674428463236e-08,2.0
196,196,27.835518,65068.055,38717.234,75715.76,-30.753777,133.91235006714123,0.03429533,-8.459205e-07,0.14767823,0.038614694,2.0,42,0.020111725,2.656214e-07,0,-5.6819140594375505e-08,2.0
197,197,24.082958,67914.41,41339.574,79506.77,-31.32892,134.61438647381146,0.034277827,-7.044629e-07,0.15986165,0.043218337,2.0,42,0.020129893,2.5318462e-07,0,-5.716467315477619e-08,2.0
198,198,20.833313,71230.3,44040.98,83745.83,-31.728086,135.26876173161145,0.034276877,-8.0857706e-07,0.1734622,0.047972508,2.0,42,0.020156335,2.4068464e-07,0,-5.8134305921175016e-08,2.0
199,199,18.021912,74443.81,46677.582,87867.39,-32.088436,136.01475384703372,0.034267858,-9.396982e-07,0.18919556,0.053391505,2.0,42,0.020128358,2.2907655e-07,0,-5.736298329592316e-08,2.0
200,200,15.604198,77890.89,49897.254,92502.58,-32.643806,136.66999755814322,0.034233313,-6.25865e-07,0.20440994,0.059476808,2.0,42,0.020142829,2.1775425e-07,0,-5.7761806363913196e-08,2.0
201,201,13.500899,81310.53,52970.348,97042.57,-33.08253,137.41799490034464,0.034274414,-5.214716e-07,0.22254848,0.06630796,2.0,42,0.020108208,2.0721018e-07,0,-5.8113343497263357e-08,2.0
202,202,11.686608,85110.516,56942.81,102402.555,-33.784325,138.0088916484092,0.03427024,-8.4824944e-07,0.23916233,0.07395183,2.0,42,0.020113576,1.9641674e-07,0,-5.7820371005731945e-08,2.0
203,203,10.113269,89594.836,60367.95,108034.83,-33.971626,138.68254946704837,0.03428854,-6.3089465e-07,0.26068866,0.08139682,2.0,42,0.020116083,1.8619998e-07,0,-5.7305666441174923e-08,2.0
204,204,8.748621,93517.3,65671.0,114272.33,-35.077827,139.72841045007226,0.034293186,-7.996973e-07,0.2770173,0.09148966,2.0,43,0.020160194,1.7642236e-07,0,-5.821329366474772e-08,2.0
205,205,7.570237,97760.87,70480.0,120518.125,-35.78945,140.60401798499515,0.03428594,-7.8207995e-07,0.29829416,0.10201682,2.0,43,0.020129384,1.6702371e-07,0,-5.853051070772253e-08,2.0
206,206,6.554112,102384.12,75666.67,127310.46,-36.46614,141.1403214771126,0.034329306,-1.2749452e-06,0.3209236,0.11336598,2.0,43,0.020121885,1.5805367e-07,0,-5.9574986821311645e-08,2.0
207,207,5.669445,107746.81,81451.555,135069.36,-37.087574,141.7501390260586,0.03429871,-4.6980233e-07,0.34465152,0.12533295,2.0,43,0.020139575,1.4910543e-07,0,-5.865402818264798e-08,2.0
208,208,4.907347,112546.234,87938.516,142828.0,-38.002453,142.44255612560664,0.034294482,-1.0188804e-06,0.36880282,0.13980599,2.0,43,0.02009356,1.4068362e-07,0,-5.901692427383054e-08,2.0
209,209,4.245922,118612.09,94964.24,151944.19,-38.681767,143.23030528306845,0.034310628,-7.950242e-07,0.39471897,0.15418425,2.0,43,0.02014692,1.3259421e-07,0,-6.063776856860533e-08,2.0
210,210,3.6747382,124005.82,103032.46,161223.86,-39.722107,144.12994713915396,0.034329724,-6.654282e-07,0.4203583,0.17167583,2.0,43,0.020122398,1.248103e-07,0,-5.852956363119096e-08,2.0
211,211,3.180988,130575.19,111832.7,171919.84,-40.578804,145.1581801479624,0.03432815,-9.3299303e-07,0.4473931,0.18931058,2.0,43,0.020152606,1.1722094e-07,0,-5.90574326695052e-08,2.0
212,212,2.752818,136585.08,121146.32,182570.3,-41.571938,146.33713044397882,0.03431478,-9.1130664e-07,0.4772351,0.2101322,2.0,43,0.020124514,1.1022885e-07,0,-6.162201407882427e-08,2.0
213,213,2.3804083,143990.56,132070.62,195386.62,-42.527584,147.6920390150044,0.03428848,-7.546634e-07,0.506247,0.23130512,2.0,43,0.020137232,1.0306351e-07,0,-6.152303858711426e-08,2.0
214,214,2.060257,150850.5,143421.73,208148.19,-43.5539,149.2483366089,0.034314934,-7.528444e-07,0.5386216,0.25572222,2.0,43,0.020110903,9.66182e-08,0,-5.946439619084821e-08,2.0
