True,index,freq,Re(Z),Im(Z),Z,Phase(Z),time,Ewe_meas,I_meas,Cs,Cp,cycle_number,I_Range,Ewe,I,Ns,(QQo),cycle
0,0,7000018.5,327.03802,1661.3871,1693.2693,-78.863914,2.4664936638146173,0.0036792438,3.260854e-05,1.3685168e-05,1.3174669e-05,1.0,40,0.010152971,5.996076e-06,0,9.846505223170728e-09,1.0
1,1,6057573.0,594.7387,1973.8716,2061.5244,-73.23215,3.018500916688936,0.003683697,8.235368e-06,1.3310752e-05,1.22029105e-05,1.0,40,0.014353885,6.962753e-06,0,1.2165760530636918e-08,1.0
2,2,5242039.0,630.75146,2181.8137,2271.158,-73.87568,3.434500989766093,0.0037102287,1.1937859e-05,1.3915609e-05,1.2842302e-05,1.0,40,0.01983486,8.733368e-06,0,1.4112713761388958e-08,1.0
3,3,4536288.0,637.5605,2506.3127,2586.1335,-75.72771,4.939484421251109,0.0036651026,2.2021977e-05,1.3998589e-05,1.3147794e-05,1.0,40,0.01883605,7.2834787e-06,0,1.7695727758955905e-08,1.0
4,4,3925558.5,806.4142,2786.6577,2900.994,-73.860405,5.35547977432725,0.0037300156,-3.5418304e-06,1.4549064e-05,1.3424826e-05,1.0,40,0.0183746,6.333898e-06,0,1.8127496181932655e-08,1.0
5,5,3397055.0,914.1685,3101.5144,3233.434,-73.57717,5.7715015007706825,0.0036397448,-1.2677072e-05,1.5105801e-05,1.3898353e-05,1.0,40,0.019502215,6.031425e-06,0,1.8118869979591383e-08,1.0
6,6,2939708.2,1100.312,3539.7434,3706.814,-72.7324,6.187490640528267,0.003665084,2.0397997e-06,1.529481e-05,1.394717e-05,1.0,40,0.021459473,5.789196e-06,0,2.0199047645115165e-08,1.0
7,7,2543924.5,1212.0845,3901.3176,4085.2695,-72.740715,6.739495866728248,0.0036799335,-1.0853738e-05,1.6036316e-05,1.462466e-05,1.0,40,0.02042805,5.000417e-06,0,2.5521761227082606e-08,1.0
8,8,2201436.2,1560.1012,4571.436,4830.315,-71.156685,7.2914981862704735,0.0036828401,-1.1486318e-05,1.5814714e-05,1.4164973e-05,1.0,40,0.020985328,4.344505e-06,0,2.4309030496261307e-08,1.0
9,9,1905053.1,1781.0325,5307.158,5598.0356,-71.44873,8.010499420430278,0.0036079218,2.5071816e-07,1.5741678e-05,1.4148283e-05,1.0,41,0.019723509,3.5232908e-06,0,1.777299313992684e-08,1.0
10,10,1648567.4,2333.678,6003.4707,6441.0957,-68.75783,8.562492059980286,0.0037455172,-5.957775e-06,1.6080927e-05,1.3969998e-05,1.0,41,0.019902442,3.0899155e-06,0,1.7998341388717008e-08,1.0
11,11,1426616.2,2885.2527,6709.894,7303.9277,-66.73231,9.114500539581059,0.003629311,1.8447578e-06,1.6626365e-05,1.4031875e-05,1.0,41,0.020347094,2.7857743e-06,0,1.808525755663422e-08,1.0
12,12,1234551.2,3453.2202,7334.771,8107.009,-64.78888,9.66649165909621,0.0036702077,-1.2669443e-06,1.7576178e-05,1.4387199e-05,1.0,41,0.020658227,2.5481934e-06,0,1.7790803575154417e-08,1.0
13,13,1068345.5,4377.528,8222.85,9315.472,-61.970886,10.21850403197459,0.003587073,4.206001e-06,1.811699e-05,1.4116306e-05,1.0,41,0.020591654,2.210479e-06,0,1.8366502306419206e-08,1.0
14,14,924510.06,4978.0186,8444.004,9802.136,-59.479248,10.771483258256922,0.0036135672,4.4108406e-06,2.0387317e-05,1.5129183e-05,1.0,41,0.020202976,2.061079e-06,0,1.7719082593142982e-08,1.0
15,15,800039.0,6168.5024,9494.541,11322.399,-56.988647,11.323486404464347,0.0036069157,5.228338e-06,2.0952457e-05,1.4733502e-05,1.0,41,0.020312253,1.7939884e-06,0,1.752466496700025e-08,1.0
16,16,692334.1,7893.7266,10109.303,12826.104,-52.015934,11.875491097365739,0.003591265,3.5356168e-06,2.273962e-05,1.412655e-05,1.0,41,0.020448904,1.5943193e-06,0,1.6927815325990045e-08,1.0
17,17,599122.25,9309.279,10238.6045,13838.053,-47.721848,12.427483736915747,0.0036463032,4.1780695e-06,2.5945614e-05,1.4203504e-05,1.0,41,0.020588743,1.4878352e-06,0,1.7121149021019417e-08,1.0
18,18,518454.94,10857.023,10478.706,15089.011,-43.984158,12.979490109806648,0.0035899049,7.111002e-06,2.9295536e-05,1.4128474e-05,1.0,41,0.02056774,1.3630939e-06,0,1.7908580150327047e-08,1.0
19,19,448662.03,12157.349,10308.001,15939.135,-40.29402,13.531498509371886,0.0036224732,3.6361757e-06,3.44133e-05,1.43928155e-05,1.0,41,0.020279888,1.2723331e-06,0,1.7484052627070114e-08,1.0
20,20,388258.97,13537.586,9703.971,16656.328,-35.633595,14.08350402888027,0.0036328512,3.3549877e-06,4.2242456e-05,1.4338033e-05,1.0,41,0.020745246,1.2454873e-06,0,1.7966936349296248e-08,1.0
21,21,335983.9,15075.567,9843.34,18004.557,-33.141857,14.635482641780982,0.0036607988,-1.0732742e-06,4.8123715e-05,1.4383986e-05,1.0,41,0.020450449,1.1358485e-06,0,1.861364884277034e-08,1.0
22,22,290751.2,15959.087,8800.333,18224.662,-28.8737,15.187483014684403,0.0036574823,-6.933889e-07,6.220131e-05,1.4503698e-05,1.0,41,0.020549815,1.1275828e-06,0,1.9340571851780434e-08,1.0
23,23,251605.19,17191.87,8171.0786,19034.887,-25.421152,15.739491200918565,0.0035981587,3.9341276e-06,7.74143e-05,1.4265249e-05,1.0,41,0.020276781,1.065243e-06,0,1.8758295397541738e-08,1.0
24,24,217729.38,17853.05,7680.2944,19434.977,-23.277138,16.291500933788484,0.0036013448,4.3456694e-06,9.5175514e-05,1.4863221e-05,1.0,41,0.020326335,1.0458637e-06,0,1.960180745894983e-08,1.0
25,25,188418.58,18975.113,6760.629,20143.512,-19.610435,16.84348647997831,0.0035879486,3.4238908e-06,0.00012494223,1.4073857e-05,1.0,41,0.020401405,1.0128028e-06,0,2.0657061958385408e-08,1.0
26,26,163051.14,19277.055,5926.006,20167.36,-17.088078,17.39547991953441,0.0036037483,5.315864e-06,0.0001647154,1.4221988e-05,1.0,41,0.020591116,1.0210119e-06,0,2.008249717833463e-08,1.0
27,27,141098.2,19717.129,5327.0684,20424.074,-15.118902,17.94748397244257,0.0036613948,2.7628166e-06,0.00021174362,1.4404631e-05,1.0,41,0.020428771,1.00023e-06,0,2.0071805972719402e-08,1.0
28,28,122105.11,20024.217,5136.6646,20672.557,-14.387435,18.36348199218628,0.0036131947,7.196966e-08,0.00025374946,1.5666757e-05,1.0,41,0.021904359,1.0595863e-06,0,2.0847798350320407e-08,1.0
29,29,105663.59,20162.629,3899.2717,20536.21,-10.945373,18.915495431720046,0.0036490606,1.7665529e-06,0.000386288,1.392636e-05,1.0,41,0.020278333,9.874427e-07,0,2.0534393537085784e-08,1.0
30,30,91439.65,20506.424,3401.3296,20786.594,-9.417711,19.331481344852364,0.0036340249,1.963946e-06,0.00051172526,1.3701485e-05,1.0,41,0.021577485,1.0380481e-06,0,2.0467179620200996e-08,1.0
31,31,79127.08,20605.254,3135.0945,20842.393,-8.6512165,19.883488224382745,0.0036271499,4.6492087e-06,0.0006415705,1.4516118e-05,1.0,41,0.020321872,9.750258e-07,0,2.004865387913313e-08,1.0
32,32,68475.36,20634.697,2559.0693,20792.777,-7.069598,20.299500697496114,0.0036379003,1.12943255e-07,0.0009082466,1.3757605e-05,1.0,41,0.021320963,1.0254024e-06,0,2.0623859968141448e-08,1.0
33,33,59252.523,20729.793,2324.382,20859.7,-6.397716,20.851484137034277,0.0036624756,1.1632136e-06,0.0011555953,1.434844e-05,1.0,41,0.020255461,9.710333e-07,0,2.080058330417008e-08,1.0
34,34,51282.285,20804.4,1934.57,20894.152,-5.3125715,21.267484716809122,0.0036014006,6.6994744e-06,0.0016042363,1.3752691e-05,1.0,41,0.020995488,1.00485e-06,0,2.0733758037863482e-08,1.0
35,35,44369.8,20735.541,1660.4229,20801.914,-4.5782585,21.683479243220063,0.0036164366,4.057042e-06,0.0021602993,1.3764003e-05,1.0,41,0.021593744,1.0380652e-06,0,2.0303859700536325e-08,1.0
36,36,38403.727,20704.271,1679.4445,20772.275,-4.637442,22.235498336114688,0.0036210944,2.159481e-06,0.002467636,1.6130367e-05,1.0,41,0.020200122,9.72456e-07,0,1.9657840093294176e-08,1.0
37,37,33226.32,20710.768,1400.7584,20758.084,-3.8692677,22.651489769195905,0.0036375648,2.6268883e-06,0.0034195948,1.5571362e-05,1.0,41,0.020584598,9.916425e-07,0,2.053245011188033e-08,1.0
38,38,28754.086,20648.21,1327.1036,20690.814,-3.6774614,23.06749402897549,0.003577105,4.194845e-06,0.004170765,1.7158141e-05,1.0,41,0.020818625,1.0061772e-06,0,2.002077559101028e-08,1.0
39,39,24884.947,20724.371,1369.0504,20769.541,-3.7794638,23.483489168720553,0.0035640069,4.928543e-06,0.004671582,2.0297804e-05,1.0,41,0.021051846,1.0135923e-06,0,2.111143806906865e-08,1.0
40,40,21553.963,20814.0,1074.1128,20841.697,-2.9541457,23.900501108524622,0.0036705618,-1.9186912e-06,0.0068745315,1.8258988e-05,1.0,41,0.021200975,1.0172384e-06,0,2.0751066848580043e-08,1.0
41,41,18631.234,20695.02,1163.72,20727.713,-3.2184603,24.316489821620053,0.0036338759,1.9099493e-06,0.007340574,2.3137914e-05,1.0,41,0.021062313,1.0161426e-06,0,2.0868875554381502e-08,1.0
42,42,16126.037,20785.715,1037.4261,20811.588,-2.857292,24.732481868035393,0.0036056489,5.682725e-06,0.009513389,2.363955e-05,1.0,41,0.020934254,1.0058941e-06,0,2.0453671678562084e-08,1.0
43,43,13954.87,20490.59,866.09644,20508.887,-2.4203377,25.14850055446732,0.0036479614,2.8820082e-06,0.01316825,2.3484235e-05,1.0,41,0.020619411,1.0053891e-06,0,2.071676080762725e-08,1.0
44,44,12080.609,20954.416,1141.1149,20985.463,-3.117078,25.56447932086303,0.003597898,4.2730544e-06,0.011545211,3.4136858e-05,1.0,41,0.020416576,9.728914e-07,0,1.9974330972243277e-08,1.0
45,45,10447.592,20856.084,1173.9008,20889.096,-3.2215376,25.980502807331504,0.003645968,2.2805236e-06,0.012976948,4.098227e-05,1.0,41,0.019876922,9.5154536e-07,0,1.8758931130135022e-08,1.0
46,46,9045.586,20822.363,1281.8821,20861.783,-3.5228403,26.55324926119647,0.0036447195,3.578463e-06,0.013725727,5.182373e-05,1.0,41,0.02027953,9.7209e-07,0,1.886124942510984e-08,1.0
47,47,7827.7437,20848.633,1302.5131,20889.281,-3.574893,27.033946564042708,0.0035965377,3.6212932e-06,0.015609948,6.0690207e-05,1.0,41,0.020307833,9.721653e-07,0,1.836458219433565e-08,1.0
48,48,6770.8345,20880.36,1490.3252,20933.477,-4.082535,27.572408376232488,0.003531569,7.630564e-06,0.015772369,7.9942234e-05,1.0,41,0.020306475,9.70048e-07,0,1.949694415090322e-08,1.0
49,49,5860.798,20971.371,1429.3823,21020.027,-3.8991778,28.17798768504872,0.0036068598,5.5337514e-06,0.01899831,8.78507e-05,1.0,41,0.020346671,9.67966e-07,0,1.965474215554271e-08,1.0
50,50,5071.625,21099.578,1612.853,21161.13,-4.3711925,28.858698357405956,0.003605593,4.718116e-06,0.019457106,0.00011302905,1.0,41,0.020407258,9.643746e-07,0,1.9767566943286852e-08,1.0
51,51,4388.5933,21040.082,1859.7854,21122.117,-5.0513883,29.538817989698146,0.0036686985,-1.438249e-06,0.019499883,0.00015117596,1.0,41,0.020370442,9.64413e-07,0,2.058111031899696e-08,1.0
52,52,3798.7827,21159.719,1979.0436,21252.066,-5.3432627,30.21881476866838,0.0036426142,5.077284e-07,0.021169974,0.00018358142,1.0,41,0.020386068,9.592511e-07,0,2.0762782706147693e-08,1.0
53,53,3286.0488,21305.277,2181.893,21416.71,-5.847328,30.898690374298894,0.0036368195,1.3438479e-06,0.02219794,0.00023039553,1.0,41,0.020418819,9.5340596e-07,0,2.0283619147998403e-08,1.0
54,54,2844.088,21470.455,2519.1052,21617.732,-6.6918564,31.5788202999247,0.0036149833,8.727156e-07,0.022214206,0.00030164988,1.0,41,0.020450309,9.45997e-07,0,2.1412633167396203e-08,1.0
55,55,2460.7852,21507.963,2831.7747,21693.58,-7.5005174,32.25871675889357,0.0036296837,1.4872348e-06,0.022839561,0.00038917296,1.0,41,0.020413382,9.4098726e-07,0,2.1257933041119435e-08,1.0
56,56,2129.3164,21641.988,3202.599,21877.666,-8.417587,32.93882745785231,0.0036045122,2.3456987e-06,0.023338737,0.00050012727,1.0,41,0.020424452,9.3357545e-07,0,2.2225668286428876e-08,1.0
57,57,1843.2289,21740.203,3503.3643,22020.672,-9.154333,33.61897151681478,0.0036087043,1.2526e-06,0.024646517,0.0006238282,1.0,41,0.020399507,9.2637987e-07,0,2.248769144314464e-08,1.0
58,58,1594.4913,21997.47,3867.9553,22334.945,-9.972735,34.29882901579549,0.003635143,2.3212574e-07,0.025805753,0.0007739442,1.0,41,0.020410238,9.138253e-07,0,2.2807272770705823e-08,1.0
59,59,1380.4436,22178.283,4414.5303,22613.365,-11.257444,34.97868062141788,0.0036632768,-9.4290954e-07,0.026116619,0.0009953036,1.0,41,0.020422654,9.031232e-07,0,2.352097152290216e-08,1.0
60,60,1194.6187,22316.113,4779.4185,22822.178,-12.08836,35.65882481371227,0.0036404156,2.5449522e-06,0.02787506,0.001222508,1.0,41,0.02040099,8.9391074e-07,0,2.316673797392039e-08,1.0
61,61,1033.3434,22723.94,5492.4463,23378.29,-13.587962,36.3390908993606,0.0035899794,2.3568716e-06,0.028042043,0.0015478035,1.0,41,0.020425908,8.737127e-07,0,2.2649014258174955e-08,1.0
62,62,894.71045,23063.713,6099.221,23856.559,-14.812829,37.01882906498213,0.0036194734,1.3606046e-06,0.029165084,0.0019063228,1.0,41,0.020424675,8.5614505e-07,0,2.362920778582773e-08,1.0
63,63,774.2569,23701.234,6295.0205,24522.965,-14.874282,37.698948057281086,0.0036149647,-1.08655215e-07,0.032654114,0.0021517226,1.0,41,0.020421982,8.327697e-07,0,2.4474609508634633e-08,1.0
64,64,669.7856,23991.799,7461.522,25125.3,-17.275852,38.37882779624488,0.003610754,2.140855e-06,0.03184615,0.0028085958,1.0,41,0.02043573,8.1335264e-07,0,2.3938212584097427e-08,1.0
65,65,579.81464,24365.281,8159.653,25695.27,-18.515106,39.05883406854991,0.0035651992,2.6585396e-06,0.033640254,0.003392316,1.0,41,0.020396963,7.9380226e-07,0,2.3998891263696957e-08,1.0
66,66,501.44418,24832.21,8882.246,26372.959,-19.681648,39.73620042068069,0.0036240197,2.9881435e-06,0.03573343,0.004053243,1.0,41,0.020335553,7.710759e-07,0,2.4347378619148054e-08,1.0
67,67,434.02762,25598.94,9853.4,27429.822,-21.052435,40.41619885296677,0.0035951405,9.58367e-07,0.03721488,0.0048022293,1.0,41,0.020385463,7.431861e-07,0,2.5102143525831226e-08,1.0
68,68,375.6009,26255.076,10707.357,28354.48,-22.18664,41.34642343051382,0.003637863,-3.8521335e-07,0.039574116,0.005643291,1.0,42,0.020388804,7.1906817e-07,0,2.5443804400159328e-08,1.0
69,69,325.10385,27160.6,11806.902,29615.893,-23.494923,42.025715676136315,0.0036443283,-2.6620043e-07,0.041463125,0.0065899836,1.0,42,0.02046595,6.910462e-07,0,2.4751734792273637e-08,1.0
70,70,281.3503,28065.91,12877.187,30879.074,-24.64658,42.7028238682833,0.0036445518,-1.479316e-07,0.043929044,0.0076395045,1.0,42,0.02046002,6.625853e-07,0,2.417379922325027e-08,1.0
71,71,243.36427,29071.96,13973.854,32255.969,-25.671932,43.386113874061266,0.0036246346,-3.0065942e-07,0.046800137,0.008783333,1.0,42,0.020429995,6.33371e-07,0,2.4282624883028346e-08,1.0
72,72,210.60631,30050.91,15273.492,33709.594,-26.942131,44.0631861462316,0.0036173495,-1.6525769e-07,0.049477804,0.010157342,1.0,42,0.020388618,6.048313e-07,0,2.4870365877831093e-08,1.0
73,73,182.27473,31362.686,16540.805,35457.246,-27.807343,44.735276738152606,0.0035949354,-1.6320868e-07,0.05278822,0.01148789,1.0,42,0.02041442,5.7574744e-07,0,2.4242054582387595e-08,1.0
74,74,157.72879,32198.982,18103.615,36939.348,-29.346516,45.423656397531886,0.0036538863,-9.709016e-08,0.055737033,0.013387393,1.0,42,0.020253092,5.482796e-07,0,2.46601121372281e-08,1.0
75,75,136.52892,34269.758,19337.822,39349.305,-29.435274,46.095512616069755,0.0035868494,3.6824616e-08,0.060282037,0.014558912,1.0,42,0.020409208,5.1866755e-07,0,2.4021673715533137e-08,1.0
76,76,118.14758,35806.33,20921.83,41470.664,-30.297976,46.78388942213496,0.0036557869,-2.7216768e-07,0.06438662,0.016387511,1.0,42,0.020386217,4.9158166e-07,0,2.4257740491265168e-08,1.0
77,77,102.25773,37411.14,22543.037,43678.164,-31.072136,47.450332893728046,0.0035961466,-1.0323771e-07,0.069041714,0.018391097,1.0,42,0.020345652,4.658083e-07,0,2.4020067721111687e-08,1.0
78,78,88.4436,39647.402,24167.52,46432.59,-31.364868,48.140266659873305,0.0035263335,2.860269e-07,0.074459754,0.02017158,1.0,42,0.020420253,4.3978278e-07,0,2.399926535489685e-08,1.0
79,79,76.54279,41725.2,25823.182,49069.633,-31.752825,48.807718158263015,0.0036665932,-4.4519575e-07,0.08052043,0.022299748,1.0,42,0.020407256,4.158836e-07,0,2.3901611033323887e-08,1.0
80,80,66.250786,43958.234,27534.229,51869.645,-32.061897,49.476004669995746,0.0036096731,-5.55829e-07,0.08724814,0.024585297,1.0,42,0.02040776,3.9344323e-07,0,2.369512166543686e-08,1.0
81,81,57.329906,46425.332,29412.73,54958.348,-32.35627,50.13064419443617,0.0036462846,-3.7218635e-07,0.094385125,0.02703379,1.0,42,0.02045183,3.721333e-07,0,2.4015448815564215e-08,1.0
82,82,49.60321,48912.785,31220.988,58027.67,-32.550056,50.81535889356746,0.0035964632,-2.604359e-07,0.10276937,0.02974998,1.0,42,0.020440003,3.522458e-07,0,2.4198474384598335e-08,1.0
83,83,42.92585,51507.74,32774.324,61050.824,-32.46856,51.52341556720785,0.0035933706,-2.3153065e-08,0.11312732,0.03260258,1.0,42,0.020387229,3.3393863e-07,0,2.3705656981660027e-08,1.0
84,84,37.1518,54125.234,34558.31,64216.957,-32.55774,52.167181091121165,0.0035790799,1.7743847e-07,0.123961784,0.035899907,1.0,42,0.020330261,3.1658712e-07,0,2.3534509828559338e-08,1.0
85,85,32.150223,57674.223,36755.723,68390.78,-32.50932,52.80539704140392,0.003563094,1.9010265e-07,0.1346825,0.038901467,1.0,42,0.020495586,2.9968348e-07,0,2.4224498159462173e-08,1.0
86,86,27.835518,60096.96,38743.04,71502.92,-32.808884,53.53333166267839,0.0036472906,-1.998148e-07,0.14757986,0.043327827,1.0,42,0.020385694,2.8510294e-07,0,2.391415219724359e-08,1.0
87,87,24.082958,63309.85,41261.793,75568.99,-33.094044,54.23539604266989,0.0036146105,7.762238e-09,0.16016302,0.047749754,1.0,42,0.020434078,2.7040295e-07,0,2.4298686738137892e-08,1.0
88,88,20.833313,66534.75,43292.82,79379.73,-33.051243,54.88975804713846,0.003597134,-3.3213755e-08,0.17645986,0.052487813,1.0,42,0.020427186,2.5733505e-07,0,2.4467677411244102e-08,1.0
89,89,18.021912,69711.3,45851.418,83438.7,-33.33424,55.63575157590094,0.0038104581,-1.2583744e-06,0.19260454,0.058161683,1.0,42,0.020409685,2.4460692e-07,0,2.3988589777595673e-08,1.0
90,90,15.604198,73112.48,48455.52,87711.87,-33.53455,56.29202296707081,0.0036565508,-2.3473731e-07,0.21049191,0.06423996,1.0,42,0.020401891,2.3260127e-07,0,2.352079080058288e-08,1.0
91,91,13.500899,76522.31,51418.79,92193.04,-33.898933,57.03897692254395,0.0036264604,-3.4136644e-07,0.22926387,0.07131535,1.0,42,0.020384697,2.2110885e-07,0,2.350176628667021e-08,1.0
92,92,11.686608,80565.68,54967.535,97530.81,-34.30454,57.62987652394804,0.0036509798,-3.7889626e-07,0.2477567,0.07869629,1.0,42,0.020456009,2.0973893e-07,0,2.314441713303989e-08,1.0
93,93,10.113269,83117.6,58115.99,101419.94,-34.96132,58.303518929256825,0.0035696523,-4.7928015e-08,0.27079022,0.08891551,1.0,42,0.020323914,2.0039367e-07,0,2.333967168567281e-08,1.0
94,94,8.748621,88082.69,62356.41,107920.72,-35.295837,59.070385178987635,0.003650607,-1.1954194e-07,0.29174232,0.09739843,1.0,42,0.020419965,1.8921264e-07,0,2.4800181902562378e-08,1.0
95,95,7.570237,91978.69,66768.56,113657.91,-35.9764,60.26002395551768,0.0036091795,-3.462667e-07,0.3148753,0.10866342,1.0,43,0.020407489,1.7955186e-07,0,2.4394738962695803e-08,1.0
96,96,6.554112,96540.11,71788.07,120305.945,-36.634815,60.79632520765881,0.003643229,-3.8571972e-07,0.33826262,0.12044378,1.0,43,0.020455781,1.7003134e-07,0,2.2575410905181078e-08,1.0
97,97,5.669445,100744.25,76751.664,126650.0,-37.301838,61.406114116631215,0.0036210385,-2.8452308e-07,0.36575627,0.13432504,1.0,43,0.020388626,1.6098402e-07,0,2.4391269455680488e-08,1.0
98,98,4.907347,105629.42,82800.25,134214.22,-38.092007,62.09852036283701,0.0036411237,-5.421897e-07,0.39168927,0.14907607,1.0,43,0.02041899,1.521373e-07,0,2.192374985751745e-08,1.0
99,99,4.245922,110450.17,89638.66,142247.42,-39.06194,62.88630024026497,0.0036599324,-1.7381944e-07,0.41816992,0.16605602,1.0,43,0.020417858,1.4353763e-07,0,2.3996099024853062e-08,1.0
100,100,3.6747382,115369.5,96806.15,150603.95,-39.999897,63.78596110967919,0.0035984756,-4.7879786e-07,0.4473946,0.1848519,1.0,43,0.020379065,1.353156e-07,0,2.3936294101931804e-08,1.0
101,101,3.180988,120639.67,105090.04,159993.27,-41.059345,64.81418201184715,0.0036248767,-4.801393e-07,0.47609818,0.20540747,1.0,43,0.020406265,1.2754452e-07,0,2.1391054792086807e-08,1.0
102,102,2.752818,126434.664,114418.89,170520.98,-42.14398,65.99309545449796,0.0036465398,-3.0928388e-07,0.50529486,0.22750172,1.0,43,0.020400865,1.1963844e-07,0,2.218400671318616e-08,1.0
103,103,2.3804083,131758.22,124566.1,181320.0,-43.39278,67.34801581219654,0.0036160955,-2.812128e-07,0.53674597,0.25332445,1.0,43,0.020379221,1.1239368e-07,0,2.450645293286671e-08,1.0
104,104,2.060257,138378.23,136544.19,194403.84,-44.61778,68.90433057941846,0.003696772,-4.6411014e-07,0.56575125,0.27910158,1.0,43,0.02040185,1.0494571e-07,0,2.3936454400084034e-08,1.0
105,105,1.7836765,143956.88,149857.9,207800.33,-46.150585,70.69268258441298,0.003628924,-4.581693e-07,0.5954214,0.3096644,1.0,43,0.020407172,9.8205675e-08,0,2.112046237222387e-08,1.0
