True,index,freq,Re(Z),Im(Z),Z,Phase(Z),time,Ewe_meas,I_meas,Cs,Cp,cycle_number,I_Range,Ewe,I,Ns,(QQo),cycle
0,0,7000018.5,291.4561,1422.5568,1452.1069,-78.42137,2.4674956105009187,0.0044352077,7.3982396e-06,1.5982745e-05,1.533887e-05,1.0,40,0.010115544,6.966115e-06,0,1.2512580388122134e-08,1.0
1,1,6057573.0,469.63727,1541.7845,1611.7253,-73.05894,3.0194817167066503,0.0044309227,1.1919233e-05,1.7041108e-05,1.55942e-05,1.0,40,0.014222614,8.824465e-06,0,8.725235532475987e-09,1.0
2,2,5242039.0,477.1222,1764.6101,1827.9755,-74.86993,3.435498936480144,0.0045031393,-2.6352025e-05,1.7205652e-05,1.6033486e-05,1.0,40,0.01951729,1.0676998e-05,0,9.58920226063261e-09,1.0
3,3,4536288.0,505.98816,2043.6099,2105.3184,-76.093506,4.8035030814644415,0.0044463314,6.2074023e-06,1.7168071e-05,1.6176402e-05,1.0,40,0.01821833,8.653479e-06,0,-1.043705638784963e-09,1.0
4,4,3925558.5,630.86127,2276.585,2362.377,-74.51149,5.35548409432522,0.0044519766,-3.1747586e-05,1.7808807e-05,1.6538805e-05,1.0,40,0.019330228,8.182533e-06,0,-2.4871169097448525e-09,1.0
5,5,3397055.0,776.1538,2544.9014,2660.6272,-73.03914,5.7714788874436636,0.004453672,-3.141269e-05,1.8409695e-05,1.684304e-05,1.0,40,0.020467978,7.692915e-06,0,-2.636628416476741e-09,1.0
6,6,2939708.2,942.8347,2924.8167,3073.0261,-72.13292,6.323480913677486,0.004429283,-2.2426286e-05,1.8510462e-05,1.676803e-05,1.0,40,0.020640174,6.7165633e-06,0,-8.038218205405833e-09,1.0
7,7,2543924.5,1152.2772,3229.6208,3429.0222,-70.36441,6.875492086546728,0.0044182534,3.3235724e-06,1.9371551e-05,1.7184102e-05,1.0,40,0.02036276,5.938358e-06,0,-8.04689638799674e-09,1.0
8,8,2201436.2,1371.8505,3685.7478,3932.774,-69.584526,7.427487952780211,0.004393678,-1.4394053e-06,1.9615003e-05,1.722827e-05,1.0,40,0.021030828,5.3475815e-06,0,-7.625312753475555e-09,1.0
9,9,1905053.1,1631.9686,4125.7427,4436.7866,-68.41835,7.979479472298408,0.0044161477,-1.520739e-05,2.0249341e-05,1.7509676e-05,1.0,40,0.020520743,4.625136e-06,0,-7.0213446591777835e-09,1.0
10,10,1648567.4,2066.7886,4686.5977,5122.091,-66.20253,8.531492138543399,0.00437676,4.3654773e-06,2.0599457e-05,1.7245531e-05,1.0,40,0.019943893,3.8937014e-06,0,-1.1155998932748743e-08,1.0
11,11,1426616.2,2398.9963,5300.6123,5818.219,-65.64904,9.250480892689666,0.004434388,-3.3134907e-06,2.1046842e-05,1.746863e-05,1.0,41,0.019512396,3.3536717e-06,0,-1.2366212718907774e-08,1.0
12,12,1234551.2,3123.2708,5813.258,6599.1504,-61.752335,9.802496332238661,0.004457697,-5.443811e-06,2.2176418e-05,1.7208957e-05,1.0,41,0.020432133,3.0961762e-06,0,-1.2137236069589916e-08,1.0
13,13,1068345.5,3658.141,6331.906,7312.662,-59.983624,10.354494678467745,0.0043913675,-2.6881378e-07,2.3527404e-05,1.7639726e-05,1.0,41,0.020709269,2.831974e-06,0,-1.1301960045598334e-08,1.0
14,14,924510.06,4408.387,6804.639,8107.8354,-57.062805,10.906503104692092,0.004401205,-7.4366886e-07,2.5299003e-05,1.7819837e-05,1.0,41,0.020237168,2.4960013e-06,0,-1.1453325191240537e-08,1.0
15,15,800039.0,5483.2026,6697.725,8655.925,-50.693966,11.458481930865673,0.0044335313,-2.0769892e-06,2.9701721e-05,1.7783175e-05,1.0,41,0.02046541,2.3643238e-06,0,-1.1321553772050822e-08,1.0
16,16,692334.1,6451.198,7726.251,10065.432,-50.139088,12.010478277079528,0.0044184397,1.7252407e-07,2.975333e-05,1.7531069e-05,1.0,41,0.020376304,2.0243845e-06,0,-1.0987836432320818e-08,1.0
17,17,599122.25,7372.216,7876.595,10788.435,-46.89446,12.562486649985658,0.0043840827,-2.8929608e-07,3.3726104e-05,1.7977378e-05,1.0,41,0.020642264,1.9133697e-06,0,-1.009900795837066e-08,1.0
18,18,518454.94,8623.6875,8015.7217,11773.69,-42.907475,13.114499556220835,0.0044234702,-2.1924427e-06,3.8297152e-05,1.775115e-05,1.0,41,0.020548087,1.7452545e-06,0,-1.1155115454686085e-08,1.0
19,19,448662.03,9633.974,7894.617,12455.458,-39.33311,13.667487102473387,0.004381139,1.0086449e-06,4.4933447e-05,1.8051465e-05,1.0,41,0.020368502,1.6353073e-06,0,-1.2179935970304238e-08,1.0
20,20,388258.97,10725.071,7702.843,13204.58,-35.68625,14.219492728676414,0.0044212155,-8.386373e-07,5.321666e-05,1.8109251e-05,1.0,41,0.02096198,1.587478e-06,0,-1.3097797228163522e-08,1.0
21,21,335983.9,11890.792,7483.431,14049.65,-32.184124,14.771495714929188,0.004370519,-1.347346e-07,6.329959e-05,1.7958555e-05,1.0,41,0.020385662,1.450973e-06,0,-1.3427895103951137e-08,1.0
22,22,290751.2,12266.088,6788.1704,14019.136,-28.960562,15.323487234447384,0.004371115,2.1706442e-06,8.063914e-05,1.8906401e-05,1.0,41,0.020048473,1.4300791e-06,0,-1.289946262140044e-08,1.0
23,23,251605.19,13299.541,6403.9287,14761.033,-25.711514,15.875489527330501,0.00440523,-1.4404529e-07,9.8776596e-05,1.8591461e-05,1.0,41,0.020553485,1.392415e-06,0,-1.2991300427028168e-08,1.0
24,24,217729.38,14099.27,5840.063,15260.922,-22.499842,16.427498806879157,0.004395709,-1.7436565e-06,0.00012516577,1.8329858e-05,1.0,41,0.020374509,1.3350772e-06,0,-1.27301709494658e-08,1.0
25,25,188418.58,14350.01,4982.2544,15190.314,-19.146755,16.9794989664515,0.004378083,2.0142234e-06,0.00016953934,1.8238485e-05,1.0,41,0.019981235,1.3153931e-06,0,-1.284487746449751e-08,1.0
26,26,163051.14,15039.017,4678.0566,15749.801,-17.278898,17.395497226185398,0.0044061425,-1.9038014e-06,0.00020865598,1.8408215e-05,1.0,41,0.021924824,1.3920699e-06,0,-1.2300026672170993e-08,1.0
27,27,141098.2,15428.123,4253.6357,16003.762,-15.413884,17.947503359086113,0.004375978,4.369577e-07,0.00026517853,1.873332e-05,1.0,41,0.020454483,1.2781047e-06,0,-1.2924247599853642e-08,1.0
28,28,122105.11,15326.124,3699.1448,15766.222,-13.5695,18.499502905324334,0.0044303825,-3.764117e-06,0.0003523587,1.9396903e-05,1.0,41,0.019961298,1.26608e-06,0,-1.401714056981973e-08,1.0
29,29,105663.59,15927.904,3234.5713,16253.018,-11.479282,18.915484978380846,0.0043984107,-6.8779116e-07,0.00046566976,1.8443505e-05,1.0,41,0.021514287,1.3237103e-06,0,-1.3704712203472506e-08,1.0
30,30,91439.65,16102.281,2824.7532,16348.171,-9.949907,19.467494417942362,0.0043619666,1.3606061e-06,0.00061617646,1.8396184e-05,1.0,41,0.020329192,1.2435148e-06,0,-1.2878533865589582e-08,1.0
31,31,79127.08,16284.338,2271.244,16441.965,-7.9400573,19.884489211108303,0.004357178,1.1483193e-06,0.00088558695,1.6898624e-05,1.0,41,0.021598583,1.3136255e-06,0,-1.3609166803503411e-08,1.0
32,32,68475.36,16271.193,2114.1687,16407.969,-7.4031496,20.436497077316744,0.004399845,-1.2129251e-06,0.0010993758,1.8252225e-05,1.0,41,0.020377949,1.2419544e-06,0,-1.290784272503329e-08,1.0
33,33,59252.523,16402.613,1848.0021,16506.387,-6.4281282,20.85249000377371,0.0043555573,9.378955e-07,0.0014534859,1.8218461e-05,1.0,41,0.021379635,1.2952341e-06,0,-1.2038265479535287e-08,1.0
34,34,51282.285,16379.987,1654.6234,16463.346,-5.7681637,21.404499843280064,0.0044346307,-2.1775313e-06,0.0018756578,1.8945922e-05,1.0,41,0.020209137,1.2275232e-06,0,-1.4464965710449936e-08,1.0
35,35,44369.8,16394.629,1461.8207,16459.672,-5.095281,21.82048679640866,0.0043832255,2.954455e-07,0.0024537963,1.935461e-05,1.0,41,0.020899562,1.2697435e-06,0,-1.4737685423297206e-08,1.0
36,36,38403.727,16401.64,1242.0356,16448.602,-4.3305326,22.236498309503077,0.0044296,-1.5499743e-06,0.0033366657,1.9024921e-05,1.0,41,0.021502957,1.3072818e-06,0,-1.50049916265876e-08,1.0
37,37,33226.32,16439.506,1144.3271,16479.285,-3.9818428,22.788503535703057,0.0044135395,-1.7361936e-06,0.004185889,2.0184192e-05,1.0,41,0.020166073,1.2237226e-06,0,-1.3837868263010477e-08,1.0
38,38,28754.086,16447.885,996.59863,16478.049,-3.4673865,23.20449902213295,0.0044232095,-2.4903761e-06,0.005553928,2.0315583e-05,1.0,41,0.020476699,1.2426652e-06,0,-1.4709495350975507e-08,1.0
39,39,24884.947,16501.021,977.4389,16529.945,-3.3899574,23.62049722854863,0.0043619294,-4.8853326e-07,0.006543254,2.287864e-05,1.0,41,0.020759776,1.255889e-06,0,-1.5289842500010308e-08,1.0
40,40,21553.963,16517.322,916.79785,16542.746,-3.1769557,24.037481995037524,0.0043754564,1.2265358e-06,0.008054145,2.4737246e-05,1.0,41,0.020892994,1.2629702e-06,0,-1.618496971845376e-08,1.0
41,41,18631.234,16519.336,801.33746,16538.76,-2.7771876,24.453479134797817,0.004391498,9.937636e-07,0.010660144,2.5025805e-05,1.0,41,0.020870246,1.2618991e-06,0,-1.723026433988808e-08,1.0
42,42,16126.037,16549.854,784.66455,16568.445,-2.7144845,24.86947963453713,0.004428892,-1.492246e-06,0.012577909,2.8210643e-05,1.0,41,0.02076526,1.2533017e-06,0,-1.648735311223959e-08,1.0
43,43,13954.87,16553.387,751.2511,16570.426,-2.5985014,25.285499600955518,0.0043703695,7.460935e-07,0.0151813105,3.1204134e-05,1.0,41,0.020559583,1.2407395e-06,0,-1.6345367778823673e-08,1.0
44,44,12080.609,16331.656,1266.6144,16380.699,-4.434742,25.701481407420943,0.004357905,2.1723412e-07,0.0104012815,6.218861e-05,1.0,41,0.020168882,1.2312589e-06,0,-1.5576945345651104e-08,1.0
45,45,10447.592,16602.156,761.0366,16619.59,-2.62458,26.117488067160593,0.004399193,-1.4605899e-06,0.020016972,4.197289e-05,1.0,41,0.019765839,1.1893096e-06,0,-1.641970915178111e-08,1.0
46,46,9045.586,16675.412,765.1235,16692.957,-2.6270785,26.690262467687717,0.0043998635,3.101584e-08,0.022995979,4.8311264e-05,1.0,41,0.020356655,1.2194757e-06,0,-1.8395938617067663e-08,1.0
47,47,7827.7437,16633.492,806.20325,16653.018,-2.7748787,27.17092937056441,0.004346875,9.3975956e-07,0.025219647,5.9107446e-05,1.0,41,0.02031573,1.2199429e-06,0,-1.7318238045101947e-08,1.0
48,48,6770.8345,16671.56,806.09155,16691.037,-2.7681694,27.709421849431237,0.004365805,2.29915e-06,0.029160406,6.8013585e-05,1.0,41,0.02036526,1.2201315e-06,0,-1.8314582537264023e-08,1.0
49,49,5860.798,16685.195,755.04346,16702.27,-2.5909984,28.31596326493309,0.004604198,-1.08273525e-05,0.03596594,7.349949e-05,1.0,41,0.02037156,1.2196881e-06,0,-1.9976950754198697e-08,1.0
50,50,5071.625,16726.559,900.72125,16750.793,-3.0823872,28.99668535062665,0.004330274,3.0700915e-06,0.034840357,0.00010073785,1.0,41,0.020391896,1.217369e-06,0,-2.080818728776674e-08,1.0
51,51,4388.5933,16714.162,926.2523,16739.807,-3.1719284,29.67684538292815,0.0043813623,1.2656409e-06,0.03915304,0.00011987352,1.0,41,0.020385627,1.2177934e-06,0,-1.955696560214272e-08,1.0
52,52,3798.7827,16758.72,1055.8208,16791.947,-3.6049428,30.35684061521897,0.0043746736,-5.8350355e-07,0.039681263,0.00015687862,1.0,41,0.020403676,1.215087e-06,0,-1.8868916096929902e-08,1.0
53,53,3286.0488,16795.627,1136.3523,16834.025,-3.8705978,31.036708460851514,0.0043563587,1.2730891e-06,0.042621933,0.00019421517,1.0,41,0.02041525,1.2127373e-06,0,-1.935773946682594e-08,1.0
54,54,2844.088,16852.936,1239.9235,16898.486,-4.2078495,31.71684531981009,0.0044303453,-1.5946669e-06,0.045131758,0.00024298327,1.0,41,0.020420667,1.2084317e-06,0,-1.876329144895155e-08,1.0
55,55,2460.7852,16841.291,1521.505,16909.88,-5.1622996,32.39669737878285,0.0043350067,7.3864413e-07,0.042508233,0.0003441428,1.0,41,0.020381134,1.2052795e-06,0,-1.8333519057212774e-08,1.0
56,56,2129.3164,16940.125,1677.6925,17022.998,-5.6559362,33.07681090441474,0.004390753,-1.257612e-06,0.044552036,0.00043273318,1.0,41,0.020421553,1.1996449e-06,0,-1.7942206992226298e-08,1.0
57,57,1843.2289,17086.473,1826.0463,17183.771,-6.1000967,33.7569428300485,0.0044145454,-2.9279877e-06,0.04728562,0.00053396856,1.0,41,0.020429054,1.1888574e-06,0,-1.7735774769494444e-08,1.0
58,58,1594.4913,17195.545,1932.8419,17303.834,-6.413335,34.436814489003154,0.0043741707,-7.3806444e-07,0.05164183,0.0006443319,1.0,41,0.020458214,1.1822937e-06,0,-1.6967898075816064e-08,1.0
59,59,1380.4436,17284.785,2159.4482,17419.156,-7.121263,35.11669577463908,0.0043932493,-3.7885385e-08,0.053389844,0.0008205216,1.0,41,0.020417662,1.1721385e-06,0,-1.6141689939064778e-08,1.0
60,60,1194.6187,17384.135,2383.2346,17546.736,-7.806161,35.79684375360375,0.0044312393,-5.6674367e-07,0.055901572,0.0010312523,1.0,41,0.020373408,1.1610939e-06,0,-1.672112075536347e-08,1.0
61,61,1033.3434,17656.975,2671.5945,17857.943,-8.603896,36.47706178590306,0.0043932307,7.757103e-08,0.05765075,0.0012902775,1.0,41,0.020448748,1.1450786e-06,0,-1.7286668744173678e-08,1.0
62,62,894.71045,17741.943,3099.7717,18010.695,-9.910363,37.156843098200625,0.0044232467,1.3531634e-06,0.05738626,0.0016998335,1.0,41,0.020434933,1.1345999e-06,0,-1.7176386714797646e-08,1.0
63,63,774.2569,17833.062,3093.9626,18099.467,-9.842605,37.83694179716986,0.004469919,-6.0136185e-06,0.06643853,0.0019414158,1.0,41,0.020331126,1.1232997e-06,0,-1.65729794832272e-08,1.0
64,64,669.7856,18304.326,3495.1726,18635.037,-10.810376,38.51683878946642,0.004395765,-2.8575101e-08,0.067985415,0.0023916215,1.0,41,0.020446472,1.0972059e-06,0,-1.6864933807129193e-08,1.0
65,65,579.81464,18474.867,3889.4128,18879.838,-11.88856,39.19680972842616,0.004422371,-4.0846024e-07,0.07057436,0.0029951495,1.0,41,0.02042593,1.0818912e-06,0,-1.764707589392679e-08,1.0
66,66,501.44418,18765.852,4241.9746,19239.322,-12.737498,39.87420770720928,0.004348589,1.5356542e-06,0.07482202,0.003637358,1.0,41,0.020423222,1.0615354e-06,0,-1.8375930496972613e-08,1.0
67,67,434.02762,19163.434,4687.4214,19728.383,-13.744807,40.55422027289751,0.0044250726,-2.3134726e-06,0.07822918,0.0044162516,1.0,41,0.02043868,1.0360038e-06,0,-1.750512183656383e-08,1.0
68,68,375.6009,19514.566,5033.976,20153.393,-14.464676,41.233460278454004,0.004405081,-4.7199794e-08,0.08417486,0.005251802,1.0,41,0.020433776,1.0139124e-06,0,-1.6643723892173058e-08,1.0
69,69,325.10385,19891.25,5443.3975,20622.62,-15.304736,41.9126855374343,0.004404857,-9.540818e-07,0.08993484,0.0062658563,1.0,41,0.020397551,9.890864e-07,0,-1.5840831150468503e-08,1.0
70,70,281.3503,20269.373,5798.789,21082.54,-15.965097,42.58981527625292,0.0043917214,-3.972904e-07,0.09755183,0.0073801335,1.0,41,0.020372575,9.663246e-07,0,-1.501146530150916e-08,1.0
71,71,243.36427,20859.543,6264.409,21779.885,-16.715738,43.27311424203799,0.0043367394,4.3324155e-07,0.104395844,0.008636391,1.0,41,0.02040393,9.3682456e-07,0,-1.5992538188843102e-08,1.0
72,72,210.60631,21268.734,6700.3438,22299.186,-17.486124,43.9501779275306,0.004377394,-1.4217218e-07,0.112785086,0.010182815,1.0,41,0.020381168,9.139871e-07,0,-1.6890172568118877e-08,1.0
73,73,182.27473,22112.19,7513.9204,23353.97,-18.76822,44.62126537269796,0.0044095707,1.4946821e-06,0.1162056,0.012029256,1.0,41,0.020485677,8.771818e-07,0,-1.6428979568445357e-08,1.0
74,74,157.72879,22582.477,6935.4644,23623.482,-17.072617,45.309644178785675,0.0044378536,-3.2520131e-06,0.14549015,0.01253998,1.0,41,0.0203562,8.616935e-07,0,-1.6554146959309594e-08,1.0
75,75,136.52892,23154.092,8259.003,24582.984,-19.631182,46.231510862504365,0.0044032545,-7.9347257e-07,0.14114577,0.015931398,1.0,42,0.020415843,8.304867e-07,0,-1.6986350941384073e-08,1.0
76,76,118.14758,23840.434,8804.117,25414.145,-20.26886,46.919903081899974,0.0044373134,-8.124711e-07,0.15300636,0.018362429,1.0,42,0.020420197,8.0349736e-07,0,-1.751523036861297e-08,1.0
77,77,102.25773,24536.674,9414.283,26280.736,-20.990915,47.5863293268776,0.004391144,-9.352119e-07,0.16532432,0.021214666,1.0,42,0.020421129,7.7703794e-07,0,-1.7356765474308608e-08,1.0
78,78,88.4436,25403.883,10153.294,27357.752,-21.785349,48.276269412977854,0.0044323388,-7.538031e-07,0.17723387,0.024411801,1.0,42,0.020509817,7.496894e-07,0,-1.7573357877031032e-08,1.0
79,79,76.54279,26176.695,10607.095,28244.111,-22.058352,48.94374333805172,0.0044643856,-7.0519246e-07,0.19602856,0.027647536,1.0,42,0.020446226,7.239111e-07,0,-1.7600355791504147e-08,1.0
80,80,66.250786,26865.117,11321.504,29153.232,-22.851542,49.61199774310808,0.004459746,-9.1863774e-07,0.21219003,0.032000724,1.0,42,0.02036969,6.987112e-07,0,-1.7632612931445616e-08,1.0
81,81,57.329906,27833.123,12096.166,30347.98,-23.489576,50.26663606756483,0.00442034,-7.815576e-07,0.22950448,0.036460873,1.0,42,0.020436395,6.7340216e-07,0,-1.827988022220792e-08,1.0
82,82,49.60321,28735.113,12833.568,31470.736,-24.066315,50.952361406729324,0.004396305,-6.470852e-07,0.2500132,0.04157612,1.0,42,0.020406038,6.484131e-07,0,-1.867025572483764e-08,1.0
83,83,42.92585,29658.9,13757.279,32694.236,-24.884226,51.66041205372312,0.0044159056,-9.681855e-07,0.26950616,0.04771901,1.0,42,0.020394085,6.237823e-07,0,-1.838581217921526e-08,1.0
84,84,37.1518,30554.916,14680.59,33898.71,-25.66269,52.30418453764287,0.0044325995,-9.845764e-07,0.29180774,0.054728992,1.0,42,0.020341234,6.0005925e-07,0,-1.8035485687390303e-08,1.0
85,85,32.150223,31817.06,15744.867,35499.664,-26.328789,52.94239672794356,0.0043971995,-6.822913e-07,0.31441057,0.06184814,1.0,42,0.02045353,5.761612e-07,0,-1.9117715405100298e-08,1.0
86,86,27.835518,32841.41,16894.498,36932.13,-27.2225,53.669325215771096,0.0044062077,-8.676111e-07,0.3384352,0.07082024,1.0,42,0.02043139,5.5321453e-07,0,-1.85706829379026e-08,1.0
87,87,24.082958,33774.86,17975.596,38260.465,-28.022722,54.37140722249751,0.0044415058,-9.631581e-07,0.3676436,0.08115086,1.0,42,0.020291338,5.303474e-07,0,-1.928312994772657e-08,1.0
88,88,20.833313,35249.594,19160.78,40120.684,-28.527374,55.025737626929185,0.0044829985,-8.419096e-07,0.3987022,0.09093652,1.0,42,0.020382958,5.080411e-07,0,-2.076970453411617e-08,1.0
89,89,18.021912,36534.902,20645.893,41964.89,-29.470816,55.77170955570182,0.0044176383,-9.825301e-07,0.42774564,0.10353347,1.0,42,0.020405704,4.8625657e-07,0,-1.928829887570613e-08,1.0
90,90,15.604198,37829.992,22155.621,43840.39,-30.355923,56.42700484013767,0.0044372575,-9.0951926e-07,0.460357,0.11757467,1.0,42,0.020381166,4.648947e-07,0,-1.937145709919719e-08,1.0
91,91,13.500899,39227.855,23709.824,45836.453,-31.14931,57.17497820899007,0.004353713,-7.934846e-07,0.4971977,0.13303435,1.0,42,0.020362515,4.4424283e-07,0,-1.989180941722187e-08,1.0
92,92,11.686608,40465.45,25767.375,47973.016,-32.487953,57.76587250374723,0.0045052823,-1.019594e-06,0.52852005,0.15247822,1.0,42,0.020344827,4.2408897e-07,0,-1.9089316610609963e-08,1.0
93,93,10.113269,42709.805,26871.71,50460.047,-32.176853,58.43950664237491,0.0044227247,-7.9683764e-07,0.5856434,0.1660843,1.0,42,0.02037907,4.0386547e-07,0,-1.8311856498730745e-08,1.0
94,94,8.748621,43886.58,30079.232,53205.188,-34.42618,59.206398545444245,0.00443954,-7.320229e-07,0.6048028,0.19330332,1.0,42,0.020421356,3.8382265e-07,0,-2.121208825684562e-08,1.0
95,95,7.570237,45346.805,32669.766,55889.59,-35.77058,60.08198194706347,0.004426852,-9.641858e-07,0.6435238,0.21988459,1.0,42,0.020392423,3.648698e-07,0,-2.1233849871584374e-08,1.0
96,96,6.554112,47277.777,35511.492,59129.133,-36.911106,60.618298639165005,0.0043928395,4.367015e-07,0.68381304,0.24664493,1.0,42,0.020442385,3.4572443e-07,0,-1.917560975757403e-08,1.0
97,97,5.669445,48892.324,38868.703,62459.87,-38.484203,61.22813480152399,0.004443164,-1.7953331e-06,0.7222367,0.27969036,1.0,42,0.020406123,3.2670775e-07,0,-2.1768349800734337e-08,1.0
98,98,4.907347,50870.574,42506.34,66291.81,-39.881393,61.92054483437096,0.0044309413,-2.803677e-07,0.76299137,0.31369475,1.0,42,0.020399347,3.0772046e-07,0,-2.1168125417212813e-08,1.0
99,99,4.245922,52767.38,46807.57,70536.125,-41.57479,62.70829001846141,0.004419604,-8.1965857e-07,0.8008146,0.35264766,1.0,42,0.020401677,2.8923728e-07,0,-1.846333713783268e-08,1.0
100,100,3.6747382,54900.984,51622.36,75359.05,-43.237083,63.92996127650258,0.0044246903,-7.528858e-07,0.83898824,0.3936958,1.0,43,0.02038111,2.704534e-07,0,-2.2130375102983792e-08,1.0
101,101,3.180988,57218.24,57254.137,80944.195,-45.017967,64.95817897867528,0.004373966,-4.4413835e-07,0.8738788,0.43721345,1.0,43,0.02042035,2.522769e-07,0,-1.737766570598846e-08,1.0
102,102,2.752818,59908.06,63324.938,87172.375,-46.58823,66.13716554132407,0.0044021807,-9.75748e-07,0.9129938,0.48179203,1.0,43,0.020393603,2.339457e-07,0,-1.727233203077579e-08,1.0
103,103,2.3804083,62558.3,70199.81,94029.54,-48.29429,67.49202541902196,0.0044090995,-1.0324426e-06,0.95242923,0.5308551,1.0,43,0.02038631,2.168075e-07,0,-2.2612014469924842e-08,1.0
104,104,2.060257,65900.086,78313.28,102351.31,-49.91962,69.04836541294935,0.0043775616,-7.4341386e-07,0.9864233,0.57749385,1.0,43,0.02042782,1.9958532e-07,0,-2.4326523940206674e-08,1.0
105,105,1.7836765,68983.86,86988.3,111021.336,-51.584717,70.83667568458623,0.0044086734,-6.668525e-07,1.025754,0.6297265,1.0,43,0.020397482,1.8372579e-07,0,-2.0486212073333516e-08,1.0
