True,index,freq,Re(Z),Im(Z),Z,Phase(Z),time,Ewe_meas,I_meas,Cs,Cp,cycle_number,I_Range,Ewe,I,Ns,(QQo),cycle
0,0,7000018.5,216.68784,1100.4257,1121.557,-78.86025,2.464494303712854,0.0065879743,-3.9133818e-05,2.0661424e-05,1.989019e-05,1.0,40,0.009944979,8.867119e-06,0,1.3707173205495514e-08,1.0
1,1,6057573.0,306.27344,1402.6193,1435.6686,-77.682335,3.016497529897606,0.006474936,-8.974606e-06,1.8731895e-05,1.7879398e-05,1.0,40,0.014086075,9.811509e-06,0,1.1135591258885648e-08,1.0
2,2,5242039.0,266.60773,1593.9579,1616.1007,-80.504524,3.4324969363224227,0.00659062,-1.4388752e-05,1.9047722e-05,1.8529337e-05,1.0,40,0.019372612,1.1987256e-05,0,1.2445947976150113e-08,1.0
3,3,4536288.0,257.97333,1828.1445,1846.2563,-81.9679,4.800500067969551,0.0064746006,1.9826562e-05,1.9191502e-05,1.8816812e-05,1.0,40,0.019081645,1.0335317e-05,0,1.3089859974324251e-08,1.0
4,4,3925558.5,352.26514,2091.4614,2120.92,-80.4394,5.216489661048399,0.0065522017,-4.901338e-05,1.9385134e-05,1.8850375e-05,1.0,40,0.018470168,8.708565e-06,0,1.1355901535972003e-08,1.0
5,5,3397055.0,380.81827,2343.5027,2374.2424,-80.770134,5.6334821875498164,0.0064344117,8.291219e-06,1.999181e-05,1.9477486e-05,1.0,40,0.019445438,8.190165e-06,0,1.0122793542219849e-08,1.0
6,6,2939708.2,443.25888,2663.7551,2700.3833,-80.55234,6.0494807939685415,0.0064734453,-3.8687376e-05,2.032458e-05,1.9776951e-05,1.0,40,0.021328568,7.8983485e-06,0,9.827582252937203e-09,1.0
7,7,2543924.5,570.638,3091.4026,3143.6282,-79.54157,6.601480873505352,0.0064041167,4.503686e-05,2.0237663e-05,1.9570825e-05,1.0,40,0.020603545,6.5540657e-06,0,1.1122065846172467e-08,1.0
8,8,2201436.2,514.2996,3533.2998,3570.5337,-81.71831,7.15347929976997,0.006402533,8.676806e-07,2.0461315e-05,2.0036794e-05,1.0,40,0.020942949,5.8654955e-06,0,1.3675520433758317e-08,1.0
9,9,1905053.1,828.84503,4128.5483,4210.926,-78.64823,7.705503165983828,0.0063398746,1.85428e-05,2.023558e-05,1.9451596e-05,1.0,40,0.020619124,4.8965776e-06,0,1.725701117585585e-08,1.0
10,10,1648567.4,922.63885,4582.223,4674.188,-78.615616,8.25749207221088,0.00645718,-2.8100912e-05,2.1068674e-05,2.0247777e-05,1.0,40,0.019976562,4.273804e-06,0,1.1429998491965737e-08,1.0
11,11,1426616.2,963.665,5479.239,5563.336,-80.02508,8.976477813004749,0.0064615957,-6.0508933e-06,2.0360703e-05,1.9749798e-05,1.0,41,0.019320456,3.4728184e-06,0,1.3149952503624717e-08,1.0
12,12,1234551.2,611.0627,6533.745,6562.2573,-84.657005,9.528489465912571,0.006459658,-3.6598403e-06,1.9730987e-05,1.9559902e-05,1.0,41,0.020543497,3.1305533e-06,0,1.3144028730184548e-08,1.0
13,13,1068345.5,1419.4487,7118.972,7259.1045,-78.7237,10.080490185442613,0.006442107,1.5058455e-06,2.0926236e-05,2.01261e-05,1.0,41,0.020568995,2.8335444e-06,0,1.369063485719361e-08,1.0
14,14,924510.06,1635.438,8287.864,8447.684,-78.83728,10.632503171655117,0.00637697,1.129686e-06,2.0771404e-05,1.9992902e-05,1.0,41,0.020296145,2.4025692e-06,0,1.3936607241438044e-08,1.0
15,15,800039.0,2055.058,8337.637,8587.168,-76.15375,11.184490637882845,0.006439107,7.56917e-08,2.3859755e-05,2.249324e-05,1.0,41,0.019545592,2.2761396e-06,0,1.368120320874549e-08,1.0
16,16,692334.1,2301.2197,10338.455,10591.472,-77.4512,11.736495357443346,0.006390944,9.06224e-07,2.2235594e-05,2.1185924e-05,1.0,41,0.020107206,1.8984337e-06,0,1.3629026353404092e-08,1.0
17,17,599122.25,3949.4626,11905.493,12543.485,-71.64754,12.288504130294314,0.0064884997,-2.9056578e-06,2.2312966e-05,2.0100906e-05,1.0,41,0.020485412,1.6331516e-06,0,1.1455354978854378e-08,1.0
18,18,518454.94,4429.236,13400.112,14113.155,-71.70936,12.840503356506815,0.006479538,-6.1272262e-06,2.2908713e-05,2.0652342e-05,1.0,41,0.020592626,1.4591086e-06,0,1.1646878959887709e-08,1.0
19,19,448662.03,6135.5806,14708.428,15936.851,-67.356674,13.392484636075096,0.006405663,1.1110639e-06,2.4117624e-05,2.0542915e-05,1.0,41,0.020025212,1.2565351e-06,0,1.1148313331525452e-08,1.0
20,20,388258.97,7489.5693,16882.172,18468.93,-66.07612,13.944490155641688,0.006521217,-6.3302045e-06,2.428121e-05,2.02882e-05,1.0,41,0.020795261,1.1259592e-06,0,1.2021678146170858e-08,1.0
21,21,335983.9,9935.861,20538.744,22815.814,-64.184074,14.496503461879911,0.006538973,-6.4903525e-06,2.3063634e-05,1.8689752e-05,1.0,41,0.020648966,9.050286e-07,0,1.217465545602181e-08,1.0
22,22,290751.2,10261.556,19305.482,21863.238,-62.007755,15.04849546137848,0.006482295,-4.788321e-06,2.8354238e-05,2.2108043e-05,1.0,41,0.020358145,9.311587e-07,0,1.1799128783378719e-08,1.0
23,23,251605.19,14170.7,21520.727,25767.236,-56.636395,15.600501780951163,0.0064918348,-3.5928017e-06,2.9392979e-05,2.0503207e-05,1.0,41,0.020165814,7.8261456e-07,0,1.1481294704446377e-08,1.0
24,24,217729.38,16941.64,22199.97,27925.936,-52.651375,16.15250007386203,0.006563418,-9.432597e-06,3.292689e-05,2.0808466e-05,1.0,41,0.020366104,7.2929e-07,0,1.2811923633541432e-08,1.0
25,25,188418.58,19743.44,23211.977,30472.926,-49.616467,16.704497380036628,0.006470129,-5.211035e-06,3.6390185e-05,2.111447e-05,1.0,41,0.020308603,6.664474e-07,0,1.2705692701157685e-08,1.0
26,26,163051.14,23255.084,24409.562,33713.88,-46.38748,17.256498926290078,0.0063786097,3.0179365e-06,3.998861e-05,2.0962296e-05,1.0,41,0.020621793,6.1167077e-07,0,1.2031063449777927e-08,1.0
27,27,141098.2,26279.633,23575.807,35304.926,-41.895702,17.808503752487013,0.006453733,-3.985722e-06,4.7844507e-05,2.1335096e-05,1.0,41,0.020341173,5.761568e-07,0,1.1480024378163496e-08,1.0
28,28,122105.11,28619.857,19243.756,34487.945,-33.91656,18.224487238941947,0.0063566803,5.0886797e-06,6.7732406e-05,2.1088297e-05,1.0,41,0.021639956,6.274643e-07,0,1.1484757823127881e-08,1.0
29,29,105663.59,32323.855,22263.934,39249.387,-34.55818,18.77648947844864,0.0064170845,-3.3246477e-06,6.7653906e-05,2.1768621e-05,1.0,41,0.020400697,5.197711e-07,0,1.0631370721833535e-08,1.0
30,30,91439.65,36452.996,21041.916,42090.18,-29.995012,19.19248579154373,0.0063901055,7.383074e-08,8.271805e-05,2.0673277e-05,1.0,41,0.021774618,5.173325e-07,0,1.128086926037497e-08,1.0
31,31,79127.08,36790.18,20312.688,42025.26,-28.90408,19.744496484432602,0.0063321237,9.444316e-06,9.9021076e-05,2.313351e-05,1.0,41,0.020208329,4.8086144e-07,0,1.044457673176977e-08,1.0
32,32,68475.36,39874.207,18645.738,44018.36,-25.06145,20.16048541085911,0.006439517,-1.239006e-06,0.000124654,2.2366483e-05,1.0,41,0.02117086,4.8095524e-07,0,1.0021348860072344e-08,1.0
33,33,59252.523,42176.02,17555.633,45683.88,-22.599365,20.576498443988385,0.006389435,3.7460486e-06,0.00015300188,2.2594557e-05,1.0,41,0.021931328,4.800671e-07,0,1.0852922753189078e-08,1.0
34,34,51282.285,44061.066,15079.364,46570.0,-18.892887,21.128491696872516,0.0064532673,-5.3730446e-06,0.00020581155,2.1578604e-05,1.0,41,0.020172475,4.331646e-07,0,6.221427049791512e-09,1.0
35,35,44369.8,45409.5,13752.623,47446.363,-16.849348,21.544480889948318,0.00647052,-2.555569e-06,0.00026082373,2.1913529e-05,1.0,41,0.020574097,4.3362854e-07,0,6.277026218458875e-09,1.0
36,36,38403.727,45978.402,13006.333,47782.613,-15.795104,21.96049800302717,0.006424444,-1.510885e-06,0.00031863383,2.3608143e-05,1.0,41,0.020863272,4.3662894e-07,0,6.041585408912445e-09,1.0
37,37,33226.32,48985.45,12036.156,50442.477,-13.8046055,22.542486404039664,0.006430108,-9.4379885e-07,0.00039796976,2.265859e-05,1.0,42,0.018928671,3.7525263e-07,0,5.6804168514830165e-09,1.0
38,38,28754.086,49636.17,10936.055,50826.637,-12.425139,22.958485037117498,0.0064739855,-1.2432906e-06,0.0005061275,2.3431414e-05,1.0,42,0.018994804,3.737175e-07,0,5.59859864047575e-09,1.0
39,39,24884.947,50261.035,8931.895,51048.51,-10.076839,23.37448369685444,0.006487531,-1.0488441e-06,0.00071604416,2.1921023e-05,1.0,42,0.019070733,3.735806e-07,0,5.573937607244438e-09,1.0
40,40,21553.963,50583.99,8161.1367,51238.11,-9.165029,23.791478916682536,0.0064020297,-9.4454316e-07,0.00090477866,2.2953951e-05,1.0,42,0.019000221,3.7082205e-07,0,5.558588355392481e-09,1.0
41,41,18631.234,51125.277,6902.7275,51589.16,-7.689345,24.2074971497932,0.0063702627,-7.2904976e-07,0.0012375358,2.2155538e-05,1.0,42,0.019058498,3.6942834e-07,0,5.623092248441708e-09,1.0
42,42,16126.037,51701.53,6290.6816,52082.83,-6.937251,24.623482396214968,0.0063509042,-3.449993e-07,0.0015688981,2.2887642e-05,1.0,42,0.018995317,3.6471363e-07,0,5.554385305054489e-09,1.0
43,43,13954.87,50125.074,7058.9805,50619.684,-8.016096,25.039483322616434,0.0064178854,-7.8473784e-07,0.001615669,3.141937e-05,1.0,42,0.018352266,3.62552e-07,0,5.255312411907514e-09,1.0
44,44,12080.609,51483.15,4084.3752,51644.91,-4.5360155,25.455502195720328,0.006486376,-1.2838902e-06,0.0032255638,2.0174457e-05,1.0,42,0.018519647,3.585958e-07,0,5.038250917152709e-09,1.0
45,45,10447.592,51840.574,4107.838,52003.07,-4.5306406,25.87147944213939,0.006368269,-2.656551e-07,0.0037084348,2.313978e-05,1.0,42,0.018207233,3.5011843e-07,0,4.849089582115261e-09,1.0
46,46,9045.586,51565.453,3254.9067,51668.08,-3.6118236,26.30324202266638,0.006479333,-1.2432868e-06,0.005405612,2.1452472e-05,1.0,42,0.020716794,4.0095924e-07,0,4.541278972005279e-09,1.0
47,47,7827.7437,51920.777,2881.4917,52000.676,-3.176534,26.782922632119153,0.0063084243,-6.543347e-08,0.007056123,2.166621e-05,1.0,42,0.020973643,4.0333404e-07,0,4.582108764856861e-09,1.0
48,48,6770.8345,52024.44,2552.9333,52087.043,-2.8093536,27.32141812433838,0.0064033153,-7.824995e-07,0.009207431,2.211862e-05,1.0,42,0.021214558,4.0729049e-07,0,4.196977969355784e-09,1.0
49,49,5860.798,51570.703,2343.1514,51623.906,-2.601485,27.92798945985851,0.0063228076,8.3239415e-09,0.011589455,2.3876022e-05,1.0,42,0.02127579,4.121306e-07,0,3.847395956580297e-09,1.0
50,50,5071.625,51560.56,1960.8049,51597.83,-2.1778612,28.60868250553176,0.0064984304,-1.1056436e-06,0.01600437,2.3112374e-05,1.0,42,0.02144065,4.1553395e-07,0,3.811597613795372e-09,1.0
51,51,4388.5933,51489.074,1776.4261,51519.71,-1.9759797,29.288838617823785,0.006482668,-8.7692666e-07,0.020414919,2.4271418e-05,1.0,42,0.021577938,4.1882876e-07,0,3.8797612172519144e-09,1.0
52,52,3798.7827,51588.59,1941.599,51625.113,-2.1553786,29.96881353012577,0.0064776004,-5.9121726e-07,0.021578247,3.0522013e-05,1.0,42,0.021741442,4.211408e-07,0,3.784455588225278e-09,1.0
53,53,3286.0488,51517.973,1681.812,51545.418,-1.8697654,30.64869444242504,0.006378833,-9.0952e-07,0.028798422,3.0657975e-05,1.0,42,0.021836849,4.236429e-07,0,3.524134091891303e-09,1.0
54,54,2844.088,51261.65,1771.4688,51292.246,-1.979205,31.328812848048983,0.006403949,-6.0052923e-07,0.031589564,3.7679678e-05,1.0,42,0.021810347,4.2521722e-07,0,3.7679428100416444e-09,1.0
55,55,2460.7852,51168.695,2234.2756,51217.453,-2.500226,32.229714090848574,0.006365586,-9.639058e-07,0.02894741,5.508676e-05,1.0,42,0.01998885,3.9027418e-07,0,3.504027976035218e-09,1.0
56,56,2129.3164,51264.723,1939.3176,51301.39,-2.1664364,32.90982201647421,0.0063857273,-6.2288007e-07,0.03854171,5.5077042e-05,1.0,42,0.020025086,3.9034197e-07,0,3.2721616672643075e-09,1.0
57,57,1843.2289,52043.133,2332.9094,52095.395,-2.5666487,33.58995039542788,0.006456043,-1.3464658e-06,0.037012037,7.4223266e-05,1.0,42,0.020311106,3.8988296e-07,0,3.3557507157005758e-09,1.0
58,58,1594.4913,51526.297,2053.539,51567.203,-2.2822692,34.26982445441536,0.0064679864,-7.8417315e-07,0.048606575,7.708214e-05,1.0,42,0.020135187,3.9046498e-07,0,3.4959627174989314e-09,1.0
59,59,1380.4436,51530.977,2168.079,51576.566,-2.4092026,34.949675660041976,0.0063940184,-7.7262564e-07,0.05317731,9.396621e-05,1.0,42,0.020153385,3.9074692e-07,0,3.6351845730264485e-09,1.0
60,60,1194.6187,51862.27,2711.4485,51933.1,-2.992797,35.62980369233992,0.0064044893,-8.4079375e-07,0.049134836,0.00013393797,1.0,42,0.020231742,3.8957316e-07,0,3.481050472459736e-09,1.0
61,61,1033.3434,52001.52,3377.1675,52111.066,-3.7157779,36.31006284462637,0.006421649,-6.070489e-07,0.04560609,0.00019154382,1.0,42,0.02026502,3.8888132e-07,0,3.310239751744209e-09,1.0
62,62,894.71045,51936.215,3124.6006,52030.12,-3.4428942,36.98980757026584,0.0063997754,-5.8879596e-07,0.05693025,0.00020531585,1.0,42,0.020198945,3.8821636e-07,0,2.9876524393807182e-09,1.0
63,63,774.2569,52030.71,3514.9446,52149.3,-3.8647554,37.669956962578,0.006535191,-1.4928588e-06,0.05848124,0.0002656786,1.0,42,0.020188324,3.871255e-07,0,2.965434424840257e-09,1.0
64,64,669.7856,52381.152,3858.3552,52523.062,-4.2127547,38.34982174153265,0.006368623,-5.100116e-07,0.06158602,0.00033234296,1.0,42,0.020234076,3.8524175e-07,0,2.9116656251741484e-09,1.0
65,65,579.81464,52800.6,4419.889,52985.27,-4.785021,39.029821880496456,0.006416786,-1.2175797e-06,0.062104,0.00043214753,1.0,42,0.020310642,3.833262e-07,0,2.378452898863909e-09,1.0
66,66,501.44418,52873.64,4555.01,53069.484,-4.9238157,39.70720009927754,0.0065113422,-1.2699163e-06,0.06968001,0.00051333057,1.0,42,0.02024804,3.8153829e-07,0,1.9163347139554944e-09,1.0
67,67,434.02762,53148.74,5414.741,53423.85,-5.817167,40.387229598272825,0.006396403,-5.506145e-07,0.06772126,0.0006956809,1.0,42,0.020249993,3.7904405e-07,0,2.100993340241707e-09,1.0
68,68,375.6009,53617.426,5732.231,53922.973,-6.1023045,41.06545355045819,0.006446709,-6.457891e-07,0.07392134,0.00083535205,1.0,42,0.020325372,3.7693346e-07,0,2.375647364469084e-09,1.0
69,69,325.10385,53905.945,6308.7183,54273.85,-6.6750727,41.7447014761201,0.006359624,-9.700524e-07,0.07759914,0.0010484745,1.0,42,0.020291176,3.7386653e-07,0,1.967174265311024e-09,1.0
70,70,281.3503,54038.664,6929.465,54481.14,-7.3072524,42.42180998827098,0.0064494475,-8.5904685e-07,0.08163437,0.0013206266,1.0,42,0.02020947,3.7094435e-07,0,1.4384689604401362e-09,1.0
71,71,243.36427,54845.816,7713.9272,55385.633,-8.005994,43.105108314048266,0.0064840093,-1.1192399e-06,0.084778905,0.0016445407,1.0,42,0.02032944,3.670526e-07,0,1.7491023343423094e-09,1.0
72,72,210.60631,55400.816,8497.022,56048.637,-8.719711,43.7821871995402,0.0064067063,-9.408111e-07,0.0889369,0.0020440214,1.0,42,0.020351034,3.6309595e-07,0,1.9091395913978855e-09,1.0
73,73,182.27473,55454.01,9355.706,56237.68,-9.576255,44.45428696475574,0.0064681913,-1.1712045e-06,0.093329094,0.0025829466,1.0,42,0.02021472,3.5945152e-07,0,1.4832799018841392e-09,1.0
74,74,157.72879,55313.395,10746.7,56347.7,-10.994875,45.14264427751914,0.006375349,-7.897614e-07,0.09389317,0.003415324,1.0,42,0.020028364,3.5544244e-07,0,1.6463092409048208e-09,1.0
75,75,136.52892,56480.676,11150.672,57570.863,-11.167975,45.81450865606894,0.0063963844,-6.994299e-07,0.104542874,0.0039218506,1.0,42,0.020151649,3.5003208e-07,0,1.0978616748739493e-09,1.0
76,76,118.14758,57249.0,12684.066,58637.305,-12.492625,46.502887728769565,0.00650566,-1.1110455e-06,0.106203,0.0049694213,1.0,42,0.020196043,3.444231e-07,0,9.742653544909293e-10,1.0
77,77,102.25773,58458.906,13605.412,60021.254,-13.101486,47.16933061371674,0.0064093336,-3.5393475e-07,0.114396386,0.0058779456,1.0,42,0.020282527,3.3792242e-07,0,7.86002470048983e-10,1.0
78,78,88.4436,58747.8,15109.557,60659.73,-14.423498,47.859286059829174,0.0063395947,-3.3624136e-07,0.119097315,0.0073893196,1.0,42,0.02014997,3.3218035e-07,0,7.289421532748167e-10,1.0
79,79,76.54279,60430.54,16007.184,62514.637,-14.836106,48.52673046491691,0.0064497087,-8.1546614e-07,0.12989753,0.008516621,1.0,42,0.020252304,3.23961e-07,0,4.4399356006231805e-10,1.0
80,80,66.250786,61524.83,17811.336,64051.137,-16.145643,49.19498270997428,0.006498393,-1.3023268e-06,0.13487536,0.010429703,1.0,42,0.020275513,3.1655196e-07,0,3.9968643957403554e-10,1.0
81,81,57.329906,62561.34,19336.365,65481.418,-17.175255,49.84964770108854,0.006444268,-1.1123512e-06,0.14357013,0.012519229,1.0,42,0.020205121,3.0856268e-07,0,2.2926419432028273e-10,1.0
82,82,49.60321,64047.07,21473.066,67550.87,-18.534761,50.53538090692018,0.0063712876,-5.8190824e-07,0.1494226,0.015098804,1.0,42,0.02025548,2.9985523e-07,0,1.377371579138753e-10,1.0
83,83,42.92585,65764.695,23473.396,69828.33,-19.643011,51.243448673893,0.0064261206,-9.586947e-07,0.15795207,0.017849,1.0,42,0.02030477,2.9078126e-07,0,4.480905762862777e-11,1.0
84,84,37.1518,67094.45,25442.81,71756.55,-20.767172,51.88719281114754,0.0064394237,-7.078147e-07,0.16837408,0.021168122,1.0,42,0.020227749,2.8189413e-07,0,-3.1795425699796296e-10,1.0
85,85,32.150223,69353.38,28268.256,74893.164,-22.17568,52.52538094812189,0.0064590615,-7.664838e-07,0.17512055,0.024948865,1.0,42,0.02035312,2.7176205e-07,0,-3.9596374475239473e-10,1.0
86,86,27.835518,72244.86,29875.44,78178.4,-22.466578,53.252330075978534,0.0064140474,-8.646389e-07,0.19138439,0.027948698,1.0,42,0.020381527,2.6070535e-07,0,-8.72535265607155e-10,1.0
87,87,24.082958,73564.79,34243.082,81144.11,-24.961128,53.954375762696145,0.006440616,-1.0143843e-06,0.19299118,0.034369178,1.0,42,0.020451406,2.520381e-07,0,-9.821016556357007e-10,1.0
88,88,20.833313,75327.47,34833.723,82991.664,-24.817263,54.60874710045755,0.006322938,-6.0407325e-07,0.21931176,0.03863605,1.0,42,0.020154556,2.4285038e-07,0,-2.728205388835805e-10,1.0
89,89,18.021912,78875.84,37749.984,87444.04,-25.57578,55.3547417758964,0.006429316,-1.2320193e-06,0.23393895,0.043598913,1.0,42,0.02031495,2.3231944e-07,0,-1.4576736990012447e-09,1.0
90,90,15.604198,81314.664,40672.117,90919.17,-26.573383,56.01002780700219,0.0063940184,-6.7484905e-07,0.25077367,0.05018391,1.0,42,0.020270616,2.2295205e-07,0,-1.2181317352002451e-09,1.0
91,91,13.500899,84824.29,43750.367,95442.414,-27.283617,56.75695928247296,0.0064491215,-8.6426684e-07,0.2694485,0.056618232,1.0,42,0.020308388,2.1278159e-07,0,-1.1868082956330758e-09,1.0
92,92,11.686608,87139.3,47143.344,99074.48,-28.413887,57.34787880387739,0.006432791,-4.0124638e-07,0.28887588,0.06540764,1.0,42,0.020206518,2.0395282e-07,0,-1.7188232986771683e-09,1.0
93,93,10.113269,87824.97,52693.1,102419.664,-30.962856,58.02150915583479,0.00646521,-1.0382255e-06,0.29865846,0.07905251,1.0,42,0.020069454,1.9595313e-07,0,-2.6499795582684745e-09,1.0
94,94,8.748621,94568.13,54331.81,109064.555,-29.878468,58.788392178918,0.0064141406,-7.772883e-07,0.33483154,0.08309357,1.0,42,0.020259278,1.8575493e-07,0,-2.108591475931121e-09,1.0
95,95,7.570237,97930.51,58616.902,114132.93,-30.902887,59.97802564880112,0.006424099,-8.1735175e-07,0.35866398,0.09460445,1.0,43,0.020235647,1.7729893e-07,0,-3.6267240067107626e-09,1.0
96,96,6.554112,101658.66,63092.05,119645.68,-31.824833,60.514297007612186,0.0063828393,-2.705559e-07,0.38488558,0.10702541,1.0,43,0.020270955,1.6942488e-07,0,-3.100274617401687e-09,1.0
97,97,5.669445,104819.65,68332.805,125126.06,-33.100666,61.12412380988826,0.0064708553,-1.1334669e-06,0.41081882,0.12252177,1.0,43,0.020197576,1.6141782e-07,0,-4.008228959428885e-09,1.0
98,98,4.907347,109413.836,73243.73,131666.36,-33.799114,61.8165579760971,0.0064234566,-5.819867e-07,0.4427952,0.1370232,1.0,43,0.020250563,1.538021e-07,0,-4.3458188939264154e-09,1.0
99,99,4.245922,112874.84,79088.72,137825.1,-35.018013,62.6042876135034,0.0063749114,-7.32553e-07,0.47395113,0.1560652,1.0,43,0.020187426,1.4647134e-07,0,-2.6255838206819724e-09,1.0
100,100,3.6747382,117052.39,86703.195,145666.42,-36.528133,63.503905042947736,0.006375312,-9.1983475e-07,0.4995266,0.17697418,1.0,43,0.020259736,1.3908308e-07,0,-5.285975330814886e-09,1.0
101,101,3.180988,120715.53,94253.93,153153.66,-37.982494,64.5332076518389,0.006361692,-6.475309e-07,0.53083384,0.20104942,1.0,43,0.020185463,1.3179877e-07,0,-5.5268822466416626e-09,1.0
102,102,2.752818,124724.23,103658.04,162176.2,-39.7299,65.71210741446703,0.006412657,-6.567312e-07,0.55775005,0.2278617,1.0,43,0.020239923,1.2480206e-07,0,-3.121000265288782e-09,1.0
103,103,2.3804083,129154.484,114757.945,172772.3,-41.622128,67.06699230551021,0.006463068,-8.686911e-07,0.5826207,0.25704148,1.0,43,0.020258661,1.1725643e-07,0,-3.6048630157349886e-09,1.0
104,104,2.060257,133300.45,126309.41,183638.44,-43.457455,68.6233405394305,0.0063772076,-8.5083803e-07,0.6115938,0.28933918,1.0,43,0.02024664,1.10252735e-07,0,-6.685777418341211e-09,1.0
105,105,1.7836765,138793.64,139903.7,197070.34,-45.228207,70.41165046440074,0.006363027,-7.288793e-07,0.6377858,0.3214332,1.0,43,0.020250784,1.0275917e-07,0,-8.045624476362948e-09,1.0
