True,index,freq,Re(Z),Im(Z),Z,Phase(Z),time,Ewe_meas,I_meas,Cs,Cp,cycle_number,I_Range,Ewe,I,Ns,(QQo),cycle
110,110,7000018.5,141.72713,1244.4517,1252.4961,-83.50274,82.67447832677863,-0.006575439,2.706415e-05,1.8270184e-05,1.803625e-05,2.0,40,0.010077318,8.0457885e-06,0,1.5859279684691155e-08,2.0
111,111,6057573.0,127.51722,1418.2452,1423.9663,-84.862236,83.22649765966344,-0.00643857,-3.742224e-05,1.852551e-05,1.8376948e-05,2.0,40,0.014225612,9.990133e-06,0,1.1710005377385041e-08,2.0
112,112,5242039.0,250.92747,1604.7736,1624.273,-81.113014,83.64249823943828,-0.0064430605,-8.435023e-06,1.8919347e-05,1.846782e-05,2.0,40,0.019510403,1.2011777e-05,0,1.1194619177821608e-08,2.0
113,113,4536288.0,258.24158,1869.6295,1887.38,-82.13581,85.01050147778005,-0.006533387,-1.2161264e-06,1.8765664e-05,1.8414348e-05,2.0,40,0.020660795,1.0946813e-05,0,-1.3159249510278433e-08,2.0
114,114,3925558.5,314.17273,2062.4392,2086.231,-81.338684,85.42649256417644,-0.0065844194,1.472869e-05,1.9657919e-05,1.921211e-05,2.0,40,0.018951053,9.083871e-06,0,-1.5128102510537645e-08,2.0
115,115,3397055.0,412.31284,2363.815,2399.5046,-80.10562,85.84249031727086,-0.0064805103,-3.9561834e-05,1.982002e-05,1.9234807e-05,2.0,40,0.01981068,8.256155e-06,0,-1.7136529675663642e-08,2.0
116,116,2939708.2,413.71042,2728.9453,2760.1267,-81.379555,86.25849911037949,-0.0065622847,-3.8017588e-05,1.9839059e-05,1.9393343e-05,2.0,40,0.021565525,7.813237e-06,0,-1.7091866271290398e-08,2.0
117,117,2543924.5,522.6564,3110.6165,3154.2202,-80.46206,86.81050012327614,-0.0065374672,-9.179232e-06,2.0112657e-05,1.9560428e-05,2.0,40,0.020056367,6.3585817e-06,0,-2.8278587065082817e-08,2.0
118,118,2201436.2,542.0374,3503.4814,3545.1638,-81.20528,87.36250572282006,-0.0065715634,-7.1326385e-06,2.0635463e-05,2.0153071e-05,2.0,40,0.020955583,5.911034e-06,0,-3.911174430900862e-08,2.0
119,119,1905053.1,643.1289,4115.164,4165.1157,-81.117516,87.91448241568287,-0.0065840282,-3.1882937e-06,2.0301395e-05,1.9817371e-05,2.0,40,0.020673553,4.9635e-06,0,-3.980155533051209e-08,2.0
120,120,1648567.4,825.30927,4831.8403,4901.818,-80.30705,88.46650404189131,-0.0066412836,3.5473695e-05,1.9980247e-05,1.941385e-05,2.0,40,0.020097483,4.100006e-06,0,-3.59714263041558e-08,2.0
121,121,1426616.2,842.04193,5470.863,5535.2847,-81.250046,89.1854829560325,-0.0065926546,-3.3525955e-06,2.0391875e-05,1.9919979e-05,2.0,41,0.019393153,3.5035512e-06,0,-4.185967733812943e-08,2.0
122,122,1234551.2,1684.4873,6188.869,6414.0156,-74.77406,89.73749527559266,-0.006543951,-4.0918653e-06,2.0830501e-05,1.939377e-05,2.0,41,0.020381682,3.1776788e-06,0,-4.196820797057181e-08,2.0
123,123,1068345.5,1286.8021,7042.7495,7159.3423,-79.64553,90.28948762183427,-0.0065879594,-6.9558475e-08,2.1152717e-05,2.0469368e-05,2.0,41,0.020144725,2.8137677e-06,0,-4.243346066202254e-08,2.0
124,124,924510.06,1818.2595,8552.069,8743.224,-77.99705,90.84148476805422,-0.006561521,-4.83115e-06,2.0129699e-05,1.9259123e-05,2.0,41,0.020748356,2.3730786e-06,0,-4.261978083640451e-08,2.0
125,125,800039.0,2542.8494,8007.265,8401.332,-72.38183,91.39348247429007,-0.0067086,5.87452e-06,2.4844185e-05,2.2568198e-05,2.0,41,0.021273145,2.5321158e-06,0,-4.1443514999281363e-08,2.0
126,126,692334.1,2183.252,11191.866,11402.827,-78.96166,91.9454969005019,-0.006648587,2.4648682e-06,2.0540068e-05,1.9787085e-05,2.0,41,0.020571806,1.8040969e-06,0,-4.062204448270358e-08,2.0
127,127,599122.25,2811.2449,12240.588,12559.263,-77.06542,92.4975074067188,-0.006573408,-2.47363e-06,2.1702132e-05,2.061478e-05,2.0,41,0.020688372,1.6472601e-06,0,-3.918773238020002e-08,2.0
128,128,518454.94,3749.9426,13434.954,13948.479,-74.4046,93.04949300622684,-0.0066017844,-1.1514832e-06,2.28493e-05,2.119784e-05,2.0,41,0.020312583,1.456258e-06,0,-4.04450598496832e-08,2.0
129,129,448662.03,4337.5815,15537.475,16131.575,-74.40192,93.6014964991191,-0.006747205,9.343759e-06,2.2830762e-05,2.1180083e-05,2.0,41,0.020110006,1.2466238e-06,0,-3.982906817448e-08,2.0
130,130,388258.97,5870.514,17718.877,18666.053,-71.669235,94.15349887203774,-0.0066542136,5.7087846e-06,2.3134624e-05,2.0846343e-05,2.0,41,0.021074934,1.1290515e-06,0,-3.907641030476267e-08,2.0
131,131,335983.9,6094.4204,20215.432,21114.11,-73.22332,94.70548679158674,-0.0065494664,-1.4270862e-06,2.3432498e-05,2.148024e-05,2.0,41,0.020262333,9.596585e-07,0,-4.0181161497591076e-08,2.0
132,132,290751.2,8336.549,21806.26,23345.47,-69.07811,95.25750135115231,-0.0066969176,5.1706147e-06,2.5102529e-05,2.1901535e-05,2.0,41,0.02056507,8.8090195e-07,0,-4.055013031110456e-08,2.0
133,133,251605.19,10905.026,24018.59,26378.254,-65.580795,95.80948948403238,-0.006695558,5.1668903e-06,2.6336196e-05,2.183514e-05,2.0,41,0.020169573,7.646288e-07,0,-3.902271983064133e-08,2.0
134,134,217729.38,13372.585,27389.39,30479.58,-63.97654,96.36150228357292,-0.0067590172,9.745991e-06,2.6688289e-05,2.1551004e-05,2.0,41,0.02051659,6.731257e-07,0,-3.8322133566117445e-08,2.0
135,135,188418.58,16900.033,28875.105,33457.18,-59.660397,96.91350452313782,-0.0065229535,-5.7007887e-06,2.925316e-05,2.1789201e-05,2.0,41,0.020866828,6.236876e-07,0,-3.728218154613611e-08,2.0
136,136,163051.14,19872.549,30644.781,36524.25,-57.03737,97.46548497598269,-0.0066091064,-3.6005727e-07,3.1852225e-05,2.2422819e-05,2.0,41,0.020161955,5.520156e-07,0,-3.756253808069232e-08,2.0
137,137,141098.2,23733.977,32193.578,39996.6,-53.601357,97.8814871024515,-0.006672156,4.5393367e-06,3.50372e-05,2.2699782e-05,2.0,41,0.022061663,5.515884e-07,0,-3.8291020590833904e-08,2.0
138,138,122105.11,26007.455,31779.22,41064.664,-50.703815,98.43350270195515,-0.006578122,-1.8423531e-06,4.101503e-05,2.4563657e-05,2.0,41,0.020755019,5.0542286e-07,0,-3.9664337469622365e-08,2.0
139,139,105663.59,33369.76,34528.395,48018.234,-45.977615,98.98549968822044,-0.006686931,8.004851e-06,4.3623284e-05,2.2555827e-05,2.0,41,0.020418331,4.2522038e-07,0,-3.902646186634781e-08,2.0
140,140,91439.65,37341.676,35949.99,51834.375,-43.912178,99.40149429460871,-0.0065744515,-4.879568e-06,4.8415768e-05,2.328888e-05,2.0,41,0.021727348,4.191687e-07,0,-3.894767167058827e-08,2.0
141,141,79127.08,41222.168,38172.14,56181.664,-42.799995,100.1204910754168,-0.00659435,9.417747e-08,5.269246e-05,2.432497e-05,2.0,42,0.018477043,3.288803e-07,0,-3.982261643019797e-08,2.0
142,142,68475.36,47517.785,37237.527,60370.3,-38.084187,100.53648429518216,-0.006725648,9.2523027e-07,6.24173e-05,2.3747612e-05,2.0,42,0.019286057,3.1946266e-07,0,-3.978056819024071e-08,2.0
143,143,59252.523,51854.906,37212.785,63825.72,-35.664463,100.95250639496953,-0.006640203,5.197615e-07,7.21807e-05,2.4536579e-05,2.0,42,0.019863673,3.1121738e-07,0,-3.971919439672828e-08,2.0
144,144,51282.285,56547.688,36327.4,67211.016,-32.717525,101.36848830807139,-0.006592636,1.643944e-07,8.543159e-05,2.4957792e-05,2.0,42,0.02036282,3.029685e-07,0,-3.9798421963618346e-08,2.0
145,145,44369.8,61688.145,31972.502,69481.42,-27.397367,101.78448947446304,-0.006595785,4.2104867e-07,0.00011219048,2.3755922e-05,2.0,42,0.020839423,2.99928e-07,0,-3.968659617091684e-08,2.0
146,146,38403.727,65408.316,30539.979,72186.83,-25.028471,102.20048416088684,-0.0065878103,4.1080511e-07,0.00013569943,2.4288436e-05,2.0,42,0.021102637,2.9233362e-07,0,-3.967504195065727e-08,2.0
147,147,33226.32,68008.27,28590.152,73773.45,-22.801508,102.61648535399581,-0.0065748612,2.1896665e-07,0.00016754112,2.516252e-05,2.0,42,0.02126758,2.8828228e-07,0,-3.962057271655795e-08,2.0
148,148,28754.086,70659.414,25824.6,75230.73,-20.076345,103.03349268049351,-0.0065961573,-1.5092783e-07,0.00021433199,2.5255946e-05,2.0,42,0.021374123,2.8411426e-07,0,-3.95319962227296e-08,2.0
149,149,24884.947,73291.11,23671.324,77018.945,-17.89925,103.44949680691934,-0.0064829323,-1.9879421e-07,0.00027018477,2.5521773e-05,2.0,42,0.021468686,2.7874552e-07,0,-3.965391082252899e-08,2.0
150,150,21553.963,75010.125,21336.223,77985.59,-15.878115,103.86650258672307,-0.0066041504,4.1359982e-07,0.00034607918,2.590489e-05,2.0,42,0.021431364,2.7481184e-07,0,-3.9631136929677445e-08,2.0
151,151,18631.234,76818.164,19173.146,79174.74,-14.014203,104.28249500648235,-0.006595468,4.8175092e-08,0.00044553838,2.6127544e-05,2.0,42,0.021438822,2.7077854e-07,0,-3.966626070686708e-08,2.0
152,152,16126.037,78424.75,17259.236,80301.445,-12.411455,104.69848721291055,-0.0065644463,1.5731854e-07,0.0005718352,2.6416015e-05,2.0,42,0.021327557,2.6559368e-07,0,-3.9457906307510545e-08,2.0
153,153,13954.87,78937.86,15764.494,80496.62,-11.293824,105.114483419311,-0.0066340542,6.6224567e-07,0.00072345964,2.7747197e-05,2.0,42,0.021018537,2.611108e-07,0,-3.950332531994544e-08,2.0
154,154,12080.609,79913.734,11911.175,80796.54,-8.477548,105.53050298572634,-0.0065624714,1.0684509e-07,0.0011060549,2.4038112e-05,2.0,42,0.020778565,2.5717148e-07,0,-3.945782952437169e-08,2.0
155,155,10447.592,80253.7,11583.425,81085.34,-8.213071,105.94648548550322,-0.0066004987,3.2680813e-07,0.0013151247,2.6838374e-05,2.0,42,0.020250527,2.4974338e-07,0,-3.937185775247324e-08,2.0
156,156,9045.586,80017.69,10292.739,80676.95,-7.3297534,106.5192567393824,-0.006649239,5.404387e-07,0.0017094343,2.7823735e-05,2.0,42,0.020295938,2.5157047e-07,0,-3.95018432222882e-08,2.0
157,157,7827.7437,81616.914,8581.57,82066.83,-6.002282,106.99992025556276,-0.0067333803,1.1526465e-06,0.002369282,2.5906873e-05,2.0,42,0.02058582,2.5084216e-07,0,-3.929599410948804e-08,2.0
158,158,6770.8345,81670.766,8264.054,82087.81,-5.7779455,107.53839878775761,-0.0066478234,1.2062874e-06,0.0028443618,2.8827946e-05,2.0,42,0.020674672,2.5186043e-07,0,-3.920199374001104e-08,2.0
159,159,5860.798,80966.61,6909.586,81260.9,-4.87773,108.1439952965593,-0.006647227,9.267244e-07,0.00393017,2.8415294e-05,2.0,42,0.020644939,2.5405748e-07,0,-3.916079299247678e-08,2.0
160,160,5071.625,81394.57,6087.351,81621.88,-4.277084,108.82468802225048,-0.0066158883,5.3354853e-07,0.00515519,2.867399e-05,2.0,42,0.020826,2.5515217e-07,0,-3.8926033274264346e-08,2.0
161,161,4388.5933,80850.914,5198.581,81017.875,-3.67896,109.50485184122226,-0.0066337003,5.6167255e-07,0.006976057,2.8722216e-05,2.0,42,0.020807419,2.5682505e-07,0,-3.886490217238661e-08,2.0
162,162,3798.7827,81446.1,5283.963,81617.33,-3.7119648,110.18480859351985,-0.0066385074,4.722722e-07,0.007928954,3.323309e-05,2.0,42,0.020948017,2.566614e-07,0,-3.8975705089132225e-08,2.0
163,163,3286.0488,82371.98,4959.697,82521.16,-3.4456747,110.86470870581252,-0.0066287816,5.918452e-07,0.009765422,3.5275294e-05,2.0,42,0.021119086,2.5592328e-07,0,-3.9033997745672227e-08,2.0
164,164,2844.088,81606.76,4705.767,81742.32,-3.3002458,111.54484919144306,-0.0066224467,5.7731773e-07,0.011891775,3.941065e-05,2.0,42,0.021059072,2.5762753e-07,0,-3.905182481009106e-08,2.0
165,165,2460.7852,81637.76,4953.777,81787.914,-3.4724486,112.22469375707442,-0.0066770003,7.821941e-07,0.013055996,4.7896592e-05,2.0,42,0.021049375,2.5736534e-07,0,-3.9159563830099367e-08,2.0
166,166,2129.3164,81306.67,5074.3633,81464.87,-3.5712073,112.90480944271258,-0.0066365697,7.259464e-07,0.014729852,5.71506e-05,2.0,42,0.021018134,2.5800244e-07,0,-3.900798531008102e-08,2.0
167,167,1843.2289,81861.66,4315.6235,81975.336,-3.0177536,113.58496350166388,-0.006621627,8.408634e-07,0.020007707,5.5452103e-05,2.0,42,0.021116419,2.575948e-07,0,-3.907307490352312e-08,2.0
168,168,1594.4913,82035.72,5233.5513,82202.49,-3.650295,114.26484393396822,-0.0065006325,-5.295575e-08,0.01907223,7.730801e-05,2.0,42,0.02116078,2.574226e-07,0,-3.922579259920569e-08,2.0
169,169,1380.4436,81921.88,5285.9062,82092.24,-3.6918201,114.94470748626918,-0.0066492204,7.0415496e-07,0.021811321,9.043086e-05,2.0,42,0.021087838,2.568798e-07,0,-3.924304063346303e-08,2.0
170,170,1194.6187,82713.734,5787.1924,82915.945,-4.002264,115.62484434523503,-0.006581606,5.447239e-07,0.023020934,0.00011214571,2.0,42,0.021206342,2.557571e-07,0,-3.910100088434297e-08,2.0
171,171,1033.3434,82582.36,6039.109,82802.88,-4.182499,116.30507309752284,-0.006643929,3.918119e-07,0.025503667,0.00013566174,2.0,42,0.02116087,2.5555718e-07,0,-3.895560206768383e-08,2.0
172,172,894.71045,82285.46,7264.326,82605.49,-5.0451074,116.98482280982716,-0.0065736314,4.6519455e-07,0.024487378,0.00018937173,2.0,42,0.021106035,2.55504e-07,0,-3.879031195802204e-08,2.0
173,173,774.2569,83950.5,6545.3633,84205.27,-4.4581575,117.6649373487744,-0.006703029,9.889328e-07,0.03140518,0.0001897537,2.0,42,0.021279914,2.5271476e-07,0,-3.8807160662978884e-08,2.0
174,174,669.7856,83827.98,7601.429,84171.914,-5.1813483,118.344826474422,-0.0065630674,4.705959e-07,0.03126001,0.00025494423,2.0,42,0.021233298,2.522611e-07,0,-3.878360991015878e-08,2.0
175,175,579.81464,83596.01,8040.894,83981.836,-5.494237,119.02484477339021,-0.006689763,8.200032e-07,0.0341371,0.00031294252,2.0,42,0.02111949,2.5147688e-07,0,-3.848767168864321e-08,2.0
176,176,501.44418,84563.305,8601.411,84999.625,-5.807903,119.70216944554704,-0.0066293217,3.256926e-07,0.036900125,0.000377862,2.0,42,0.021203265,2.4945126e-07,0,-3.820922570842337e-08,2.0
177,177,434.02762,85093.01,9582.664,85630.88,-6.4252367,120.38223211784498,-0.0066518662,5.529187e-07,0.038266305,0.00047921255,2.0,42,0.02120618,2.476464e-07,0,-3.830915739826206e-08,2.0
178,178,375.6009,85244.49,10971.612,85947.66,-7.33408,121.06045081673074,-0.0065758117,4.3483564e-07,0.03862096,0.0006293553,2.0,42,0.021142436,2.45992e-07,0,-3.8713479157848164e-08,2.0
179,179,325.10385,85771.89,12043.793,86613.336,-7.9930167,121.73968535567838,-0.006549019,2.2977304e-07,0.040647585,0.0007859443,2.0,42,0.021123692,2.4388498e-07,0,-3.8516230136896154e-08,2.0
180,180,281.3503,86620.195,12896.591,87575.0,-8.4683695,122.41678594783298,-0.006628167,7.62824e-07,0.04386295,0.000951234,2.0,42,0.021147596,2.4147982e-07,0,-3.8120220819127973e-08,2.0
181,181,243.36427,87476.945,13879.317,88571.164,-9.015546,123.10013363361941,-0.006648643,6.361731e-07,0.04711891,0.0011570356,2.0,42,0.02111678,2.3841596e-07,0,-3.833313031769039e-08,2.0
182,182,210.60631,88457.68,15632.426,89828.36,-10.021954,123.77717289244174,-0.0065577202,2.6832686e-07,0.04834175,0.0014640241,2.0,42,0.021140384,2.3534197e-07,0,-3.84984009914212e-08,2.0
183,183,182.27473,89503.5,18143.252,91323.9,-11.459152,124.44924871102558,-0.006608939,2.8304083e-07,0.048125863,0.0018995026,2.0,42,0.021181226,2.3193519e-07,0,-3.8317689547583536e-08,2.0
184,184,157.72879,91435.42,18672.096,93322.47,-11.541723,125.1376413570797,-0.0065713027,2.5808325e-07,0.054040093,0.0021633648,2.0,42,0.021276407,2.2798804e-07,0,-3.8426548378714484e-08,2.0
185,185,136.52892,91660.03,21591.05,94168.65,-13.2547245,125.80954269561335,-0.0066389544,8.883571e-07,0.053991042,0.002838289,2.0,42,0.021157669,2.2467849e-07,0,-3.802188733268213e-08,2.0
186,186,118.14758,93610.445,22261.621,96221.08,-13.377101,126.49789054167923,-0.0065549626,2.359271e-08,0.06051158,0.0032390053,2.0,42,0.02118107,2.201292e-07,0,-3.799258973240269e-08,2.0
187,187,102.25773,94928.4,24730.578,98096.91,-14.602024,127.16435918663046,-0.006571526,2.0146257e-07,0.06293463,0.003999886,2.0,42,0.02115713,2.1567581e-07,0,-3.788286566280795e-08,2.0
188,188,88.4436,95924.66,26995.42,99650.85,-15.717831,127.85430081942468,-0.0065405974,3.0557686e-07,0.06665973,0.004891947,2.0,42,0.021063996,2.11378e-07,0,-3.784668937842086e-08,2.0
189,189,76.54279,98431.664,29103.56,102644.09,-16.471512,128.52174250446842,-0.006524481,1.7464235e-07,0.071444646,0.00574373,2.0,42,0.021122418,2.0578308e-07,0,-3.7692955220771456e-08,2.0
190,190,66.250786,100772.12,32019.633,105736.83,-17.627289,129.18999133619945,-0.006491149,-8.629569e-08,0.07502617,0.0068800705,2.0,42,0.02116179,2.0013641e-07,0,-3.771614255940471e-08,2.0
191,191,57.329906,103725.72,34979.164,109464.914,-18.63552,129.8446396073159,-0.0065901205,1.22119e-07,0.07936508,0.008103982,2.0,42,0.021243997,1.9407129e-07,0,-3.770714657592025e-08,2.0
192,192,49.60321,105744.086,38277.848,112458.91,-19.899532,130.52937654647394,-0.006550174,-2.7813046e-08,0.08382293,0.009711138,2.0,42,0.021164807,1.8820036e-07,0,-3.77270770206724e-08,2.0
193,193,42.92585,107965.35,41375.125,115621.875,-20.96813,131.2374494067335,-0.006688254,5.45654e-07,0.08961113,0.011475207,2.0,42,0.021101788,1.8250688e-07,0,-3.760226106672901e-08,2.0
194,194,37.1518,111314.79,44464.47,119866.89,-21.77414,131.88118522401783,-0.006450457,-2.9173162e-07,0.09634455,0.013257296,2.0,42,0.021118233,1.761807e-07,0,-3.733982284811866e-08,2.0
195,195,32.150223,115851.836,47840.027,125340.8,-22.437761,132.52040072102682,-0.0066053057,4.7171176e-07,0.10347722,0.015074491,2.0,42,0.02119779,1.6912124e-07,0,-3.744867560729009e-08,2.0
196,196,27.835518,118762.82,52851.035,129991.69,-23.9897,133.24833107562154,-0.006629331,6.7872935e-07,0.10818507,0.017883115,2.0,42,0.02118429,1.629665e-07,0,-3.713876450604737e-08,2.0
197,197,24.082958,122515.21,56207.83,134793.53,-24.644827,133.95040670895833,-0.006582761,1.234216e-07,0.117574595,0.020444147,2.0,42,0.021089358,1.5645675e-07,0,-3.711244164360355e-08,2.0
198,198,20.833313,127893.74,61068.926,141725.88,-25.524351,134.60475714007043,-0.006555782,7.033965e-08,0.12509544,0.0232265,2.0,42,0.02121515,1.4969143e-07,0,-3.763844491064895e-08,2.0
199,199,18.021912,132880.12,65191.82,148010.47,-26.132858,135.62372102846712,-0.006546532,4.0196355e-07,0.13546471,0.026280131,2.0,43,0.021179557,1.43095e-07,0,-3.760003992508132e-08,2.0
200,200,15.604198,138450.47,70135.945,155201.75,-26.865765,136.27802759286715,-0.00660402,4.8769385e-07,0.14542465,0.029697925,2.0,43,0.02122874,1.3678158e-07,0,-3.7567550688559473e-08,2.0
201,201,13.500899,143818.03,75279.22,162328.64,-27.62908,137.02600448171142,-0.006636169,4.860641e-07,0.1565966,0.033677686,2.0,43,0.021204308,1.3062579e-07,0,-3.759004851154657e-08,2.0
202,202,11.686608,150529.58,79182.12,170085.16,-27.745432,137.61690394979087,-0.0065651727,4.4709486e-07,0.17199054,0.037275713,2.0,43,0.021189837,1.2458369e-07,0,-3.7233822132589486e-08,2.0
203,203,10.113269,155720.44,85155.19,177483.12,-28.671894,138.29054083509254,-0.0065986915,4.853462e-07,0.1848066,0.042542752,2.0,43,0.021105422,1.1891509e-07,0,-3.680476747937473e-08,2.0
204,204,8.748621,163207.06,91526.875,187119.52,-29.283804,139.05740367152612,-0.0066078394,4.7060632e-07,0.19876133,0.04755443,2.0,43,0.021184834,1.1321552e-07,0,-3.7468249339318684e-08,2.0
205,205,7.570237,169839.86,97857.3,196014.36,-29.949423,139.93298893980682,-0.0065999115,4.4893847e-07,0.21484111,0.053546127,2.0,43,0.021160552,1.07954094e-07,0,-3.741845949120975e-08,2.0
206,206,6.554112,177401.27,103362.086,205316.66,-30.227034,140.46930965859792,-0.0065433923,7.272019e-07,0.23493356,0.05954142,2.0,43,0.021138288,1.0295457e-07,0,-3.662040392025132e-08,2.0
207,207,5.669445,185304.1,111534.8,216281.34,-31.043795,141.07915606090683,-0.0066879373,3.199002e-07,0.25169188,0.06693478,2.0,43,0.021196747,9.800544e-08,0,-3.737703557731859e-08,2.0
208,208,4.907347,193672.95,118118.05,226850.36,-31.37835,141.7715556937328,-0.0065904376,5.8812583e-07,0.27457252,0.07444073,2.0,43,0.021200398,9.3455434e-08,0,-3.698669335346949e-08,2.0
209,209,4.245922,201218.0,125935.94,237378.48,-32.041138,142.5593031712051,-0.006588453,4.3573445e-07,0.29764488,0.083775125,2.0,43,0.021157123,8.912823e-08,0,-3.606267328903022e-08,2.0
210,210,3.6747382,210113.84,135496.53,250014.27,-32.816837,143.45892153395107,-0.0066281483,3.6242542e-07,0.31964326,0.093884155,2.0,43,0.021238603,8.494956e-08,0,-3.753077152684033e-08,2.0
211,211,3.180988,218489.77,144894.22,262168.1,-33.550846,144.48821955613676,-0.006588537,4.955326e-07,0.3453083,0.10547498,2.0,43,0.021205908,8.0886686e-08,0,-3.702080954951054e-08,2.0
212,212,2.752818,226503.44,155107.11,274521.44,-34.402924,145.66716014544363,-0.006575662,4.80369e-07,0.3727442,0.118993096,2.0,43,0.021191807,7.719545e-08,0,-3.533259875387825e-08,2.0
213,213,2.3804083,235383.1,167332.52,288799.88,-35.408806,147.0219894098409,-0.006604541,3.9448628e-07,0.39956582,0.13413899,2.0,43,0.021172807,7.3313075e-08,0,-3.5646453700066003e-08,2.0
