True,index,freq,Re(Z),Im(Z),Z,Phase(Z),time,Ewe_meas,I_meas,Cs,Cp,cycle_number,I_Range,Ewe,I,Ns,(QQo),cycle
110,110,7000018.5,171.80205,1367.031,1377.7843,-82.83689,82.6724887000455,0.005648767,2.7659533e-05,1.6631928e-05,1.6373324e-05,2.0,40,0.010031126,7.2806215e-06,0,6.401741931599789e-09,2.0
111,111,6057573.0,336.87384,1646.4935,1680.6025,-78.43683,83.22450371293235,0.0056904466,-3.0448263e-07,1.5957376e-05,1.5316216e-05,2.0,40,0.014193155,8.445278e-06,0,6.401848557411179e-09,2.0
112,112,5242039.0,317.89548,1853.395,1880.4602,-80.267296,83.6414861860394,0.005723052,-4.6395317e-06,1.6381433e-05,1.5913276e-05,2.0,40,0.019543458,1.0392912e-05,0,6.30461821545309e-09,2.0
113,113,4536288.0,264.2122,2176.0374,2192.0188,-83.077095,85.00949894436053,0.005697005,-2.2580293e-06,1.6123271e-05,1.5889027e-05,2.0,40,0.019178407,8.749198e-06,0,2.5013307260699995e-08,2.0
114,114,3925558.5,390.68237,2472.254,2502.9326,-81.01999,85.4255015241506,0.0057331505,-5.3813576e-05,1.6399312e-05,1.5999758e-05,2.0,40,0.018327203,7.3222914e-06,0,1.9660878124847366e-08,2.0
115,115,3397055.0,438.85345,2809.519,2843.5874,-81.12201,85.84148226390244,0.0056878943,-4.017582e-05,1.6675758e-05,1.6278575e-05,2.0,40,0.019130751,6.727682e-06,0,2.9221726081910413e-08,2.0
116,116,2939708.2,439.8126,3156.6992,3187.1907,-82.06823,86.25748612362077,0.0056527546,-2.1142505e-05,1.7150733e-05,1.6824146e-05,2.0,40,0.02087532,6.5497557e-06,0,2.5628457158388143e-08,2.0
117,117,2543924.5,537.2841,3683.135,3722.1174,-81.70042,86.80950073656277,0.0056605428,-2.3617022e-05,1.698628e-05,1.6632343e-05,2.0,40,0.020709628,5.5639375e-06,0,2.2383427234529328e-08,2.0
118,118,2201436.2,567.17664,4153.135,4191.6846,-82.22346,87.36149100275361,0.0055756005,1.3314673e-05,1.7407563e-05,1.708885e-05,2.0,40,0.020292625,4.841162e-06,0,2.5054049203134118e-08,2.0
119,119,1905053.1,784.43854,4861.3804,4924.2627,-80.83369,87.9135036689986,0.005631682,-2.170067e-05,1.7185153e-05,1.674905e-05,2.0,40,0.020720456,4.207829e-06,0,2.7177378291749637e-08,2.0
120,120,1648567.4,734.34753,5706.391,5753.448,-82.66699,88.63248252976337,0.005627099,-1.2357701e-07,1.6918111e-05,1.66425e-05,2.0,41,0.01902976,3.30754e-06,0,3.065795889321215e-08,2.0
121,121,1426616.2,827.8077,6754.3145,6804.8535,-83.01269,89.18449250268168,0.005639992,-2.563018e-06,1.651702e-05,1.627259e-05,2.0,41,0.020251129,2.975983e-06,0,2.975964878421432e-08,2.0
122,122,1234551.2,662.40955,7524.979,7554.078,-84.96933,89.7365074622503,0.0056465506,1.14798105e-07,1.7131908e-05,1.7000173e-05,2.0,41,0.020947509,2.7730066e-06,0,2.932618666936637e-08,2.0
123,123,1068345.5,1362.9624,8678.98,8785.35,-81.075066,90.28849658175022,0.0055891275,8.0939026e-07,1.7164839e-05,1.6751706e-05,2.0,41,0.020542292,2.338244e-06,0,2.840185111376561e-08,2.0
124,124,924510.06,1479.8503,10131.294,10238.803,-81.689735,90.84049767468241,0.0056340857,-5.946925e-07,1.6991964e-05,1.6637001e-05,2.0,41,0.02049328,2.001531e-06,0,2.6423357953709057e-08,2.0
125,125,800039.0,723.3486,11114.6,11138.113,-86.27639,91.52849221401266,0.0056578224,-3.7194304e-06,1.7898437e-05,1.7822947e-05,2.0,41,0.019045332,1.7099245e-06,0,2.6898092715769373e-08,2.0
126,126,692334.1,3350.4001,13473.871,13884.178,-76.03609,91.94448868712061,0.005609939,4.13338e-06,1.7061297e-05,1.6067801e-05,2.0,41,0.021957316,1.5814632e-06,0,2.754138978431728e-08,2.0
127,127,599122.25,3926.0125,14471.565,14994.658,-74.82148,92.4964969533321,0.0055850097,1.753516e-06,1.835647e-05,1.709807e-05,2.0,41,0.02061185,1.3746129e-06,0,2.746207666386713e-08,2.0
128,128,518454.94,4784.039,16507.547,17186.8,-73.83792,93.04850055286079,0.005628925,4.7963154e-06,1.8596302e-05,1.7155427e-05,2.0,41,0.020567376,1.196696e-06,0,2.8256692902992696e-08,2.0
129,129,448662.03,6383.6445,18588.826,19654.398,-71.04686,93.6004986857588,0.0056957006,-1.281838e-06,1.9083096e-05,1.706999e-05,2.0,41,0.020258524,1.0307374e-06,0,2.9005434447811476e-08,2.0
130,130,388258.97,8368.41,20806.965,22426.771,-68.09037,94.15250657862634,0.005657748,-2.6579876e-06,1.9701074e-05,1.695797e-05,2.0,41,0.020858102,9.3005366e-07,0,2.9215315693378764e-08,2.0
131,131,335983.9,9804.582,20555.756,22774.305,-64.50002,94.70449031153112,0.005622292,1.4518426e-06,2.3044546e-05,1.8773482e-05,2.0,41,0.020252964,8.892901e-07,0,2.9301203311908293e-08,2.0
132,132,290751.2,12557.69,26167.883,29025.053,-64.36414,95.25650593775208,0.005711873,-2.8274476e-06,2.0918476e-05,1.7002829e-05,2.0,41,0.020545091,7.0783994e-07,0,2.9125157519960748e-08,2.0
133,133,251605.19,16138.355,27739.787,32092.715,-59.81016,95.80849439065787,0.0056777024,4.071583e-07,2.2803284e-05,1.7036908e-05,2.0,41,0.020376641,6.349304e-07,0,2.8913847478361848e-08,2.0
134,134,217729.38,19939.64,28857.232,35076.047,-55.356476,96.36050092350342,0.005590823,4.1091707e-06,2.5330772e-05,1.7144961e-05,2.0,41,0.020194385,5.757315e-07,0,2.8880424149194005e-08,2.0
135,135,188418.58,24079.02,31792.15,39881.574,-52.86012,96.91250700308592,0.0056461217,1.2023098e-06,2.6569078e-05,1.688386e-05,2.0,41,0.020783395,5.2112773e-07,0,2.8081312011948275e-08,2.0
136,136,163051.14,28032.172,32043.762,42574.703,-48.820274,97.4645064426295,0.0056184535,2.1427097e-06,3.0461606e-05,1.7255858e-05,2.0,41,0.020251943,4.7568017e-07,0,2.8610590486228777e-08,2.0
137,137,141098.2,32697.652,31920.55,45695.273,-44.310993,98.01648513550754,0.0056600585,-1.6058575e-06,3.5336885e-05,1.7243541e-05,2.0,41,0.020201882,4.4210006e-07,0,2.8099036789448227e-08,2.0
138,138,122105.11,38796.93,31676.018,50085.645,-39.230156,98.56849836171023,0.0056276578,2.1147778e-06,4.1148665e-05,1.6458504e-05,2.0,41,0.020117875,4.016695e-07,0,2.7791200904278373e-08,2.0
139,139,105663.59,40741.902,30642.04,50978.793,-36.946873,98.98449395483476,0.0055707935,6.6827024e-06,4.915606e-05,1.7759607e-05,2.0,41,0.021408498,4.199491e-07,0,2.796286736519408e-08,2.0
140,140,91439.65,44665.156,33001.734,55534.59,-36.45957,99.70350422899355,0.005564813,2.595683e-07,5.2741056e-05,1.8624954e-05,2.0,42,0.018735852,3.3737265e-07,0,2.8943723759187043e-08,2.0
141,141,79127.08,47627.477,30239.756,56416.48,-32.412384,100.11950115536456,0.0056020017,-2.630521e-07,6.6514556e-05,1.9110028e-05,2.0,42,0.019532409,3.4621814e-07,0,2.8917459526162955e-08,2.0
142,142,68475.36,52945.996,28459.652,60110.152,-28.25902,100.53550477515091,0.0056270245,-2.7590343e-07,8.1668804e-05,1.8307108e-05,2.0,42,0.020357955,3.386775e-07,0,2.8890850559390556e-08,2.0
143,143,59252.523,56808.1,26717.164,62777.125,-25.187859,100.95149370157742,0.005642861,-2.7981451e-07,0.00010053631,1.8209616e-05,2.0,42,0.0210379,3.351205e-07,0,2.8846256082835827e-08,2.0
144,144,51282.285,59553.203,24627.213,64444.42,-22.46671,101.36749073464307,0.0056963344,-4.1242538e-07,0.00012601943,1.840337e-05,2.0,42,0.021567522,3.3466856e-07,0,2.8869402315418964e-08,2.0
145,145,44369.8,61461.324,22223.193,65355.68,-19.878983,101.78348339445074,0.0056512454,-2.8484303e-07,0.00016140842,1.8662613e-05,2.0,42,0.021850491,3.3433193e-07,0,2.888423362704964e-08,2.0
146,146,38403.727,63050.402,19692.385,66054.09,-17.345028,102.33549840733758,0.0057229404,-7.8958357e-07,0.00021044975,1.8704479e-05,2.0,42,0.020071432,3.0386357e-07,0,2.8666458742163274e-08,2.0
147,147,33226.32,64720.965,17152.572,66955.31,-14.843481,102.7524926137703,0.0056738085,-3.1538798e-07,0.00027925993,1.832724e-05,2.0,42,0.020301973,3.0321678e-07,0,2.85869853654314e-08,2.0
148,148,28754.086,66455.97,15516.222,68243.305,-13.142059,103.16848863355699,0.005643551,-3.211615e-07,0.00035672585,1.8441084e-05,2.0,42,0.020434473,2.9943556e-07,0,2.853227161899419e-08,2.0
149,149,24884.947,66926.42,13285.595,68232.34,-11.227847,103.58450145329698,0.0056782616,-1.4589888e-07,0.00048139592,1.8250881e-05,2.0,42,0.02046306,2.9990264e-07,0,2.843736738451656e-08,2.0
150,150,21553.963,67101.92,11748.896,68122.72,-9.931266,104.00148371313117,0.0056642317,-4.9716834e-07,0.00062848645,1.8694167e-05,2.0,42,0.020415494,2.99687e-07,0,2.8425280299368083e-08,2.0
151,151,18631.234,68146.16,9826.958,68851.055,-8.205722,104.41748437288334,0.0055698995,6.4678676e-07,0.00086927944,1.770828e-05,2.0,42,0.020435035,2.968006e-07,0,2.8552171303202595e-08,2.0
152,152,16126.037,68660.73,8710.699,69211.06,-7.2302513,104.83348657927127,0.005694154,-2.8409667e-07,0.0011330249,1.7947106e-05,2.0,42,0.020295482,2.9324045e-07,0,2.8553212402191935e-08,2.0
153,153,13954.87,69833.54,8630.805,70364.86,-7.0455213,105.24948406571639,0.005578507,4.5569345e-07,0.0013214266,1.9880807e-05,2.0,42,0.0201909,2.8694578e-07,0,2.849873701452251e-08,2.0
154,154,12080.609,71945.914,9369.215,72553.41,-7.4196343,105.66550307217403,0.0056377747,-4.532149e-08,0.0014061384,2.3448705e-05,2.0,42,0.020297455,2.797588e-07,0,2.8442363618796387e-08,2.0
155,155,10447.592,68970.32,5210.049,69166.83,-4.319944,106.08150367854978,0.0057158233,-5.817245e-07,0.0029238975,1.6590138e-05,2.0,42,0.0193998,2.8047836e-07,0,2.8375884772149956e-08,2.0
156,156,9045.586,68385.664,4639.2603,68542.84,-3.88098,106.65425037246314,0.005600567,3.787736e-07,0.0037925795,1.7374325e-05,2.0,42,0.020027146,2.9218435e-07,0,2.8303563155929487e-08,2.0
157,157,7827.7437,68296.98,4090.601,68419.37,-3.4275973,107.13493524864316,0.0055593722,3.8622392e-07,0.004970458,1.7766937e-05,2.0,42,0.02014229,2.9439457e-07,0,2.8474815161416897e-08,2.0
158,158,6770.8345,68640.33,3616.1033,68735.516,-3.015663,107.67340674085426,0.005680572,-2.446086e-07,0.0065003554,1.7991044e-05,2.0,42,0.020376164,2.9644303e-07,0,2.8572332179559013e-08,2.0
159,159,5860.798,68687.35,2972.3496,68751.63,-2.4778492,108.27999623634969,0.0056202607,-1.082726e-07,0.009136155,1.7076436e-05,2.0,42,0.020524796,2.985354e-07,0,2.8790261219267222e-08,2.0
160,160,5071.625,68759.25,3396.8157,68843.1,-2.828203,108.96070704204612,0.0056896457,4.240464e-08,0.009238491,2.2491795e-05,2.0,42,0.020650044,2.9995806e-07,0,2.880850504633524e-08,2.0
161,161,4388.5933,68632.61,2511.7036,68678.555,-2.0958815,109.6408479543461,0.0056349426,3.6258534e-08,0.014438645,1.9311718e-05,2.0,42,0.020723777,3.0175033e-07,0,2.866428707955837e-08,2.0
162,162,3798.7827,68481.49,2979.034,68546.26,-2.4908705,110.3208289733011,0.005591717,1.9848359e-07,0.0140637215,2.6563399e-05,2.0,42,0.020819971,3.0373607e-07,0,2.853643590860545e-08,2.0
163,163,3286.0488,68477.305,2913.3826,68539.25,-2.436193,111.00069756560697,0.005518401,1.1541586e-07,0.016624501,3.003758e-05,2.0,42,0.020874165,3.0455783e-07,0,2.866782379635429e-08,2.0
164,164,2844.088,68238.36,2769.2488,68294.52,-2.3239021,111.68084301124327,0.0056278254,-3.2840244e-08,0.02020762,3.322518e-05,2.0,42,0.020896642,3.059783e-07,0,2.8411220880965063e-08,2.0
165,165,2460.7852,68611.836,3514.591,68701.8,-2.9323711,112.3606825635361,0.005633918,-5.8542714e-08,0.018402278,4.815984e-05,2.0,42,0.02098983,3.055208e-07,0,2.8345785799185365e-08,2.0
166,166,2129.3164,68117.445,2802.7578,68175.08,-2.356161,113.04080963582965,0.0056437743,-3.4516e-08,0.02666824,4.5072768e-05,2.0,42,0.02090443,3.066286e-07,0,2.8217104520369752e-08,2.0
167,167,1843.2289,67938.55,3730.5168,68040.89,-3.1429644,113.72097052144818,0.005564571,2.9179603e-07,0.023145784,6.957767e-05,2.0,42,0.020886661,3.069722e-07,0,2.822508762575578e-08,2.0
168,168,1594.4913,68477.54,3622.437,68573.28,-3.0281038,114.40081274042313,0.005606399,-7.695715e-09,0.027554791,7.689338e-05,2.0,42,0.020989282,3.0608544e-07,0,2.817925541626545e-08,2.0
169,169,1380.4436,68652.695,4451.463,68796.86,-3.7098835,115.08072183939657,0.005632856,1.0796603e-07,0.025899936,0.000108434375,2.0,42,0.021038383,3.058044e-07,0,2.793271482127678e-08,2.0
170,170,1194.6187,69278.06,4537.986,69426.53,-3.7477448,115.76085096501629,0.0055353562,3.3314367e-07,0.029358083,0.00012543047,2.0,42,0.02113963,3.044892e-07,0,2.8161403042638453e-08,2.0
171,171,1033.3434,69242.734,4693.7437,69401.64,-3.877965,116.44108334399061,0.005547057,-2.2782123e-08,0.03281377,0.00015009125,2.0,42,0.0210914,3.0390348e-07,0,2.8343447370081087e-08,2.0
172,172,894.71045,69591.07,5414.232,69801.37,-4.448689,117.12080737628276,0.005580948,2.2157934e-07,0.03285495,0.00019767268,2.0,42,0.021133156,3.0276135e-07,0,2.8235022272815553e-08,2.0
173,173,774.2569,69609.48,6096.6245,69875.945,-5.0053787,117.80097415525233,0.0055430885,4.627748e-07,0.033716742,0.00025666648,2.0,42,0.021087855,3.017899e-07,0,2.801988656553414e-08,2.0
174,174,669.7856,69555.47,6562.1313,69864.33,-5.3895526,118.48081896088843,0.005640011,7.630377e-08,0.03621091,0.00031946134,2.0,42,0.020986358,3.003873e-07,0,2.8186140855228537e-08,2.0
175,175,579.81464,70066.15,7411.272,70457.02,-6.0380297,119.16080579318805,0.005641203,1.9869244e-08,0.037037205,0.000409803,2.0,42,0.021030314,2.9848428e-07,0,2.8374394925871015e-08,2.0
176,176,501.44418,71255.7,8279.155,71735.06,-6.627444,119.83821387865464,0.0056564067,1.9326886e-07,0.038336415,0.0005106468,2.0,42,0.02119285,2.9543224e-07,0,2.8428249804966338e-08,2.0
177,177,434.02762,71008.41,8454.575,71509.95,-6.789924,120.51819313762826,0.005570328,4.286903e-07,0.043372154,0.0006062637,2.0,42,0.021031292,2.9410302e-07,0,2.8221855999458157e-08,2.0
178,178,375.6009,71575.11,9987.46,72268.56,-7.943657,121.19744154319051,0.0056455815,7.0715714e-08,0.042426623,0.0008103073,2.0,42,0.02106951,2.915446e-07,0,2.8080121578834906e-08,2.0
179,179,325.10385,72438.805,10999.328,73269.13,-8.634012,121.87669144218671,0.005603455,3.5381726e-07,0.044507362,0.0010030488,2.0,42,0.021117993,2.8822495e-07,0,2.794575925411339e-08,2.0
180,180,281.3503,72974.8,11725.602,73910.83,-9.12827,122.55381904768001,0.0054201935,1.267379e-06,0.048243366,0.0012142042,2.0,42,0.021089941,2.8534305e-07,0,2.777871516149766e-08,2.0
181,181,243.36427,73935.15,13020.062,75072.82,-9.987449,123.23712118677213,0.0055893697,3.1079313e-07,0.05022851,0.0015108136,2.0,42,0.021124506,2.813869e-07,0,2.8154033028898616e-08,2.0
182,182,210.60631,74930.23,14908.415,76398.95,-11.252843,123.91416559225763,0.005667101,-4.1614504e-07,0.050689418,0.0019302139,2.0,42,0.021186931,2.7731966e-07,0,2.8360319547087718e-08,2.0
183,183,182.27473,75771.68,15822.074,77405.98,-11.7946,124.58628178419895,0.0056564254,-2.2300294e-07,0.055186167,0.002305728,2.0,42,0.02112993,2.7297543e-07,0,2.8186275495028885e-08,2.0
184,184,157.72879,76972.29,18496.291,79163.414,-13.51188,125.27463731025273,0.005720854,-3.4499752e-07,0.054553732,0.0029781377,2.0,42,0.021185623,2.6761887e-07,0,2.835663192583383e-08,2.0
185,185,136.52892,78061.03,19539.89,80469.445,-14.053259,125.94652619541739,0.005619311,5.2648538e-08,0.05965864,0.003517674,2.0,42,0.021151386,2.628499e-07,0,2.8056186774692115e-08,2.0
186,186,118.14758,79339.48,21793.46,82278.234,-15.359535,126.63488297484582,0.005405158,1.2537821e-06,0.061811473,0.004336622,2.0,42,0.021180809,2.5742906e-07,0,2.8147724956165023e-08,2.0
187,187,102.25773,80880.19,22859.877,84048.67,-15.782349,127.3013256197737,0.0056519536,-1.07155124e-07,0.06808479,0.005036585,2.0,42,0.021134315,2.514533e-07,0,2.8044234630535155e-08,2.0
188,188,88.4436,82171.78,25155.73,85936.09,-17.021229,127.99131005254458,0.0057945237,-8.6258984e-07,0.0715347,0.0061297026,2.0,42,0.021086087,2.453694e-07,0,2.8041927141826013e-08,2.0
189,189,76.54279,84297.28,27101.293,88546.664,-17.822424,128.65871083098318,0.0057054637,-2.7589894e-07,0.07672304,0.007187228,2.0,42,0.021108694,2.3839063e-07,0,2.796464232202113e-08,2.0
190,190,66.250786,85885.336,29871.564,90931.85,-19.178059,129.3269699027005,0.0056780195,-6.2660973e-07,0.08042131,0.008678706,2.0,42,0.021064853,2.3165539e-07,0,2.8021501983066224e-08,2.0
191,191,57.329906,87749.54,32562.35,93596.414,-20.359026,129.98162809382302,0.005489522,8.809068e-07,0.08525565,0.010318967,2.0,42,0.021034418,2.2473529e-07,0,2.820010612602116e-08,2.0
192,192,49.60321,90170.78,36032.36,97103.555,-21.781713,130.66638332631555,0.0056886394,-1.7271606e-07,0.089046665,0.012261194,2.0,42,0.021093996,2.1723197e-07,0,2.833276164997065e-08,2.0
193,193,42.92585,93297.78,39174.38,101188.48,-22.776827,131.37444938658155,0.005602561,1.1280703e-07,0.094645314,0.014185389,2.0,42,0.021141352,2.0893043e-07,0,2.8296669761484395e-08,2.0
194,194,37.1518,95721.945,42882.23,104888.4,-24.131783,132.0181765371526,0.0057778107,-6.4896045e-07,0.09989941,0.016697936,2.0,42,0.021117873,2.013366e-07,0,2.807206856324286e-08,2.0
195,195,32.150223,98947.09,45098.23,108739.95,-24.502611,132.65740278086741,0.0056603565,1.7110314e-07,0.10976823,0.018880667,2.0,42,0.021067306,1.9374026e-07,0,2.819238120788982e-08,2.0
196,196,27.835518,102038.59,51599.41,114343.23,-26.82505,133.38531862877426,0.0056400388,-1.6517363e-07,0.11080927,0.022565484,2.0,42,0.021187326,1.8529586e-07,0,2.7959401833494053e-08,2.0
197,197,24.082958,106660.055,52833.03,119028.13,-26.35107,134.08739087547292,0.005628962,5.8048226e-08,0.12508486,0.024644306,2.0,42,0.021156585,1.7774441e-07,0,2.7987636190002935e-08,2.0
198,198,20.833313,110393.34,58148.695,124771.63,-27.777615,134.7417390665796,0.00556526,8.747544e-08,0.13137774,0.028534485,2.0,42,0.021124631,1.6930636e-07,0,2.8612896360699994e-08,2.0
199,199,18.021912,114612.41,63147.27,130857.1,-28.853168,135.4877419553377,0.005645619,-2.9648166e-07,0.13985072,0.032567114,2.0,42,0.021108875,1.6131241e-07,0,2.7760487877035246e-08,2.0
200,200,15.604198,119253.72,67335.06,136950.58,-29.45068,136.1420287330693,0.0055779484,3.4338422e-07,0.15147376,0.036617797,2.0,42,0.021058878,1.5376992e-07,0,2.804221363439948e-08,2.0
201,201,13.500899,124844.13,73230.8,144737.03,-30.39494,137.16199974151095,0.005586016,-5.4874818e-08,0.16097695,0.041208982,2.0,43,0.021092817,1.45732e-07,0,2.735915400778419e-08,2.0
202,202,11.686608,131089.97,78953.25,153030.05,-31.059837,137.75288771625492,0.0056017595,-7.6058605e-08,0.1724891,0.04591433,2.0,43,0.021155566,1.3824453e-07,0,2.736892989140236e-08,2.0
203,203,10.113269,136088.16,85834.54,160896.1,-32.240757,138.42653545489884,0.0055506155,-5.38233e-08,0.18334392,0.05217947,2.0,43,0.021090208,1.3107967e-07,0,2.792763577751383e-08,2.0
204,204,8.748621,142943.53,91413.58,169674.1,-32.599255,139.19237581125344,0.0055540157,2.9485525e-08,0.19900768,0.057764385,2.0,43,0.021075832,1.2421361e-07,0,2.8498786177239666e-08,2.0
205,205,7.570237,149696.95,98424.266,179155.0,-33.324524,140.06802361286827,0.005582718,-3.707278e-08,0.21360353,0.0644696,2.0,43,0.021055035,1.1752413e-07,0,2.7252576758689922e-08,2.0
206,206,6.554112,158206.14,105806.766,190326.7,-33.77423,140.6042951316631,0.005488218,1.9047379e-08,0.22950538,0.07092842,2.0,43,0.02115733,1.11163224e-07,0,2.8425612259477262e-08,2.0
207,207,5.669445,164491.25,112777.87,199439.77,-34.435165,141.21412964063347,0.0056063803,5.1732485e-09,0.24891767,0.079593934,2.0,43,0.0210026,1.0530798e-07,0,2.7171538310461052e-08,2.0
208,208,4.907347,172907.39,121340.12,211235.39,-35.05978,141.9065541801683,0.0055737747,8.387353e-08,0.26728153,0.088195086,2.0,43,0.021036254,9.958679e-08,0,2.8743391999505264e-08,2.0
209,209,4.245922,182280.48,130633.734,224257.33,-35.62778,142.69430739092059,0.0056201583,-1.5441591e-07,0.2869411,0.09736664,2.0,43,0.021111922,9.4141505e-08,0,2.7361265781561765e-08,2.0
210,210,3.6747382,191580.45,139363.02,236907.4,-36.03359,143.59397106035613,0.0056108893,6.23266e-08,0.31077507,0.10754345,2.0,43,0.021107448,8.909577e-08,0,2.7264384851504175e-08,2.0
211,211,3.180988,200226.17,148957.86,249557.53,-36.647327,144.62219766914495,0.0055583105,8.54562e-08,0.33588815,0.11966858,2.0,43,0.021081312,8.4474756e-08,0,2.8885508105585976e-08,2.0
212,212,2.752818,209579.36,161301.47,264464.88,-37.583458,145.80117023180355,0.0056166346,-6.38229e-08,0.35842994,0.13333523,2.0,43,0.021122932,7.987046e-08,0,2.836371155902759e-08,2.0
213,213,2.3804083,218630.28,172699.5,278611.4,-38.305763,147.15598053619033,0.005601903,-2.7334918e-08,0.3871485,0.1487517,2.0,43,0.02110331,7.57446e-08,0,2.668650516017854e-08,2.0
214,214,2.060257,228490.16,186712.27,295074.94,-39.254208,148.7122982100991,0.0056576408,-7.453837e-09,0.4137385,0.16565591,2.0,43,0.021109542,7.1539596e-08,0,2.6809088110068262e-08,2.0
