True,index,freq,Re(Z),Im(Z),Z,Phase(Z),time,Ewe_meas,I_meas,Cs,Cp,cycle_number,I_Range,Ewe,I,Ns,(QQo),cycle
0,0,7000018.5,132.68488,1417.7449,1423.9402,-84.653336,2.465488330431981,0.0060054343,-1.8407438e-05,1.6036991e-05,1.5897745e-05,1.0,40,0.0101362355,7.1184418e-06,0,8.175234783180941e-10,1.0
1,1,6057573.0,299.81924,1664.9307,1691.7109,-79.79163,3.0174908633052837,0.005995765,-7.504795e-06,1.5780666e-05,1.5284995e-05,1.0,40,0.01428279,8.4428075e-06,0,-4.579776081603389e-09,1.0
2,2,5242039.0,313.12418,1872.2631,1898.2665,-80.505516,3.433487443049671,0.006056318,-3.9394414e-05,1.6216347e-05,1.5775111e-05,1.0,40,0.019703537,1.0379753e-05,0,-8.79418081385413e-09,1.0
3,3,4536288.0,264.0757,2132.597,2148.8848,-82.9411,4.801501294685295,0.005959284,7.156273e-06,1.6451699e-05,1.6203247e-05,1.0,40,0.018757613,8.728999e-06,0,-2.2837649255595553e-08,1.0
4,4,3925558.5,341.34137,2432.4414,2456.2747,-82.01192,5.217488861148013,0.0059316903,-2.6728182e-07,1.6667724e-05,1.6345839e-05,1.0,40,0.018275777,7.440445e-06,0,-2.5508314965628012e-08,1.0
5,5,3397055.0,423.37933,2734.5452,2767.1262,-81.19899,5.6334896808548365,0.0059810085,-3.9357197e-05,1.7132963e-05,1.673188e-05,1.0,40,0.01937839,7.003074e-06,0,-2.9084390397132313e-08,1.0
6,6,2939708.2,430.34134,3147.1213,3176.4077,-82.21359,6.049487727315864,0.0059580915,-1.5914406e-05,1.7202929e-05,1.688717e-05,1.0,40,0.021266654,6.69519e-06,0,-3.401944198037654e-08,1.0
7,7,2543924.5,487.46875,3588.0684,3621.0303,-82.26326,6.601487940206425,0.0059227287,-6.021695e-07,1.7436336e-05,1.7120337e-05,1.0,40,0.02066949,5.7081793e-06,0,-3.0459006184862066e-08,1.0
8,8,2201436.2,588.0651,4090.9062,4132.957,-81.81981,7.1534923664003145,0.0059739845,-2.7859063e-05,1.7672357e-05,1.7314573e-05,1.0,40,0.020932501,5.064776e-06,0,-3.3028484154505756e-08,1.0
9,9,1905053.1,684.26483,4705.57,4755.061,-81.72627,7.705496445967583,0.00595934,-3.8706006e-05,1.7754188e-05,1.7386536e-05,1.0,40,0.020495446,4.310238e-06,0,-3.353310563008765e-08,1.0
10,10,1648567.4,671.0786,5673.8022,5713.351,-83.254585,8.424482106784126,0.0059546446,-4.3637624e-06,1.7015285e-05,1.6780536e-05,1.0,41,0.019167453,3.354853e-06,0,-3.6678361411222543e-08,1.0
11,11,1426616.2,772.61945,6461.831,6507.857,-83.1817,8.841482393239858,0.0059307776,1.4034229e-06,1.7264634e-05,1.7021295e-05,1.0,41,0.022009306,3.381959e-06,0,-3.653071467443978e-08,1.0
12,12,1234551.2,952.8185,7417.9976,7478.9404,-82.68062,9.393487566121621,0.0059300694,-2.594677e-06,1.7378981e-05,1.7096907e-05,1.0,41,0.020960359,2.802584e-06,0,-3.6648126716408395e-08,1.0
13,13,1068345.5,1235.1384,8599.351,8687.601,-81.826416,9.945495752355782,0.0058833226,6.073768e-06,1.7323784e-05,1.6973616e-05,1.0,41,0.020783924,2.3923665e-06,0,-3.723583660953425e-08,1.0
14,14,924510.06,1419.9485,9986.627,10087.069,-81.90764,10.497495751915267,0.005976574,-5.142139e-06,1.7238111e-05,1.6896522e-05,1.0,41,0.020427737,2.025141e-06,0,-3.6881689442976846e-08,1.0
15,15,800039.0,2043.421,10976.234,11164.824,-79.4541,11.049481084774015,0.005982555,-2.0490581e-06,1.8124065e-05,1.7516952e-05,1.0,41,0.0206112,1.8460837e-06,0,-3.628168222566488e-08,1.0
16,16,692334.1,2368.9084,12900.118,13115.821,-79.594444,11.60149799103965,0.005949614,-7.1424296e-08,1.7820124e-05,1.7238803e-05,1.0,41,0.020405278,1.5557758e-06,0,-3.715484171173797e-08,1.0
17,17,599122.25,2971.1755,14754.287,15050.478,-78.61422,12.153485083923442,0.005865529,5.7497487e-06,1.8004723e-05,1.7303038e-05,1.0,41,0.020498507,1.3619838e-06,0,-3.7989296595551676e-08,1.0
18,18,518454.94,3901.22,16797.455,17244.535,-76.92482,12.705503083445365,0.0059336093,-1.7399367e-06,1.8275347e-05,1.734002e-05,1.0,41,0.02053157,1.1906131e-06,0,-3.900629134460903e-08,1.0
19,19,448662.03,4879.0107,18907.809,19527.16,-75.53091,13.257500069652451,0.0059194867,5.952361e-07,1.8761157e-05,1.7589919e-05,1.0,41,0.020256422,1.037346e-06,0,-3.8701941330120665e-08,1.0
20,20,388258.97,6365.3667,21608.041,22526.104,-73.58591,13.809495455905562,0.0059718043,-6.021448e-07,1.8970695e-05,1.7455886e-05,1.0,41,0.020895215,9.2760007e-07,0,-3.938250372168442e-08,1.0
21,21,335983.9,8182.2466,24308.584,25648.71,-71.39681,14.361483882094035,0.006021421,-6.3339335e-06,1.9486864e-05,1.7503715e-05,1.0,41,0.020516124,7.9988905e-07,0,-3.8926517262113846e-08,1.0
22,22,290751.2,10398.513,27116.506,29041.934,-69.01941,14.913481614988996,0.0059503033,1.0738164e-06,2.0186679e-05,1.7598728e-05,1.0,41,0.020489533,7.0551545e-07,0,-3.821386386283305e-08,1.0
23,23,251605.19,12833.711,30048.832,32674.707,-66.87291,15.465496467862977,0.0059567126,-8.498159e-07,2.1051012e-05,1.7803473e-05,1.0,41,0.020410497,6.246574e-07,0,-3.830083070516268e-08,1.0
24,24,217729.38,16260.318,32893.33,36692.902,-63.69521,16.017504174116766,0.0059187785,2.2786453e-06,2.222262e-05,1.7858574e-05,1.0,41,0.020279542,5.5268293e-07,0,-3.718183268906235e-08,1.0
25,25,188418.58,20029.178,35722.07,40954.05,-60.72088,16.5694914002961,0.0059465957,-6.6359803e-07,2.3646115e-05,1.7990336e-05,1.0,41,0.02070145,5.054799e-07,0,-3.637357971022591e-08,1.0
26,26,163051.14,24263.68,38662.906,45645.883,-57.88885,17.121495853207307,0.005980692,-4.0248324e-06,2.5246536e-05,1.8112883e-05,1.0,41,0.020355668,4.459475e-07,0,-3.6506016959579474e-08,1.0
27,27,141098.2,29545.432,40888.36,50445.918,-54.148582,17.673486626095837,0.0059816604,-3.6747429e-06,2.758665e-05,1.8123676e-05,1.0,41,0.020066537,3.9778317e-07,0,-3.679468772564102e-08,1.0
28,28,122105.11,32491.89,45340.625,55780.777,-54.373947,18.25548070707009,0.0058829496,-3.051456e-07,2.8747416e-05,1.8993487e-05,1.0,42,0.020311926,3.6413846e-07,0,-3.6710424016288594e-08,1.0
29,29,105663.59,39199.285,47070.707,61255.492,-50.21333,18.671479660173645,0.0059504528,-5.7967975e-07,3.1999563e-05,1.889537e-05,1.0,42,0.02172026,3.545847e-07,0,-3.679283169004835e-08,1.0
30,30,91439.65,45899.9,48245.047,66591.18,-46.42694,19.2234982996888,0.005959824,-4.5004896e-07,3.6077203e-05,1.8936726e-05,1.0,42,0.020383723,3.0610244e-07,0,-3.688347212503926e-08,1.0
31,31,79127.08,52104.01,48504.027,71186.16,-42.950703,19.639497146155918,0.005938938,-6.115286e-07,4.1468393e-05,1.925226e-05,1.0,42,0.021329686,2.996325e-07,0,-3.700022136111356e-08,1.0
32,32,68475.36,59524.465,48049.14,76497.59,-38.91105,20.19148109233356,0.005931504,-4.2620874e-07,4.8372684e-05,1.9084284e-05,1.0,42,0.020221964,2.643477e-07,0,-3.7107732697829395e-08,1.0
33,33,59252.523,65091.742,47149.297,80374.07,-35.917747,20.607485698797973,0.0060092728,-1.033015e-06,5.696893e-05,1.9604537e-05,1.0,42,0.020833258,2.5920372e-07,0,-3.710327507334673e-08,1.0
34,34,51282.285,71799.15,45582.637,85046.42,-32.40996,21.02350321187987,0.005910953,-3.5639886e-08,6.80853e-05,1.9558705e-05,1.0,42,0.021429403,2.51973e-07,0,-3.714760442570745e-08,1.0
35,35,44369.8,77540.484,42096.758,88230.74,-28.497551,21.439479604974622,0.0058709695,-1.9063341e-08,8.520871e-05,1.9397306e-05,1.0,42,0.021783652,2.4689413e-07,0,-3.7173674247637693e-08,1.0
36,36,38403.727,82328.83,39027.695,91110.91,-25.363129,21.99148269786383,0.0058946502,-2.3995733e-07,0.0001061876,1.9484036e-05,1.0,42,0.020236269,2.2210588e-07,0,-3.7288786262365254e-08,1.0
37,37,33226.32,86001.13,35890.996,93189.91,-22.652323,22.40750165094505,0.0059518497,-3.75548e-07,0.00013346039,1.9796375e-05,1.0,42,0.020427385,2.192017e-07,0,-3.740407051682166e-08,1.0
38,38,28754.086,89716.31,32561.379,95442.445,-19.947712,22.82448865743936,0.0059486637,-2.256156e-07,0.0001699878,1.9785191e-05,1.0,42,0.020536207,2.1516848e-07,0,-3.744498525839705e-08,1.0
39,39,24884.947,92644.33,29666.924,97278.45,-17.756306,23.240490490483353,0.0059933616,-8.702307e-07,0.0002155812,2.005038e-05,1.0,42,0.020586215,2.1162153e-07,0,-3.747278709330359e-08,1.0
40,40,21553.963,94984.78,26628.807,98646.85,-15.660743,23.65747971032397,0.005953061,-6.472877e-07,0.00027729452,2.0205902e-05,1.0,42,0.020607285,2.0889958e-07,0,-3.759899370414941e-08,1.0
41,41,18631.234,96867.14,23607.064,99702.24,-13.696316,24.07349349008291,0.006006683,-1.0359936e-06,0.0003618566,2.0286663e-05,1.0,42,0.020520315,2.0581598e-07,0,-3.768859690251918e-08,1.0
42,42,16126.037,98324.78,20726.775,100485.63,-11.903623,24.48948505651788,0.0059696804,-5.2045004e-07,0.00047616856,2.0258918e-05,1.0,42,0.020347325,2.024899e-07,0,-3.782257939164266e-08,1.0
43,43,13954.87,99729.59,17863.348,101316.79,-10.155007,24.90548206292442,0.005951496,-1.1516753e-07,0.0006384568,1.9846977e-05,1.0,42,0.020137997,1.9876269e-07,0,-3.793882116162766e-08,1.0
44,44,12080.609,100194.516,17535.82,101717.484,-9.927233,25.321487816021545,0.005957663,-4.8077845e-07,0.0007512858,2.2328839e-05,1.0,42,0.01975562,1.942205e-07,0,-3.8085505881489386e-08,1.0
45,45,10447.592,101380.04,13386.399,102260.0,-7.5219226,25.737487329082796,0.0058599766,1.7296325e-07,0.0011379945,1.9500967e-05,1.0,42,0.019342318,1.8914842e-07,0,-3.820348453371183e-08,1.0
46,46,9045.586,101661.04,11835.333,102347.66,-6.6404557,26.310259009624133,0.0059195426,-4.0888517e-07,0.0014866302,1.987962e-05,1.0,42,0.02017464,1.9711872e-07,0,-3.829053522538415e-08,1.0
47,47,7827.7437,102109.125,10082.436,102605.695,-5.6392064,26.79092823251267,0.005953974,-3.7778096e-07,0.0020165923,1.9471798e-05,1.0,42,0.020248476,1.9734262e-07,0,-3.828609036373957e-08,1.0
48,48,6770.8345,102261.43,8529.746,102616.555,-4.7680707,27.329425164702116,0.005962414,-3.3214897e-07,0.002755763,1.9040537e-05,1.0,42,0.020366978,1.9847653e-07,0,-3.845894668176323e-08,1.0
49,49,5860.798,102077.36,7309.2383,102338.71,-4.095668,27.934960046841297,0.005963383,-2.8856573e-07,0.0037152774,1.8952025e-05,1.0,42,0.020424625,1.9957868e-07,0,-3.866960123069734e-08,1.0
50,50,5071.625,102201.24,6413.5938,102402.29,-3.5908623,28.61571322585951,0.005974655,-4.6420033e-07,0.004892959,1.9193541e-05,1.0,42,0.020509869,2.0028722e-07,0,-3.875651803186742e-08,1.0
51,51,4388.5933,101956.39,5519.524,102105.69,-3.0987468,29.29582787149411,0.005953061,-2.7906623e-07,0.006570421,1.9199793e-05,1.0,42,0.020548835,2.0125064e-07,0,-3.871983315742631e-08,1.0
52,52,3798.7827,101870.37,4896.3115,101987.97,-2.7517545,29.975839290462318,0.0059426273,-3.0253366e-07,0.008556707,1.9721814e-05,1.0,42,0.020577623,2.017652e-07,0,-3.8830305526470316e-08,1.0
53,53,3286.0488,101787.555,4331.858,101879.69,-2.4369137,30.655679242758197,0.0059341313,-3.032789e-07,0.011180775,2.0213667e-05,1.0,42,0.020641143,2.0260312e-07,0,-3.908603009884754e-08,1.0
54,54,2844.088,102094.72,4259.046,102183.516,-2.3888009,31.335829301722697,0.005971991,-5.2622124e-07,0.013139076,2.2825892e-05,1.0,42,0.020715218,2.0272563e-07,0,-3.9010323776807355e-08,1.0
55,55,2460.7852,101907.125,3635.84,101971.96,-2.043331,32.015710267354734,0.0059616873,-5.2994613e-07,0.017788595,2.2614639e-05,1.0,42,0.020734148,2.0333185e-07,0,-3.9175550645969105e-08,1.0
56,56,2129.3164,101689.836,3745.1072,101758.77,-2.1091774,32.69584589963779,0.005931411,-2.3846326e-07,0.019957937,2.7033386e-05,1.0,42,0.020729983,2.0371691e-07,0,-3.909348108043057e-08,1.0
57,57,1843.2289,101575.9,3808.66,101647.28,-2.1473396,33.37595427859924,0.0060157753,-8.566305e-07,0.022670897,3.182889e-05,1.0,42,0.020727748,2.0391838e-07,0,-3.936164576526756e-08,1.0
58,58,1594.4913,101762.06,3843.9883,101834.64,-2.163278,34.05583673757792,0.005926306,-2.393942e-07,0.02596665,3.6998914e-05,1.0,42,0.02076787,2.0393718e-07,0,-3.9598361012054616e-08,1.0
59,59,1380.4436,101810.875,3902.4187,101885.64,-2.195077,34.73570415654831,0.0059608305,-4.6326818e-07,0.029543884,4.3342043e-05,1.0,42,0.020780902,2.0396301e-07,0,-3.9732417757517644e-08,1.0
60,60,1194.6187,101848.15,4226.563,101935.81,-2.3763354,35.41582642884168,0.005953303,-2.3697295e-07,0.031521257,5.419068e-05,1.0,42,0.020778717,2.038412e-07,0,-3.991921887439847e-08,1.0
61,61,1033.3434,101933.33,5256.634,102068.78,-2.95209,36.09609118112712,0.0059493347,-4.7071813e-07,0.029300008,7.771365e-05,1.0,42,0.02078522,2.0363935e-07,0,-4.006819155385304e-08,1.0
62,62,894.71045,102025.766,4779.539,102137.66,-2.6821396,36.77582894677471,0.005936367,-2.7999678e-07,0.037217878,8.1498925e-05,1.0,42,0.020767514,2.0332867e-07,0,-3.9989727633409205e-08,1.0
63,63,774.2569,102175.61,5324.7104,102314.26,-2.9831748,37.45594031238579,0.0059949826,-8.3539794e-07,0.038604602,0.000104558356,1.0,42,0.020789994,2.0319743e-07,0,-4.010851953522613e-08,1.0
64,64,669.7856,102376.73,6044.163,102554.99,-3.378732,38.135840878036106,0.005953788,-3.2339344e-07,0.039314084,0.00013655478,1.0,42,0.020760259,2.024305e-07,0,-4.029050105926362e-08,1.0
65,65,579.81464,102704.71,6647.4404,102919.61,-3.7032359,38.81581141700735,0.0059443787,-1.6098238e-07,0.041293006,0.00017226188,1.0,42,0.020776058,2.0186685e-07,0,-4.024527559574251e-08,1.0
66,66,501.44418,103420.97,7004.164,103657.875,-3.8744287,39.49320115582668,0.0059589674,-3.5729116e-07,0.04531492,0.00020689463,1.0,42,0.020859644,2.012355e-07,0,-4.01092740607627e-08,1.0
67,67,434.02762,103762.945,7876.7383,104061.484,-4.3410482,40.17318689476815,0.0059914985,-3.0160226e-07,0.046553932,0.00026672834,1.0,42,0.020793887,1.9982309e-07,0,-4.025010651907795e-08,1.0
68,68,375.6009,103851.055,8930.298,104234.31,-4.914854,40.85145938032656,0.005975121,-4.0683395e-07,0.047449056,0.00034828763,1.0,42,0.020770673,1.9926905e-07,0,-4.047107984532201e-08,1.0
69,69,325.10385,104372.08,9682.239,104820.21,-5.2999644,41.53069685262744,0.005998075,-5.1653615e-07,0.05056176,0.0004314036,1.0,42,0.020773685,1.9818395e-07,0,-4.0371425400052554e-08,1.0
70,70,281.3503,105166.266,10459.926,105685.164,-5.680006,42.20781480477308,0.0059426273,-3.9435534e-07,0.05408093,0.0005297528,1.0,42,0.020799134,1.9680277e-07,0,-4.025248646371043e-08,1.0
71,71,243.36427,105714.47,11591.016,106348.016,-6.2571754,42.8911000371736,0.0059756613,-3.641828e-07,0.05642114,0.00067023333,1.0,42,0.020783525,1.9542937e-07,0,-4.0456580022002695e-08,1.0
72,72,210.60631,106624.086,12671.598,107374.414,-6.7774525,43.56817300271359,0.0059686,-4.5097585e-07,0.059637222,0.00083057437,1.0,42,0.020801261,1.9372642e-07,0,-4.0719342182687985e-08,1.0
73,73,182.27473,107848.51,14269.042,108788.35,-7.536822,44.24024618128897,0.0059064445,-2.146232e-07,0.061192587,0.0010527462,1.0,42,0.02085849,1.917346e-07,0,-4.0571828389629795e-08,1.0
74,74,157.72879,108552.28,15335.194,109630.13,-8.040972,44.92863021402263,0.00595457,-2.9731876e-07,0.06579909,0.0012874743,1.0,42,0.020820592,1.8991669e-07,0,-4.0811736600227435e-08,1.0
75,75,136.52892,109386.195,16734.174,110658.81,-8.697817,45.60053160585812,0.0059486637,-4.4631975e-07,0.069661245,0.0015930439,1.0,42,0.020788433,1.8786062e-07,0,-4.060659293692718e-08,1.0
76,76,118.14758,110333.23,18334.008,111846.13,-9.434599,46.288924758613575,0.005966755,-3.4034287e-07,0.07347471,0.0019742893,1.0,42,0.020762827,1.8563742e-07,0,-4.077720437900151e-08,1.0
77,77,102.25773,111629.64,19980.19,113403.63,-10.147713,46.95536025692127,0.0059607932,-3.8616048e-07,0.07789765,0.0024180743,1.0,42,0.0207698,1.8314933e-07,0,-4.0771303009043277e-08,1.0
78,78,88.4436,113215.96,21865.307,115308.05,-10.930909,47.645270849665394,0.0059478628,-4.722089e-07,0.08229967,0.002959307,1.0,42,0.02079728,1.8036279e-07,0,-4.086810719731362e-08,1.0
79,79,76.54279,114932.16,23748.404,117360.08,-11.67471,48.31173717470665,0.005957756,-5.2491794e-07,0.08755509,0.0035851677,1.0,42,0.020831287,1.7749892e-07,0,-4.096052589352755e-08,1.0
80,80,66.250786,116238.85,26045.35,119121.08,-12.62952,48.979992113105254,0.0059443414,-2.6342138e-07,0.09223568,0.004409426,1.0,42,0.02080054,1.7461679e-07,0,-4.092781820125306e-08,1.0
81,81,57.329906,118103.32,28243.514,121433.484,-13.449264,49.6346219042116,0.0059283366,-5.444746e-07,0.09829246,0.005317172,1.0,42,0.020788658,1.7119379e-07,0,-4.117953683582165e-08,1.0
82,82,49.60321,120107.32,30715.193,123972.55,-14.344883,50.320340736740036,0.005957905,-3.397846e-07,0.1044617,0.006412281,1.0,42,0.020819388,1.6793547e-07,0,-4.1324238285651224e-08,1.0
83,83,42.92585,122104.36,33628.152,126650.414,-15.397823,51.02843098368612,0.0059466516,-3.7480024e-07,0.11025499,0.007773042,1.0,42,0.02078292,1.6409673e-07,0,-4.1198720114486575e-08,1.0
84,84,37.1518,124379.836,36303.33,129569.58,-16.271189,51.67217986760079,0.005913655,-2.304557e-07,0.11800322,0.009263619,1.0,42,0.020780604,1.6038182e-07,0,-4.1155032561610224e-08,1.0
85,85,32.150223,127157.09,39571.676,133172.23,-17.286303,52.311376004625345,0.005915909,-1.2019544e-07,0.12509838,0.011045699,1.0,42,0.020809505,1.5626009e-07,0,-4.1545028809423256e-08,1.0
86,86,27.835518,129729.445,43543.28,136842.05,-18.554167,53.039316359238,0.005953536,-4.647605e-07,0.13131057,0.013295444,1.0,42,0.020808898,1.5206508e-07,0,-4.142168927586355e-08,1.0
87,87,24.082958,133703.53,46756.836,141643.34,-19.275002,53.74139769919566,0.005958688,-4.6457416e-07,0.14134003,0.015401502,1.0,42,0.020925676,1.4773498e-07,0,-4.1684458010014164e-08,1.0
88,88,20.833313,136545.89,51005.69,145761.31,-20.482796,54.39575927701662,0.0059207347,-3.7908498e-07,0.14977632,0.018339854,1.0,42,0.02084963,1.4303953e-07,0,-4.21163382325845e-08,1.0
89,89,18.021912,139980.22,54796.875,150323.52,-21.378433,55.41474079208274,0.005958287,-4.3680308e-07,0.16116232,0.021415155,1.0,43,0.020801134,1.3837578e-07,0,-4.1898674236693304e-08,1.0
90,90,15.604198,143682.5,59253.188,155420.72,-22.41075,56.06901354313595,0.005947024,-3.691463e-07,0.17213412,0.025019152,1.0,43,0.020766981,1.3361785e-07,0,-4.172566396274381e-08,1.0
91,91,13.500899,147794.2,64382.668,161208.73,-23.539085,56.81697853867081,0.0059432047,-3.5898776e-07,0.18310004,0.029204465,1.0,43,0.020770952,1.2884507e-07,0,-4.182005143698516e-08,1.0
92,92,11.686608,152753.98,69645.445,167881.7,-24.509768,57.40789720672183,0.0059239767,-3.2316746e-07,0.19554149,0.033652525,1.0,43,0.020812593,1.2397177e-07,0,-4.170071098814552e-08,1.0
93,93,10.113269,157194.55,75735.23,174487.67,-25.724442,58.08150227871374,0.0059416583,-3.5193972e-07,0.2077929,0.039146867,1.0,43,0.020787826,1.1913636e-07,0,-4.190775004084498e-08,1.0
94,94,8.748621,162400.88,81816.195,181845.9,-26.738583,58.848370315128705,0.0059352955,-3.774531e-07,0.22235209,0.045010388,1.0,43,0.02077463,1.1424305e-07,0,-4.2884753890432964e-08,1.0
95,95,7.570237,167844.61,88871.14,189920.75,-27.900532,59.724025876726955,0.0059457948,-4.134512e-07,0.23656468,0.051799618,1.0,43,0.020811545,1.0958015e-07,0,-4.2233674532094095e-08,1.0
96,96,6.554112,173006.78,95749.36,197735.39,-28.96202,60.26030398221337,0.0059448816,-2.0269567e-07,0.25361234,0.059466634,1.0,43,0.020774765,1.05063464e-07,0,-4.250768435608383e-08,1.0
97,97,5.669445,178918.77,103799.0,206848.16,-30.11999,60.870126837835414,0.005930964,-5.316695e-07,0.27044964,0.0681035,1.0,43,0.020771831,1.0042067e-07,0,-4.2383188516925093e-08,1.0
98,98,4.907347,185276.52,112756.68,216890.42,-31.324104,61.562555670709116,0.005925318,-3.4339192e-07,0.28762794,0.07773827,1.0,43,0.020810122,9.594763e-08,0,-4.325700778960141e-08,1.0
99,99,4.245922,191032.44,122345.21,226851.81,-32.637207,62.35029490813031,0.0059465957,-2.9119198e-07,0.3063805,0.08911495,1.0,43,0.020772649,9.156924e-08,0,-4.180774727871197e-08,1.0
100,100,3.6747382,197710.08,133236.92,238414.25,-33.976048,63.249916044209385,0.0059255883,-5.017427e-07,0.3250642,0.10152053,1.0,43,0.020774314,8.713537e-08,0,-4.3061611173726336e-08,1.0
101,101,3.180988,204168.1,145960.64,250976.33,-35.56114,64.27920710641774,0.0059329947,-3.842975e-07,0.3427854,0.11593867,1.0,43,0.020804837,8.289562e-08,0,-4.3931904462589185e-08,1.0
102,102,2.752818,210238.84,160101.62,264259.16,-37.29009,65.45814676242298,0.0059425845,-2.9402705e-07,0.3611161,0.13254955,1.0,43,0.020784967,7.865373e-08,0,-4.248773649112082e-08,1.0
103,103,2.3804083,217705.28,176106.38,280016.16,-38.970123,66.81295728011173,0.0059504407,-3.8532932e-07,0.37965888,0.15016806,1.0,43,0.020790793,7.424855e-08,0,-4.1962861923453334e-08,1.0
104,104,2.060257,224365.86,194626.58,297017.75,-40.940063,68.36934772736276,0.0059366883,-4.4306694e-07,0.39691418,0.1704261,1.0,43,0.020785034,6.9979095e-08,0,-4.361455577912111e-08,1.0
