True,index,freq,Re(Z),Im(Z),Z,Phase(Z),time,Ewe_meas,I_meas,Cs,Cp,cycle_number,I_Range,Ewe,I,Ns,(QQo),cycle
110,110,7000018.5,209.19527,1452.4636,1467.4513,-81.80417,82.5094795722689,0.022051755,-1.1728102e-05,1.5653653e-05,1.5335532e-05,2.0,40,0.010128193,6.901894e-06,0,-2.9299744549782582e-08,2.0
111,111,6057573.0,329.4072,1661.1804,1693.5258,-78.78392,83.06150413185242,0.022084175,-2.2593766e-05,1.5816293e-05,1.5217898e-05,2.0,40,0.01431059,8.450175e-06,0,-2.9769452847598168e-08,2.0
112,112,5242039.0,334.48062,1868.7539,1898.4515,-79.85232,83.4774946582911,0.022133159,-3.4668647e-05,1.6246799e-05,1.5742473e-05,2.0,40,0.019709168,1.0381707e-05,0,-3.596126674238873e-08,2.0
113,113,4536288.0,292.27512,2134.346,2154.265,-82.20248,84.84548621656722,0.022084603,-3.267786e-05,1.6438216e-05,1.6135637e-05,2.0,40,0.018962428,8.802273e-06,0,-5.5823131862554636e-08,2.0
114,114,3925558.5,369.9299,2409.3464,2437.5803,-81.271,85.26148143634782,0.022088535,-2.5533398e-05,1.6827493e-05,1.6439933e-05,2.0,40,0.018392816,7.5455223e-06,0,-5.578607310026168e-08,2.0
115,115,3397055.0,431.28763,2721.9653,2755.9216,-80.9965,85.67749785611522,0.02204123,-2.7617198e-05,1.7212144e-05,1.6790607e-05,2.0,40,0.019499708,7.075567e-06,0,-5.907985701370124e-08,2.0
116,116,2939708.2,485.31113,3139.7444,3177.0303,-81.21331,86.09349987583118,0.022068469,-3.118943e-05,1.7243348e-05,1.6840984e-05,2.0,40,0.021453284,6.7526216e-06,0,-6.166342522959509e-08,2.0
117,117,2543924.5,548.5427,3575.131,3616.9685,-81.27697,86.64549987539067,0.022069065,-1.08723425e-05,1.7499431e-05,1.7096942e-05,2.0,40,0.020522445,5.6739354e-06,0,-6.52111492467987e-08,2.0
118,118,2201436.2,651.8931,4073.7068,4125.5366,-80.90835,87.19750376828597,0.022032825,6.2578573e-07,1.774697e-05,1.7303855e-05,2.0,40,0.021053417,5.103195e-06,0,-6.215501635096308e-08,2.0
119,119,1905053.1,718.904,4731.8716,4786.171,-81.36123,87.74950440783869,0.022014491,-2.6370637e-05,1.7655502e-05,1.725717e-05,2.0,40,0.02062656,4.309616e-06,0,-6.059056613098335e-08,2.0
120,120,1648567.4,828.5074,5626.8086,5687.4775,-81.623795,88.46850468197954,0.022012927,-2.5648976e-06,1.7157392e-05,1.6793307e-05,2.0,41,0.018939145,3.3299727e-06,0,-6.27912955652745e-08,2.0
121,121,1426616.2,859.7447,6433.8066,6490.996,-82.3887,88.88449094173848,0.021986358,-9.168525e-07,1.7339835e-05,1.7035634e-05,2.0,41,0.021809831,3.360013e-06,0,-6.29004561678291e-08,2.0
122,122,1234551.2,1145.9603,7371.094,7459.6416,-81.163155,89.43649491466931,0.021999065,1.4406662e-06,1.7489565e-05,1.7076822e-05,2.0,41,0.021075943,2.8253291e-06,0,-6.383711172060103e-08,2.0
123,123,1068345.5,1332.7405,8536.239,8639.651,-81.1262,89.98848195417668,0.022029249,-1.3526038e-06,1.7451865e-05,1.7036586e-05,2.0,41,0.020723775,2.3986818e-06,0,-6.462758302195779e-08,2.0
124,124,924510.06,1622.3359,9795.869,9929.302,-80.59635,90.54048670039629,0.02204596,-2.539183e-07,1.7573793e-05,1.7104645e-05,2.0,41,0.02030481,2.0449384e-06,0,-6.450618124285907e-08,2.0
125,125,800039.0,2242.984,11526.479,11742.687,-78.9882,91.09248200661386,0.02205114,-1.6244819e-06,1.7258868e-05,1.6629174e-05,2.0,41,0.020820549,1.7730653e-06,0,-6.512086123473754e-08,2.0
126,126,692334.1,2672.8994,12639.8955,12919.418,-78.05984,91.64450149951153,0.022032099,-2.0434723e-06,1.8186995e-05,1.7408525e-05,2.0,41,0.020212244,1.5644856e-06,0,-6.575492016644091e-08,2.0
127,127,599122.25,3486.625,14371.925,14788.806,-76.36351,92.19648253908963,0.021995023,5.356468e-07,1.8483735e-05,1.745635e-05,2.0,41,0.020666327,1.3974304e-06,0,-6.546072841667675e-08,2.0
128,128,518454.94,4463.4077,16407.0,17003.283,-74.78139,92.74849485864979,0.02200909,3.233582e-07,1.8710265e-05,1.7420985e-05,2.0,41,0.020518519,1.2067387e-06,0,-6.497889832578904e-08,2.0
129,129,448662.03,5604.0444,18330.96,19168.45,-73.00084,93.30049763151328,0.02204732,-2.1294991e-07,1.9351543e-05,1.7697506e-05,2.0,41,0.02011482,1.0493713e-06,0,-6.404389860906079e-08,2.0
130,130,388258.97,7228.091,20776.111,21997.547,-70.81702,93.85250035105855,0.022025093,-1.7734557e-06,1.973033e-05,1.760007e-05,2.0,41,0.020943126,9.520664e-07,0,-6.360919366887351e-08,2.0
131,131,335983.9,9072.368,23073.557,24793.082,-68.53558,94.40448749726056,0.021975702,3.975091e-06,2.0529913e-05,1.7780958e-05,2.0,41,0.02039507,8.2261136e-07,0,-6.354490250640923e-08,2.0
132,132,290751.2,11609.706,25862.775,28349.047,-65.82486,94.95649787018192,0.022057941,-2.9689754e-06,2.1165255e-05,1.7615575e-05,2.0,41,0.020537486,7.244507e-07,0,-6.38254237593764e-08,2.0
133,133,251605.19,14382.065,28196.777,31652.836,-62.975662,95.5084995230718,0.021984067,-1.8051129e-06,2.243371e-05,1.7802246e-05,2.0,41,0.020502098,6.4771757e-07,0,-6.348683951509473e-08,2.0
134,134,217729.38,17813.932,30373.67,35212.156,-59.608692,96.06050544258323,0.022047041,-2.875867e-06,2.4066107e-05,1.7906683e-05,2.0,41,0.020281864,5.759904e-07,0,-6.281833759170436e-08,2.0
135,135,188418.58,21724.945,31760.86,38480.195,-55.627235,96.61248480217182,0.022001412,9.695339e-07,2.6595255e-05,1.811816e-05,2.0,41,0.020708982,5.3817246e-07,0,-6.217613191352061e-08,2.0
136,136,163051.14,25913.822,34652.207,43270.1,-53.209908,97.1644966150343,0.022044675,-4.773801e-07,2.8168608e-05,1.8065557e-05,2.0,41,0.02041053,4.7170053e-07,0,-6.248361284946687e-08,2.0
137,137,141098.2,30079.4,36096.27,46986.285,-50.1952,97.71650213460089,0.022020249,4.611582e-07,3.1249016e-05,1.8442455e-05,2.0,41,0.02031061,4.322668e-07,0,-6.329619197669779e-08,2.0
138,138,122105.11,35736.74,36652.098,51190.73,-45.72447,98.13249911434832,0.022016114,-7.8463887e-07,3.556211e-05,1.8230665e-05,2.0,41,0.022074623,4.3122304e-07,0,-6.377523450478387e-08,2.0
139,139,105663.59,39890.965,39564.53,56183.996,-44.76461,98.85150202849763,0.022024013,-2.2654754e-07,3.8070513e-05,1.8878849e-05,2.0,42,0.019068457,3.3939304e-07,0,-6.347782577074194e-08,2.0
140,140,91439.65,44873.887,39647.61,59879.867,-41.461693,99.26748759494512,0.022062302,-4.7444783e-07,4.390041e-05,1.924602e-05,2.0,42,0.020087276,3.354596e-07,0,-6.34416021219811e-08,2.0
141,141,79127.08,50596.684,38826.465,63777.1,-37.501614,99.68348729467834,0.022042347,-3.124092e-07,5.1804458e-05,1.919965e-05,2.0,42,0.02100894,3.2941196e-07,0,-6.347610351699018e-08,2.0
142,142,68475.36,55420.88,37680.39,67017.055,-34.211597,100.09949142110418,0.022043372,-2.338111e-07,6.16837e-05,1.9499817e-05,2.0,42,0.021783948,3.250508e-07,0,-6.357414140863287e-08,2.0
143,143,59252.523,60145.438,35871.59,70030.31,-30.812449,100.65149267399102,0.022011194,-1.9674714e-07,7.487945e-05,1.9646797e-05,2.0,42,0.020311031,2.90032e-07,0,-6.367743526190751e-08,2.0
144,144,51282.285,64984.75,34507.4,73578.38,-27.968643,101.06748845372931,0.022023603,2.7126843e-08,8.993745e-05,1.978174e-05,2.0,42,0.020842528,2.832697e-07,0,-6.366000446480276e-08,2.0
145,145,44369.8,68503.94,31021.635,75200.61,-24.363134,101.48350746018696,0.02202064,-3.2917143e-07,0.000115629315,1.9676805e-05,2.0,42,0.021171845,2.815382e-07,0,-6.364125428981677e-08,2.0
146,146,38403.727,71715.18,28502.824,77171.74,-21.675089,101.8995058266155,0.022021424,-9.87785e-08,0.00014539814,1.9834353e-05,2.0,42,0.021483531,2.7838598e-07,0,-6.363494739044187e-08,2.0
147,147,33226.32,74085.9,25977.623,78508.33,-19.322805,102.3154850997089,0.021999922,-1.5390862e-07,0.00018439048,2.0188583e-05,2.0,42,0.021672769,2.7605694e-07,0,-6.370192468610054e-08,2.0
148,148,28754.086,76311.46,23623.518,79884.35,-17.200806,102.73150783943129,0.022007355,-4.0292605e-07,0.000234302,2.0489988e-05,2.0,42,0.021770922,2.725305e-07,0,-6.364208941161131e-08,2.0
149,149,24884.947,78289.664,20948.484,81043.88,-14.980082,103.14749052588013,0.022002457,1.2228056e-08,0.00030530282,2.0398373e-05,2.0,42,0.021830939,2.6937184e-07,0,-6.363603713170127e-08,2.0
150,150,21553.963,79825.56,18340.639,81905.43,-12.939648,103.56450817236328,0.02204829,-2.5485593e-07,0.00040260443,2.0187477e-05,2.0,42,0.02188883,2.6724516e-07,0,-6.356481214855257e-08,2.0
151,151,18631.234,81061.67,16568.035,82737.5,-11.551474,103.98048856543028,0.022014903,-1.7385599e-08,0.00051559357,2.0674961e-05,2.0,42,0.021806551,2.635631e-07,0,-6.347968946671262e-08,2.0
152,152,16126.037,82011.01,14693.034,83316.81,-10.15731,104.39648762522847,0.022024032,-1.8054152e-07,0.00067170867,2.0890011e-05,2.0,42,0.021641567,2.597503e-07,0,-6.352851455179594e-08,2.0
153,153,13954.87,82296.23,12389.402,83223.59,-8.561381,104.81249809832661,0.022041658,-1.4142849e-07,0.00092054287,2.0401016e-05,2.0,42,0.02137906,2.56887e-07,0,-6.355621437753002e-08,2.0
154,154,12080.609,83501.59,11382.834,84273.87,-7.7626424,105.2284921980754,0.02203033,-3.0830915e-07,0.001157393,2.1115231e-05,2.0,42,0.021109072,2.5048183e-07,0,-6.366731590819362e-08,2.0
155,155,10447.592,83685.11,9301.039,84200.4,-6.3420134,105.64450811114511,0.02204665,-1.8836295e-07,0.0016378438,1.9985137e-05,2.0,42,0.020586561,2.4449483e-07,0,-6.359990030477726e-08,2.0
156,156,9045.586,83875.49,8323.421,84287.47,-5.6672173,106.21725483171758,0.02199437,-4.420396e-08,0.002113886,2.0613857e-05,2.0,42,0.02031921,2.4107035e-07,0,-6.357436691171495e-08,2.0
157,157,7827.7437,83965.35,6966.428,84253.85,-4.742847,106.69794613454724,0.022039011,-2.8744767e-08,0.002918592,1.9953275e-05,2.0,42,0.020426208,2.424365e-07,0,-6.367564205228978e-08,2.0
158,158,6770.8345,84124.125,6026.5845,84339.72,-4.097623,107.23641373342252,0.022036906,-7.7914656e-08,0.003900378,1.9915211e-05,2.0,42,0.020552065,2.4368194e-07,0,-6.354502693672535e-08,2.0
159,159,5860.798,84204.055,5364.7275,84374.78,-3.645446,107.8420025088999,0.022027869,3.1042596e-08,0.005061925,2.0463774e-05,2.0,42,0.020665303,2.4492275e-07,0,-6.336030678696818e-08,2.0
160,160,5071.625,83911.38,4627.394,84038.875,-3.1564476,108.52269478124072,0.022044247,7.4253045e-08,0.0067816684,2.0561227e-05,2.0,42,0.020716159,2.4650686e-07,0,-6.35423455516053e-08,2.0
161,161,4388.5933,84027.914,4197.655,84132.695,-2.859861,109.20284342687228,0.022049613,-1.17771826e-07,0.00863949,2.1506608e-05,2.0,42,0.020822326,2.4749386e-07,0,-6.34552028833346e-08,2.0
162,162,3798.7827,83880.25,3979.5393,83974.6,-2.7162526,109.88280588583439,0.022011064,5.8422028e-08,0.010527927,2.3643544e-05,2.0,42,0.020869257,2.485187e-07,0,-6.325991513643932e-08,2.0
163,163,3286.0488,83707.74,3667.058,83788.02,-2.5084026,110.5627099714693,0.022110427,-7.214028e-08,0.013207735,2.5298807e-05,2.0,42,0.02089738,2.4940772e-07,0,-6.30410963192709e-08,2.0
164,164,2844.088,83692.64,3665.8538,83772.89,-2.5080314,111.24182960372127,0.022054607,1.1597346e-07,0.015265183,2.9231105e-05,2.0,42,0.020946406,2.50038e-07,0,-6.29401634372751e-08,2.0
165,165,2460.7852,83569.914,3812.783,83656.84,-2.612244,111.92167904935195,0.02206845,1.3721599e-08,0.016963067,3.5235917e-05,2.0,42,0.02095863,2.5053097e-07,0,-6.273794509155906e-08,2.0
166,166,2129.3164,83549.56,3657.3982,83629.58,-2.5065334,112.60182126831205,0.022025615,3.1787827e-08,0.020436555,3.9087e-05,2.0,42,0.020983422,2.509091e-07,0,-6.276347671786553e-08,2.0
167,167,1843.2289,83839.97,3786.766,83925.445,-2.5860977,113.28195092728129,0.021996848,4.396779e-07,0.022801971,4.6421806e-05,2.0,42,0.02104144,2.5071586e-07,0,-6.252470426501628e-08,2.0
168,168,1594.4913,83898.03,3832.05,83985.5,-2.6151724,113.96183679957176,0.022045178,-5.276207e-09,0.026047545,5.4227618e-05,2.0,42,0.021045597,2.5058608e-07,0,-6.233384918953966e-08,2.0
169,169,1380.4436,83986.68,3932.2373,84078.68,-2.6806178,114.64171576521039,0.02205824,-1.570621e-08,0.02931985,6.413121e-05,2.0,42,0.021041064,2.5025446e-07,0,-6.218164241976886e-08,2.0
170,170,1194.6187,84268.62,4329.319,84379.75,-2.9409976,115.32183697083383,0.022031689,-2.8371232e-08,0.030773103,8.100913e-05,2.0,42,0.02108088,2.498334e-07,0,-6.21434986114823e-08,2.0
171,171,1033.3434,84372.16,5005.78,84520.52,-3.3953648,116.00206228313618,0.022037782,-2.203887e-08,0.030768316,0.000107925196,2.0,42,0.02106453,2.4922383e-07,0,-6.213510995833242e-08,2.0
172,172,894.71045,84709.945,5169.339,84867.52,-3.4920866,116.68184127543645,0.022056097,1.1727735e-07,0.034411423,0.00012767021,2.0,42,0.021102801,2.486558e-07,0,-6.224706157892928e-08,2.0
173,173,774.2569,84940.96,5530.9575,85120.84,-3.7255733,117.36193912106683,0.022054102,2.340663e-08,0.037165053,0.00015691467,2.0,42,0.021097722,2.4785612e-07,0,-6.222403318713887e-08,2.0
174,174,669.7856,85162.32,6015.7466,85374.53,-4.0405817,118.04180792669649,0.022028262,5.6559273e-08,0.039499793,0.0001961179,2.0,42,0.021081373,2.4692812e-07,0,-6.208414118637072e-08,2.0
175,175,579.81464,85618.83,6748.3384,85884.36,-4.5066447,118.72183913232584,0.022004692,1.2342333e-07,0.040675614,0.0002511306,2.0,42,0.021105967,2.4574868e-07,0,-6.226803624998883e-08,2.0
176,176,501.44418,86120.08,7426.0933,86439.66,-4.9283967,119.39919804446981,0.022030758,-2.0362439e-08,0.04274026,0.00031545098,2.0,42,0.021152772,2.4471143e-07,0,-6.244061439100158e-08,2.0
177,177,434.02762,86194.78,8040.1763,86568.96,-5.3290815,120.0792349834519,0.022083225,-7.307166e-08,0.0456076,0.00039340867,2.0,42,0.021086974,2.4358584e-07,0,-6.226975984212905e-08,2.0
178,178,375.6009,87090.67,9008.814,87555.375,-5.9057736,120.75745362896123,0.022029975,1.2398212e-07,0.04703551,0.00049796124,2.0,42,0.021156648,2.4163734e-07,0,-6.200702652608017e-08,2.0
179,179,325.10385,87527.73,9920.934,88088.18,-6.466659,121.43669755462179,0.021992842,-3.97224e-09,0.049345262,0.0006259149,2.0,42,0.021128692,2.3985842e-07,0,-6.220451888980665e-08,2.0
180,180,281.3503,87924.234,10819.026,88587.375,-7.01495,122.1137968134426,0.021989191,8.3565894e-08,0.0522859,0.00077986106,2.0,42,0.02109045,2.3807512e-07,0,-6.244163140037252e-08,2.0
181,181,243.36427,88618.984,11777.929,89398.234,-7.5705433,122.79708751256112,0.022042086,1.8564148e-08,0.05552575,0.0009637721,2.0,42,0.021093758,2.3595273e-07,0,-6.219837788303433e-08,2.0
182,182,210.60631,89402.13,13056.532,90350.51,-8.308892,123.4742009313486,0.022060849,-6.469014e-08,0.057878986,0.0012086914,2.0,42,0.021092387,2.3345068e-07,0,-6.199092728789779e-08,2.0
183,183,182.27473,90375.85,14298.72,91499.99,-8.99047,124.14625962995342,0.022045253,-1.6377572e-07,0.06106558,0.0014912438,2.0,42,0.021137288,2.3100863e-07,0,-6.220129234209656e-08,2.0
184,184,157.72879,91255.92,15638.196,92586.16,-9.724116,124.83464550268764,0.02202938,-5.2584e-08,0.06452418,0.0018407877,2.0,42,0.021095378,2.2784592e-07,0,-6.198619133359489e-08,2.0
185,185,136.52892,92320.04,17214.164,93911.22,-10.562182,125.50654585452867,0.022049632,-2.0009485e-07,0.06771885,0.002275341,2.0,42,0.021099726,2.2467738e-07,0,-6.226954190711314e-08,2.0
186,186,118.14758,93447.47,18721.27,95304.33,-11.328665,126.19491850060876,0.022067463,4.8364228e-08,0.07195484,0.002776549,2.0,42,0.021087674,2.212667e-07,0,-6.222879247788526e-08,2.0
187,187,102.25773,94535.07,20329.244,96696.21,-12.136315,126.86135842555086,0.022034278,-8.722674e-08,0.07656015,0.0033839685,2.0,42,0.021048037,2.176718e-07,0,-6.231574723045025e-08,2.0
188,188,88.4436,96269.7,22520.705,98868.79,-13.166627,127.55126611169544,0.022034876,-9.6166694e-08,0.07990458,0.004145885,2.0,42,0.021106837,2.1348332e-07,0,-6.229589790925515e-08,2.0
189,189,76.54279,97815.82,24354.504,100802.164,-13.981404,128.21771737003291,0.022064053,-8.5922906e-08,0.08537614,0.0049837404,2.0,42,0.021104896,2.0936947e-07,0,-6.230270224818963e-08,2.0
190,190,66.250786,99599.875,26521.328,103070.445,-14.910664,128.88598774842103,0.022030422,-8.536447e-08,0.090580314,0.005997304,2.0,42,0.0211073,2.0478518e-07,0,-6.237097244330177e-08,2.0
191,191,57.329906,101500.1,29003.51,105562.66,-15.947213,129.54064297954392,0.022037297,3.2346158e-08,0.09571684,0.007225516,2.0,42,0.021095214,1.9983595e-07,0,-6.220758232001699e-08,2.0
192,192,49.60321,103803.57,31348.584,108433.92,-16.804268,130.22638650538283,0.022009313,5.7676246e-08,0.10235108,0.008554565,2.0,42,0.021137983,1.9493883e-07,0,-6.212140698101956e-08,2.0
193,193,42.92585,105622.85,34172.35,111013.23,-17.928043,130.93443309902796,0.022045625,-1.3174143e-07,0.108499154,0.010280794,2.0,42,0.021068795,1.8978635e-07,0,-6.228821718418665e-08,2.0
194,194,37.1518,108196.62,37094.848,114378.914,-18.924107,131.57816587630077,0.022067051,-2.4144342e-07,0.115485296,0.012146803,2.0,42,0.02109714,1.8444956e-07,0,-6.245781307443426e-08,2.0
195,195,32.150223,111195.58,40275.484,118264.836,-19.910591,132.21736254662392,0.022025466,1.18021006e-07,0.122912295,0.014254948,2.0,42,0.021123873,1.78615e-07,0,-6.215915402802865e-08,2.0
196,196,27.835518,113711.766,43534.41,121760.46,-20.949284,132.94533274121932,0.022030758,5.9258422e-08,0.13133731,0.016789623,2.0,42,0.021065729,1.730096e-07,0,-6.241810484764956e-08,2.0
197,197,24.082958,116561.414,46340.15,125435.13,-21.680786,133.6473638145544,0.022021554,3.6070073e-08,0.14261095,0.019463876,2.0,42,0.02097149,1.6718992e-07,0,-6.230134185743807e-08,2.0
198,198,20.833313,120933.2,50767.305,131157.0,-22.77248,134.3017569923395,0.022045719,-9.467866e-08,0.15047961,0.02254566,2.0,42,0.021100221,1.6087758e-07,0,-6.180447558517068e-08,2.0
199,199,18.021912,124481.26,54967.504,136077.22,-23.824936,135.04774732110673,0.022124773,-5.789323e-07,0.16066204,0.026215278,2.0,42,0.021085685,1.5495382e-07,0,-6.242347704763635e-08,2.0
200,200,15.604198,129005.34,59036.453,141872.06,-24.590157,135.9460267770919,0.02202131,-1.0199986e-07,0.17276606,0.029916113,2.0,43,0.021089384,1.4865071e-07,0,-6.171666051870714e-08,2.0
201,201,13.500899,133531.05,63805.14,147992.02,-25.53987,136.69399830594193,0.022036105,-1.31173e-07,0.18475737,0.034342866,2.0,43,0.021099577,1.425724e-07,0,-6.177580324540778e-08,2.0
202,202,11.686608,138027.17,68417.016,154053.2,-26.366596,137.28486945401528,0.022043204,-1.8254465e-07,0.19905245,0.039260365,2.0,43,0.021045713,1.3661328e-07,0,-6.189720534812912e-08,2.0
203,203,10.113269,143559.9,74013.09,161515.89,-27.273617,137.9585064459534,0.021989787,-1.3637847e-07,0.2126278,0.044648476,2.0,43,0.02109464,1.3060412e-07,0,-6.153403462301634e-08,2.0
204,204,8.748621,149267.89,79527.8,169131.83,-28.048052,138.72537053577253,0.022032341,-8.913314e-08,0.22875024,0.0505765,2.0,43,0.021103183,1.2477358e-07,0,-6.071147334630883e-08,2.0
205,205,7.570237,154996.0,85519.1,177023.38,-28.887735,139.60000460396986,0.022025093,-6.247442e-08,0.24583714,0.057373658,2.0,43,0.021093452,1.1915631e-07,0,-6.18604455475281e-08,2.0
206,206,6.554112,161029.94,92216.63,185565.48,-29.79837,140.1363281227823,0.022021068,-1.9165216e-07,0.263328,0.06503111,2.0,43,0.021117127,1.13798784e-07,0,-6.10653242615875e-08,2.0
207,207,5.669445,167684.61,97986.39,194214.98,-30.299852,140.74614287170698,0.022022076,-8.047115e-10,0.28649285,0.072925575,2.0,43,0.021085737,1.08569054e-07,0,-6.192484554714521e-08,2.0
208,208,4.907347,174174.77,105640.28,203707.44,-31.2376,141.43855343796895,0.022050228,-4.4475584e-08,0.30700383,0.08256369,2.0,43,0.021088572,1.03523824e-07,0,-6.055884297577899e-08,2.0
209,209,4.245922,181180.58,113698.34,213901.19,-32.109978,142.22630654202658,0.022043427,-2.2461498e-07,0.32968104,0.0931485,2.0,43,0.021096535,9.862748e-08,0,-6.225970714184944e-08,2.0
210,210,3.6747382,188413.55,122609.74,224795.05,-33.053986,143.12596375812427,0.022067042,7.556823e-09,0.3532391,0.10508609,2.0,43,0.021109926,9.390743e-08,0,-6.169329300478784e-08,2.0
211,211,3.180988,195192.0,131688.88,235460.98,-34.006096,144.15417348695337,0.022007803,-4.2538908e-08,0.37993473,0.11884181,2.0,43,0.02108983,8.956825e-08,0,-6.028504561115266e-08,2.0
212,212,2.752818,202561.83,142584.53,247712.83,-35.141953,145.33311215628055,0.022024672,-1.7568406e-07,0.40548068,0.13434392,2.0,43,0.021081187,8.510333e-08,0,-6.151021529342612e-08,2.0
213,213,2.3804083,210006.03,154266.66,260577.69,-36.300335,146.68802440731088,0.02202309,-1.2549569e-07,0.43340766,0.15190297,2.0,43,0.021085339,8.0917665e-08,0,-6.299992477062864e-08,2.0
214,214,2.060257,217593.61,168756.47,275364.72,-37.795654,148.24438301453483,0.02202848,-2.9973435e-08,0.4577605,0.17192641,2.0,43,0.021094577,7.660596e-08,0,-6.212136760019563e-08,2.0
