True,index,freq,Re(Z),Im(Z),Z,Phase(Z),time,Ewe_meas,I_meas,Cs,Cp,cycle_number,I_Range,Ewe,I,Ns,(QQo),cycle
0,0,7000018.5,187.69623,1421.8483,1434.1835,-82.47994,2.466496250446653,0.031608887,2.4422165e-05,1.5990709e-05,1.5716823e-05,1.0,40,0.010139798,7.070084e-06,0,3.3496984670035897e-09,1.0
1,1,6057573.0,308.09805,1634.8364,1663.6149,-79.327324,3.0184858767024707,0.031666905,-1.8487575e-06,1.6071159e-05,1.5519947e-05,1.0,40,0.014283377,8.585747e-06,0,4.487000911347473e-09,1.0
2,2,5242039.0,311.05472,1845.1198,1871.1553,-80.430916,3.4345009364478756,0.03171345,-1.6342334e-05,1.6454904e-05,1.6000176e-05,1.0,40,0.019686226,1.0520894e-05,0,3.53369599193027e-09,1.0
3,3,4536288.0,282.69208,2114.2075,2133.0232,-82.38412,4.802486014756141,0.03168101,-1.5356249e-05,1.6594797e-05,1.6303316e-05,1.0,40,0.019152317,8.978954e-06,0,2.875628810102171e-09,1.0
4,4,3925558.5,369.90094,2404.5369,2432.8223,-81.254486,5.21848720786511,0.03164624,4.5515144e-06,1.6861151e-05,1.6471357e-05,1.0,40,0.018291045,7.518447e-06,0,2.520377292556633e-09,1.0
5,5,3397055.0,444.39417,2695.3525,2731.7415,-80.63763,5.634482214256423,0.03166478,-1.4370161e-05,1.7382088e-05,1.6922088e-05,1.0,40,0.019222109,7.036577e-06,0,7.074309750249894e-10,1.0
6,6,2939708.2,476.89362,3081.6438,3118.326,-81.20309,6.050503194011981,0.031640783,1.66769e-06,1.756845e-05,1.7157552e-05,1.0,40,0.021011544,6.7380847e-06,0,7.638369380755547e-11,1.0
7,7,2543924.5,550.7069,3553.7747,3596.1914,-81.191284,6.602492260251893,0.03164408,-1.6677224e-05,1.7604594e-05,1.7191755e-05,1.0,40,0.020732448,5.7651123e-06,0,-5.487603963741902e-09,1.0
8,8,2201436.2,634.85895,4068.7266,4117.9585,-81.13143,7.154493299807655,0.031627834,-4.5651177e-06,1.7768694e-05,1.7346369e-05,1.0,40,0.020675462,5.020804e-06,0,-9.478119632161805e-09,1.0
9,9,1905053.1,730.0393,4668.987,4725.7163,-81.11323,7.7064795393671375,0.031596404,-9.184623e-07,1.7893297e-05,1.7466278e-05,1.0,40,0.020340316,4.3041764e-06,0,-1.0169323844706924e-08,1.0
10,10,1648567.4,645.1231,5567.2056,5604.459,-83.39009,8.425494000170147,0.031653956,-4.967109e-06,1.734108e-05,1.7111312e-05,1.0,41,0.019016188,3.3930462e-06,0,-6.821107727020603e-09,1.0
11,11,1426616.2,857.7799,6336.343,6394.14,-82.290474,8.84148615328013,0.03166333,-2.028574e-06,1.7606551e-05,1.7289696e-05,1.0,41,0.021906719,3.4260618e-06,0,-6.995413744604662e-09,1.0
12,12,1234551.2,1077.8632,7261.281,7340.8438,-81.55668,9.393488152796635,0.031659916,-4.0844207e-06,1.7754064e-05,1.7371298e-05,1.0,41,0.02097278,2.8569987e-06,0,-8.13341010025523e-09,1.0
13,13,1068345.5,1343.4585,8390.199,8497.077,-80.902885,9.945483485673321,0.03165636,-1.9466388e-06,1.7755632e-05,1.7311773e-05,1.0,41,0.020824172,2.4507453e-06,0,-9.087616940029699e-09,1.0
14,14,924510.06,1890.2903,9391.019,9579.375,-78.61918,10.497494578565238,0.031617045,2.3009925e-06,1.8331406e-05,1.7617604e-05,1.0,41,0.020170212,2.1055876e-06,0,-8.638450629124211e-09,1.0
15,15,800039.0,2154.536,10935.807,11146.025,-78.85452,11.049479618115583,0.031596627,2.2116078e-06,1.8191065e-05,1.7511355e-05,1.0,41,0.020635955,1.8514183e-06,0,-9.246169087952518e-09,1.0
16,16,692334.1,2757.3655,12551.261,12850.572,-77.60962,11.60148457766627,0.031682424,-2.1905844e-06,1.8315428e-05,1.7472168e-05,1.0,41,0.020342287,1.5829868e-06,0,-9.3141369357852e-09,1.0
17,17,599122.25,3359.6382,14231.462,14622.643,-76.7173,12.153497643914307,0.031626083,1.435079e-06,1.8666167e-05,1.7680823e-05,1.0,41,0.020649888,1.4121857e-06,0,-8.512280586646486e-09,1.0
18,18,518454.94,4312.8843,16179.899,16744.854,-75.07439,12.705487110099057,0.031668395,-2.1328567e-06,1.8972882e-05,1.7714228e-05,1.0,41,0.020602679,1.2303888e-06,0,-9.053883045102869e-09,1.0
19,19,448662.03,5375.269,18083.873,18865.842,-73.44589,13.257498042978114,0.03161144,2.41831e-06,1.961595e-05,1.8023531e-05,1.0,41,0.020181434,1.0697341e-06,0,-9.705963312384824e-09,1.0
20,20,388258.97,6963.8564,20539.367,21687.805,-71.27081,13.809486255893717,0.031611048,1.6678522e-06,1.995775e-05,1.7900062e-05,1.0,41,0.020907415,9.640171e-07,0,-9.260958711372583e-09,1.0
21,21,335983.9,8706.015,22586.232,24206.045,-68.92051,14.361501242121449,0.031645328,-7.7532803e-07,2.097287e-05,1.8259872e-05,1.0,41,0.020359367,8.410861e-07,0,-9.647960370229055e-09,1.0
22,22,290751.2,10880.492,25472.703,27699.164,-66.870575,14.913485748314997,0.031562604,5.038396e-06,2.1489366e-05,1.8173574e-05,1.0,41,0.020548252,7.418366e-07,0,-8.823556930653669e-09,1.0
23,23,251605.19,13140.977,28004.08,30934.023,-64.86158,15.465503427869407,0.031613618,-1.7678695e-06,2.2588076e-05,1.8511817e-05,1.0,41,0.020363599,6.582913e-07,0,-9.184993094821595e-09,1.0
24,24,217729.38,16210.895,30543.219,34578.625,-62.042755,16.017496920743724,0.03162506,-1.3846265e-07,2.3932515e-05,1.8672501e-05,1.0,41,0.020220142,5.847584e-07,0,-9.214623510584058e-09,1.0
25,25,188418.58,19243.088,32976.152,38180.14,-59.734493,16.569487800326897,0.031643763,-6.449752e-07,2.561512e-05,1.9108269e-05,1.0,41,0.02073413,5.430606e-07,0,-9.702175031422812e-09,1.0
26,26,163051.14,23509.332,35051.77,42205.63,-56.150116,17.12150081319851,0.03162139,1.7199919e-06,2.7847509e-05,1.9207264e-05,1.0,41,0.020262113,4.800808e-07,0,-9.824254853147826e-09,1.0
27,27,141098.2,27910.533,36519.3,45963.652,-52.610477,17.67448387944023,0.03160818,2.8689562e-06,3.0887033e-05,1.9498088e-05,1.0,41,0.020198192,4.3943837e-07,0,-9.94775806813032e-09,1.0
28,28,122105.11,32437.814,37784.55,49798.434,-49.354103,18.090501952538034,0.031584572,1.9713866e-06,3.4496265e-05,1.985954e-05,1.0,41,0.021929419,4.403636e-07,0,-1.0091467229847872e-08,1.0
29,29,105663.59,36747.688,42477.74,56167.168,-49.136765,18.809496226691408,0.031611774,-7.6406843e-07,3.545956e-05,2.028108e-05,1.0,42,0.019008603,3.384291e-07,0,-1.1165029177036089e-08,1.0
30,30,91439.65,42359.113,43628.438,60809.004,-45.845722,19.22648637983366,0.031591725,-3.40347e-07,3.9894767e-05,2.053617e-05,1.0,42,0.02006674,3.299962e-07,0,-1.1190088226152911e-08,1.0
31,31,79127.08,48735.223,44159.113,65765.87,-42.179806,19.642487919627456,0.031667296,-9.66337e-07,4.554856e-05,2.0535925e-05,1.0,42,0.021061929,3.2025625e-07,0,-1.1225115644718855e-08,1.0
32,32,68475.36,53991.273,44144.22,69740.734,-39.27004,20.05848903270089,0.031622227,-2.971365e-07,5.265165e-05,2.1095344e-05,1.0,42,0.021844259,3.1322094e-07,0,-1.1250993152202954e-08,1.0
33,33,59252.523,58949.23,43553.035,73293.1,-36.457832,20.610495538945543,0.031605195,-3.5282562e-07,6.167297e-05,2.1777374e-05,1.0,42,0.020256056,2.7637057e-07,0,-1.133791185199483e-08,1.0
34,34,51282.285,65122.145,43503.26,78316.2,-33.74394,21.026492838660488,0.03159525,-7.978137e-08,7.1339644e-05,2.20126e-05,1.0,42,0.020863788,2.664045e-07,0,-1.137139632396648e-08,1.0
35,35,44369.8,70730.54,40666.16,81587.66,-29.896526,21.44248949844041,0.03165336,-1.0160659e-06,8.820627e-05,2.191376e-05,1.0,42,0.021243496,2.6037634e-07,0,-1.1477219819236254e-08,1.0
36,36,38403.727,75365.79,38242.55,84513.28,-26.904415,21.85850245153415,0.03161753,-8.121206e-07,0.00010836771,2.2189304e-05,1.0,42,0.021565234,2.5516977e-07,0,-1.1557372955993585e-08,1.0
37,37,33226.32,79245.41,35942.816,87015.63,-24.397306,22.274481164611643,0.031678885,-9.05991e-07,0.00013326797,2.2738166e-05,1.0,42,0.021751665,2.4997422e-07,0,-1.166019570892174e-08,1.0
38,38,28754.086,83127.65,33610.24,89665.234,-22.01451,22.690504251018865,0.03159996,-5.245484e-07,0.00016468308,2.3138968e-05,1.0,42,0.021925576,2.4452706e-07,0,-1.1764449892945623e-08,1.0
39,39,24884.947,86824.22,31151.625,92243.53,-19.737457,23.106495070824167,0.03162062,-5.524857e-07,0.00020530651,2.3414897e-05,1.0,42,0.02203119,2.3883723e-07,0,-1.1897402160290597e-08,1.0
40,40,21553.963,89008.67,28118.14,93344.38,-17.531502,23.52349103728193,0.031595808,-3.1743642e-07,0.00026260706,2.3828858e-05,1.0,42,0.021995598,2.3563922e-07,0,-1.2047334319918902e-08,1.0
41,41,18631.234,91213.88,25616.46,94742.68,-15.686839,23.93949671034352,0.03162694,-6.1581073e-07,0.00033347198,2.4378462e-05,1.0,42,0.021919057,2.3135357e-07,0,-1.201321429750377e-08,1.0
42,42,16126.037,93270.95,22734.64,96001.74,-13.698628,24.355485316802515,0.03162217,-4.1186553e-07,0.00043411457,2.4345703e-05,1.0,42,0.021727214,2.2632103e-07,0,-1.2206454518536993e-08,1.0
43,43,13954.87,94539.52,21286.969,96906.43,-12.689369,24.771480536583113,0.031582188,-9.9894635e-08,0.00053577265,2.5852527e-05,1.0,42,0.021475775,2.2161352e-07,0,-1.2226496916160192e-08,1.0
44,44,12080.609,94454.5,18671.139,96282.21,-11.181696,25.18747895632987,0.03162994,-6.880758e-07,0.00070560304,2.6534442e-05,1.0,42,0.021004898,2.181597e-07,0,-1.234410012847631e-08,1.0
45,45,10447.592,97451.12,16556.826,98847.6,-9.642408,25.60350356271374,0.031593326,-3.4518737e-07,0.0009200826,2.581361e-05,1.0,42,0.020709062,2.0950495e-07,0,-1.2463980142383739e-08,1.0
46,46,9045.586,97863.73,15006.539,99007.6,-8.717896,26.1762590566359,0.031583343,-5.7278606e-07,0.0011724731,2.6935613e-05,1.0,42,0.02033127,2.0535059e-07,0,-1.278095787810364e-08,1.0
47,47,7827.7437,98731.63,13007.874,99584.836,-7.505481,26.655944572761655,0.031600017,-4.7705254e-07,0.0015630656,2.6668797e-05,1.0,42,0.020429129,2.0514297e-07,0,-1.287156103173483e-08,1.0
48,48,6770.8345,98956.41,11775.596,99654.58,-6.786161,27.19442163829808,0.03167488,-4.802182e-07,0.0019961586,2.7871884e-05,1.0,42,0.020481355,2.0552348e-07,0,-1.3049550093169918e-08,1.0
49,49,5860.798,99351.7,10972.425,99955.766,-6.302219,27.800958760490175,0.031688686,-7.9796223e-07,0.0024749178,2.9822928e-05,1.0,42,0.020589463,2.0598576e-07,0,-1.321169473943303e-08,1.0
50,50,5071.625,99832.73,9725.636,100305.34,-5.5641575,28.48167551282677,0.03166875,-4.113047e-07,0.0032266732,3.033492e-05,1.0,42,0.020686395,2.0623423e-07,0,-1.3405109196631502e-08,1.0
51,51,4388.5933,99947.37,9020.211,100353.58,-5.156951,29.16183757179533,0.031629436,-3.6045807e-07,0.004020482,3.2482225e-05,1.0,42,0.020712081,2.0639106e-07,0,-1.3333964961800454e-08,1.0
52,52,3798.7827,100151.21,8700.616,100528.43,-4.9650936,29.84183211076015,0.03164231,-4.3346805e-07,0.0048153256,3.6070145e-05,1.0,42,0.020778505,2.0669283e-07,0,-1.3398675478247382e-08,1.0
53,53,3286.0488,100650.2,8419.228,101001.72,-4.781568,30.521686729727662,0.031642422,-4.7556082e-07,0.005752729,3.9972456e-05,1.0,42,0.020840123,2.0633435e-07,0,-1.3540391501134854e-08,1.0
54,54,2844.088,100782.35,8103.5796,101107.62,-4.5970764,31.201826735356008,0.031616393,-3.6176124e-07,0.006905581,4.435946e-05,1.0,42,0.020853236,2.0624793e-07,0,-1.343845252455046e-08,1.0
55,55,2460.7852,101034.04,7801.012,101334.76,-4.415146,31.881685754320642,0.03162012,-3.6101616e-07,0.008290782,4.9133818e-05,1.0,42,0.020875856,2.0600885e-07,0,-1.353706581289608e-08,1.0
56,56,2129.3164,101382.9,8023.3687,101699.88,-4.524915,32.56083770656551,0.031615276,-5.299461e-07,0.009315865,5.7982343e-05,1.0,42,0.02090547,2.0556041e-07,0,-1.3687374102428497e-08,1.0
57,57,1843.2289,101551.02,8120.7793,101875.2,-4.5720696,33.24094344553305,0.031578645,-2.9880826e-07,0.01063269,6.756186e-05,1.0,42,0.020884119,2.0499708e-07,0,-1.3668144748919481e-08,1.0
58,58,1594.4913,101935.26,8206.304,102265.05,-4.6026735,33.920806411173544,0.031625226,-4.0497147e-07,0.01216327,7.8323326e-05,1.0,42,0.020885339,2.0422755e-07,0,-1.3618949344573898e-08,1.0
59,59,1380.4436,102430.48,8497.504,102782.34,-4.7423267,34.60071809680085,0.03161535,-4.7835437e-07,0.013567821,9.273759e-05,1.0,42,0.020900555,2.0334772e-07,0,-1.3515256531867642e-08,1.0
60,60,1194.6187,102981.734,8632.077,103342.875,-4.7914143,35.28084466242581,0.03162411,-5.237997e-07,0.015433895,0.000107682485,1.0,42,0.020905292,2.022906e-07,0,-1.3689046633682534e-08,1.0
61,61,1033.3434,103353.734,9186.806,103761.23,-5.0795016,35.96109992140555,0.03162759,-4.3011525e-07,0.016765285,0.00013142252,1.0,42,0.020900942,2.0143307e-07,0,-1.3866941108989808e-08,1.0
62,62,894.71045,104115.016,9550.908,104552.17,-5.2413135,36.640811447025044,0.031620286,-4.923234e-07,0.018624857,0.00015542332,1.0,42,0.020910053,1.9999635e-07,0,-1.3934672030728883e-08,1.0
63,63,774.2569,104485.99,10423.833,105004.664,-5.697146,37.320933879324,0.031614047,-4.5316675e-09,0.019720033,0.00019433246,1.0,42,0.020899616,1.9903513e-07,0,-1.3794395563681573e-08,1.0
64,64,669.7856,105665.195,10793.556,106215.04,-5.832456,38.00084545828577,0.031590104,-3.8467033e-07,0.022015058,0.00022734053,1.0,42,0.020955434,1.9729254e-07,0,-1.3916407490452433e-08,1.0
65,65,579.81464,106283.875,11490.971,106903.25,-6.1706133,38.68081130391511,0.031605195,-3.8224883e-07,0.023887696,0.00027599794,1.0,42,0.020938458,1.9586362e-07,0,-1.415433334619815e-08,1.0
66,66,501.44418,106802.21,11640.051,107434.65,-6.219944,39.358201149414526,0.03162668,-3.6306514e-07,0.027267333,0.00032008378,1.0,42,0.020896168,1.945012e-07,0,-1.4319440404168215e-08,1.0
67,67,434.02762,107486.57,12934.965,108262.07,-6.8619933,40.038232728344155,0.031648666,-4.569357e-07,0.028348984,0.00040468338,1.0,42,0.020933485,1.9335936e-07,0,-1.4239451508177009e-08,1.0
68,68,375.6009,108887.4,13596.269,109732.97,-7.1174226,40.71745724059292,0.031614456,-3.014161e-07,0.031165479,0.00047845268,1.0,42,0.02095197,1.9093596e-07,0,-1.4169363457203963e-08,1.0
69,69,325.10385,109824.51,14880.293,110828.0,-7.7161055,41.396676019590814,0.031583287,-4.0459926e-07,0.03289929,0.0005930762,1.0,42,0.020959057,1.8911338e-07,0,-1.4113377455330935e-08,1.0
70,70,281.3503,110865.92,15835.693,111991.17,-8.12894,42.07381487841485,0.03162556,-6.668411e-07,0.03572199,0.0007142368,1.0,42,0.020955788,1.8712e-07,0,-1.3989075964591041e-08,1.0
71,71,243.36427,112182.21,16929.38,113452.42,-8.581732,42.75710901748971,0.031633534,-5.0368527e-07,0.03862978,0.00086015527,1.0,42,0.02099493,1.8505493e-07,0,-1.4252339022094477e-08,1.0
72,72,210.60631,113153.09,18097.994,114591.27,-9.087068,43.43416331635672,0.031601433,-4.9604887e-07,0.04175595,0.0010415404,1.0,42,0.020949528,1.8281958e-07,0,-1.4506131745647583e-08,1.0
73,73,182.27473,114140.75,19229.777,115749.27,-9.563061,44.10628761493717,0.03160527,-5.137428e-07,0.04540664,0.0012532317,1.0,42,0.020918293,1.8072073e-07,0,-1.4419110668933459e-08,1.0
74,74,157.72879,115650.11,21317.723,117598.44,-10.444066,44.79465292765599,0.031668153,-5.3888687e-07,0.04733347,0.0015554171,1.0,42,0.020937463,1.7804201e-07,0,-1.4669930278218205e-08,1.0
75,75,136.52892,116794.86,22328.037,118909.97,-10.822825,45.46652541283402,0.0316403,-4.2285245e-07,0.05220895,0.0018408123,1.0,42,0.020892054,1.756964e-07,0,-1.4524101396503298e-08,1.0
76,76,118.14758,118600.12,23887.395,120981.8,-11.387658,46.15489485891885,0.031628057,-3.2134574e-07,0.056393173,0.0021984875,1.0,42,0.020910077,1.7283655e-07,0,-1.4650702752496691e-08,1.0
77,77,102.25773,120379.33,25965.846,123147.91,-12.172221,46.82135771718458,0.031631894,-3.0178924e-07,0.05994066,0.0026648478,1.0,42,0.020937728,1.7002098e-07,0,-1.4661936671790362e-08,1.0
78,78,88.4436,122227.836,28268.387,125454.16,-13.022191,47.51129916330683,0.031586397,-3.0830833e-07,0.063657954,0.0032320987,1.0,42,0.02094601,1.6696146e-07,0,-1.4747453026949822e-08,1.0
79,79,76.54279,124365.46,30416.854,128031.06,-13.743401,48.1787181550535,0.031622972,-3.2749247e-07,0.06835992,0.0038583304,1.0,42,0.020953288,1.6365784e-07,0,-1.4806195100839383e-08,1.0
80,80,66.250786,126314.64,32468.166,130420.74,-14.415352,48.846983013441786,0.03159525,-3.660466e-07,0.07398971,0.004585572,1.0,42,0.020932706,1.6050136e-07,0,-1.4859530530054658e-08,1.0
81,81,57.329906,128756.164,35374.816,133527.25,-15.362545,49.50164373789448,0.031616263,-4.466935e-07,0.07847742,0.005507992,1.0,42,0.020941744,1.5683497e-07,0,-1.5045857946082917e-08,1.0
82,82,49.60321,131272.19,38186.027,136713.42,-16.21929,50.186379157035844,0.031641025,-4.3738117e-07,0.08402448,0.0065552993,1.0,42,0.020952174,1.5325617e-07,0,-1.524664059436187e-08,1.0
83,83,42.92585,134103.02,41142.902,140272.44,-17.056051,50.894409990665736,0.03162681,-5.111368e-07,0.09011692,0.0077526732,1.0,42,0.0209458,1.4932229e-07,0,-1.520873574167868e-08,1.0
84,84,37.1518,136797.34,44656.613,143901.8,-18.07894,51.53818180793314,0.031601377,-2.2263391e-07,0.09593002,0.009238334,1.0,42,0.020936795,1.4549363e-07,0,-1.514940923996407e-08,1.0
85,85,32.150223,140205.88,48210.125,148262.95,-18.975655,52.17638773153885,0.031614736,-4.556344e-07,0.10268284,0.010856981,1.0,42,0.020962322,1.4138611e-07,0,-1.5508705141605974e-08,1.0
86,86,27.835518,143687.39,52493.395,152975.89,-20.068792,52.90330915272352,0.03162201,-4.9353645e-07,0.10892214,0.012825653,1.0,42,0.020959536,1.3701202e-07,0,-1.544450474379418e-08,1.0
87,87,24.082958,148821.31,55467.39,158821.95,-20.440996,53.605360466084676,0.03161928,-5.9997905e-07,0.11914411,0.014532053,1.0,42,0.021106087,1.328915e-07,0,-1.571336185688516e-08,1.0
88,88,20.833313,151627.7,60048.875,163085.34,-21.60497,54.50375368213281,0.031662844,-5.7256483e-07,0.12722045,0.017247923,1.0,43,0.020928845,1.2833063e-07,0,-1.6327694022371157e-08,1.0
89,89,18.021912,156147.45,64685.617,169015.55,-22.502264,55.249750704242615,0.03167844,-5.482437e-07,0.1365248,0.019997407,1.0,43,0.020931022,1.238408e-07,0,-1.5917577691268904e-08,1.0
90,90,15.604198,161134.33,70037.29,175697.17,-23.49225,55.904997348668985,0.03160624,-5.027666e-07,0.1456295,0.023140805,1.0,43,0.020968845,1.1934651e-07,0,-1.614904575677567e-08,1.0
91,91,13.500899,165978.19,75685.305,182419.9,-24.512772,56.65300818422111,0.03163958,-5.16892e-07,0.15575638,0.026811711,1.0,43,0.020934144,1.14758e-07,0,-1.637258742135502e-08,1.0
92,92,11.686608,171963.28,81519.625,190307.17,-25.363409,57.24389573227381,0.031657662,-4.927102e-07,0.16705884,0.030653743,1.0,43,0.020966133,1.1016996e-07,0,-1.6214396413991237e-08,1.0
93,93,10.113269,177138.95,87908.88,197752.83,-26.39386,57.9175367775897,0.031614922,-4.7116356e-07,0.17901763,0.035376586,1.0,43,0.020895002,1.0566222e-07,0,-1.5882795920425075e-08,1.0
94,94,8.748621,183689.08,95287.8,206933.42,-27.417803,58.68436780068441,0.031670798,-4.860154e-07,0.1909164,0.040481493,1.0,43,0.02093693,1.01177136e-07,0,-1.6498943702054427e-08,1.0
95,95,7.570237,190440.14,102465.42,216255.89,-28.282263,59.55902792222332,0.031635437,-5.394912e-07,0.20517918,0.046062984,1.0,43,0.02092213,9.67471e-08,0,-1.69658535272997e-08,1.0
96,96,6.554112,198158.47,110197.16,226738.16,-29.078707,60.095303307665745,0.03172181,-2.759584e-07,0.22036159,0.052050807,1.0,43,0.020964092,9.245948e-08,0,-1.6144375147277304e-08,1.0
97,97,5.669445,205540.06,118537.01,237271.45,-29.972479,60.7051405099628,0.031648535,-7.098349e-07,0.23682396,0.059107497,1.0,43,0.02092564,8.819282e-08,0,-1.7238563956950338e-08,1.0
98,98,4.907347,213243.34,127640.516,248525.3,-30.903364,61.39755771620548,0.031596813,-3.6186614e-07,0.25408837,0.06702251,1.0,43,0.0209155,8.415844e-08,0,-1.670334909216178e-08,1.0
99,99,4.245922,221479.42,137611.58,260749.08,-31.853882,62.185299300268525,0.031622328,-5.643157e-07,0.27239123,0.0758678,1.0,43,0.020931164,8.02732e-08,0,-1.6430682230390323e-08,1.0
100,100,3.6747382,229737.16,148439.45,273520.44,-32.867607,63.08493670303142,0.031644117,-6.040851e-07,0.2917725,0.0859337,1.0,43,0.020935068,7.6539315e-08,0,-1.7946054571054186e-08,1.0
101,101,3.180988,239011.81,160344.11,287813.97,-33.856186,64.11322061854298,0.031639077,-4.1785617e-07,0.31203625,0.096847266,1.0,43,0.020947687,7.2782036e-08,0,-1.7368385278200925e-08,1.0
102,102,2.752818,247307.77,173759.17,302247.22,-35.09199,65.2921607811877,0.031642742,-4.863465e-07,0.33273223,0.10996784,1.0,43,0.020949572,6.9312705e-08,0,-1.633496157316383e-08,1.0
103,103,2.3804083,256255.16,189498.12,318710.28,-36.482555,66.6469838055782,0.031639494,-5.6229715e-07,0.35282856,0.12473302,1.0,43,0.020940145,6.5702764e-08,0,-1.734935141840774e-08,1.0
104,104,2.060257,265002.1,205937.64,335613.5,-37.851387,68.20336057277746,0.03161512,-5.3489714e-07,0.3751138,0.14123933,1.0,43,0.020934233,6.237602e-08,0,-1.8997797431578256e-08,1.0
105,105,1.7836765,274919.94,226120.44,355965.47,-39.437145,69.99169871111371,0.031627484,-4.9901195e-07,0.3946065,0.15923119,1.0,43,0.020928927,5.879482e-08,0,-1.906390187472488e-08,1.0
