True,index,freq,Re(Z),Im(Z),Z,Phase(Z),time,Ewe_meas,I_meas,Cs,Cp,cycle_number,I_Range,Ewe,I,Ns,(QQo),cycle
0,0,7000018.5,729.89655,1497.2698,1665.7028,-64.01146,2.4654953970748466,-0.025536703,-1.9430709e-05,1.5185213e-05,1.22694755e-05,1.0,40,0.009970481,5.9857502e-06,0,4.0666373751668695e-09,1.0
1,1,6057573.0,837.32776,1445.9645,1670.9072,-59.925766,3.01749624995864,-0.025477994,-5.0408795e-05,1.8170374e-05,1.3607378e-05,1.0,40,0.014045101,8.405674e-06,0,7.039247542542802e-10,1.0
2,2,5242039.0,861.8564,1789.7673,1986.4701,-64.28702,3.4334881363611203,-0.025505122,-4.7004007e-05,1.6963806e-05,1.3770586e-05,1.0,40,0.019473825,9.803231e-06,0,-2.5129758888498246e-09,1.0
3,3,4536288.0,1099.1439,2049.286,2325.444,-61.79291,4.801502068032278,-0.025608696,2.1277769e-05,1.7120521e-05,1.3295671e-05,1.0,40,0.01888094,8.119283e-06,0,-2.2015349486537162e-10,1.0
4,4,3925558.5,1313.3291,2153.3477,2522.2488,-58.620937,5.217485341097927,-0.02561203,1.2756514e-05,1.8828014e-05,1.372325e-05,1.0,40,0.018076325,7.166749e-06,0,1.4707726704727974e-09,1.0
5,5,3397055.0,1601.5237,2280.6938,2786.8337,-54.923126,5.6334940542292316,-0.025574766,-1.6640004e-05,2.0542371e-05,1.3758226e-05,1.0,40,0.019001469,6.8183003e-06,0,-7.229080878232707e-10,1.0
6,6,2939708.2,1864.3894,2510.3806,3126.9727,-53.39976,6.049489753990201,-0.025468435,-8.696837e-05,2.1566335e-05,1.389976e-05,1.0,40,0.020757398,6.6381767e-06,0,-7.287435772190697e-10,1.0
7,7,2543924.5,2187.8672,2629.0027,3420.295,-50.232628,6.601493006834062,-0.025551626,-3.0166104e-05,2.3797147e-05,1.4059822e-05,1.0,40,0.02073348,6.061898e-06,0,-3.1739906972426802e-09,1.0
8,8,2201436.2,2501.8691,2745.966,3714.792,-47.663128,7.153487433068221,-0.025650132,1.541708e-05,2.632806e-05,1.4386004e-05,1.0,40,0.020699374,5.572149e-06,0,-8.626168938805436e-09,1.0
9,9,1905053.1,2781.277,2762.3208,3919.9385,-44.804077,7.705501939315582,-0.02562727,9.519177e-06,3.0243978e-05,1.5018572e-05,1.0,40,0.020398661,5.2038217e-06,0,-8.695373257667586e-09,1.0
10,10,1648567.4,3297.545,2818.9163,4338.213,-40.525578,8.257479245512513,-0.02558399,-2.3672825e-05,3.424769e-05,1.4460186e-05,1.0,40,0.019829474,4.5708853e-06,0,-1.1964227701837003e-08,1.0
11,11,1426616.2,3702.3013,2734.4358,4602.627,-36.448734,8.809503378375666,-0.025672378,1.7891598e-05,4.0798597e-05,1.4400221e-05,1.0,40,0.02055319,4.465535e-06,0,-1.137332908787414e-08,1.0
12,12,1234551.2,4070.191,2604.2283,4832.0244,-32.612312,9.361502977932105,-0.025627308,3.056188e-05,4.950305e-05,1.4379103e-05,1.0,40,0.020512942,4.2452066e-06,0,-1.1450069647633793e-08,1.0
13,13,1068345.5,4337.784,2417.0132,4965.715,-29.126549,9.913494950829772,-0.025551738,-3.8929255e-05,6.1635285e-05,1.4602389e-05,1.0,40,0.020891896,4.2072284e-06,0,-9.940683802977585e-09,1.0
14,14,924510.06,4701.415,2256.4583,5214.8735,-25.638819,10.465494763717288,-0.025692351,5.1841203e-06,7.629239e-05,1.4283947e-05,1.0,40,0.020316353,3.895848e-06,0,-1.192494791528039e-08,1.0
15,15,800039.0,5064.1914,1983.3771,5438.7334,-21.387661,11.183491757808952,-0.025632283,-9.261748e-07,0.000100300625,1.3338859e-05,1.0,41,0.020135224,3.7021898e-06,0,-1.7841003500695113e-08,1.0
16,16,692334.1,5286.1235,2007.2325,5654.386,-20.792637,11.735493944055634,-0.025632357,-3.1908817e-07,0.000114526694,1.4432154e-05,1.0,41,0.020422192,3.6117435e-06,0,-1.801568196525791e-08,1.0
17,17,599122.25,5418.651,1798.5977,5709.3545,-18.36241,12.287502343620872,-0.025706436,5.5933333e-06,0.00014769666,1.4657662e-05,1.0,41,0.020661687,3.6189183e-06,0,-1.8194365775591513e-08,1.0
18,18,518454.94,5535.371,1576.6332,5755.5283,-15.898479,12.83948087648605,-0.02554218,-9.5946025e-06,0.0001947056,1.4610645e-05,1.0,41,0.020112136,3.4944032e-06,0,-1.912287295416901e-08,1.0
19,19,448662.03,5719.1826,1410.322,5890.506,-13.852482,13.39148743604892,-0.025658367,4.0123437e-06,0.00025152578,1.4418295e-05,1.0,41,0.020367192,3.4576303e-06,0,-1.8949149571374354e-08,1.0
20,20,388258.97,5981.8184,1294.4032,6120.264,-12.209958,13.943480102258036,-0.025676366,8.083073e-06,0.00031668614,1.4165369e-05,1.0,41,0.02024696,3.308184e-06,0,-1.766855780545187e-08,1.0
21,21,335983.9,5756.019,1302.3141,5901.5063,-12.748674,14.359488282032544,-0.02572002,7.377312e-06,0.00036373566,1.7712979e-05,1.0,41,0.0217923,3.6926674e-06,0,-1.7231900600019716e-08,1.0
22,22,290751.2,5957.646,923.78516,6028.8413,-8.81402,14.91150337489671,-0.025567053,-1.1142247e-06,0.0005925536,1.3912395e-05,1.0,41,0.02086012,3.4600546e-06,0,-1.7511040712957677e-08,1.0
23,23,251605.19,5995.8423,855.65967,6056.59,-8.121775,15.46350046779844,-0.02555906,-4.4251788e-06,0.00073926384,1.4755206e-05,1.0,41,0.020204002,3.335871e-06,0,-1.8327276268304143e-08,1.0
24,24,217729.38,6020.7554,708.66797,6062.3184,-6.713064,15.879491634230362,-0.025779642,1.2988064e-05,0.0010314788,1.4095109e-05,1.0,41,0.021714315,3.58185e-06,0,-1.8523911510848104e-08,1.0
25,25,188418.58,6033.9863,608.71814,6064.613,-5.7606006,16.431498140416807,-0.025560811,-6.231488e-06,0.0013876507,1.3979978e-05,1.0,41,0.020424088,3.3677481e-06,0,-1.8185459100450886e-08,1.0
26,26,163051.14,6060.793,546.6193,6085.3926,-5.1535296,16.84748914683587,-0.025550826,-3.7417399e-06,0.0017857116,1.4408013e-05,1.0,41,0.02171292,3.5680393e-06,0,-1.651262678146755e-08,1.0
27,27,141098.2,6076.116,444.88028,6092.381,-4.1876025,17.399499546416337,-0.025491334,-6.607631e-06,0.0025354524,1.351972e-05,1.0,41,0.0202612,3.3256622e-06,0,-1.314687393738249e-08,1.0
28,28,122105.11,6097.9067,386.87766,6110.167,-3.630227,17.8154850594874,-0.025663752,4.006803e-06,0.0033690906,1.3506841e-05,1.0,41,0.02154918,3.5267742e-06,0,-1.4898547233859935e-08,1.0
29,29,105663.59,6043.819,334.70877,6053.08,-3.169822,18.367479379026918,-0.025643388,4.107361e-06,0.0045001567,1.3759702e-05,1.0,41,0.020277087,3.349879e-06,0,-1.481604877228272e-08,1.0
30,30,91439.65,6056.031,276.4013,6062.335,-2.6132042,18.783503398793982,-0.02560752,-8.925901e-07,0.006297171,1.3090186e-05,1.0,41,0.021573657,3.5586384e-06,0,-1.4834648642276547e-08,1.0
31,31,79127.08,6063.3667,206.31467,6066.876,-1.9488184,19.335503078385955,-0.025639847,4.0980503e-06,0.009749109,1.1274437e-05,1.0,41,0.020548979,3.3870774e-06,0,-2.0957217310184875e-08,1.0
32,32,68475.36,6054.071,196.27362,6057.2515,-1.8568848,19.75149357810733,-0.025604876,-1.5702506e-07,0.011841968,1.243359e-05,1.0,41,0.02189528,3.614722e-06,0,-1.9507370177571993e-08,1.0
33,33,59252.523,6025.8384,170.81973,6028.2593,-1.6237788,20.30350080432254,-0.025770027,1.2338203e-05,0.015724441,1.2626048e-05,1.0,41,0.020287678,3.365429e-06,0,-1.7453047412284187e-08,1.0
34,34,51282.285,6025.4834,160.95338,6027.633,-1.5301274,20.719495944067603,-0.02570394,1.0001171e-05,0.019282026,1.3748626e-05,1.0,41,0.021647958,3.5914527e-06,0,-1.9427981980535316e-08,1.0
35,35,44369.8,5986.74,160.54056,5988.8926,-1.5360767,21.27150117032579,-0.025625017,3.505884e-06,0.022343328,1.605552e-05,1.0,41,0.020300884,3.3897559e-06,0,-2.3317620958463988e-08,1.0
36,36,38403.727,6026.0127,156.22879,6028.0376,-1.4851023,21.687487643415807,-0.02558712,-2.9186178e-06,0.02652685,1.7817876e-05,1.0,41,0.02158763,3.5812038e-06,0,-2.0848701241992748e-08,1.0
37,37,33226.32,5991.6514,155.42714,5993.667,-1.4859546,22.239497749629663,-0.025607241,3.0645558e-06,0.030818466,2.0724283e-05,1.0,41,0.02032192,3.3905656e-06,0,-1.3024671803490959e-08,1.0
38,38,28754.086,5989.7983,139.36075,5991.4194,-1.3328232,22.655490462697344,-0.025447698,-1.2925965e-05,0.039717335,2.1488277e-05,1.0,41,0.021233639,3.544008e-06,0,-1.1856885630918e-08,1.0
39,39,24884.947,5985.9194,166.6461,5988.239,-1.5946844,23.2074837689579,-0.025657566,3.8280573e-06,0.03837852,2.972216e-05,1.0,41,0.020162359,3.366993e-06,0,-1.2920139146598014e-08,1.0
40,40,21553.963,5990.6655,187.73677,5993.6064,-1.79496,23.624494135408895,-0.025718529,1.0232098e-05,0.039331783,3.858921e-05,1.0,41,0.020716371,3.4564116e-06,0,-1.2839828419956235e-08,1.0
41,41,18631.234,5999.32,199.83679,6002.647,-1.9078119,24.0404852485226,-0.025639568,8.578938e-07,0.042746745,4.7377085e-05,1.0,41,0.021130353,3.5201726e-06,0,-1.5142835682614947e-08,1.0
42,42,16126.037,5970.908,249.26884,5976.109,-2.3905518,24.456481668254128,-0.02572166,7.1893023e-06,0.03959355,6.888481e-05,1.0,41,0.02125453,3.5565834e-06,0,-1.3554770366405301e-08,1.0
43,43,13954.87,5860.59,428.28717,5876.2183,-4.1796994,24.872502994694514,-0.025641786,6.796388e-06,0.026629271,0.00014145998,1.0,41,0.020970844,3.5687654e-06,0,-1.2546559041793001e-08,1.0
44,44,12080.609,5989.053,308.32828,5996.985,-2.947098,25.288488241116283,-0.025622912,-1.9297884e-06,0.04272853,0.000112948044,1.0,41,0.021127477,3.5230166e-06,0,-9.649692926057835e-09,1.0
45,45,10447.592,6027.8613,325.06448,6036.6196,-3.0867999,25.704499220853904,-0.025525356,-1.0695073e-05,0.046863467,0.00013588948,1.0,41,0.020858549,3.455336e-06,0,-7.080033162135162e-09,1.0
46,46,9045.586,6023.9595,392.52957,6036.735,-3.7282019,26.277245941426372,-0.025580542,-2.9316495e-06,0.04482404,0.0001895185,1.0,41,0.020319656,3.366001e-06,0,-5.4444455751413064e-09,1.0
47,47,7827.7437,6049.403,413.11438,6063.492,-3.9066696,26.757924604258733,-0.02573379,7.4481377e-06,0.049216785,0.00022845896,1.0,41,0.0204585,3.374046e-06,0,-5.926075685441863e-09,1.0
48,48,6770.8345,6054.304,439.781,6070.256,-4.1546335,27.296394709817832,-0.025684806,3.930484e-06,0.053449232,0.00028054364,1.0,41,0.020542955,3.384199e-06,0,-2.809188303471741e-09,1.0
49,49,5860.798,6100.8154,468.2069,6118.7554,-4.3885603,27.90297383198049,-0.025964152,2.765279e-05,0.057999674,0.00033960573,1.0,41,0.020656662,3.3759582e-06,0,-3.608069292226901e-12,1.0
50,50,5071.625,6098.4897,513.72546,6120.0894,-4.815122,28.583698504342465,-0.02566431,1.6958691e-06,0.061086036,0.00043041617,1.0,41,0.020645123,3.3733368e-06,0,3.231382396277935e-09,1.0
51,51,4388.5933,6031.607,559.32623,6057.4854,-5.2980313,29.263811016644468,-0.02561505,4.2399793e-07,0.064838,0.0005528092,1.0,41,0.020439705,3.3742888e-06,0,5.541575496847726e-10,1.0
52,52,3798.7827,6164.0747,697.12384,6203.37,-6.452429,29.943816488943412,-0.025696227,2.842968e-06,0.060098793,0.0007589798,1.0,41,0.020745605,3.3442475e-06,0,-1.0789596642821506e-09,1.0
53,53,3286.0488,6251.422,836.4108,6307.1274,-7.620648,30.62371734790213,-0.02555254,4.2213642e-07,0.057906386,0.0010183628,1.0,41,0.020883158,3.3110412e-06,0,-1.8310608189422182e-09,1.0
54,54,2844.088,6251.6626,884.03015,6313.8574,-8.048672,31.303801753529115,-0.025651827,2.558054e-06,0.06330092,0.001240951,1.0,41,0.020797513,3.2939472e-06,0,-1.2050521397557961e-09,1.0
55,55,2460.7852,6298.388,947.361,6369.2373,-8.553921,31.983716425835155,-0.0256906,2.5617774e-06,0.06827016,0.001510383,1.0,41,0.020809982,3.2672644e-06,0,-4.598863631828623e-09,1.0
56,56,2129.3164,6339.4507,1092.4807,6432.896,-9.777772,32.66380296480202,-0.025693022,5.32152e-06,0.06841733,0.0019732434,1.0,41,0.020775782,3.2296157e-06,0,-3.6479430451047772e-09,1.0
57,57,1843.2289,6408.6724,1307.713,6540.7334,-11.533082,33.34396734376787,-0.02560577,6.530336e-07,0.06602804,0.0026393707,1.0,41,0.020879729,3.1922611e-06,0,-5.995264891000021e-09,1.0
58,58,1594.4913,6434.5566,1335.3625,6571.6597,-11.72416,34.02384097606409,-0.02559187,3.699812e-07,0.07474786,0.0030863632,1.0,41,0.020721368,3.1531408e-06,0,-8.363569864212333e-09,1.0
59,59,1380.4436,6527.051,1511.9574,6699.8813,-13.042237,34.703702048362175,-0.02567983,2.8094332e-06,0.076253876,0.0038833523,1.0,41,0.020756846,3.0980916e-06,0,-9.472058879309329e-09,1.0
60,60,1194.6187,6631.8887,1652.2512,6834.609,-13.989717,35.38383034731669,-0.025616726,2.0422112e-06,0.080633365,0.004712372,1.0,41,0.020787453,3.0414985e-06,0,-9.870517688797678e-09,1.0
61,61,1033.3434,6741.934,1856.689,6992.923,-15.397243,36.06406624629744,-0.025649667,4.198615e-06,0.0829538,0.0058478625,1.0,41,0.02084151,2.9803716e-06,0,-1.0093918665513493e-08,1.0
62,62,894.71045,6781.6885,1991.3507,7068.0107,-16.36416,36.74381929192168,-0.025634294,9.546968e-07,0.08932847,0.0070907306,1.0,41,0.02065252,2.9219707e-06,0,-7.780017981946743e-09,1.0
63,63,774.2569,6881.5215,2050.1968,7180.435,-16.590258,37.42395287088584,-0.025672713,6.8095886e-07,0.10026273,0.008173896,1.0,41,0.020476244,2.8516718e-06,0,-8.273012337037736e-09,1.0
64,64,669.7856,7068.194,2441.848,7478.1006,-19.058487,38.10381044984388,-0.025561389,1.5431432e-06,0.097311854,0.010375771,1.0,41,0.020708257,2.7691867e-06,0,-7.990616451209576e-09,1.0
65,65,579.81464,7216.4365,2788.101,7736.308,-21.124252,38.78384050881141,-0.025712417,4.8801694e-06,0.098451525,0.012787097,1.0,41,0.020775108,2.6854034e-06,0,-5.5544613920691034e-09,1.0
66,66,501.44418,7361.086,3094.3591,7985.0264,-22.800287,39.46120550096384,-0.025604634,2.7237622e-06,0.102571525,0.015403363,1.0,41,0.020762412,2.6001683e-06,0,-2.9700200881895476e-09,1.0
67,67,434.02762,7557.635,3350.5288,8267.036,-23.909163,40.141201133228606,-0.025620097,1.1483611e-06,0.10944337,0.017976968,1.0,41,0.020728081,2.5073173e-06,0,-4.4183226436002894e-09,1.0
68,68,375.6009,7747.122,3734.742,8600.36,-25.73784,40.819435565470485,-0.025542403,-2.6523492e-06,0.11345743,0.02139542,1.0,41,0.020760257,2.4138822e-06,0,-7.347783028903463e-09,1.0
69,69,325.10385,7923.736,4079.7366,8912.342,-27.242825,41.498675971102784,-0.025650673,3.9341776e-06,0.11999576,0.0251447,1.0,41,0.020700663,2.3226962e-06,0,-4.709727619142099e-09,1.0
70,70,281.3503,8204.547,4487.3486,9351.518,-28.675768,42.175815496593714,-0.025580933,7.666083e-07,0.12606163,0.029026747,1.0,41,0.020749835,2.2188735e-06,0,-1.948686486585416e-09,1.0
71,71,243.36427,8466.561,4966.542,9815.762,-30.396175,42.859098622371675,-0.025687713,2.9043888e-06,0.13167678,0.033710826,1.0,41,0.020776529,2.1166497e-06,0,-3.6859267745781053e-09,1.0
72,72,210.60631,8697.024,5434.9346,10255.571,-32.00204,43.53618044118048,-0.025604708,6.995681e-07,0.1390447,0.03905021,1.0,41,0.020715186,2.0198959e-06,0,-5.585629275575006e-09,1.0
73,73,182.27473,8753.421,6228.0693,10742.962,-35.431896,44.20826796643087,-0.025602808,-1.7883078e-06,0.14019749,0.04711932,1.0,41,0.020730201,1.9296542e-06,0,-3.2586659195206694e-09,1.0
74,74,157.72879,9264.476,6723.56,11447.129,-35.96973,44.89663810583443,-0.02562159,5.3196675e-07,0.15007553,0.051774427,1.0,41,0.020853408,1.821715e-06,0,-5.701529820462447e-09,1.0
75,75,136.52892,9529.649,7259.512,11979.764,-37.299484,45.56852317767334,-0.025606738,3.2805403e-06,0.16057874,0.058966644,1.0,41,0.020750735,1.7321489e-06,0,-3.016489466800307e-09,1.0
76,76,118.14758,9828.31,8108.8003,12741.598,-39.524174,46.256902943743626,-0.025696004,9.77209e-06,0.16612642,0.06728281,1.0,41,0.020790853,1.6317305e-06,0,-2.857353742685278e-09,1.0
77,77,102.25773,10147.64,8876.774,13482.274,-41.178215,46.92333561539999,-0.025551235,-1.9093645e-06,0.17533508,0.07600687,1.0,41,0.020727605,1.5373968e-06,0,-1.9672125089442715e-09,1.0
78,78,88.4436,10441.025,9713.822,14260.903,-42.93362,47.61329831482726,-0.025560047,-1.9149559e-06,0.18525226,0.08595077,1.0,41,0.020662488,1.4488905e-06,0,-2.0815975863636517e-09,1.0
79,79,76.54279,10771.217,10848.013,15287.2,-45.203526,48.28073549323017,-0.025636047,2.0234094e-07,0.19167507,0.0965184,1.0,41,0.0207148,1.3550422e-06,0,-1.592750402679144e-09,1.0
80,80,66.250786,10991.544,12168.027,16397.406,-47.90807,48.948989258293295,-0.025537392,-7.2947955e-06,0.19742809,0.108717375,1.0,41,0.020706153,1.26277e-06,0,-2.110903295016126e-09,1.0
81,81,57.329906,11291.874,13719.573,17768.88,-50.543964,49.6036272627407,-0.025621252,6.574716e-06,0.20234773,0.12063112,1.0,41,0.020766841,1.1687197e-06,0,-1.3557943227261325e-09,1.0
82,82,49.60321,11590.653,15417.593,19288.479,-53.06485,50.54136306725559,-0.0255795,-8.180276e-08,0.20811039,0.13296305,1.0,42,0.02084121,1.0805004e-06,0,-4.1487288914273295e-10,1.0
83,83,42.92585,11802.015,17187.748,20849.61,-55.524452,51.24944190084352,-0.025683595,3.6203008e-07,0.21571594,0.14659676,1.0,42,0.020651903,9.905175e-07,0,-2.4114849829636066e-10,1.0
84,84,37.1518,12058.312,19559.465,22977.719,-58.34638,51.893175558099756,-0.025739284,6.820104e-07,0.21901977,0.15870239,1.0,42,0.02072012,9.0174836e-07,0,-8.49441384087552e-10,1.0
85,85,32.150223,12431.048,22292.383,25524.13,-60.854362,52.53239892181591,-0.025570463,-1.9225453e-07,0.22206475,0.16939114,1.0,42,0.02080829,8.152399e-07,0,-8.744783681591015e-10,1.0
86,86,27.835518,12724.415,25527.967,28523.46,-63.50604,53.25932463633944,-0.025544072,-4.331725e-07,0.2239776,0.1794042,1.0,42,0.020908276,7.330203e-07,0,-1.549039055954419e-09,1.0
87,87,24.082958,12916.756,28412.162,31210.473,-65.552475,53.96140834965627,-0.025636103,2.8789492e-07,0.23259804,0.19275866,1.0,42,0.020499822,6.568251e-07,0,-1.614516448236082e-09,1.0
88,88,20.833313,13247.461,33145.594,35694.895,-68.21465,54.615770167452865,-0.02562852,1.1970661e-07,0.23048146,0.19873548,1.0,42,0.020852545,5.8418846e-07,0,5.909337342886703e-10,1.0
89,89,18.021912,13812.265,37609.973,40066.055,-69.834236,55.36170612289425,-0.025794948,1.8944927e-06,0.23480982,0.20690413,1.0,42,0.020730183,5.1740017e-07,0,-1.2299867082141702e-09,1.0
90,90,15.604198,14366.61,43025.168,45360.387,-71.535225,56.01802220736863,-0.025617788,2.3040993e-08,0.23705882,0.21327883,1.0,42,0.020734377,4.5710317e-07,0,1.8582193077381565e-10,1.0
91,91,13.500899,14971.31,49084.746,51317.176,-73.0378,56.765966909588315,-0.025656607,3.2858443e-07,0.24016567,0.2197245,1.0,42,0.020666974,4.0273014e-07,0,7.952833785509483e-10,1.0
92,92,11.686608,15399.575,56283.89,58352.58,-74.69807,57.35690141763189,-0.025697233,4.6724762e-07,0.24196221,0.22511046,1.0,42,0.020693684,3.5463188e-07,0,3.3025585724209983e-10,1.0
93,93,10.113269,16854.666,64346.008,66516.83,-75.32182,58.030502089619404,-0.025645642,2.8322822e-07,0.24457213,0.22886908,1.0,42,0.02062091,3.1001042e-07,0,-1.3195915979543491e-09,1.0
94,94,8.748621,17514.36,74183.375,76222.87,-76.71598,58.79736729935394,-0.025659643,3.2261968e-07,0.2452302,0.23228253,1.0,42,0.020716602,2.7178984e-07,0,-1.326606917831757e-09,1.0
95,95,7.570237,18796.947,84996.29,87049.95,-77.52974,59.672966327663744,-0.0257361,7.735332e-07,0.24734929,0.23581614,1.0,42,0.020718025,2.3800156e-07,0,1.0259193875287546e-09,1.0
96,96,6.554112,20417.893,97220.09,99341.016,-78.139275,60.415308896190254,-0.025738856,5.9516833e-07,0.24977574,0.23922421,1.0,43,0.02069574,2.0833026e-07,0,1.9970088100175567e-09,1.0
97,97,5.669445,22423.998,111367.336,113602.46,-78.61562,61.02513004516368,-0.02564022,-1.9006697e-07,0.25207034,0.24224897,1.0,43,0.020677902,1.8201985e-07,0,1.373750986759761e-10,1.0
98,98,4.907347,24683.893,127952.89,130312.08,-79.08098,61.717564931401284,-0.025578959,3.1587965e-07,0.25346807,0.24437349,1.0,43,0.02071337,1.5895203e-07,0,1.010286440009938e-09,1.0
99,99,4.245922,27900.486,146266.36,148903.61,-79.2005,62.505323448829586,-0.025668252,1.4669004e-07,0.25627348,0.24727608,1.0,43,0.02066375,1.3877266e-07,0,2.0893351396793492e-09,1.0
100,100,3.6747382,31255.416,167842.4,170727.78,-79.45127,63.4049380782526,-0.025620963,2.5192799e-08,0.25804296,0.24939458,1.0,43,0.020728506,1.2141261e-07,0,-2.1682579758714522e-10,1.0
101,101,3.180988,34926.26,192276.75,195423.11,-79.70471,64.4332345003786,-0.025536219,1.9461464e-07,0.2602144,0.25190282,1.0,43,0.020742942,1.0614375e-07,0,5.834089378937948e-10,1.0
102,102,2.752818,40901.023,219457.28,223236.19,-79.44271,65.61210903638857,-0.025631586,1.8547652e-07,0.2634466,0.25460294,1.0,43,0.020720113,9.2817e-08,0,2.4626805075451426e-09,1.0
103,103,2.3804083,46703.418,251261.88,255565.53,-79.47029,66.96704032743583,-0.025574747,5.7337786e-08,0.2660983,0.2572117,1.0,43,0.020745814,8.1176104e-08,0,1.8078496033406092e-09,1.0
104,104,2.060257,55369.52,286199.06,291505.9,-79.05054,68.52334154801792,-0.025643248,1.195823e-07,0.2699172,0.260179,1.0,43,0.020721914,7.108574e-08,0,9.124633194761916e-11,1.0
105,105,1.7836765,64906.99,326407.4,332798.3,-78.75329,70.31167603297945,-0.025636481,1.5382912e-07,0.2733657,0.26296735,1.0,43,0.020726537,6.2279575e-08,0,-5.967501839797427e-11,1.0
