True,index,freq,Re(Z),Im(Z),Z,Phase(Z),time,Ewe_meas,I_meas,Cs,Cp,cycle_number,I_Range,Ewe,I,Ns,(QQo),cycle
0,0,7000018.5,413.4817,2189.9756,2228.6677,-79.308044,2.4684777438815217,0.0032372347,-2.6575184e-05,1.0382016e-05,1.0024658e-05,1.0,40,0.010091532,4.528056e-06,0,-4.976661148380875e-09,1.0
1,1,6057573.0,282.67896,2411.3633,2427.8757,-83.31386,3.020480223436607,0.0030792004,3.100294e-06,1.0895794e-05,1.0748088e-05,1.0,40,0.0143303005,5.902403e-06,0,-8.157640273755836e-09,1.0
2,2,5242039.0,469.29434,3023.1206,3059.3293,-81.17612,3.436484643170843,0.003073499,-1.6528376e-05,1.0043022e-05,9.8067e-06,1.0,40,0.019921012,6.511562e-06,0,-1.1373927521251264e-08,1.0
3,3,4536288.0,317.57907,3003.6216,3020.364,-83.964424,4.804487881512614,0.0031274753,-3.4612807e-05,1.1680846e-05,1.1551707e-05,1.0,40,0.019633088,6.500239e-06,0,-1.934690551504935e-08,1.0
4,4,3925558.5,428.94232,3566.8337,3592.5332,-83.142624,5.220496514608385,0.00307553,-8.13735e-06,1.13667365e-05,1.1204693e-05,1.0,40,0.018630415,5.1858715e-06,0,-2.193758961139262e-08,1.0
5,5,3397055.0,536.5435,4123.7954,4158.5537,-82.58694,5.636480081040645,0.0030466134,1.061688e-05,1.1361101e-05,1.1171977e-05,1.0,40,0.01960349,4.7140165e-06,0,-2.7749025309415425e-08,1.0
6,6,2939708.2,414.08868,4611.703,4630.2563,-84.869125,6.052498234115774,0.0030728658,-2.086343e-05,1.1739634e-05,1.1645742e-05,1.0,40,0.021259638,4.5914603e-06,0,-3.2738946247540133e-08,1.0
7,7,2543924.5,550.96674,5184.602,5213.7954,-83.93395,6.60550100702676,0.0030416204,1.459844e-05,1.2067033e-05,1.19322785e-05,1.0,40,0.020387754,3.910348e-06,0,-3.7777461458922014e-08,1.0
8,8,2201436.2,95.0861,6313.881,6314.5967,-89.1372,7.324481174553512,0.003141449,-7.4773247e-06,1.145032e-05,1.1447724e-05,1.0,41,0.01998139,3.1643176e-06,0,-3.9611322715056e-08,1.0
9,9,1905053.1,1005.5022,6490.9575,6568.376,-81.194405,7.876489227433922,0.0030581653,-3.4888708e-07,1.28707625e-05,1.2569147e-05,1.0,41,0.020200983,3.0754911e-06,0,-4.0337957630015354e-08,1.0
10,10,1648567.4,758.10504,7959.9624,7995.982,-84.55957,8.428488560282858,0.0031737005,-1.1062006e-05,1.212837e-05,1.2019346e-05,1.0,41,0.019741442,2.4689202e-06,0,-4.0122849173400253e-08,1.0
11,11,1426616.2,414.20065,8794.984,8804.732,-87.30364,8.980480373167666,0.00307199,-5.8724726e-07,1.26846335e-05,1.2656561e-05,1.0,41,0.020640226,2.3442196e-06,0,-3.987026574214604e-08,1.0
12,12,1234551.2,878.114,10175.006,10212.827,-85.067535,9.533485092775663,0.002991799,5.3400704e-06,1.26699915e-05,1.2576324e-05,1.0,41,0.020460444,2.0034065e-06,0,-3.9835457523101544e-08,1.0
13,13,1068345.5,293.33344,11995.5205,11999.106,-88.59919,10.08549087899155,0.0030272366,4.1259286e-06,1.2419077e-05,1.2411655e-05,1.0,41,0.020778505,1.731671e-06,0,-4.017241468523657e-08,1.0
14,14,924510.06,900.4436,13317.761,13348.167,-86.13199,10.63748213191866,0.00304462,-9.056798e-07,1.2926391e-05,1.2867567e-05,1.0,41,0.020288367,1.5199365e-06,0,-4.2123413551646786e-08,1.0
15,15,800039.0,-1251.0793,12307.685,12371.107,-95.80419,11.189496718085138,0.0031161099,-3.9615156e-06,1.6163396e-05,1.599809e-05,1.0,41,0.019942809,1.6120472e-06,0,-4.293570893290245e-08,1.0
16,16,692334.1,1967.9996,17389.729,17500.734,-83.5433,11.741493997658836,0.0030981302,1.3099773e-05,1.3219396e-05,1.30522285e-05,1.0,41,0.01993094,1.1388631e-06,0,-4.2226326246795525e-08,1.0
17,17,599122.25,9679.121,9357.96,13463.165,-44.033497,12.29349583722069,0.0030570473,4.649204e-06,2.8387263e-05,1.3714865e-05,1.0,41,0.020459762,1.5196844e-06,0,-4.2656417154802284e-08,1.0
18,18,518454.94,10759.958,9198.045,14155.59,-40.525154,12.845485170109896,0.0031402195,-1.8702858e-06,3.3374406e-05,1.4091223e-05,1.0,41,0.020592736,1.4547423e-06,0,-4.231534714874859e-08,1.0
19,19,448662.03,11612.767,9181.113,14803.688,-38.33008,13.397491489624372,0.0030546999,3.4350633e-06,3.8637183e-05,1.4861282e-05,1.0,41,0.020042758,1.353903e-06,0,-4.16795162786726e-08,1.0
20,20,388258.97,14163.7,17593.05,22585.965,-51.163376,13.949499089183519,0.0031380395,-6.4493875e-06,2.3300083e-05,1.4137171e-05,1.0,41,0.021276489,9.4202255e-07,0,-4.09041684603532e-08,1.0
21,21,335983.9,14135.223,6202.395,15436.134,-23.691387,14.501485088752815,0.003098801,2.5412653e-08,7.637341e-05,1.2330594e-05,1.0,41,0.019460324,1.2606994e-06,0,-4.13699444038179e-08,1.0
22,22,290751.2,15713.739,7660.7695,17481.676,-25.990181,14.917501188494498,0.003047657,3.397822e-06,7.145395e-05,1.3721605e-05,1.0,41,0.021588428,1.2349176e-06,0,-4.108468175999115e-08,1.0
23,23,251605.19,16588.621,7203.236,18085.049,-23.471811,15.469479534745915,0.0030662888,4.984083e-07,8.781585e-05,1.3931209e-05,1.0,41,0.02055686,1.136677e-06,0,-4.079926527058496e-08,1.0
24,24,217729.38,19368.662,28229.01,34234.81,-55.544964,16.021503000956727,0.0031884944,-5.685893e-06,2.5894495e-05,1.7606091e-05,1.0,41,0.021863801,6.3864246e-07,0,-4.3044937845839586e-08,1.0
25,25,188418.58,18042.957,5981.721,19008.664,-18.341734,16.573503960476955,0.0031314066,-2.8199936e-06,0.00014121155,1.3983612e-05,1.0,41,0.020065648,1.0556054e-06,0,-4.4521261227616705e-08,1.0
26,26,163051.14,18657.17,5497.182,19450.168,-16.417175,16.98949872693629,0.0031144517,-3.2389835e-06,0.00017756452,1.4183706e-05,1.0,41,0.021914067,1.1266775e-06,0,-4.494399614806197e-08,1.0
27,27,141098.2,30487.79,50328.703,58842.87,-58.793633,17.708485027746065,0.003001767,5.4769873e-07,2.2412118e-05,1.6395576e-05,1.0,42,0.020036085,3.405015e-07,0,-4.469602837994814e-08,1.0
28,28,122105.11,12658.414,97446.99,98265.72,-82.598694,18.260489133972442,0.003058631,1.2677103e-07,1.3375741e-05,1.3153784e-05,1.0,42,0.020625154,2.0989165e-07,0,-4.482599227039192e-08,1.0
29,29,105663.59,22233.172,103817.3,106171.3,-77.91231,18.676483153743902,0.0030853862,-4.6923262e-07,1.4508584e-05,1.3872356e-05,1.0,42,0.021892823,2.0620284e-07,0,-4.486204490501411e-08,1.0
30,30,91439.65,20397.205,122706.22,124389.96,-80.56213,19.228486646636156,0.003091367,-4.327274e-07,1.4184663e-05,1.3803255e-05,1.0,42,0.020270336,1.6295797e-07,0,-4.497398253502164e-08,1.0
31,31,79127.08,22499.576,145269.36,147001.42,-81.195885,19.644499519694364,0.0031075208,-7.622057e-07,1.3845894e-05,1.3521533e-05,1.0,42,0.021359155,1.4529897e-07,0,-4.496433381859709e-08,1.0
32,32,68475.36,29991.66,185670.89,188077.6,-80.824196,20.19649266594206,0.0030067416,4.1248026e-07,1.2518202e-05,1.2199878e-05,1.0,42,0.020298261,1.0792493e-07,0,-4.5023197583329335e-08,1.0
33,33,59252.523,27827.613,215638.02,217426.14,-82.64674,20.61250380569254,0.003259947,-1.8126623e-06,1.2456268e-05,1.2252229e-05,1.0,42,0.021001229,9.659018e-08,0,-4.510050732519449e-08,1.0
34,34,51282.285,38627.61,238384.34,241493.66,-80.79584,21.028489132091636,0.0031353193,-1.1578031e-06,1.3018922e-05,1.2685835e-05,1.0,42,0.021507518,8.9060386e-08,0,-4.51691213886808e-08,1.0
35,35,44369.8,64013.51,284793.4,291898.97,-77.33206,21.44448472521617,0.003061873,-2.434963e-07,1.2595131e-05,1.19894e-05,1.0,42,0.021941632,7.5168586e-08,0,-4.524309584666063e-08,1.0
36,36,38403.727,79692.734,325160.78,334784.22,-76.22899,21.996486244752305,0.0030000901,-3.6735335e-07,1.2745257e-05,1.2023059e-05,1.0,42,0.020260278,6.051742e-08,0,-4.534716383546191e-08,1.0
37,37,33226.32,106831.71,365988.75,381262.1,-73.72753,22.412483624502784,0.0030687668,-3.418369e-07,1.3087905e-05,1.2060307e-05,1.0,42,0.020430282,5.3585925e-08,0,-4.537319314108886e-08,1.0
38,38,28754.086,127532.95,415426.97,434562.1,-72.93391,22.828497724287445,0.0030993414,-5.262256e-07,1.3323732e-05,1.2176194e-05,1.0,42,0.02055369,4.7297473e-08,0,-4.5434813090336196e-08,1.0
39,39,24884.947,191904.28,413294.44,455674.8,-65.09322,23.410484978550812,0.0030470793,-2.955894e-07,1.5474758e-05,1.2730133e-05,1.0,43,0.02030418,4.4558487e-08,0,-4.5544098944041876e-08,1.0
40,40,21553.963,253253.83,422813.47,492857.72,-59.079533,23.827498998405645,0.0030308324,-3.348279e-07,1.7464019e-05,1.2852827e-05,1.0,43,0.020286834,4.1161645e-08,0,-4.558303645078886e-08,1.0
41,41,18631.234,287248.4,444334.53,529098.1,-57.118595,24.24349331148551,0.0030148278,-2.9195792e-07,1.9225092e-05,1.355864e-05,1.0,43,0.02013887,3.806264e-08,0,-4.561972403119234e-08,1.0
42,42,16126.037,341686.66,465116.53,577133.56,-53.698032,24.659500691253925,0.003067239,-3.2506946e-07,2.121928e-05,1.3781661e-05,1.0,43,0.019994527,3.464454e-08,0,-4.5651649546614655e-08,1.0
43,43,13954.87,361787.38,502063.4,618835.8,-54.223442,25.075495057652006,0.0031083778,-3.768039e-07,2.2716205e-05,1.4952095e-05,1.0,43,0.019559896,3.160757e-08,0,-4.568884110577809e-08,1.0
44,44,12080.609,459830.38,490398.2,672260.6,-46.842506,25.49148702409002,0.0031450076,-3.8075194e-07,2.6864727e-05,1.4295679e-05,1.0,43,0.019191407,2.854757e-08,0,-4.572659633602358e-08,1.0
45,45,10447.592,560703.2,500160.06,751364.2,-41.733692,25.907484590512468,0.0031421199,-3.493351e-07,3.0457546e-05,1.3496214e-05,1.0,43,0.018761605,2.4970054e-08,0,-4.576062047703565e-08,1.0
46,46,9045.586,611355.94,489878.0,783413.4,-38.705112,26.339263171044877,0.00312319,-3.0402558e-07,3.5916622e-05,1.4043953e-05,1.0,43,0.021327153,2.722337e-08,0,-4.579996408379492e-08,1.0
47,47,7827.7437,684899.94,486378.06,840030.7,-35.380264,26.818921513826353,0.003034354,-2.3670374e-07,4.1803203e-05,1.4014165e-05,1.0,43,0.021263363,2.5312602e-08,0,-4.583150541858385e-08,1.0
48,48,6770.8345,752546.1,430415.06,866938.75,-29.767187,27.3574264193594,0.0030574573,-2.4117324e-07,5.46123e-05,1.3461349e-05,1.0,43,0.021347402,2.4623887e-08,0,-4.5871060040177764e-08,1.0
49,49,5860.798,799468.6,426433.47,906088.06,-28.075287,27.963965461560292,0.0028928646,-1.0414586e-07,6.368132e-05,1.4105024e-05,1.0,43,0.021304937,2.3513097e-08,0,-4.591024527403241e-08,1.0
50,50,5071.625,863685.5,379581.53,943416.56,-23.72503,28.64470858724235,0.0031370707,-3.0326203e-07,8.26738e-05,1.3383543e-05,1.0,43,0.021367447,2.2649006e-08,0,-4.5958322157934816e-08,1.0
51,51,4388.5933,898098.1,346714.84,962700.06,-21.109308,29.32480160619889,0.0031453804,-3.0365308e-07,0.000104597755,1.3567044e-05,1.0,43,0.021347404,2.2174511e-08,0,-4.600995588580167e-08,1.0
52,52,3798.7827,931838.2,318651.1,984815.2,-18.87862,30.00483265182993,0.0030891872,-2.7266455e-07,0.00013148018,1.3765171e-05,1.0,43,0.021283785,2.1611958e-08,0,-4.606189605583566e-08,1.0
53,53,3286.0488,972823.6,306700.06,1020024.9,-17.49839,30.68470996413089,0.0031001612,-2.4802645e-07,0.00015791823,1.427705e-05,1.0,43,0.021362828,2.0943439e-08,0,-4.611534937367987e-08,1.0
54,54,2844.088,982211.44,254260.44,1014587.44,-14.513302,31.364822129762615,0.003077859,-2.377652e-07,0.00022008899,1.3822192e-05,1.0,43,0.021364043,2.1056877e-08,0,-4.6154462562768954e-08,1.0
55,55,2460.7852,988938.8,234176.72,1016286.75,-13.322028,32.04470362872962,0.0031038877,-2.3832386e-07,0.00027618668,1.4664174e-05,1.0,43,0.021258341,2.091766e-08,0,-4.620529193678448e-08,1.0
56,56,2129.3164,1009370.7,197823.67,1028573.5,-11.088686,32.72480323436321,0.0029584668,-1.8303244e-07,0.00037783454,1.3976149e-05,1.0,43,0.021331407,2.0738826e-08,0,-4.624564688102368e-08,1.0
57,57,1843.2289,1012885.1,178727.3,1028532.8,-10.00704,33.40496249331045,0.003092541,-2.5299866e-07,0.00048311442,1.4587989e-05,1.0,43,0.021307483,2.0716387e-08,0,-4.630231295149044e-08,1.0
58,58,1594.4913,1035017.44,146588.72,1045346.5,-8.061143,34.084839405622915,0.0030971428,-2.3167543e-07,0.00068092206,1.338992e-05,1.0,43,0.02143007,2.0500446e-08,0,-4.634812053598796e-08,1.0
59,59,1380.4436,1031288.5,130612.484,1039526.6,-7.2180696,34.764675891259685,0.0030458497,-2.1619977e-07,0.0008827074,1.3935255e-05,1.0,43,0.021359416,2.0547253e-08,0,-4.638636197057799e-08,1.0
60,60,1194.6187,1037719.25,121897.65,1044854.2,-6.6996546,35.44484611021471,0.0031526654,-2.5165775e-07,0.0010929379,1.4875611e-05,1.0,43,0.0213584,2.0441513e-08,0,-4.644263015838885e-08,1.0
61,61,1033.3434,1028650.56,112072.914,1034737.8,-6.2179294,36.1250660091755,0.0032063993,-2.7793467e-07,0.0013742787,1.6121872e-05,1.0,43,0.021226997,2.0514372e-08,0,-4.649781595023188e-08,1.0
62,62,894.71045,1022032.3,58086.094,1023681.6,-3.2528439,36.804829641478136,0.0029475486,-1.6470736e-07,0.003062425,9.86007e-06,1.0,43,0.02135322,2.085924e-08,0,-4.65226420829025e-08,1.0
63,63,774.2569,1050686.1,72246.03,1053167.0,-3.9335132,37.48494463379029,0.003140592,-2.6838106e-07,0.0028452543,1.3389198e-05,1.0,43,0.021489576,2.0404718e-08,0,-4.6572947842357374e-08,1.0
64,64,669.7856,1041953.7,70243.95,1044318.75,-3.8567948,38.16484791939729,0.0031611056,-2.1335032e-07,0.0033827932,1.5304782e-05,1.0,43,0.02141651,2.0507636e-08,0,-4.6630918054819327e-08,1.0
65,65,579.81464,1033851.3,60175.047,1035601.06,-3.3311276,38.84482883171586,0.0030502654,-2.1316406e-07,0.004561572,1.540148e-05,1.0,43,0.021368353,2.0633768e-08,0,-4.66683690691154e-08,1.0
66,66,501.44418,1044883.5,61257.957,1046677.6,-3.3552155,39.522191423835466,0.0030694003,-1.757506e-07,0.0051812558,1.7747376e-05,1.0,43,0.021531599,2.0571376e-08,0,-4.668861118546176e-08,1.0
67,67,434.02762,1046846.25,59062.227,1048511.06,-3.2291584,40.20223278951016,0.0030784553,-1.9988589e-07,0.0062085898,1.9700015e-05,1.0,43,0.021540096,2.0543508e-08,0,-4.672930229160027e-08,1.0
68,68,375.6009,1036384.7,64642.77,1038398.75,-3.5691051,40.88142626170884,0.0031387662,-2.5225347e-07,0.0065550134,2.540301e-05,1.0,43,0.021405688,2.061413e-08,0,-4.6782654073078884e-08,1.0
69,69,325.10385,1042541.4,58616.965,1044187.94,-3.2180712,41.560690907383105,0.0031117874,-2.2383492e-07,0.008351697,2.6318674e-05,1.0,43,0.021500625,2.0590761e-08,0,-4.683404767752483e-08,1.0
70,70,281.3503,1038818.3,68639.19,1041083.5,-3.780283,42.237817339540925,0.0030625437,-1.5874782e-07,0.008241393,3.5823974e-05,1.0,43,0.021447783,2.0601405e-08,0,-4.686410082373064e-08,1.0
71,71,243.36427,1036082.6,45127.16,1037064.94,-2.4939735,42.92110235863947,0.0030650776,-2.2714977e-07,0.0144919,2.7440336e-05,1.0,43,0.021391513,2.0626976e-08,0,-4.692416653659123e-08,1.0
72,72,210.60631,1043311.4,68251.15,1045541.44,-3.7428315,43.59817180412938,0.0031454177,-2.3113508e-07,0.011072324,4.7181988e-05,1.0,43,0.021441499,2.0507555e-08,0,-4.6953288278807786e-08,1.0
73,73,182.27473,1040335.56,83052.85,1043645.44,-4.5643992,44.27025532934931,0.0030841753,-2.072605e-07,0.010513301,6.657976e-05,1.0,43,0.021369582,2.0475902e-08,0,-4.700301307804051e-08,1.0
74,74,157.72879,1039694.06,97077.305,1044216.3,-5.3343,44.9586507487802,0.0030798526,-2.2415148e-07,0.010394209,8.983507e-05,1.0,43,0.02130504,2.0402899e-08,0,-4.7042639531538004e-08,1.0
75,75,136.52892,1051569.8,89100.555,1055337.8,-4.8431606,45.63053414065507,0.003132599,-2.2700077e-07,0.013083233,9.325947e-05,1.0,43,0.021397037,2.0275062e-08,0,-4.70880026104727e-08,1.0
76,76,118.14758,1060004.0,104198.68,1065113.1,-5.6141534,46.318904226704035,0.0030661956,-1.6416712e-07,0.012928052,0.00012372744,1.0,43,0.021446168,2.013511e-08,0,-4.711073794590782e-08,1.0
77,77,102.25773,1069389.9,101806.08,1074224.9,-5.438178,46.98533857832081,0.0031653163,-2.3454308e-07,0.015287985,0.00013731161,1.0,43,0.021502724,2.0016968e-08,0,-4.71532928783193e-08,1.0
78,78,88.4436,1070905.5,124302.24,1078095.4,-6.6208134,47.67528239774401,0.0031148244,-2.3767173e-07,0.014476871,0.00019245016,1.0,43,0.021446614,1.9893058e-08,0,-4.719585830782079e-08,1.0
79,79,76.54279,1079136.4,138490.52,1087986.6,-7.313057,48.342706962845114,0.0030569728,-1.7232394e-07,0.015013978,0.0002432701,1.0,43,0.021431258,1.9698088e-08,0,-4.7233856602003956e-08,1.0
80,80,66.250786,1090229.9,152150.1,1100795.5,-7.944761,49.011007501219865,0.003034205,-2.0366632e-07,0.015789082,0.00030163937,1.0,43,0.021463098,1.9497806e-08,0,-4.7286296057912125e-08,1.0
81,81,57.329906,1105786.5,183335.9,1120881.8,-9.413824,49.66563587901692,0.0029817938,-2.0165506e-07,0.015142283,0.00040510428,1.0,43,0.021447474,1.9134466e-08,0,-4.729937960367329e-08,1.0
82,82,49.60321,1111685.9,186911.45,1127289.4,-9.544065,50.35135153817828,0.003096584,-2.0945804e-07,0.01716621,0.00047192766,1.0,43,0.021437464,1.9016824e-08,0,-4.7329261832907356e-08,1.0
83,83,42.92585,1134140.5,201028.22,1151819.0,-10.051372,51.0594407718454,0.0031002916,-2.0195303e-07,0.018443538,0.00056181045,1.0,43,0.021497719,1.8664148e-08,0,-4.739446349360262e-08,1.0
84,84,37.1518,1140087.1,218791.06,1160891.1,-10.863404,51.70316493572318,0.0031679436,-2.1843431e-07,0.019579912,0.0006954836,1.0,43,0.021429108,1.845919e-08,0,-4.7431926153373997e-08,1.0
85,85,32.150223,1604877.2,322248.7,1636910.2,-11.353634,52.34239533942309,0.0030736856,-2.3964603e-07,0.015361901,0.0005953571,1.0,43,0.021371119,1.3055767e-08,0,-4.7437971419265717e-08,1.0
86,86,27.835518,1480577.6,308121.22,1512299.1,-11.755959,53.070298227336025,0.003155162,-2.2363012e-07,0.018556634,0.0007703126,1.0,43,0.021358749,1.4123363e-08,0,-4.7493297140593744e-08,1.0
87,87,24.082958,1188586.4,284006.34,1222046.2,-13.438546,53.77237479403266,0.003133307,-1.8098366e-07,0.023269244,0.001256791,1.0,43,0.021381827,1.7496742e-08,0,-4.7507056770329986e-08,1.0
88,88,20.833313,1221599.4,307665.4,1259747.2,-14.136209,54.426778345150524,0.003084082,-2.0256763e-07,0.024830366,0.0014810633,1.0,43,0.021488264,1.70576e-08,0,-4.754352050896809e-08,1.0
89,89,18.021912,1240860.8,332337.97,1284594.9,-14.993551,55.17272846058768,0.0027871202,-6.156431e-08,0.026572922,0.0017785532,1.0,43,0.021447727,1.6696102e-08,0,-4.761123591718924e-08,1.0
90,90,15.604198,1313252.6,361979.9,1362226.9,-15.410131,55.82802267835359,0.0030482905,-5.0645633e-07,0.028176965,0.001989593,1.0,43,0.02143208,1.573312e-08,0,-4.768833640753141e-08,1.0
91,91,13.500899,1297336.1,385727.56,1353464.8,-16.558413,56.57597250054823,0.0030759398,-2.427187e-07,0.030561648,0.0024822424,1.0,43,0.021430233,1.583361e-08,0,-4.773268525696493e-08,1.0
92,92,11.686608,1334600.9,377006.53,1386828.5,-15.774262,57.166865835286444,0.0030293607,-2.0757726e-07,0.036122914,0.0026695314,1.0,43,0.021344641,1.5390974e-08,0,-4.77837877330466e-08,1.0
93,93,10.113269,1366175.1,442675.0,1436104.4,-17.953623,57.840504667226924,0.003096025,-2.2063195e-07,0.035550326,0.0033778595,1.0,43,0.021464726,1.4946494e-08,0,-4.7775989003348034e-08,1.0
94,94,8.748621,1394506.8,473665.06,1472755.1,-18.760824,58.607371396996314,0.0030914042,-2.0693481e-07,0.038406894,0.003972746,1.0,43,0.021405347,1.453422e-08,0,-4.770908555376864e-08,1.0
95,95,7.570237,1915675.6,645775.1,2021593.1,-18.628984,59.48301351862028,0.003111303,-1.5014442e-07,0.03255587,0.0033220367,1.0,43,0.021446979,1.0608949e-08,0,-4.7858572094136933e-08,1.0
96,96,6.554112,2531445.5,926908.2,2695807.0,-20.110592,60.01930639738566,0.0029984692,-9.617523e-08,0.026198087,0.0030971726,1.0,43,0.021447303,7.9558005e-09,0,-4.790198403254051e-08,1.0
97,97,5.669445,1966295.0,701012.3,2087518.6,-19.621878,60.629134559683735,0.0031201344,-2.4562394e-07,0.04004552,0.004515902,1.0,43,0.02159966,1.034705e-08,0,-4.798112147016751e-08,1.0
98,98,4.907347,1640747.5,595987.5,1745638.4,-19.96312,61.32154696594807,0.003082666,-2.4759797e-07,0.0544172,0.0063431053,1.0,43,0.021422392,1.2271953e-08,0,-4.7868104543705984e-08,1.0
99,99,4.245922,1812446.5,714652.44,1948253.1,-21.51945,62.109326763340505,0.00321524,-8.082127e-07,0.052450933,0.0070575215,1.0,43,0.02146007,1.10150316e-08,0,-4.8113073948114936e-08,1.0
100,100,3.6747382,2050066.0,861088.75,2223565.8,-22.783855,63.0089534461149,0.0030466695,-1.6598324e-07,0.05029743,0.007542958,1.0,43,0.021447958,9.645749e-09,0,-4.807110846642389e-08,1.0
101,101,3.180988,1151893.2,283513.16,1186270.5,-13.827253,64.03720176158822,0.0030910317,-2.383146e-07,0.17647567,0.010080077,1.0,43,0.021454593,1.8085752e-08,0,-4.645031063004169e-08,1.0
102,102,2.752818,3398536.5,1383118.9,3669205.5,-22.145086,65.21611467094044,0.0030979197,-2.0382794e-07,0.041800655,0.0059396117,1.0,43,0.021461442,5.8490706e-09,0,-4.662634770901776e-08,1.0
103,103,2.3804083,3516176.2,1446990.1,3802272.5,-22.36833,66.56997134856647,0.0030682208,-1.7820281e-07,0.046206504,0.006691874,1.0,43,0.021443745,5.639718e-09,0,-4.677286885935396e-08,1.0
