True,index,freq,Re(Z),Im(Z),Z,Phase(Z),time,Ewe_meas,I_meas,Cs,Cp,cycle_number,I_Range,Ewe,I,Ns,(QQo),cycle
0,0,7000018.5,128.16982,1501.4054,1506.8662,-85.12069,2.467497903824551,0.044498824,6.7470473e-06,1.5143386e-05,1.50338265e-05,1.0,40,0.01008209,6.6907664e-06,0,4.918133877746792e-09,1.0
1,1,6057573.0,302.7253,1788.3558,1813.7969,-80.39229,3.0195020633691456,0.044528726,-5.514016e-06,1.4691549e-05,1.4282299e-05,1.0,40,0.01426978,7.867353e-06,0,4.9225765560423595e-09,1.0
2,2,5242039.0,301.30463,2030.5367,2052.7698,-81.559654,3.4354954964655917,0.04461976,-3.8631588e-05,1.4952335e-05,1.46302e-05,1.0,40,0.019703435,9.598463e-06,0,4.9714533652497215e-09,1.0
3,3,4536288.0,240.56055,2295.7078,2308.277,-84.017975,4.667501874995651,0.04452461,8.365632e-06,1.52828e-05,1.5116812e-05,1.0,40,0.021700263,9.401065e-06,0,-4.8417130169613955e-09,1.0
4,4,3925558.5,295.37445,2658.9749,2675.3306,-83.66124,5.0834955747413915,0.04452595,-1.3365462e-05,1.5247703e-05,1.5061839e-05,1.0,40,0.01993607,7.4518152e-06,0,-7.092442679717376e-09,1.0
5,5,3397055.0,392.01764,2974.928,3000.6458,-82.493164,5.499495834490517,0.044572305,-9.495542e-06,1.5748568e-05,1.5479773e-05,1.0,40,0.02103889,7.0114543e-06,0,-8.609278756182449e-09,1.0
6,6,2939708.2,422.61304,3426.7869,3452.7483,-82.96942,6.0514946073817555,0.044500593,-1.096537e-05,1.579897e-05,1.5562277e-05,1.0,40,0.020847281,6.0378807e-06,0,-1.186332725286358e-08,1.0
7,7,2543924.5,358.89474,3897.3474,3913.8374,-84.73865,6.6034856736368965,0.044491053,-5.1977e-06,1.6052652e-05,1.5917669e-05,1.0,40,0.020516057,5.2419286e-06,0,-1.2162229502084504e-08,1.0
8,8,2201436.2,436.08148,4589.719,4610.389,-84.57247,7.155500073189614,0.0444776,-1.0332787e-05,1.5751717e-05,1.5610793e-05,1.0,40,0.020843297,4.520941e-06,0,-1.355069606322622e-08,1.0
9,9,1905053.1,508.49545,5158.68,5183.681,-84.37049,7.707502792734886,0.04443583,-9.049015e-06,1.6194757e-05,1.6038919e-05,1.0,40,0.020316595,3.9193374e-06,0,-7.941478251142245e-09,1.0
10,10,1648567.4,596.82245,6290.518,6318.767,-84.5802,8.426496933534509,0.044450622,5.319072e-07,1.5347125e-05,1.5210208e-05,1.0,41,0.019009352,3.0083957e-06,0,-1.1676497843075771e-08,1.0
11,11,1426616.2,416.34225,7207.24,7219.256,-86.693855,8.842485166649567,0.044482205,-1.1607982e-06,1.5479038e-05,1.5427555e-05,1.0,41,0.021903878,3.034091e-06,0,-1.1489477698221308e-08,1.0
12,12,1234551.2,535.1783,8356.551,8373.671,-86.33561,9.394493886182318,0.044453193,2.4741748e-06,1.5427087e-05,1.536407e-05,1.0,41,0.02104372,2.5130817e-06,0,-1.1330142048219867e-08,1.0
13,13,1068345.5,587.47296,9587.396,9605.379,-86.49355,9.946487325738417,0.04448757,-1.4661966e-06,1.5538451e-05,1.5480326e-05,1.0,41,0.020646393,2.1494616e-06,0,-1.1944648256515065e-08,1.0
14,14,924510.06,691.086,11035.428,11057.046,-86.41657,10.498495431937044,0.044438604,3.3754702e-06,1.559981e-05,1.553887e-05,1.0,41,0.02032489,1.8381844e-06,0,-1.2110104950475412e-08,1.0
15,15,800039.0,454.35202,12965.209,12973.168,-87.99295,11.050500018202001,0.04447937,-8.069852e-07,1.5343676e-05,1.5324857e-05,1.0,41,0.02089815,1.6108748e-06,0,-1.1728747319919661e-08,1.0
16,16,692334.1,1152.1031,14961.311,15005.6045,-85.5966,11.602495591068873,0.044483323,4.0179207e-06,1.5365078e-05,1.5274501e-05,1.0,41,0.020416696,1.3606046e-06,0,-1.114361481133604e-08,1.0
17,17,599122.25,1583.532,16947.734,17021.553,-84.661995,12.154495163966203,0.04453685,-1.3935716e-06,1.5674477e-05,1.5538819e-05,1.0,41,0.020559214,1.2078342e-06,0,-1.1617117483396555e-08,1.0
18,18,518454.94,2031.5931,19175.127,19282.45,-83.95211,12.706480816850672,0.044491723,6.362036e-07,1.6009246e-05,1.5831532e-05,1.0,41,0.020548351,1.0656505e-06,0,-1.1414240991606384e-08,1.0
19,19,448662.03,2377.5808,22276.441,22402.963,-83.907845,13.25849473636481,0.0444041,5.2041296e-06,1.5924104e-05,1.5744747e-05,1.0,41,0.020296473,9.059727e-07,0,-1.0785752420616746e-08,1.0
20,20,388258.97,3436.8706,25413.332,25644.678,-82.29811,13.810482655913802,0.04445746,-9.876157e-07,1.61301e-05,1.5840385e-05,1.0,41,0.020857101,8.133111e-07,0,-1.0960132765982658e-08,1.0
21,21,335983.9,4174.8325,27403.158,27719.35,-81.33768,14.362493695487501,0.044442315,3.5151327e-06,1.7286258e-05,1.6894144e-05,1.0,41,0.02022694,7.297047e-07,0,-1.0236981505763836e-08,1.0
22,22,290751.2,4801.7446,33295.562,33640.023,-81.793625,14.914502201689174,0.044418316,6.436524e-07,1.6440395e-05,1.6105432e-05,1.0,41,0.020567149,6.113893e-07,0,-1.0231554509047644e-08,1.0
23,23,251605.19,7082.371,38489.0,39135.19,-79.57362,15.466492681269301,0.044494387,-6.9897914e-07,1.643478e-05,1.5896527e-05,1.0,41,0.020423407,5.2186806e-07,0,-1.0250890930068257e-08,1.0
24,24,217729.38,9441.041,43753.023,44760.03,-77.823395,16.018491747468943,0.04446439,-1.2501849e-06,1.6706868e-05,1.5963584e-05,1.0,41,0.020259313,4.5262064e-07,0,-9.639740079917475e-09,1.0
25,25,188418.58,11381.569,49335.113,50630.953,-77.00919,16.570501240348676,0.044491574,3.0623817e-09,1.712144e-05,1.6256248e-05,1.0,41,0.02072272,4.0928956e-07,0,-9.433534176571963e-09,1.0
26,26,163051.14,12537.726,57436.715,58789.207,-77.686195,17.28949050119263,0.044433445,1.3179955e-07,1.6994434e-05,1.6221487e-05,1.0,42,0.019265026,3.2769665e-07,0,-9.449509621342649e-09,1.0
27,27,141098.2,16028.082,64615.7,66573.93,-76.068825,17.705483027588343,0.044444066,1.5657098e-07,1.7456638e-05,1.6444788e-05,1.0,42,0.020976076,3.1507943e-07,0,-9.506447786846777e-09,1.0
28,28,122105.11,21094.621,75173.945,78077.555,-74.3253,18.257497827144107,0.04447667,-1.4720469e-07,1.7338796e-05,1.607316e-05,1.0,42,0.02039953,2.6127265e-07,0,-9.574733596573706e-09,1.0
29,29,105663.59,25726.41,82354.336,86279.11,-72.65188,18.673492566944333,0.044409856,3.1022824e-07,1.8289771e-05,1.6663642e-05,1.0,42,0.021759383,2.521976e-07,0,-9.631381749548929e-09,1.0
30,30,91439.65,33079.78,92180.766,97936.54,-70.25908,19.22548869982711,0.044439387,-6.84204e-08,1.8881881e-05,1.6727707e-05,1.0,42,0.02038062,2.0810027e-07,0,-9.571439382043708e-09,1.0
31,31,79127.08,41832.39,102540.14,110744.88,-67.80645,19.641480132908328,0.044487253,-1.928361e-07,1.9615578e-05,1.6816732e-05,1.0,42,0.021412937,1.9335374e-07,0,-9.604889093723726e-09,1.0
32,32,68475.36,52320.207,114426.83,125820.914,-65.42835,20.193499625805998,0.044409633,3.1656074e-07,2.0312247e-05,1.679995e-05,1.0,42,0.020150978,1.6015603e-07,0,-9.643036480054403e-09,1.0
33,33,59252.523,64209.26,123216.54,138942.95,-62.47557,20.609491858893307,0.044402685,1.7426488e-07,2.1799386e-05,1.7143884e-05,1.0,42,0.020793855,1.496575e-07,0,-9.65056036592429e-09,1.0
34,34,51282.285,76743.9,136904.47,156947.31,-60.72652,21.0254818519752,0.044426885,3.3052964e-07,2.2669145e-05,1.7248949e-05,1.0,42,0.02138181,1.362356e-07,0,-9.659291866417588e-09,1.0
35,35,44369.8,96661.26,145834.02,174959.88,-56.462906,21.4415043250483,0.044468325,-1.4739075e-07,2.4596528e-05,1.7088918e-05,1.0,42,0.021768168,1.2441805e-07,0,-9.68636181827683e-09,1.0
36,36,38403.727,117350.63,151864.22,191921.62,-52.30552,21.993504671292612,0.044453938,-6.4881604e-08,2.728923e-05,1.708655e-05,1.0,42,0.020222327,1.05367626e-07,0,-9.618046367659962e-09,1.0
37,37,33226.32,136781.47,154151.9,206087.31,-48.416836,22.409484531061025,0.04441679,2.7837928e-07,3.1073418e-05,1.7385384e-05,1.0,42,0.020405978,9.901618e-08,0,-9.614965309849103e-09,1.0
38,38,28754.086,156928.23,156556.58,221667.39,-44.93207,22.825498017453356,0.04440108,4.519654e-07,3.535487e-05,1.763552e-05,1.0,42,0.020488795,9.2430355e-08,0,-9.642598744388615e-09,1.0
39,39,24884.947,178389.48,153919.42,235614.1,-40.78854,23.241499077208573,0.04443553,3.092971e-07,4.1551815e-05,1.7732676e-05,1.0,42,0.02053798,8.716788e-08,0,-9.664593620645176e-09,1.0
40,40,21553.963,199645.25,152403.64,251167.47,-37.35711,23.65849912367412,0.04444192,5.5250467e-08,4.8450434e-05,1.7838633e-05,1.0,42,0.020545052,8.179822e-08,0,-9.621685082575117e-09,1.0
41,41,18631.234,215088.11,146926.39,260480.81,-34.33693,24.07448799678241,0.04452191,-3.5450202e-07,5.8140493e-05,1.8498087e-05,1.0,42,0.020418309,7.8387e-08,0,-9.687375113624336e-09,1.0
42,42,16126.037,234768.03,139796.02,273237.9,-30.772293,24.490484603185905,0.04446238,1.18389686e-07,7.059886e-05,1.8480145e-05,1.0,42,0.02029875,7.428965e-08,0,-9.69245012854995e-09,1.0
43,43,13954.87,246177.12,134795.34,280665.22,-28.703098,24.90748744967277,0.04448403,-1.9935474e-07,8.4609565e-05,1.9516056e-05,1.0,42,0.019951079,7.108497e-08,0,-9.737850642064179e-09,1.0
44,44,12080.609,250490.05,116840.19,276399.88,-25.00653,25.324482882831944,0.044447586,9.436332e-08,0.000112755835,2.0148736e-05,1.0,42,0.019456707,7.039333e-08,0,-9.773377360552912e-09,1.0
45,45,10447.592,265677.06,116284.38,290010.97,-23.638548,25.74049959590775,0.044495918,-6.899403e-07,0.0001310034,2.1061847e-05,1.0,42,0.01904963,6.5685896e-08,0,-9.797105126103607e-09,1.0
46,46,9045.586,270952.44,107641.6,291550.9,-21.6665,26.17226505643339,0.044485502,-1.5167426e-07,0.0001634569,2.2281005e-05,1.0,42,0.021580247,7.40188e-08,0,-9.7603450566958e-09,1.0
47,47,7827.7437,277304.47,102175.71,295529.44,-20.226843,26.652942545944825,0.04442111,1.5210145e-07,0.00019899211,2.3786455e-05,1.0,42,0.021635452,7.320913e-08,0,-9.75389641976903e-09,1.0
48,48,6770.8345,279342.1,95961.37,295365.2,-18.958946,27.191415611509,0.04445828,-2.3697714e-07,0.0002449523,2.5855668e-05,1.0,42,0.021687074,7.342461e-08,0,-9.76537498517644e-09,1.0
49,49,5860.798,271995.56,88583.52,286057.03,-18.039394,27.797975560330087,0.044469684,-3.0961488e-07,0.0003065564,2.9397544e-05,1.0,42,0.021729961,7.596374e-08,0,-9.718783094471581e-09,1.0
50,50,5071.625,247041.52,84410.375,261064.4,-18.864527,28.478701192689186,0.044472832,6.3818966e-08,0.00037177242,3.886633e-05,1.0,42,0.021711454,8.3165126e-08,0,-9.685246718298697e-09,1.0
51,51,4388.5933,239378.69,83233.85,253436.44,-19.172966,29.158839464987977,0.044509333,6.7730305e-08,0.00043570728,4.6995545e-05,1.0,42,0.021789089,8.597457e-08,0,-9.75496476257387e-09,1.0
52,52,3798.7827,240926.38,83558.29,255004.9,-19.127611,29.83882507061935,0.044429515,1.7070066e-08,0.00050140213,5.3835425e-05,1.0,42,0.021746082,8.5277115e-08,0,-9.779003309897622e-09,1.0
53,53,3286.0488,244708.5,86073.8,259404.98,-19.378819,30.51871670291439,0.044489246,-8.331942e-08,0.0005626977,6.195273e-05,1.0,42,0.02172956,8.3766935e-08,0,-9.788298643748996e-09,1.0
54,54,2844.088,249322.9,87044.53,264080.78,-19.245304,31.1988316418865,0.044444736,8.1699085e-08,0.0006428884,6.984656e-05,1.0,42,0.021732362,8.229437e-08,0,-9.85023711723433e-09,1.0
55,55,2460.7852,255038.25,93271.97,271558.78,-20.088352,31.878679487512272,0.044454534,1.779909e-07,0.0006934183,8.180312e-05,1.0,42,0.021780081,8.0203925e-08,0,-9.827372437587418e-09,1.0
56,56,2129.3164,261281.45,98459.76,279217.34,-20.648119,32.55882359981479,0.04443052,1.2919303e-07,0.0007591388,9.439607e-05,1.0,42,0.021783747,7.801717e-08,0,-9.840022942666257e-09,1.0
57,57,1843.2289,266768.75,105162.08,286748.38,-21.5147,33.238932698761346,0.044437077,2.8617357e-08,0.00082107284,0.000110432804,1.0,42,0.021772644,7.592944e-08,0,-9.829216394898803e-09,1.0
58,58,1594.4913,276010.8,108982.17,296747.5,-21.54646,33.918818091071444,0.044433556,5.4133626e-08,0.0009158883,0.00012353195,1.0,42,0.021773582,7.33741e-08,0,-9.811672996554302e-09,1.0
59,59,1380.4436,281866.03,115590.0,304646.53,-22.297968,34.59867948337342,0.044494838,-1.4627268e-07,0.0009974272,0.00014359166,1.0,42,0.021724055,7.130905e-08,0,-9.863821175599893e-09,1.0
60,60,1194.6187,292313.22,121453.26,316540.53,-22.562403,35.2788484756602,0.04448045,5.5437294e-08,0.001096937,0.00016148841,1.0,42,0.021739027,6.867691e-08,0,-9.824303629005943e-09,1.0
61,61,1033.3434,338522.44,138560.12,365781.84,-22.259705,36.21110609328025,0.04450091,-2.0434928e-08,0.001111571,0.00015950322,1.0,43,0.021649553,5.9187062e-08,0,-9.751225777074977e-09,1.0
62,62,894.71045,348901.88,145094.53,377868.94,-22.5805,36.89082700556901,0.044442073,7.238841e-09,0.0012259891,0.00018076165,1.0,43,0.021621136,5.721861e-08,0,-9.778080476942483e-09,1.0
63,63,774.2569,361147.5,149785.7,390977.34,-22.526197,37.57097031787271,0.0444828,1.6345378e-08,0.0013723494,0.00020141984,1.0,43,0.021638459,5.5344533e-08,0,-9.767119070118488e-09,1.0
64,64,669.7856,375999.38,154237.97,406404.8,-22.303835,38.25080672350305,0.04447395,-2.6620228e-10,0.0015406113,0.00022190034,1.0,43,0.021725753,5.3458404e-08,0,-9.738721411091729e-09,1.0
65,65,579.81464,387846.5,160015.53,419559.16,-22.419788,38.93084416912461,0.04446249,-7.585012e-09,0.0017154135,0.00024952076,1.0,43,0.02174318,5.182387e-08,0,-9.773972167245108e-09,1.0
66,66,501.44418,399189.4,164794.17,431867.22,-22.431911,39.60817393459729,0.044485446,-2.3768315e-08,0.0019259972,0.00028043933,1.0,43,0.021700121,5.0247206e-08,0,-9.81136193759655e-09,1.0
67,67,434.02762,411659.62,168170.69,444685.3,-22.220936,40.28819844688405,0.04450255,1.349611e-08,0.0021804818,0.00031185127,1.0,43,0.021740722,4.8890126e-08,0,-9.781480562861175e-09,1.0
68,68,375.6009,426588.88,179703.48,462894.6,-22.843592,40.96745629250654,0.044447176,2.066594e-08,0.0023579632,0.00035537413,1.0,43,0.02182035,4.7138915e-08,0,-9.741834206872568e-09,1.0
69,69,325.10385,437632.8,187204.47,475991.6,-23.159595,41.646686644802685,0.044470597,-8.944486e-09,0.002615061,0.00040449735,1.0,43,0.021746568,4.5686875e-08,0,-9.698985873327182e-09,1.0
70,70,281.3503,452075.94,196203.89,492817.03,-23.461155,42.323813476949,0.04447745,-2.4494643e-08,0.002883136,0.00045699236,1.0,43,0.021785319,4.4205695e-08,0,-9.66677657013499e-09,1.0
71,71,243.36427,466868.16,205014.2,509898.72,-23.707552,43.00712665604078,0.04442098,1.6792356e-08,0.003189917,0.00051567896,1.0,43,0.021774245,4.270308e-08,0,-9.678668980008254e-09,1.0
72,72,210.60631,480511.16,216087.31,526863.06,-24.213594,43.68418178151478,0.044418577,3.4465426e-08,0.003497192,0.0005882779,1.0,43,0.021735905,4.1255323e-08,0,-9.718608789276118e-09,1.0
73,73,182.27473,498183.97,229350.62,548442.3,-24.720083,44.35627152011148,0.044426084,2.7668026e-08,0.0038070949,0.0006657814,1.0,43,0.021788096,3.9727233e-08,0,-9.67537751717303e-09,1.0
74,74,157.72879,515100.7,240520.17,568488.06,-25.029665,45.044646806200035,0.04448813,1.7425403e-08,0.0041952482,0.000750962,1.0,43,0.021775417,3.8304087e-08,0,-9.70751010546627e-09,1.0
75,75,136.52892,531010.56,255558.83,589306.8,-25.700062,45.71653137137764,0.04437453,6.064915e-08,0.0045614676,0.0008578344,1.0,43,0.02171643,3.6850807e-08,0,-9.657171025174248e-09,1.0
76,76,118.14758,550684.25,269935.66,613284.94,-26.113276,46.40490545745706,0.044459715,-1.02296775e-08,0.004990396,0.00096678734,1.0,43,0.021711739,3.540237e-08,0,-9.671234176771367e-09,1.0
77,77,102.25773,572377.3,288117.62,640802.25,-26.719318,47.07135647573159,0.044431377,-1.6073686e-09,0.0054019946,0.0010920581,1.0,43,0.021768302,3.3970387e-08,0,-9.653230757506817e-09,1.0
78,78,88.4436,594056.44,306920.16,668657.6,-27.323206,47.7612964285363,0.04447233,3.0982626e-08,0.005863113,0.0012352973,1.0,43,0.021781638,3.2575173e-08,0,-9.652034405750785e-09,1.0
79,79,76.54279,616488.4,326496.88,697608.9,-27.90603,48.42870747359848,0.04449642,1.2862418e-08,0.0063684946,0.0013949892,1.0,43,0.0217428,3.116761e-08,0,-9.645863682609532e-09,1.0
80,80,66.250786,639407.3,349978.5,728921.56,-28.694017,49.096991985308705,0.04450564,-8.3677145e-09,0.006864165,0.001582373,1.0,43,0.021756506,2.9847527e-08,0,-9.637197743961767e-09,1.0
81,81,57.329906,664609.75,375456.94,763330.9,-29.463339,49.75164044310077,0.044473205,2.7481361e-08,0.007393989,0.0017888477,1.0,43,0.021786748,2.8541683e-08,0,-9.659520812998886e-09,1.0
82,82,49.60321,694650.1,397943.84,800561.1,-29.80708,50.43636252891156,0.04450726,-1.05093525e-08,0.008062849,0.0019922468,1.0,43,0.021778332,2.7203834e-08,0,-9.676602754806208e-09,1.0
83,83,42.92585,723162.94,422274.4,837424.8,-30.28181,51.14441224254551,0.04447641,1.5320587e-08,0.008780242,0.0022325662,1.0,43,0.021726975,2.5944987e-08,0,-9.64276604181322e-09,1.0
84,84,37.1518,753121.8,456508.0,880677.0,-31.222328,51.78819285976351,0.04450728,-1.1719897e-08,0.0093840845,0.0025214793,1.0,43,0.02177498,2.4725272e-08,0,-9.624738680173352e-09,1.0
85,85,32.150223,784507.3,482333.4,920921.94,-31.584171,52.42737926347763,0.044491816,-5.3881193e-09,0.0102633415,0.0028153853,1.0,43,0.021662088,2.3522176e-08,0,-9.675043227408086e-09,1.0
86,86,27.835518,823544.1,519474.88,973693.5,-32.242893,53.15533508473891,0.044471033,1.1074509e-08,0.0110066775,0.0031328588,1.0,43,0.021744879,2.2332365e-08,0,-9.63983087060014e-09,1.0
87,87,24.082958,869201.06,558079.6,1032939.2,-32.702915,53.85736789138173,0.044509947,-1.0695679e-08,0.011841702,0.0034566624,1.0,43,0.021907507,2.1208903e-08,0,-9.663248190935422e-09,1.0
88,88,20.833313,899481.44,601192.75,1081896.2,-33.75786,54.51174178918882,0.044478513,-4.848117e-09,0.012707147,0.003923777,1.0,43,0.02173738,2.0091926e-08,0,-9.713697428978997e-09,1.0
89,89,18.021912,944554.3,645393.4,1143991.0,-34.343945,55.25771297128813,0.044182856,1.2108927e-07,0.013683424,0.0043551046,1.0,43,0.021738218,1.9002089e-08,0,-9.633288895791342e-09,1.0
90,90,15.604198,990258.2,697140.0,1211039.0,-35.145477,55.91199740234879,0.044495564,-1.2018013e-08,0.014630483,0.0048482213,1.0,43,0.021779424,1.7984082e-08,0,-9.628564070223068e-09,1.0
91,91,13.500899,1038573.44,751323.06,1281842.9,-35.882664,56.65998157119611,0.044470243,-1.0463026e-08,0.01569028,0.0053903204,1.0,43,0.021748668,1.696672e-08,0,-9.641549679206878e-09,1.0
92,92,11.686608,1090214.1,804272.6,1354777.2,-36.41693,57.250880852603586,0.044495806,8.727818e-09,0.016932784,0.0059675924,1.0,43,0.021702463,1.601921e-08,0,-9.608318911422764e-09,1.0
93,93,10.113269,1158326.0,868476.94,1447747.0,-36.861423,57.924507871241076,0.044400893,5.0629307e-08,0.018120505,0.0065208096,1.0,43,0.021748343,1.5022199e-08,0,-9.582320484113992e-09,1.0
94,94,8.748621,1221227.8,942689.8,1542744.8,-37.66526,58.69039718763088,0.044506293,4.0161625e-09,0.019297974,0.0072054514,1.0,43,0.0217523,1.409974e-08,0,-9.693680031138612e-09,1.0
95,95,7.570237,1295205.4,1014332.9,1645122.5,-38.066074,59.566025389241986,0.044504132,-3.7466375e-08,0.020726698,0.007879428,1.0,43,0.021747274,1.32192435e-08,0,-9.656514587133853e-09,1.0
96,96,6.554112,1374563.8,1090159.5,1754386.9,-38.417755,60.10229272136348,0.04448088,5.3087486e-08,0.022274926,0.0086009335,1.0,43,0.021737328,1.239027e-08,0,-9.613849017052681e-09,1.0
97,97,5.669445,1452054.2,1177012.8,1869176.5,-39.02769,60.7121454970038,0.044477955,-4.4664162e-08,0.02385055,0.009457147,1.0,43,0.021722173,1.1621253e-08,0,-9.661764781687133e-09,1.0
98,98,4.907347,1556360.1,1275312.9,2012133.1,-39.331882,61.40456574319978,0.04445079,3.209944e-08,0.0254306,0.010215901,1.0,43,0.02176378,1.0816272e-08,0,-9.684464847945446e-09,1.0
99,99,4.245922,1665094.2,1356515.5,2147713.5,-39.16894,62.19229476727196,0.04443938,1.3076133e-08,0.0276327,0.011023517,1.0,43,0.021722615,1.0114298e-08,0,-9.541929513465133e-09,1.0
100,100,3.6747382,1785254.1,1456140.5,2303796.2,-39.202366,63.09191675670445,0.04447886,-9.122394e-09,0.029743388,0.011882529,1.0,43,0.021738276,9.43585e-09,0,-9.700826163169177e-09,1.0
101,101,3.180988,1904172.0,1567841.2,2466576.0,-39.46707,64.12019776550005,0.044498097,5.4593228e-09,0.031912144,0.01289351,1.0,43,0.021745436,8.816041e-09,0,-9.725289546899724e-09,1.0
102,102,2.752818,2042249.5,1666042.2,2635617.5,-39.207146,65.29914227486006,0.044485137,-2.0796682e-09,0.034702167,0.013866404,1.0,43,0.021747334,8.251324e-09,0,-9.548886880721221e-09,1.0
103,103,2.3804083,2203729.2,1773982.1,2829034.2,-38.83375,66.6539695659012,0.044467505,-9.809475e-10,0.037689418,0.014819771,1.0,43,0.021758305,7.691072e-09,0,-9.527855610068907e-09,1.0
104,104,2.060257,2348076.5,1880496.2,3008276.8,-38.690075,68.21029761314276,0.044481833,-5.698951e-10,0.041079607,0.01605224,1.0,43,0.021755226,7.23179e-09,0,-9.698728097893147e-09,1.0
105,105,1.7836765,2530275.0,1990678.0,3219486.0,-38.193676,69.9986821514467,0.04447202,-2.1865954e-08,0.044823218,0.017136889,1.0,43,0.02177561,6.763692e-09,0,-9.810906525716343e-09,1.0
