True,index,freq,Re(Z),Im(Z),Z,Phase(Z),time,Ewe_meas,I_meas,Cs,Cp,cycle_number,I_Range,Ewe,I,Ns,(QQo),cycle
0,0,7000018.5,235.45839,1398.7977,1418.4766,-80.44502,2.4654787304170895,0.007943656,1.1826324e-05,1.6254216e-05,1.5806349e-05,1.0,40,0.010107992,7.125949e-06,0,5.5702894095980405e-09,1.0
1,1,6057573.0,312.74567,1590.0356,1620.5009,-78.87248,3.0174807032744866,0.00791161,9.83543e-06,1.6523978e-05,1.5908521e-05,1.0,40,0.014224142,8.777621e-06,0,4.25161807503274e-09,1.0
2,2,5242039.0,316.70694,1796.8191,1824.517,-80.00373,3.433502883039182,0.0080134515,-2.5384546e-05,1.6897231e-05,1.6388094e-05,1.0,40,0.019624464,1.0755978e-05,0,1.750151175062658e-09,1.0
3,3,4536288.0,294.37216,2076.1707,2096.9358,-81.930046,4.801493161387043,0.0080249095,-3.4631426e-05,1.6898823e-05,1.6565795e-05,1.0,40,0.019056214,9.087648e-06,0,5.503093164280573e-09,1.0
4,4,3925558.5,341.83908,2328.7852,2353.7405,-81.64927,5.217492834461154,0.007968027,3.0948817e-07,1.7409617e-05,1.7042408e-05,1.0,40,0.01818145,7.724492e-06,0,5.104479144443353e-09,1.0
5,5,3397055.0,444.7813,2667.9954,2704.816,-80.53526,5.633499440882588,0.007941123,-2.4100775e-05,1.7560322e-05,1.708548e-05,1.0,40,0.019205024,7.1003074e-06,0,1.093250451990318e-09,1.0
6,6,2939708.2,491.1927,3039.2588,3078.6953,-80.81947,6.049489273951622,0.007907175,-2.1421592e-05,1.7813456e-05,1.7360016e-05,1.0,40,0.02103202,6.8314716e-06,0,3.1400878212808594e-10,1.0
7,7,2543924.5,627.38043,3444.642,3501.309,-79.677734,6.601497353549348,0.007845524,3.8392108e-07,1.816234e-05,1.7579201e-05,1.0,40,0.02084638,5.9538816e-06,0,-3.1686818921217412e-09,1.0
8,8,2201436.2,597.3259,3917.1833,3962.4644,-81.329834,7.153500819724286,0.007855864,1.9839824e-06,1.8456107e-05,1.8036704e-05,1.0,40,0.02033755,5.132551e-06,0,-2.395106934260285e-09,1.0
9,9,1905053.1,778.64075,4568.6963,4634.573,-80.32804,7.705499112635152,0.007864118,-4.9744294e-06,1.8286086e-05,1.7769935e-05,1.0,40,0.020638537,4.453169e-06,0,-2.2427063558881045e-09,1.0
10,10,1648567.4,880.2611,5196.8213,5270.845,-80.38623,8.25750236553722,0.007892028,-1.1523527e-05,1.8577002e-05,1.8058876e-05,1.0,40,0.019905277,3.7764867e-06,0,-4.612120133054355e-09,1.0
11,11,1426616.2,1024.4055,6230.559,6314.212,-80.66318,8.976485092978692,0.007883942,-2.568621e-06,1.790548e-05,1.7434186e-05,1.0,41,0.01949073,3.0868032e-06,0,-4.906096643453416e-09,1.0
12,12,1234551.2,1030.3203,7174.971,7248.5703,-81.82823,9.528486079216236,0.007833245,3.0849703e-06,1.7967632e-05,1.7604612e-05,1.0,41,0.020461982,2.822899e-06,0,-6.473619681432613e-09,1.0
13,13,1068345.5,1375.1873,8206.972,8321.39,-80.4877,10.080496985436184,0.007900058,-4.7212848e-06,1.8152043e-05,1.7656297e-05,1.0,41,0.020742469,2.492669e-06,0,-6.592765527346877e-09,1.0
14,14,924510.06,1983.2556,9354.017,9561.952,-78.02932,10.632498344959458,0.0078837,-5.574514e-07,1.8403922e-05,1.7612196e-05,1.0,41,0.02041043,2.1345463e-06,0,-7.494244502042748e-09,1.0
15,15,800039.0,2212.7034,10255.981,10491.959,-77.82518,11.184486317884875,0.007897301,-2.164513e-06,1.9396874e-05,1.8534165e-05,1.0,41,0.020571651,1.9607064e-06,0,-7.413268550408247e-09,1.0
16,16,692334.1,2924.7517,11859.707,12215.024,-76.146576,11.736488904076396,0.007862069,8.00077e-07,1.938342e-05,1.827215e-05,1.0,41,0.020315032,1.6631184e-06,0,-7.040033408520527e-09,1.0
17,17,599122.25,3976.8,13814.261,14375.282,-73.94014,12.288495570333907,0.007857615,1.6995094e-06,1.9229901e-05,1.7758226e-05,1.0,41,0.020624213,1.4346997e-06,0,-6.551568575117825e-09,1.0
18,18,518454.94,5145.1494,15566.097,16394.387,-71.70944,12.84049279653118,0.007841219,4.660375e-06,1.972102e-05,1.7778639e-05,1.0,41,0.020633638,1.2585795e-06,0,-6.935761876939574e-09,1.0
19,19,448662.03,6046.099,17576.94,18587.74,-71.01785,13.392500209418358,0.00786341,-1.4699198e-06,2.0181691e-05,1.8046412e-05,1.0,41,0.02013152,1.0830537e-06,0,-7.484807958705788e-09,1.0
20,20,388258.97,7766.6846,19515.707,21004.385,-68.29888,13.944499195640674,0.007927187,-2.2799672e-06,2.1004598e-05,1.8132721e-05,1.0,41,0.020936636,9.967746e-07,0,-7.237919226710688e-09,1.0
21,21,335983.9,9605.24,21820.27,23840.822,-66.241,14.496489008510252,0.007864416,2.833577e-06,2.1709086e-05,1.818525e-05,1.0,41,0.020347498,8.53473e-07,0,-7.344832299607005e-09,1.0
22,22,290751.2,11736.3125,23678.787,26427.75,-63.63484,15.048487141408259,0.007905313,1.2172053e-06,2.3117409e-05,1.855828e-05,1.0,41,0.020562448,7.7806277e-07,0,-6.301550670308921e-09,1.0
23,23,251605.19,15045.749,25500.975,29608.686,-59.459106,15.600485327624483,0.007846008,6.7158675e-07,2.480526e-05,1.8400053e-05,1.0,41,0.020529326,6.933549e-07,0,-6.553377030908476e-09,1.0
24,24,217729.38,17252.586,27461.783,32431.484,-57.861324,16.15247884715791,0.007866968,6.5668877e-07,2.6617936e-05,1.9085264e-05,1.0,41,0.020114047,6.2020126e-07,0,-6.835100419293225e-09,1.0
25,25,188418.58,20905.285,28378.744,35247.47,-53.622673,16.70450460675056,0.007885898,3.5315338e-07,2.9764818e-05,1.9294508e-05,1.0,41,0.020734169,5.882456e-07,0,-6.579011625139704e-09,1.0
26,26,163051.14,25270.719,29970.846,39202.816,-49.863194,17.25648740629549,0.007923143,-1.4010201e-06,3.2568467e-05,1.9035346e-05,1.0,41,0.020125879,5.133784e-07,0,-7.021796265918726e-09,1.0
27,27,141098.2,29792.34,30690.414,42772.48,-45.850693,17.672480946028372,0.007897898,9.788471e-07,3.6753263e-05,1.892224e-05,1.0,41,0.022111356,5.1695287e-07,0,-6.650792936211008e-09,1.0
28,28,122105.11,34682.547,31923.459,47137.95,-42.627934,18.224484252248658,0.007875856,9.043582e-07,4.0829716e-05,1.8726425e-05,1.0,41,0.02073484,4.3987572e-07,0,-6.528121891202924e-09,1.0
29,29,105663.59,37209.92,30786.225,48294.617,-39.6032,18.776484838483157,0.00783045,3.0793829e-06,4.8925842e-05,1.988171e-05,1.0,41,0.020136582,4.1695293e-07,0,-7.144641474539526e-09,1.0
30,30,91439.65,41979.93,30006.68,51601.504,-35.556667,19.192502271587728,0.007844946,5.24474e-07,5.80053e-05,1.961457e-05,1.0,41,0.021421341,4.151302e-07,0,-7.078814131579649e-09,1.0
31,31,79127.08,46765.484,31604.096,56443.152,-34.05081,19.911497612396488,0.007907568,-1.2730927e-06,6.364314e-05,1.9953352e-05,1.0,42,0.018626813,3.3001015e-07,0,-7.3746455483991724e-09,1.0
32,32,68475.36,50130.355,29996.479,58419.527,-30.89502,20.32749016545131,0.007874906,-5.8284576e-07,7.748463e-05,2.0428666e-05,1.0,42,0.019286703,3.3014138e-07,0,-7.507538853304475e-09,1.0
33,33,59252.523,53438.08,28277.982,60458.848,-27.88658,20.74348679857212,0.007897469,-1.0460523e-06,9.498715e-05,2.077983e-05,1.0,42,0.01986916,3.286394e-07,0,-7.553672044141516e-09,1.0
34,34,51282.285,57170.99,26961.75,63209.633,-25.248493,21.15948017835035,0.007858026,-5.3814523e-07,0.00011510778,2.094278e-05,1.0,42,0.020379884,3.2241738e-07,0,-7.626481211483435e-09,1.0
35,35,44369.8,60005.043,24075.668,64654.797,-21.86201,21.575497931422433,0.0079219695,-8.951886e-07,0.00014898904,2.0659008e-05,1.0,42,0.020738829,3.207624e-07,0,-7.78360273384256e-09,1.0
36,36,38403.727,61962.605,22281.494,65847.016,-19.778374,21.991484964528354,0.007916622,-1.0426991e-06,0.00018599551,2.129702e-05,1.0,42,0.020976229,3.1856007e-07,0,-7.8717014293197e-09,1.0
37,37,33226.32,63812.508,19969.77,66864.25,-17.37722,22.40749805091764,0.007932031,-9.706197e-07,0.00023986388,2.1395526e-05,1.0,42,0.021189399,3.1690178e-07,0,-7.950814380884531e-09,1.0
38,38,28754.086,65587.75,17756.348,67948.81,-15.148369,22.824484764103545,0.007905033,-1.1959831e-06,0.0003117216,2.1286804e-05,1.0,42,0.021331048,3.1392818e-07,0,-8.127285286729742e-09,1.0
39,39,24884.947,67226.266,16167.541,69143.04,-13.522515,23.240499877167167,0.007892513,-6.79136e-07,0.00039558468,2.1628703e-05,1.0,42,0.021384822,3.092838e-07,0,-8.259437292736433e-09,1.0
40,40,21553.963,68105.61,14074.469,69544.695,-11.676181,23.657504910283023,0.007867789,-5.364674e-07,0.0005246395,2.148805e-05,1.0,42,0.021405667,3.0779728e-07,0,-8.449371869009785e-09,1.0
41,41,18631.234,68882.99,12702.327,70044.38,-10.448219,24.07348837007885,0.007922621,-9.195859e-07,0.0006725045,2.2116437e-05,1.0,42,0.021329751,3.0451764e-07,0,-8.455953895147811e-09,1.0
42,42,16126.037,69736.945,10514.3,70525.12,-8.5739565,24.489504603174282,0.007902984,-1.0391589e-06,0.00093866827,2.0863405e-05,1.0,42,0.021202506,3.0063768e-07,0,-8.659927489477562e-09,1.0
43,43,13954.87,68961.59,10239.158,69717.586,-8.445362,24.90549870292307,0.007959941,-1.1907665e-06,0.0011138587,2.4025583e-05,1.0,42,0.020752963,2.9767185e-07,0,-8.764682528307175e-09,1.0
44,44,12080.609,69415.25,9915.342,70119.836,-8.129194,25.321484002663055,0.007877234,-9.2088806e-07,0.0013286897,2.6567897e-05,1.0,42,0.020471033,2.9194354e-07,0,-8.884185132235384e-09,1.0
45,45,10447.592,70947.31,6799.784,71272.42,-5.474662,25.737480849114945,0.007949302,-1.2386323e-06,0.0022403134,2.0391823e-05,1.0,42,0.020242281,2.8401283e-07,0,-8.969753020083873e-09,1.0
46,46,9045.586,70873.7,5723.3433,71104.42,-4.6168513,26.31025436965865,0.007907921,-7.577313e-07,0.0030742108,1.9917738e-05,1.0,42,0.0203191,2.8576423e-07,0,-9.200477994149815e-09,1.0
47,47,7827.7437,71018.664,4472.1997,71159.336,-3.603282,26.790928285830887,0.007866782,-6.351777e-07,0.0045463447,1.7957296e-05,1.0,42,0.020468507,2.876433e-07,0,-9.449386056695392e-09,1.0
48,48,6770.8345,70812.805,4014.859,70926.53,-3.2450125,27.329420311405556,0.007896388,-8.190074e-07,0.0058547407,1.8759913e-05,1.0,42,0.020559961,2.8987688e-07,0,-9.355423920417315e-09,1.0
49,49,5860.798,70590.44,3160.2979,70661.15,-2.563391,27.935971966886427,0.008027295,-1.6906628e-06,0.008592813,1.7188184e-05,1.0,42,0.020654947,2.923098e-07,0,-9.53390679889231e-09,1.0
50,50,5071.625,70694.58,2854.8423,70752.195,-2.3125055,28.61669405257271,0.007910754,-7.8697207e-07,0.010992358,1.7896797e-05,1.0,42,0.020805739,2.9406493e-07,0,-9.876293477532272e-09,1.0
51,51,4388.5933,70453.46,2277.612,70490.266,-1.8516071,29.2968249648693,0.0078973565,-5.413065e-07,0.01592264,1.6623262e-05,1.0,42,0.020877771,2.961795e-07,0,-9.895371537382402e-09,1.0
52,52,3798.7827,70534.15,1960.3389,70561.38,-1.5919982,29.97681881050812,0.007900394,-6.249331e-07,0.02137197,1.6495773e-05,1.0,42,0.020998182,2.9758746e-07,0,-9.803253603659338e-09,1.0
53,53,3286.0488,70275.88,1790.7712,70298.695,-1.4596962,30.65668348280451,0.007870732,-7.8622645e-07,0.027046183,1.755059e-05,1.0,42,0.021049501,2.9942947e-07,0,-9.76132025598512e-09,1.0
54,54,2844.088,70051.086,1914.0635,70077.234,-1.5651503,31.33681580843404,0.007903934,-5.8116365e-07,0.029236192,2.1811198e-05,1.0,42,0.021055201,3.004571e-07,0,-9.938898320813887e-09,1.0
55,55,2460.7852,69658.94,1902.9152,69684.92,-1.5647942,32.01671848073602,0.007900972,-3.4108567e-07,0.03398811,2.5344762e-05,1.0,42,0.021028886,3.0177097e-07,0,-9.815818944694064e-09,1.0
56,56,2129.3164,70137.69,1861.5791,70162.39,-1.520375,32.69680488636368,0.007868106,-4.384954e-07,0.040151194,2.826524e-05,1.0,42,0.021198409,3.0213351e-07,0,-1.0033823089167349e-08,1.0
57,57,1843.2289,70007.86,2060.307,70038.17,-1.6857082,33.37693742531701,0.007896742,-4.4501394e-07,0.041909162,3.6266294e-05,1.0,42,0.021191863,3.025759e-07,0,-9.936916612114525e-09,1.0
58,58,1594.4913,69993.195,1926.7238,70019.71,-1.5768,34.056845804298064,0.007904344,-6.176688e-07,0.051805813,3.9226252e-05,1.0,42,0.02122187,3.0308425e-07,0,-9.7876592354835e-09,1.0
59,59,1380.4436,69816.586,2116.7185,69848.664,-1.7365773,34.73670711659361,0.007889215,-5.9233867e-07,0.054467615,5.002054e-05,1.0,42,0.021185912,3.0331162e-07,0,-9.84464417432365e-09,1.0
60,60,1194.6187,69998.336,2280.8406,70035.484,-1.8662775,35.416824295563856,0.007898643,-5.3068936e-07,0.058411174,6.195117e-05,1.0,42,0.021244334,3.0333672e-07,0,-9.754390729432947e-09,1.0
61,61,1033.3434,70170.85,2867.0378,70229.4,-2.3396873,36.097085581190186,0.007958059,-7.23273e-07,0.053720746,8.95305e-05,1.0,42,0.02125463,3.0264576e-07,0,-9.793839199763868e-09,1.0
62,62,894.71045,69860.52,2370.5686,69900.734,-1.943465,36.77680756014888,0.007910567,-7.5791553e-07,0.075038664,8.630316e-05,1.0,42,0.021205096,3.0336014e-07,0,-1.0088909293121635e-08,1.0
63,63,774.2569,69238.7,2467.7593,69282.664,-2.0412335,37.45694847244886,0.007918001,-6.9347277e-07,0.08329756,0.000105679006,1.0,42,0.021039747,3.0367983e-07,0,-1.0052753754285011e-08,1.0
64,64,669.7856,70438.42,3302.1672,70515.78,-2.6840725,38.13681613141671,0.007945892,-6.6292745e-07,0.071959026,0.00015780138,1.0,42,0.02129308,3.019619e-07,0,-9.97542186289814e-09,1.0
65,65,579.81464,70487.7,3590.886,70579.11,-2.916323,38.81680861704808,0.007892308,-6.2660865e-07,0.07644153,0.00019787013,1.0,42,0.021262258,3.012543e-07,0,-1.0288839836879522e-08,1.0
66,66,501.44418,70601.48,4031.5361,70716.49,-3.2681954,39.49418808918563,0.007874478,-5.873098e-07,0.078727596,0.0002558743,1.0,42,0.021257417,3.0060056e-07,0,-1.067119803506284e-08,1.0
67,67,434.02762,70553.85,4956.5244,70727.74,-4.0185204,40.174228814808885,0.007932291,-5.2919916e-07,0.07398191,0.0003633293,1.0,42,0.021193141,2.9964397e-07,0,-1.062507523130623e-08,1.0
68,68,375.6009,71019.375,5032.573,71197.46,-4.053317,40.85344671373605,0.007892755,-6.4523414e-07,0.08419832,0.00042068266,1.0,42,0.021240765,2.98336e-07,0,-1.0451771734681061e-08,1.0
69,69,325.10385,71224.875,5790.6543,71459.88,-4.6479816,41.532697652721254,0.00795206,-4.297412e-07,0.08454158,0.0005551381,1.0,42,0.021244312,2.9729006e-07,0,-1.0292979318363236e-08,1.0
70,70,281.3503,71777.82,6234.233,72048.05,-4.963944,42.20979496487416,0.007873732,-5.8190886e-07,0.0907381,0.00067937776,1.0,42,0.021283666,2.9540934e-07,0,-1.017708462175114e-08,1.0
71,71,243.36427,72000.31,6909.451,72331.086,-5.481557,42.89311542393989,0.007933503,-7.243909e-07,0.094649814,0.000863688,1.0,42,0.02124975,2.9378447e-07,0,-1.0277245323930767e-08,1.0
72,72,210.60631,72451.445,7788.7163,72868.9,-6.1358786,43.57018953611259,0.007878558,-4.064602e-07,0.09702483,0.0011084861,1.0,42,0.021281773,2.9205566e-07,0,-1.0643534509515323e-08,1.0
73,73,182.27473,73505.37,8924.474,74045.16,-6.922544,44.24125690132496,0.007875316,-5.1355437e-07,0.09783878,0.0014212908,1.0,42,0.02139089,2.888898e-07,0,-1.0437370962384938e-08,1.0
74,74,157.72879,73824.445,10078.892,74509.28,-7.7742496,44.92962506740332,0.007920199,-4.1800755e-07,0.10011436,0.0018318975,1.0,42,0.02133696,2.8636646e-07,0,-1.0386029088114886e-08,1.0
75,75,136.52892,74199.945,10604.455,74953.9,-8.133479,45.601510592590785,0.0078011984,-4.841272e-07,0.1099277,0.0022003683,1.0,42,0.021311307,2.8432552e-07,0,-1.062228964449869e-08,1.0
76,76,118.14758,74473.89,11561.223,75365.92,-8.824082,46.289885185309686,0.007919435,-6.618106e-07,0.116517596,0.0027418837,1.0,42,0.02122353,2.8160645e-07,0,-1.0851621052019311e-08,1.0
77,77,102.25773,75344.22,12483.484,76371.38,-9.407646,46.95632905696402,0.007922584,-7.310961e-07,0.124677524,0.003331183,1.0,42,0.021247515,2.7821307e-07,0,-1.1043252068006382e-08,1.0
78,78,88.4436,76201.79,14020.191,77480.83,-10.425126,47.64626586306258,0.007905946,-5.7427286e-07,0.12835114,0.0042026103,1.0,42,0.02125142,2.7427973e-07,0,-1.112170326432249e-08,1.0
79,79,76.54279,76927.984,15476.41,78469.32,-11.374953,48.31373432146211,0.00796607,-8.707844e-07,0.13435245,0.005226203,1.0,42,0.021234063,2.7060338e-07,0,-1.1339908604289424e-08,1.0
80,80,66.250786,78051.96,16845.26,79849.055,-12.17884,48.98197808652185,0.007892401,-4.9995896e-07,0.14261046,0.006346982,1.0,42,0.021243269,2.6604283e-07,0,-1.1275523346894387e-08,1.0
81,81,57.329906,78907.93,18620.336,81075.14,-13.277505,49.63663041097425,0.007926963,-8.406123e-07,0.14909099,0.007864135,1.0,42,0.021218264,2.617111e-07,0,-1.1569814279552146e-08,1.0
82,82,49.60321,80332.06,20375.748,82875.88,-14.232579,50.32136559011997,0.0078932205,-7.405953e-07,0.15746962,0.009518479,1.0,42,0.02123736,2.5625502e-07,0,-1.1651283659061404e-08,1.0
83,83,42.92585,81720.04,22249.965,84694.9,-15.230762,51.029412263742415,0.007925714,-9.672634e-07,0.16663718,0.011500482,1.0,42,0.021242702,2.5081442e-07,0,-1.1633222701462386e-08,1.0
84,84,37.1518,83119.07,24468.902,86645.875,-16.40357,51.67319013431552,0.007864062,-2.1499493e-07,0.17507568,0.013962366,1.0,42,0.021227852,2.4499553e-07,0,-1.1898677538954732e-08,1.0
85,85,32.150223,85217.164,26664.523,89291.445,-17.374947,52.31235747135361,0.007911163,-4.876668e-07,0.18565314,0.016555803,1.0,42,0.021285685,2.3838437e-07,0,-1.2179575095796874e-08,1.0
86,86,27.835518,86754.9,29279.055,91562.414,-18.649109,53.04032369257766,0.007912691,-9.012374e-07,0.1952827,0.019968405,1.0,42,0.021259025,2.321807e-07,0,-1.2462976539497659e-08,1.0
87,87,24.082958,89325.01,32915.94,95196.73,-20.228659,53.74240199258202,0.007894078,-6.534301e-07,0.20077239,0.024003388,1.0,42,0.021403499,2.2483441e-07,0,-1.2752548998760303e-08,1.0
88,88,20.833313,90761.305,34974.035,97266.63,-21.07371,54.396753783730674,0.007904642,-6.862104e-07,0.2184319,0.02824098,1.0,42,0.02123501,2.1831751e-07,0,-1.2261531683190835e-08,1.0
89,89,18.021912,93361.74,38127.78,100847.125,-22.214497,55.14274515249417,0.00796772,-8.6454605e-07,0.23162091,0.033108063,1.0,42,0.021263255,2.1084641e-07,0,-1.298672622348186e-08,1.0
90,90,15.604198,96013.45,41065.93,104426.98,-23.156889,55.798007236939156,0.007921094,-6.579004e-07,0.24836878,0.03840917,1.0,42,0.021243649,2.0343066e-07,0,-1.2490724051624448e-08,1.0
91,91,13.500899,99020.664,44792.63,108680.59,-24.33992,56.545961672469275,0.007879964,-7.9954475e-07,0.2631788,0.0447054,1.0,42,0.021267263,1.9568593e-07,0,-1.2457695557435736e-08,1.0
92,92,11.686608,102569.17,48506.48,113460.625,-25.310162,57.1368770605186,0.007953756,-9.180938e-07,0.28075784,0.051314615,1.0,42,0.02131401,1.878538e-07,0,-1.2731538419684638e-08,1.0
93,93,10.113269,104762.59,52199.977,117047.164,-26.485664,58.06050675766892,0.007958376,-7.580099e-07,0.30147985,0.05996214,1.0,43,0.021128083,1.8050913e-07,0,-1.30027231079421e-08,1.0
94,94,8.748621,108724.125,57391.984,122942.164,-27.828136,58.827377327455906,0.007885489,-7.0039073e-07,0.31697813,0.069076456,1.0,43,0.021245064,1.7280536e-07,0,-1.2499541178199377e-08,1.0
95,95,7.570237,112529.51,62160.13,128556.49,-28.915804,59.703011582401814,0.007875474,-7.5040276e-07,0.33821955,0.079074144,1.0,43,0.021238357,1.6520642e-07,0,-1.439474347608854e-08,1.0
96,96,6.554112,116520.586,67485.93,134652.88,-30.078394,60.23929958118242,0.007866559,-7.072628e-07,0.35982642,0.09038331,1.0,43,0.0212534,1.5783844e-07,0,-1.27759559152649e-08,1.0
97,97,5.669445,120441.44,73272.766,140978.86,-31.31501,60.849129050184274,0.007905834,-8.427635e-07,0.38312194,0.103493765,1.0,43,0.02124755,1.5071444e-07,0,-1.4754547977803315e-08,1.0
98,98,4.907347,124851.29,79506.56,148017.36,-32.489395,61.541565429681214,0.007890072,-5.5664157e-07,0.40791562,0.117693104,1.0,43,0.021256829,1.4361038e-07,0,-1.2616117589842564e-08,1.0
99,99,4.245922,129077.42,86569.11,155419.4,-33.8488,62.329312107147416,0.007892708,-1.010426e-06,0.4329973,0.13433853,1.0,43,0.021238431,1.3665237e-07,0,-1.473408106936505e-08,1.0
100,100,3.6747382,133606.89,94134.914,163438.62,-35.167233,63.22894540321431,0.007884818,-6.791063e-07,0.4600902,0.15262829,1.0,43,0.02122488,1.2986453e-07,0,-1.510691330434434e-08,1.0
101,101,3.180988,137825.42,102943.56,172026.81,-36.756523,64.25724115871708,0.0079039335,-6.3398363e-07,0.4860253,0.17404638,1.0,43,0.021226527,1.233908e-07,0,-1.2921245456989064e-08,1.0
102,102,2.752818,142817.36,113152.56,182209.5,-38.38938,65.43609804139123,0.007880191,-8.6839935e-07,0.5109498,0.19704479,1.0,43,0.02122584,1.164914e-07,0,-1.3961814541758599e-08,1.0
103,103,2.3804083,147504.42,124070.27,192745.9,-40.068172,66.79099690573639,0.007905028,-8.1107817e-07,0.538891,0.22328836,1.0,43,0.021215634,1.1007048e-07,0,-1.6693067815729595e-08,1.0
104,104,2.060257,153001.67,138028.62,206061.67,-42.05482,68.3462673262402,0.007868101,-6.8938226e-07,0.5596669,0.25111547,1.0,43,0.021259723,1.0317165e-07,0,-1.6714017685338373e-08,1.0
105,105,1.7836765,157976.42,152514.34,219584.1,-43.99217,70.1346582379083,0.007898461,-6.828214e-07,0.5850505,0.28223637,1.0,43,0.021251814,9.6782124e-08,0,-1.4504424501475278e-08,1.0
