True,index,freq,Re(Z),Im(Z),Z,Phase(Z),time,Ewe_meas,I_meas,Cs,Cp,cycle_number,I_Range,Ewe,I,Ns,(QQo),cycle
110,110,7000018.5,161.26167,1575.2123,1583.4453,-84.15473,82.84249974813429,-0.015897641,1.2793797e-05,1.443384e-05,1.4284134e-05,2.0,40,0.010109449,6.3844636e-06,0,-1.4155141232323605e-08,2.0
111,111,6057573.0,343.46765,1821.37,1853.472,-79.32077,83.39449636099744,-0.015852515,-2.6110183e-05,1.442525e-05,1.3929887e-05,2.0,40,0.014316215,7.723998e-06,0,-1.3707807768192422e-08,2.0
112,112,5242039.0,358.36713,2086.9683,2117.5134,-80.256386,83.8104964340746,-0.01580206,-5.96053e-06,1.4548025e-05,1.4131341e-05,2.0,40,0.019806352,9.35359e-06,0,-1.6331417265166612e-08,2.0
113,113,4536288.0,337.51044,2386.6257,2410.3726,-81.95075,85.04249723927933,-0.015831368,-2.1514621e-05,1.4700604e-05,1.4412372e-05,2.0,40,0.020628193,8.558093e-06,0,-2.8628909975769626e-08,2.0
114,114,3925558.5,398.9298,2718.804,2747.9155,-81.652565,85.4584937657055,-0.015886499,-2.1793712e-05,1.4912167e-05,1.459788e-05,2.0,40,0.019512115,7.1006966e-06,0,-3.3232668473514496e-08,2.0
115,115,3397055.0,439.7594,3048.2998,3079.8572,-81.79093,85.87449821209884,-0.0158941,-2.4584513e-05,1.5369504e-05,1.50561555e-05,2.0,40,0.020714466,6.725788e-06,0,-3.465116934518283e-08,2.0
116,116,2939708.2,512.4791,3506.1504,3543.406,-81.684204,86.42649775833706,-0.015897939,-3.1822008e-05,1.5441354e-05,1.5118357e-05,2.0,40,0.021001168,5.926831e-06,0,-4.086541038590457e-08,2.0
117,117,2543924.5,533.9462,4040.929,4076.0527,-82.472855,86.97849634455633,-0.015946027,-1.9151745e-05,1.5482272e-05,1.5216597e-05,2.0,40,0.020506915,5.031072e-06,0,-4.841859022561776e-08,2.0
118,118,2201436.2,724.5123,4492.736,4550.7793,-80.83917,87.53050162413274,-0.015946846,-1.5244609e-05,1.6091744e-05,1.5683874e-05,2.0,40,0.020849898,4.5816105e-06,0,-5.496449985980176e-08,2.0
119,119,1905053.1,502.92496,5417.4917,5440.7856,-84.69623,88.24850299154059,-0.015901348,-4.9186924e-06,1.542108e-05,1.5289315e-05,2.0,41,0.01938878,3.5635992e-06,0,-5.5540890288825767e-08,2.0
120,120,1648567.4,660.09955,6453.095,6486.7686,-84.15942,88.80048891107435,-0.01589138,-2.4959832e-06,1.4960475e-05,1.4805556e-05,2.0,41,0.020157792,3.1075244e-06,0,-5.665047352420495e-08,2.0
121,121,1426616.2,769.08154,7289.5215,7329.98,-83.97729,89.35249549729633,-0.015903957,-3.2095758e-07,1.5304317e-05,1.5135836e-05,2.0,41,0.02012554,2.7456474e-06,0,-5.6859630887229586e-08,2.0
122,122,1234551.2,941.8361,8430.031,8482.48,-83.62513,89.9044995768636,-0.015915714,-1.3023258e-06,1.5292617e-05,1.5104086e-05,2.0,41,0.020795388,2.4515693e-06,0,-5.702649898070867e-08,2.0
123,123,1068345.5,1219.9188,9649.61,9726.417,-82.7948,90.45649373644846,-0.015925588,-2.5146044e-06,1.543827e-05,1.519541e-05,2.0,41,0.020727545,2.1310566e-06,0,-5.7114233361696716e-08,2.0
124,124,924510.06,1458.8555,11236.494,11330.802,-82.60256,91.00848456265521,-0.01589805,-2.0732687e-06,1.5320666e-05,1.50666965e-05,2.0,41,0.020314407,1.7928481e-06,0,-5.7346252054194005e-08,2.0
125,125,800039.0,2123.2302,12434.939,12614.905,-80.310356,91.56049296222045,-0.015889127,-3.0564986e-06,1.5997985e-05,1.5544781e-05,2.0,41,0.020617861,1.6344047e-06,0,-5.684463854652814e-08,2.0
126,126,692334.1,2046.4734,14591.832,14734.64,-82.016464,92.11250328176538,-0.015876643,-8.3864353e-07,1.5754136e-05,1.5450238e-05,2.0,41,0.020177968,1.3694239e-06,0,-5.762350614009056e-08,2.0
127,127,599122.25,3008.5535,16661.654,16931.1,-79.764534,92.66448482798296,-0.01596233,2.6697037e-06,1.5943606e-05,1.5440184e-05,2.0,41,0.020572353,1.2150631e-06,0,-5.820488439672486e-08,2.0
128,128,518454.94,3787.6016,19439.45,19805.002,-78.97457,93.21649816082208,-0.01590595,-1.4084704e-06,1.5791564e-05,1.52139955e-05,2.0,41,0.020676015,1.0439794e-06,0,-5.749683013497473e-08,2.0
129,129,448662.03,5194.7114,21704.559,22317.547,-76.54017,93.76849341372144,-0.015890654,-2.8460724e-06,1.634368e-05,1.5458198e-05,2.0,41,0.020325098,9.1072275e-07,0,-5.750742060327823e-08,2.0
130,130,388258.97,6598.4326,24723.59,25588.967,-75.05674,94.32050319996779,-0.015927283,-5.239348e-07,1.6580098e-05,1.5477637e-05,2.0,41,0.02084929,8.147765e-07,0,-5.779489989655061e-08,2.0
131,131,335983.9,5941.9243,27055.266,27700.07,-77.61326,94.87250805282383,-0.01594927,1.222419e-07,1.7508535e-05,1.6702892e-05,2.0,41,0.020625707,7.446085e-07,0,-5.7920242850707736e-08,2.0
132,132,290751.2,11165.481,31297.559,33229.582,-70.36601,95.42548639912275,-0.01590757,5.524055e-07,1.7489934e-05,1.551527e-05,2.0,41,0.020577617,6.1925596e-07,0,-5.76650243048243e-08,2.0
133,133,251605.19,14010.023,34946.566,37650.277,-68.15423,95.97748594530276,-0.015853446,-2.0546465e-06,1.8100727e-05,1.5594402e-05,2.0,41,0.020413116,5.42177e-07,0,-5.7582054656179454e-08,2.0
134,134,217729.38,17439.236,38548.445,42309.688,-65.658104,96.52948847823427,-0.015887951,-2.0118166e-06,1.896253e-05,1.5740929e-05,2.0,41,0.020165393,4.7661408e-07,0,-5.810830495515419e-08,2.0
135,135,188418.58,21150.576,42185.492,47190.703,-63.372147,97.08149045109167,-0.01591929,2.3270613e-06,2.0023192e-05,1.6000982e-05,2.0,41,0.020667141,4.379494e-07,0,-5.777915451206115e-08,2.0
136,136,163051.14,24823.693,47755.754,53822.188,-62.53435,97.79950571185327,-0.015914092,-9.015219e-07,2.0439515e-05,1.6091604e-05,2.0,42,0.019386664,3.6019836e-07,0,-5.724042967428428e-08,2.0
137,137,141098.2,31051.139,51679.586,60290.57,-59.00089,98.21550671829027,-0.015913421,-4.4427512e-07,2.1826274e-05,1.6036844e-05,2.0,42,0.021135157,3.5055493e-07,0,-5.7342752039847904e-08,2.0
138,138,122105.11,34895.297,51407.098,62131.887,-55.831215,98.767498317844,-0.015932221,-5.539771e-07,2.5354977e-05,1.7357226e-05,2.0,42,0.020046122,3.2263824e-07,0,-5.737604628434628e-08,2.0
139,139,105663.59,43992.83,56912.984,71933.695,-52.29655,99.18349615091574,-0.015878003,-7.1545685e-07,2.6465701e-05,1.6566904e-05,2.0,42,0.021559283,2.9971048e-07,0,-5.737562945827593e-08,2.0
140,140,91439.65,52773.17,58694.617,78930.766,-48.040836,99.73549668383203,-0.01591957,-4.9977797e-07,2.9654277e-05,1.6398013e-05,2.0,42,0.02040253,2.584864e-07,0,-5.7437738178454844e-08,2.0
141,141,79127.08,60625.93,59735.164,85110.48,-44.575974,100.15149257026496,-0.015920185,-8.434113e-07,3.367169e-05,1.6586662e-05,2.0,42,0.021343596,2.507752e-07,0,-5.75064680267769e-08,2.0
142,142,68475.36,68797.695,60475.676,91599.29,-41.316647,100.70350582312676,-0.015931848,-1.9041477e-07,3.843307e-05,1.6752605e-05,2.0,42,0.020248055,2.2105036e-07,0,-5.767056346910099e-08,2.0
143,143,59252.523,77136.08,59388.113,97349.484,-37.593163,101.11949328289484,-0.015941052,-4.439025e-07,4.5228662e-05,1.6832379e-05,2.0,42,0.02088669,2.1455367e-07,0,-5.77192135357577e-08,2.0
144,144,51282.285,84738.41,58669.39,103066.46,-34.697136,101.53549300928717,-0.015940623,-4.621551e-07,5.2898235e-05,1.7140743e-05,2.0,42,0.021397455,2.0760832e-07,0,-5.774000285153037e-08,2.0
145,145,44369.8,93603.734,52796.79,107467.016,-29.424988,101.95150001576985,-0.015919626,-6.1432235e-07,6.793993e-05,1.6397958e-05,2.0,42,0.02184304,2.0325344e-07,0,-5.7760216238131235e-08,2.0
146,146,38403.727,98962.86,49222.43,110528.26,-26.444963,102.50350441530463,-0.015913552,-6.450537e-07,8.41945e-05,1.669795e-05,2.0,42,0.020220231,1.8294173e-07,0,-5.7910259857975806e-08,2.0
147,147,33226.32,103486.74,45592.07,113084.67,-23.776348,102.91949086173554,-0.015945785,-2.97509e-07,0.00010506271,1.707732e-05,2.0,42,0.02040236,1.8041668e-07,0,-5.7973344875910255e-08,2.0
148,148,28754.086,108593.24,41544.453,116268.8,-20.935322,103.33549888149719,-0.015900416,-7.361304e-07,0.00013323169,1.7010116e-05,2.0,42,0.020531133,1.7658334e-07,0,-5.799040258050919e-08,2.0
149,149,24884.947,112408.41,37354.793,118452.65,-18.382328,103.75149676788715,-0.015888138,-7.76733e-07,0.00017121313,1.7027081e-05,2.0,42,0.020546494,1.7345745e-07,0,-5.809809760766783e-08,2.0
150,150,21553.963,114828.29,34135.13,119794.586,-16.55569,104.16848796102568,-0.015938109,-2.734822e-07,0.00021631739,1.7563867e-05,2.0,42,0.020527959,1.7135966e-07,0,-5.809492075944967e-08,2.0
151,151,18631.234,117099.625,30504.725,121007.69,-14.601172,104.58448475415935,-0.01589846,-5.8750146e-07,0.0002800344,1.7795888e-05,2.0,42,0.020434044,1.6886567e-07,0,-5.816398154197364e-08,2.0
152,152,16126.037,119773.61,26474.598,122664.67,-12.4641695,105.00049573389697,-0.015927525,-5.1579445e-07,0.00037278899,1.736532e-05,2.0,42,0.02032236,1.6567411e-07,0,-5.818948859930294e-08,2.0
153,153,13954.87,120522.85,24782.227,123044.37,-11.619358,105.4164946336823,-0.01585816,-4.6830013e-07,0.00046020787,1.8668576e-05,2.0,42,0.020006184,1.6259325e-07,0,-5.8280655018243584e-08,2.0
154,154,12080.609,120795.68,19365.5,122338.13,-9.107939,105.83250542674796,-0.015856298,-4.642024e-07,0.00068030326,1.7046541e-05,2.0,42,0.01966608,1.6075184e-07,0,-5.83632282516585e-08,2.0
155,155,10447.592,122598.42,17866.652,123893.46,-8.291524,106.24849909983459,-0.01590405,-4.6196712e-07,0.00085263024,1.77317e-05,2.0,42,0.019222232,1.551513e-07,0,-5.8476748708658575e-08,2.0
156,156,9045.586,122980.84,16250.083,124049.805,-7.527177,106.68025936037884,-0.01591564,-4.3477425e-07,0.0010827491,1.8580047e-05,2.0,42,0.021898227,1.765277e-07,0,-5.842032073964651e-08,2.0
157,157,7827.7437,123751.11,14462.804,124593.375,-6.665924,107.15994892982417,-0.01589941,-4.303042e-07,0.0014058242,1.8942885e-05,2.0,42,0.021976724,1.7638759e-07,0,-5.856605915867104e-08,2.0
158,158,6770.8345,123353.77,13554.053,124096.195,-6.270478,107.69840114205726,-0.015912062,-3.600872e-07,0.0017342384,2.0688556e-05,2.0,42,0.021982493,1.7714075e-07,0,-5.84846343871504e-08,2.0
159,159,5860.798,124075.516,12001.916,124654.64,-5.525073,108.501969473582,-0.016073413,9.64903e-07,0.002262626,2.0974763e-05,2.0,42,0.020260688,1.6253456e-07,0,-5.8251906477744695e-08,2.0
160,160,5071.625,124466.76,11837.6875,125028.414,-5.4329004,109.18272161258938,-0.015894305,-3.224646e-07,0.002650978,2.3764158e-05,2.0,42,0.020314813,1.6248157e-07,0,-5.8355553293833866e-08,2.0
161,161,4388.5933,123180.6,12628.246,123826.22,-5.853408,109.86281876488647,-0.015889183,-5.238021e-07,0.002871784,2.9868446e-05,2.0,42,0.020262834,1.6363929e-07,0,-5.836383630760188e-08,2.0
162,162,3798.7827,124704.17,10624.478,125155.945,-4.8696947,110.54283581051277,-0.01593876,-5.502496e-07,0.0039433753,2.8417136e-05,2.0,42,0.02039164,1.6292985e-07,0,-5.848559942729459e-08,2.0
163,163,3286.0488,124699.39,10462.508,125137.53,-4.7959886,111.22270506948553,-0.015916552,-4.3309757e-07,0.004629247,3.235987e-05,2.0,42,0.020411562,1.6311303e-07,0,-5.865676763736892e-08,2.0
164,164,2844.088,125504.07,10916.621,125977.95,-4.9712014,111.90282584844681,-0.015926221,-4.6140758e-07,0.0051261215,3.849251e-05,2.0,42,0.020483602,1.6259672e-07,0,-5.862246593171921e-08,2.0
165,165,2460.7852,125841.33,11185.316,126337.45,-5.079346,112.58270518741483,-0.015935594,-2.8297885e-07,0.005782267,4.5324232e-05,2.0,42,0.02048054,1.621098e-07,0,-5.87828291012927e-08,2.0
166,166,2129.3164,126116.45,11216.168,126614.23,-5.0822296,113.26281721971463,-0.015890952,-5.830295e-07,0.0066640065,5.229491e-05,2.0,42,0.020489316,1.6182476e-07,0,-5.884997939653442e-08,2.0
167,167,1843.2289,126541.836,12185.698,127127.21,-5.5004954,113.94293866533553,-0.015950276,-3.0700517e-07,0.007085826,6.5104985e-05,2.0,42,0.020488977,1.611691e-07,0,-5.905312038590951e-08,2.0
168,168,1594.4913,127261.67,12506.398,127874.72,-5.6126113,114.62285173762939,-0.015881468,-4.3477357e-07,0.007981154,7.634153e-05,2.0,42,0.020502167,1.603301e-07,0,-5.925487987021959e-08,2.0
169,169,1380.4436,128152.38,13093.046,128819.49,-5.833542,115.30271355660807,-0.015913049,-4.858065e-07,0.008805636,9.096598e-05,2.0,42,0.02052486,1.5933038e-07,0,-5.935137397334521e-08,2.0
170,170,1194.6187,128767.586,13599.203,129483.7,-6.0286856,115.98184804219636,-0.015913086,-4.155897e-07,0.0097966455,0.00010806227,2.0,42,0.020526674,1.5852709e-07,0,-5.952914464480388e-08,2.0
171,171,1033.3434,129977.78,15232.519,130867.31,-6.6841893,116.66207151449635,-0.01589725,-2.5802123e-07,0.010111224,0.00013698872,2.0,42,0.020566493,1.5715531e-07,0,-5.96964953541794e-08,2.0
172,172,894.71045,130575.41,16150.506,131570.42,-7.0509434,117.34183696011314,-0.015914036,-3.21533e-07,0.0110141635,0.00016596145,2.0,42,0.020538848,1.5610536e-07,0,-5.970307313977338e-08,2.0
173,173,774.2569,130179.03,16568.111,131229.12,-7.2531385,118.02197488574893,-0.015899057,-4.990303e-07,0.012406865,0.00019776417,2.0,42,0.020392448,1.5539575e-07,0,-5.964052969441881e-08,2.0
174,174,669.7856,132305.08,18355.598,133572.31,-7.8986197,118.70183707804244,-0.015912546,-4.5619268e-07,0.012945411,0.00024446685,2.0,42,0.020493064,1.5342299e-07,0,-5.982225617958982e-08,2.0
175,175,579.81464,133699.81,20059.6,135196.25,-8.532705,119.38185169702047,-0.015929371,-3.4816713e-07,0.013683863,0.00030124784,2.0,42,0.020520376,1.5178213e-07,0,-5.997928961016127e-08,2.0
176,176,501.44418,135106.94,22172.12,136914.16,-9.319621,120.05920383581542,-0.015946474,-2.9154688e-07,0.014314966,0.00037541188,2.0,42,0.020522723,1.4989482e-07,0,-6.007195799586403e-08,2.0
177,177,434.02762,136729.62,23522.072,138738.17,-9.761244,120.7392104814353,-0.015922291,-4.5954545e-07,0.015589321,0.00044811182,2.0,42,0.020538758,1.480397e-07,0,-6.004916880074183e-08,2.0
178,178,375.6009,138128.98,26272.254,140605.3,-10.769074,121.41843187369523,-0.015966503,-2.4833676e-07,0.016128581,0.00056310254,2.0,42,0.020527562,1.4599424e-07,0,-6.004784584681803e-08,2.0
179,179,325.10385,140065.48,27646.77,142767.94,-11.165772,122.09769817268534,-0.01591357,-3.1650464e-07,0.017707352,0.00066401984,2.0,42,0.020526335,1.4377412e-07,0,-6.00371686899535e-08,2.0
180,180,281.3503,142022.6,29934.883,145143.08,-11.9023285,122.774800791507,-0.015968218,-5.7855993e-07,0.018897101,0.0008038178,2.0,42,0.02053645,1.4149109e-07,0,-5.998414143522485e-08,2.0
181,181,243.36427,144249.02,32819.215,147935.39,-12.8176155,123.45809623724199,-0.015937718,-3.2823846e-07,0.01992669,0.0009807252,2.0,42,0.020524377,1.3873878e-07,0,-6.024455476907913e-08,2.0
182,182,210.60631,146454.78,35611.676,150722.25,-13.666704,124.13517232277081,-0.015944108,-3.042121e-07,0.021220535,0.0011846401,2.0,42,0.020523088,1.3616496e-07,0,-6.044177195986873e-08,2.0
183,183,182.27473,149332.7,37877.098,154061.45,-14.232491,124.80728288801038,-0.015940493,-2.0680277e-07,0.023052441,0.001393421,2.0,42,0.020517578,1.3317788e-07,0,-6.04296284032729e-08,2.0
184,184,157.72879,152407.0,41789.086,158032.34,-15.333308,125.49564140075017,-0.015975522,-8.0152084e-08,0.024146061,0.0016884183,2.0,42,0.020573124,1.30183e-07,0,-6.06484589612594e-08,2.0
185,185,136.52892,155646.64,44200.914,161801.11,-15.853615,126.16753980595968,-0.015903529,-4.8170966e-07,0.026373286,0.0019681752,2.0,42,0.020581141,1.2720025e-07,0,-6.056857448709804e-08,2.0
186,186,118.14758,157680.42,47675.5,164730.3,-16.822966,126.85588599866605,-0.01592285,-4.705345e-07,0.02825531,0.002366702,2.0,42,0.020486532,1.2436408e-07,0,-6.065908091487179e-08,2.0
187,187,102.25773,160799.78,52807.934,169249.06,-18.180593,127.52232829693821,-0.015943512,-5.5472015e-07,0.029473033,0.0028692647,2.0,42,0.020499062,1.2111772e-07,0,-6.072873364091713e-08,2.0
188,188,88.4436,166010.45,56461.812,175349.39,-18.783682,128.2122970763885,-0.01589343,-5.2603747e-07,0.031871233,0.003304456,2.0,42,0.02054954,1.17191966e-07,0,-6.084211928282417e-08,2.0
189,189,76.54279,169701.25,61398.84,180466.98,-19.8904,128.87871833476675,-0.015930396,-5.863828e-07,0.033865355,0.0039199493,2.0,42,0.020541916,1.13826445e-07,0,-6.093135530450213e-08,2.0
190,190,66.250786,174392.95,65284.24,186212.06,-20.523457,129.54698561981786,-0.015939655,-2.5317954e-07,0.036797706,0.0045229504,2.0,42,0.020501126,1.10095584e-07,0,-6.103439572100436e-08,2.0
191,191,57.329906,178677.62,70801.914,192194.19,-21.616198,130.20164013093745,-0.01593237,-2.3176072e-07,0.039209735,0.0053211246,2.0,42,0.020516355,1.0674805e-07,0,-6.116908969130187e-08,2.0
192,192,49.60321,186170.22,75453.68,200879.58,-22.06242,131.1403469221259,-0.015920464,-5.107187e-07,0.04252359,0.005999557,2.0,43,0.02054822,1.0229124e-07,0,-6.116885767839501e-08,2.0
193,193,42.92585,191754.69,81563.766,208380.69,-23.042706,131.848443249095,-0.015897436,-4.8522395e-07,0.045457337,0.006964398,2.0,43,0.020518957,9.846861e-08,0,-6.127965228690021e-08,2.0
194,194,37.1518,198361.62,88094.4,217043.67,-23.94649,132.49218767971615,-0.015918098,-4.988373e-07,0.04862863,0.008011141,2.0,43,0.020537341,9.462308e-08,0,-6.145294580039165e-08,2.0
195,195,32.150223,205636.11,94491.086,226306.81,-24.67908,133.13036794998334,-0.015947947,-4.6989746e-07,0.05238962,0.009133384,2.0,43,0.020539498,9.075952e-08,0,-6.147072464075028e-08,2.0
196,196,27.835518,212361.75,102649.84,235869.67,-25.79785,133.85832902454422,-0.015898013,-4.819466e-07,0.05570094,0.010549573,2.0,43,0.020514704,8.6974744e-08,0,-6.169346443313886e-08,2.0
197,197,24.082958,220427.33,110256.5,246464.4,-26.573957,134.5603944179311,-0.015933786,-5.1617553e-07,0.059938535,0.011995161,2.0,43,0.02050449,8.319453e-08,0,-6.176432140281878e-08,2.0
198,198,20.833313,230118.44,118542.73,258856.86,-27.254711,135.21475932904286,-0.015915193,-4.8338063e-07,0.06444465,0.01351504,2.0,43,0.020568356,7.945842e-08,0,-6.156045292116256e-08,2.0
199,199,18.021912,239629.88,126180.05,270820.75,-27.769598,135.96074872447934,-0.01597049,-4.5975753e-07,0.06998881,0.01519309,2.0,43,0.020547733,7.587208e-08,0,-6.198533360425549e-08,2.0
200,200,15.604198,249728.58,134645.95,283714.47,-28.332178,136.6170215822931,-0.015927562,-4.6594974e-07,0.07575048,0.017061178,2.0,43,0.020535223,7.23799e-08,0,-6.191895684947587e-08,2.0
201,201,13.500899,259778.33,143609.98,296830.94,-28.934584,137.36498924449552,-0.01591058,-4.6594064e-07,0.0820867,0.019214263,2.0,43,0.020490702,6.903156e-08,0,-6.194496329022433e-08,2.0
202,202,11.686608,272489.25,153756.55,312876.12,-29.43458,137.95586951254518,-0.015952287,-4.804015e-07,0.08857232,0.021390475,2.0,43,0.02054653,6.566985e-08,0,-6.215468201998478e-08,2.0
203,203,10.113269,282996.53,164030.17,327097.75,-30.097397,138.6295464245195,-0.015886163,-5.188581e-07,0.09594114,0.02412666,2.0,43,0.020481007,6.261433e-08,0,-6.255242294568555e-08,2.0
204,204,8.748621,296657.94,174134.28,343989.34,-30.41237,139.39639896762674,-0.015911885,-5.249013e-07,0.10447112,0.026771631,2.0,43,0.020504646,5.9608375e-08,0,-6.248629070786096e-08,2.0
205,205,7.570237,310892.38,186003.08,362286.1,-30.891563,140.27200303590507,-0.015907058,-4.8870766e-07,0.11302915,0.029793905,2.0,43,0.020532092,5.66737e-08,0,-6.22341604942663e-08,2.0
206,206,6.554112,325479.5,197914.89,380929.4,-31.302603,140.8083177813387,-0.015899038,-5.9971893e-07,0.122695275,0.033120416,2.0,43,0.020539459,5.3919333e-08,0,-6.295775190525967e-08,2.0
207,207,5.669445,341304.25,213134.17,402386.34,-31.983528,141.41814727699966,-0.015870681,-4.30716e-07,0.13171235,0.036952704,2.0,43,0.020603074,5.1202218e-08,0,-6.232990661194352e-08,2.0
208,208,4.907347,355661.72,225148.3,420935.88,-32.335472,142.1105456832156,-0.015963728,-5.568862e-07,0.14404714,0.04121071,2.0,43,0.02050758,4.8719013e-08,0,-6.300929266613725e-08,2.0
209,209,4.245922,372247.62,240996.22,443449.5,-32.919357,142.89829254729557,-0.01591807,-4.561177e-07,0.15553848,0.04593778,2.0,43,0.020525312,4.6285567e-08,0,-6.307681604131096e-08,2.0
210,210,3.6747382,389247.25,257837.36,466897.78,-33.52049,143.79794400336687,-0.01591196,-4.938012e-07,0.16797625,0.05122665,2.0,43,0.02052744,4.3965596e-08,0,-6.251516889292575e-08,2.0
211,211,3.180988,407679.03,276202.5,492432.75,-34.117634,144.8271950922499,-0.015940456,-5.6582536e-07,0.18114671,0.056989104,2.0,43,0.020521626,4.1673967e-08,0,-6.329848467253286e-08,2.0
212,212,2.752818,427331.25,296193.62,519944.88,-34.726765,146.00611525491695,-0.01589933,-5.331163e-07,0.1951942,0.06334374,2.0,43,0.020519366,3.9464503e-08,0,-6.396240627790443e-08,2.0
213,213,2.3804083,447251.16,319713.78,549773.1,-35.55877,147.3600091592234,-0.015899131,-5.129106e-07,0.20912565,0.07072338,2.0,43,0.02051244,3.7310734e-08,0,-6.349415369712385e-08,2.0
