True,index,freq,Re(Z),Im(Z),Z,Phase(Z),time,Ewe_meas,I_meas,Cs,Cp,cycle_number,I_Range,Ewe,I,Ns,(QQo),cycle
0,0,7000018.5,183.39691,1379.5958,1391.7324,-82.427765,2.4684987305372488,5.6917943e-05,1.7370729e-05,1.648045e-05,1.6194268e-05,1.0,40,0.01010227,7.2587736e-06,0,8.893816366727e-09,1.0
1,1,6057573.0,274.6302,1599.9407,1623.3397,-80.260086,3.0204806500987615,0.00010845338,-7.3187416e-06,1.6421682e-05,1.5951684e-05,1.0,40,0.014265101,8.787502e-06,0,1.001248695491894e-08,1.0
2,2,5242039.0,302.73386,1815.0927,1840.1655,-80.53097,3.4364959498343524,0.00010142943,-2.415659e-05,1.6727117e-05,1.6274396e-05,1.0,40,0.019649561,1.0678149e-05,0,1.033583285757484e-08,1.0
3,3,4536288.0,280.87946,2074.5298,2093.4583,-82.28937,4.804492974857567,8.426957e-05,4.309652e-06,1.691219e-05,1.6607743e-05,1.0,40,0.01883955,8.999248e-06,0,2.418274569890855e-09,1.0
4,4,3925558.5,337.61557,2378.9084,2402.7463,-81.92251,5.22049510126817,7.5829375e-05,-9.38392e-06,1.70428e-05,1.670631e-05,1.0,40,0.018320909,7.6249867e-06,0,3.102435734837804e-09,1.0
5,5,3397055.0,382.05222,2699.0398,2725.9456,-81.943245,5.6364885343646165,4.0019233e-05,1.41332985e-05,1.7358343e-05,1.7017372e-05,1.0,40,0.01943437,7.129405e-06,0,6.966076747150711e-10,1.0
6,6,2939708.2,432.37924,3060.1704,3090.5654,-81.95777,6.052480074140476,3.679597e-05,1.928167e-06,1.769173e-05,1.7345452e-05,1.0,40,0.021330439,6.9017915e-06,0,-1.4157496121293257e-10,1.0
7,7,2543924.5,480.8064,3521.925,3554.593,-82.22615,6.604485833697254,8.931882e-05,-2.1998363e-05,1.7763798e-05,1.7438786e-05,1.0,40,0.020677917,5.817239e-06,0,-2.1708607169380734e-10,1.0
8,8,2201436.2,560.06396,4058.1538,4096.6187,-82.14227,7.15649215321173,-1.9658177e-05,4.532923e-06,1.7814988e-05,1.7482012e-05,1.0,40,0.020912267,5.1047627e-06,0,-4.4009578550053955e-10,1.0
9,9,1905053.1,670.2998,4664.5156,4712.431,-81.82247,7.708482579415431,2.6439977e-06,1.0723229e-06,1.791045e-05,1.7548078e-05,1.0,40,0.0205378,4.358217e-06,0,2.0261500990651863e-09,1.0
10,10,1648567.4,658.24115,5477.774,5517.181,-83.14786,8.4275026935793,3.226843e-05,-4.268791e-06,1.7624197e-05,1.737333e-05,1.0,41,0.019044558,3.4518637e-06,0,1.112252345096623e-09,1.0
11,11,1426616.2,752.9552,6314.494,6359.2275,-83.20002,8.843486606696388,2.0455967e-05,-1.4196407e-06,1.7667473e-05,1.7419787e-05,1.0,41,0.02194571,3.4510024e-06,0,1.1277983954332486e-09,1.0
12,12,1234551.2,922.97394,7236.7705,7295.391,-82.731766,9.395488632872002,3.6926387e-05,-1.6877952e-06,1.7814195e-05,1.752906e-05,1.0,41,0.021011261,2.8800732e-06,0,1.3391594210219182e-09,1.0
13,13,1068345.5,1039.6257,8397.506,8461.615,-82.9426,9.94750265913899,8.002159e-05,-3.9931747e-06,1.7740183e-05,1.7472385e-05,1.0,41,0.020886118,2.468337e-06,0,1.9623983823985706e-09,1.0
14,14,924510.06,1501.3655,9586.487,9703.342,-81.09906,10.499480871978449,4.7136567e-05,-8.7029883e-07,1.795763e-05,1.7527716e-05,1.0,41,0.02026029,2.0879702e-06,0,2.0658780475852407e-09,1.0
15,15,800039.0,2085.108,11609.866,11795.621,-79.818344,11.051496924861567,4.08018e-05,1.5374998e-06,1.7134907e-05,1.6599482e-05,1.0,41,0.02086953,1.7692608e-06,0,2.4809917351191757e-09,1.0
16,16,692334.1,2224.993,12198.639,12399.895,-79.66306,11.603502764453879,-7.7711375e-06,1.5039799e-06,1.8844865e-05,1.8238108e-05,1.0,41,0.020276956,1.6352523e-06,0,1.8170587230154448e-09,1.0
17,17,599122.25,2942.9521,14472.285,14768.48,-78.50558,12.15548023066367,5.173861e-05,1.5449476e-06,1.8355557e-05,1.7626666e-05,1.0,41,0.020661946,1.399057e-06,0,2.1804654164520167e-09,1.0
18,18,518454.94,3628.528,16253.347,16653.453,-77.41519,12.707496603572508,5.0807026e-05,-5.667638e-07,1.8887144e-05,1.7990504e-05,1.0,41,0.020517755,1.2320421e-06,0,2.807840471046714e-09,1.0
19,19,448662.03,4630.8525,18671.912,19237.596,-76.07103,13.259482336434303,0.00011771358,-4.9689565e-06,1.899818e-05,1.789732e-05,1.0,41,0.020292366,1.0548285e-06,0,2.479957408211596e-09,1.0
20,20,388258.97,6035.5166,21106.99,21952.96,-74.04219,13.811485989339417,1.3077766e-05,1.125958e-06,1.9421033e-05,1.795307e-05,1.0,41,0.020726144,9.4411615e-07,0,3.190088106923857e-09,1.0
21,21,335983.9,8283.73,24456.729,25821.537,-71.28826,14.363481908891117,3.1821295e-05,5.1888685e-07,1.9368825e-05,1.737544e-05,1.0,41,0.020559317,7.962081e-07,0,3.863787689863013e-09,1.0
22,22,290751.2,9614.001,26705.305,28383.135,-70.20095,14.915495108434698,4.6354042e-05,-7.995359e-07,2.049751e-05,1.8145773e-05,1.0,41,0.020629887,7.268361e-07,0,4.6430708829521766e-09,1.0
23,23,251605.19,11762.776,29979.307,32204.375,-68.57679,15.467496201308677,4.341023e-05,-2.2092063e-06,2.109983e-05,1.828489e-05,1.0,41,0.020354116,6.320295e-07,0,4.854576643590273e-09,1.0
24,24,217729.38,15020.286,33238.91,36475.117,-65.68233,16.019479907496134,6.0439634e-05,1.0235372e-06,2.1991575e-05,1.8262343e-05,1.0,41,0.020335048,5.575047e-07,0,5.418785919288559e-09,1.0
25,25,188418.58,18046.992,36158.58,40412.086,-63.475906,16.571498093748232,1.790339e-05,4.592967e-07,2.3360657e-05,1.8701878e-05,1.0,41,0.020737167,5.131427e-07,0,5.316367965290978e-09,1.0
26,26,163051.14,22283.7,39294.19,45172.965,-60.442467,17.123486653290456,5.859509e-05,-5.928359e-07,2.4840936e-05,1.8796089e-05,1.0,41,0.02033672,4.501967e-07,0,4.533544667770191e-09,1.0
27,27,141098.2,27919.291,41492.164,50010.863,-56.064137,17.675494839524617,-1.8689361e-05,3.7907348e-06,2.7185202e-05,1.871268e-05,1.0,41,0.02030497,4.060112e-07,0,4.2004679328313286e-09,1.0
28,28,122105.11,34815.87,43858.105,55997.13,-51.556404,18.091498085967032,5.420149e-06,2.1911233e-06,2.9719155e-05,1.8230756e-05,1.0,41,0.022031372,3.9343755e-07,0,4.380730193877093e-09,1.0
29,29,105663.59,37142.207,49170.465,61622.06,-52.933464,18.81048737341189,-8.460564e-06,-7.0241924e-07,3.0633066e-05,1.9504134e-05,1.0,42,0.019011986,3.0852564e-07,0,5.211391412890127e-09,1.0
30,30,91439.65,43910.05,51072.984,67353.86,-49.31267,19.226489126536762,6.310397e-05,-1.0780878e-06,3.407959e-05,1.9595298e-05,1.0,42,0.020089136,2.982626e-07,0,5.134473745325608e-09,1.0
31,31,79127.08,51147.18,52322.8,73169.05,-45.650963,19.642492319602752,6.5194185e-06,-9.946472e-07,3.8441827e-05,1.9657631e-05,1.0,42,0.021052869,2.8772916e-07,0,5.097269547244407e-09,1.0
32,32,68475.36,59012.23,52038.445,78679.37,-41.406647,20.058488499344094,7.954052e-06,-6.0389226e-07,4.4664397e-05,1.9538373e-05,1.0,42,0.021921799,2.7862194e-07,0,5.0532410000302026e-09,1.0
33,33,59252.523,65811.22,51052.027,83291.21,-37.801964,20.610502365598222,2.6306294e-05,-5.353518e-07,5.2613872e-05,1.9766416e-05,1.0,42,0.020196054,2.424752e-07,0,4.8494179141991526e-09,1.0
34,34,51282.285,72790.51,50686.387,88699.31,-34.850742,21.02648331868113,6.2954925e-05,-9.827271e-07,6.12296e-05,1.999418e-05,1.0,42,0.020738099,2.3380225e-07,0,4.781716998328634e-09,1.0
35,35,44369.8,79420.09,46221.234,91890.99,-30.198725,21.442479391786037,-1.0826737e-05,-3.846745e-07,7.760525e-05,1.9634883e-05,1.0,42,0.021113984,2.2977207e-07,0,4.645195903987956e-09,1.0
36,36,38403.727,84820.35,43426.74,95290.99,-27.111761,21.858480478200363,3.014446e-05,-8.106308e-07,9.5431016e-05,1.9819845e-05,1.0,42,0.021391558,2.2448667e-07,0,4.50239655892067e-09,1.0
37,37,33226.32,89308.66,40266.17,97966.32,-24.268959,22.274504231259925,7.517736e-05,-1.0104782e-06,0.00011895907,2.0096695e-05,1.0,42,0.02159782,2.2046169e-07,0,4.487574312763106e-09,1.0
38,38,28754.086,94054.75,36534.625,100901.31,-21.22816,22.690489317727042,6.030924e-05,-1.0052629e-06,0.00015150114,1.9862393e-05,1.0,42,0.021743296,2.1549072e-07,0,4.402566713196165e-09,1.0
39,39,24884.947,97678.516,32710.197,103009.945,-18.514465,23.10648144411971,8.059919e-05,-9.957639e-07,0.00019552409,1.971552e-05,1.0,42,0.021793224,2.1156427e-07,0,4.2681570026452675e-09,1.0
40,40,21553.963,99925.44,29439.191,104171.77,-16.415585,23.52349797062925,3.415028e-05,-1.0013512e-06,0.00025082286,2.0031743e-05,1.0,42,0.021781137,2.0908867e-07,0,4.116755039097895e-09,1.0
41,41,18631.234,101975.984,25981.115,105233.64,-14.293545,23.93948985703173,6.867489e-05,-1.1725157e-06,0.00032879162,2.0041356e-05,1.0,42,0.021681143,2.0602863e-07,0,4.034516127207707e-09,1.0
42,42,16126.037,103864.95,22836.021,106345.72,-12.399911,24.35549699680996,-1.982586e-05,-1.812867e-07,0.0004321873,1.992842e-05,1.0,42,0.0215007,2.0217739e-07,0,4.056069529292827e-09,1.0
43,43,13954.87,108310.4,17985.074,109793.47,-9.428009,24.771485123230377,6.949467e-05,-1.0045169e-06,0.00063413556,1.7015847e-05,1.0,42,0.021561287,1.9638041e-07,0,4.041623382358337e-09,1.0
44,44,12080.609,106307.26,17253.01,107698.19,-9.218376,25.187480236316333,4.6111847e-05,-9.961353e-07,0.00076360087,1.9596539e-05,1.0,42,0.020933362,1.943706e-07,0,4.047080959481598e-09,1.0
45,45,10447.592,106844.99,14383.608,107808.81,-7.6671357,25.60350220274995,-3.1768817e-05,-4.7556327e-07,0.0010590978,1.8852254e-05,1.0,42,0.020419747,1.8940703e-07,0,4.0756485073296904e-09,1.0
46,46,9045.586,106952.97,12592.833,107691.766,-6.71519,26.17624590997002,5.3210522e-05,-5.9103905e-07,0.0013972045,1.9104773e-05,1.0,42,0.020340778,1.888796e-07,0,4.0551263404056374e-09,1.0
47,47,7827.7437,107473.33,10773.28,108011.945,-5.7242885,26.65694131946657,5.857647e-05,-8.374491e-07,0.0018872767,1.8775345e-05,1.0,42,0.020440418,1.892422e-07,0,3.896712429104178e-09,1.0
48,48,6770.8345,107782.836,9704.362,108218.83,-5.1448245,27.195415425027022,0.00010616191,-8.862464e-07,0.0024222052,1.9477773e-05,1.0,42,0.020539364,1.8979473e-07,0,3.869350398225101e-09,1.0
49,49,5860.798,107761.35,7948.0947,108054.06,-4.2182956,27.80198398718494,1.9710664e-05,-6.0724193e-07,0.0034166488,1.8486053e-05,1.0,42,0.020619348,1.9082437e-07,0,3.898381766611515e-09,1.0
50,50,5071.625,107370.07,6747.086,107581.85,-3.5957124,28.48268036621448,3.236161e-05,-4.2024521e-07,0.0046511116,1.8294108e-05,1.0,42,0.02065256,1.9197067e-07,0,3.801645532551529e-09,1.0
51,51,4388.5933,107025.87,6435.867,107219.195,-3.4412665,29.162816158510395,3.55849e-05,-4.95118e-07,0.0056349197,2.0302841e-05,1.0,42,0.020670485,1.9278717e-07,0,3.5601754730605094e-09,1.0
52,52,3798.7827,107527.56,5494.199,107667.836,-2.925026,29.842813977476908,3.4355206e-05,-4.850603e-07,0.007625552,1.9856749e-05,1.0,42,0.020779029,1.9299198e-07,0,3.3462973294109905e-09,1.0
53,53,3286.0488,107094.125,5156.7837,107218.21,-2.7567701,30.522709636439686,5.1906303e-05,-6.809962e-07,0.009392197,2.1726408e-05,1.0,42,0.020761497,1.9363779e-07,0,3.254190737194228e-09,1.0
54,54,2844.088,107547.39,4269.2866,107632.09,-2.2732651,31.202828148729168,7.728273e-05,-6.8844616e-07,0.013107558,2.0622858e-05,1.0,42,0.020836493,1.9358997e-07,0,2.9826864939184675e-09,1.0
55,55,2460.7852,107226.195,4671.855,107327.92,-2.4948044,31.882706474367296,8.363615e-05,-6.5156837e-07,0.013843857,2.6230728e-05,1.0,42,0.020820506,1.9398965e-07,0,2.907942883290894e-09,1.0
56,56,2129.3164,107630.64,4084.6755,107708.125,-2.173381,32.56180855995626,5.8501948e-05,-4.679247e-07,0.01829879,2.6317253e-05,1.0,42,0.020915462,1.9418648e-07,0,2.749230437285317e-09,1.0
57,57,1843.2289,107519.65,4245.894,107603.45,-2.261405,33.24197291224846,6.7780544e-05,-8.231057e-07,0.020336289,3.1663403e-05,1.0,42,0.020898104,1.9421407e-07,0,2.5089447372654346e-09,1.0
58,58,1594.4913,107526.64,4074.3264,107603.805,-2.1699746,33.92183521122206,3.0517078e-05,-5.994181e-07,0.024498649,3.512356e-05,1.0,42,0.02089759,1.9420865e-07,0,2.270824639894266e-09,1.0
59,59,1380.4436,107586.04,3986.8594,107659.88,-2.1222618,34.601680630177725,5.5744444e-05,-6.9515113e-07,0.028918153,3.9657432e-05,1.0,42,0.020910932,1.9423142e-07,0,1.9937598087970008e-09,1.0
60,60,1194.6187,107876.79,4124.6665,107955.62,-2.1896362,35.28182684913918,2.3325216e-05,-6.4430463e-07,0.032299962,4.7150814e-05,1.0,42,0.020922894,1.9381014e-07,0,1.948698490879666e-09,1.0
61,61,1033.3434,107929.16,4065.2168,108005.69,-2.1570604,35.962066801439505,2.0083307e-05,-6.329431e-07,0.037887134,5.3674245e-05,1.0,42,0.020917984,1.9367484e-07,0,1.8716530851582056e-09,1.0
62,62,894.71045,108423.766,4329.7227,108510.18,-2.2867966,36.64180256707186,2.3269336e-05,-7.4692883e-07,0.041084457,6.54119e-05,1.0,42,0.020956589,1.9313016e-07,0,1.6682506751197757e-09,1.0
63,63,774.2569,107924.48,4299.277,108010.08,-2.281227,37.321975079365075,7.096657e-05,-6.335018e-07,0.0478123,7.575336e-05,1.0,42,0.020889083,1.9339939e-07,0,1.402955330164879e-09,1.0
64,64,669.7856,108158.84,4562.585,108255.04,-2.4155395,38.001813298338675,-5.852068e-06,-5.7706796e-07,0.05208029,9.2512215e-05,1.0,42,0.020875568,1.9283691e-07,0,1.2912231031149998e-09,1.0
65,65,579.81464,108685.21,5331.3564,108815.89,-2.80829,38.68184735730756,-1.8089755e-06,-7.573589e-07,0.051486485,0.0001235902,1.0,42,0.020928524,1.9232967e-07,0,1.3184114542820818e-09,1.0
66,66,501.44418,108960.76,5396.1675,109094.3,-2.835197,39.359161949454574,-1.0659054e-05,-4.3421315e-07,0.05881825,0.00014390599,1.0,42,0.02092065,1.9176666e-07,0,1.3205647535248963e-09,1.0
67,67,434.02762,109186.99,6212.0366,109363.56,-3.2562504,40.03919987505651,9.479655e-05,-8.9332224e-07,0.059029456,0.00019045461,1.0,42,0.020930044,1.9138042e-07,0,9.81475042797639e-10,1.0
68,68,375.6009,110179.51,6440.3564,110367.58,-3.345321,40.71844252067967,2.1592477e-05,-9.2703385e-07,0.065793596,0.00022403734,1.0,42,0.020984078,1.90129e-07,0,7.030504482451584e-10,1.0
69,69,325.10385,110403.39,6943.7583,110621.54,-3.598845,41.397697859640175,3.109466e-05,-5.413078e-07,0.07050232,0.00027778783,1.0,42,0.020965492,1.895245e-07,0,3.9982317195115986e-10,1.0
70,70,281.3503,110429.35,7502.527,110683.914,-3.8866804,42.07479570512078,7.923907e-05,-1.0292858e-06,0.07539893,0.00034642665,1.0,42,0.020918818,1.8899601e-07,0,6.0452809365409e-11,1.0
71,71,243.36427,110892.59,7998.4033,111180.67,-4.125456,42.75812939085881,1.1065543e-05,-6.7410474e-07,0.0817636,0.00042316335,1.0,42,0.020920826,1.8816964e-07,0,9.145771545604475e-11,1.0
72,72,210.60631,111624.164,8742.85,111966.03,-4.4784904,43.43516950306366,4.6819852e-05,-8.70041e-07,0.08643622,0.0005270226,1.0,42,0.02093669,1.8699144e-07,0,1.644683166029084e-10,1.0
73,73,182.27473,111745.445,9773.858,112172.07,-4.9986763,44.10624897488742,-4.3801674e-06,-5.794895e-07,0.089336224,0.0006782506,1.0,42,0.020884184,1.8617989e-07,0,-1.3820263709065885e-10,1.0
74,74,157.72879,112805.484,10392.138,113283.16,-5.263483,44.794643194323726,-3.5830522e-05,-3.0979763e-07,0.09709665,0.0008171153,1.0,42,0.020938113,1.8482989e-07,0,-2.273631492175385e-10,1.0
75,75,136.52892,114267.53,10620.5,114760.02,-5.310053,45.466522052855,2.6380832e-05,-7.795231e-07,0.109761626,0.0009400678,1.0,42,0.02104172,1.8335409e-07,0,-4.788640357797173e-10,1.0
76,76,118.14758,114361.08,12261.265,115016.5,-6.119611,46.15490731224418,6.925245e-05,-9.2293664e-07,0.109865166,0.0012485625,1.0,42,0.020977503,1.823869e-07,0,-5.017600014143555e-10,1.0
77,77,102.25773,115359.91,13109.5625,116102.41,-6.4833097,46.821339237183565,5.5763077e-05,-7.392929e-07,0.11872325,0.0015136648,1.0,42,0.02098783,1.8076997e-07,0,-6.772878819316158e-10,1.0
78,78,88.4436,115988.69,14769.066,116925.195,-7.2565336,47.51130409663892,3.592029e-05,-7.9032577e-07,0.12184302,0.0019439743,1.0,42,0.020960907,1.7926766e-07,0,-7.919185349523319e-10,1.0
79,79,76.54279,116928.31,15414.301,117939.945,-7.509824,48.17773570166901,3.480238e-05,-8.722766e-07,0.1348938,0.0023041875,1.0,42,0.020951688,1.776471e-07,0,-9.222952007807489e-10,1.0
80,80,66.250786,118161.84,17183.023,119404.68,-8.27392,48.84596581340884,4.430458e-05,-6.890056e-07,0.1398072,0.0028952495,1.0,42,0.020978453,1.7569205e-07,0,-1.1843709828964518e-09,1.0
81,81,57.329906,119181.55,18707.89,120640.9,-8.920908,49.50062315118157,2.3697863e-05,-3.3643187e-07,0.14839323,0.0035684088,1.0,42,0.020955203,1.73699e-07,0,-1.1460047909813574e-09,1.0
82,82,49.60321,120001.1,20230.248,121694.4,-9.569167,50.186338943691226,5.108651e-05,-6.808103e-07,0.15860218,0.004382989,1.0,42,0.020921951,1.7192205e-07,0,-1.2121034256801346e-09,1.0
83,83,42.92585,121437.2,21828.482,123383.45,-10.190165,50.89444244399783,3.886409e-05,-6.556665e-07,0.16985476,0.005316318,1.0,42,0.020923331,1.6957972e-07,0,-1.5577111487188076e-09,1.0
84,84,37.1518,123142.24,23465.002,125357.96,-10.788489,51.53819130125339,5.663876e-05,-6.700081e-07,0.18256591,0.006396716,1.0,42,0.02094878,1.671117e-07,0,-1.6689409997481007e-09,1.0
85,85,32.150223,124256.97,25590.03,126864.664,-11.637046,52.17636429154663,2.7796836e-05,-6.726158e-07,0.19344848,0.007870921,1.0,42,0.0209357,1.6502388e-07,0,-1.570641368643698e-09,1.0
86,86,27.835518,126297.336,28462.154,129464.71,-12.699923,52.90333803274552,6.3237712e-06,-5.373046e-07,0.20088756,0.009709252,1.0,42,0.020965531,1.6194012e-07,0,-1.6522589764021865e-09,1.0
87,87,24.082958,127384.805,30749.143,131043.5,-13.570896,53.605361132737016,2.6436739e-05,-6.640485e-07,0.21492022,0.011833476,1.0,42,0.02089035,1.5941538e-07,0,-1.612613811265145e-09,1.0
88,88,20.833313,129535.94,33393.355,133770.98,-14.455665,54.25978060388297,1.63756e-05,-6.970153e-07,0.2287714,0.014256011,1.0,42,0.020932501,1.5648013e-07,0,-2.1208812411875517e-09,1.0
89,89,18.021912,131749.27,36607.645,136740.6,-15.528401,55.005718799322494,-1.01559945e-05,-5.617972e-07,0.24123898,0.017290046,1.0,42,0.020954624,1.5324362e-07,0,-2.062906519385245e-09,1.0
90,90,15.604198,134005.17,39403.188,139678.19,-16.385567,55.9050180153572,4.8384907e-05,-7.490714e-07,0.2588495,0.020599319,1.0,43,0.020936005,1.4988743e-07,0,-2.0868028569256896e-09,1.0
91,91,13.500899,136420.95,43135.02,143077.97,-17.546465,56.65297498420114,1.2127551e-05,-7.636162e-07,0.27329233,0.024839446,1.0,43,0.020951884,1.4643683e-07,0,-2.3972933215922077e-09,1.0
92,92,11.686608,138726.86,47167.87,146526.28,-18.778305,57.24389794562012,-6.783985e-05,-7.6773205e-07,0.28872564,0.029918987,1.0,43,0.020926403,1.4281672e-07,0,-2.209084626561738e-09,1.0
93,93,10.113269,141545.19,51699.543,150691.34,-20.064781,57.91753288425389,3.2547938e-05,-7.545843e-07,0.30439806,0.035829328,1.0,43,0.020960221,1.3909373e-07,0,-1.8042160610192642e-09,1.0
94,94,8.748621,144086.03,56822.59,154885.73,-21.522577,58.684409320674604,2.2701053e-05,-7.33103e-07,0.32015443,0.04309022,1.0,43,0.020940384,1.3519892e-07,0,-2.6431277832159593e-09,1.0
95,95,7.570237,147277.62,61829.715,159729.81,-22.773514,59.56001981563168,6.255433e-05,-7.9843244e-07,0.340027,0.05094903,1.0,43,0.02094504,1.3112793e-07,0,-3.322796815230807e-09,1.0
96,96,6.554112,150672.6,67907.414,165268.4,-24.26086,60.09630936107715,6.265682e-05,-4.178462e-07,0.3575931,0.060373146,1.0,43,0.020964563,1.268516e-07,0,-2.1541722384720666e-09,1.0
97,97,5.669445,153018.77,75078.6,170445.12,-26.13486,60.70612451006309,6.045827e-05,-1.0648248e-06,0.37390682,0.072548196,1.0,43,0.020876111,1.2247996e-07,0,-3.7508088764729074e-09,1.0
98,98,4.907347,156986.11,82700.47,177437.33,-27.780313,61.398519262933405,1.1028279e-05,-4.9647196e-07,0.39216185,0.085190535,1.0,43,0.020932972,1.1797389e-07,0,-2.8792054234614286e-09,1.0
99,99,4.245922,160573.88,91245.2,184688.0,-29.607159,62.18628783363965,6.148303e-05,-8.690885e-07,0.41080722,0.10027226,1.0,43,0.02094148,1.1338842e-07,0,-2.6783302747680357e-09,1.0
100,100,3.6747382,164003.44,101195.04,192711.1,-31.675829,63.08596862308332,6.779918e-05,-8.8381006e-07,0.42799085,0.118015625,1.0,43,0.020943528,1.0867837e-07,0,-4.7841275500420325e-09,1.0
101,101,3.180988,168410.67,112354.61,202449.28,-33.709103,64.11418843190768,3.0992196e-05,-6.321121e-07,0.44531485,0.13715653,1.0,43,0.020948008,1.0347287e-07,0,-3.742399786640742e-09,1.0
102,102,2.752818,172378.31,124496.234,212634.89,-35.837826,65.29309216790716,6.67688e-05,-7.5254053e-07,0.4643938,0.15919513,1.0,43,0.020926261,9.8414056e-08,0,-2.4752555411663557e-09,1.0
103,103,2.3804083,176834.12,139751.72,225390.44,-38.31926,66.64802159229293,6.725323e-05,-8.559909e-07,0.47842243,0.18393096,1.0,43,0.020933785,9.2877876e-08,0,-4.230323874503641e-09,1.0
104,104,2.060257,181702.56,155581.86,239210.23,-40.571617,68.204323826154,3.0419273e-05,-8.14803e-07,0.49652347,0.21003816,1.0,43,0.020913111,8.7425654e-08,0,-6.392474432862529e-09,1.0
