True,index,freq,Re(Z),Im(Z),Z,Phase(Z),time,Ewe_meas,I_meas,Cs,Cp,cycle_number,I_Range,Ewe,I,Ns,(QQo),cycle
0,0,7000018.5,222.35173,1568.6472,1584.3278,-81.93222,2.4664952104503755,0.023467992,5.556306e-06,1.4494247e-05,1.420876e-05,1.0,40,0.01012795,6.3925854e-06,0,-3.1522186622447004e-10,1.0
1,1,6057573.0,337.80127,1798.6635,1830.1093,-79.363365,3.0184967033274006,0.023444384,-2.2612368e-05,1.4607355e-05,1.4109687e-05,1.0,40,0.014315962,7.822463e-06,0,6.189849306616048e-10,1.0
2,2,5242039.0,325.66714,2048.277,2074.0054,-80.96584,3.434479469753569,0.023531208,-2.8528862e-05,1.4822832e-05,1.4457355e-05,1.0,40,0.019724064,9.510131e-06,0,-3.3775611845151666e-09,1.0
3,3,4536288.0,319.67505,2326.0688,2347.9329,-82.174774,4.666494888282614,0.02350831,-3.530122e-05,1.508332e-05,1.4803715e-05,1.0,40,0.021019898,8.952513e-06,0,-9.775659144420641e-09,1.0
4,4,3925558.5,417.9823,2646.9531,2679.752,-81.02648,5.082487148029031,0.023445968,-2.3430985e-05,1.5316955e-05,1.4944305e-05,1.0,40,0.019643692,7.330414e-06,0,-1.0835254870528388e-08,1.0
5,5,3397055.0,478.0683,3023.9614,3061.5178,-81.016266,5.498484474461293,0.023465922,-2.8752122e-05,1.5493206e-05,1.511542e-05,1.0,40,0.02083566,6.805664e-06,0,-1.0359225009829565e-08,1.0
6,6,2939708.2,550.082,3442.0894,3485.7666,-80.92031,6.050497300660936,0.023440529,-1.4165497e-05,1.5728734e-05,1.5337035e-05,1.0,40,0.021015376,6.028911e-06,0,-9.539086768945203e-09,1.0
7,7,2543924.5,485.9805,3884.7573,3915.037,-82.86938,6.60250362023362,0.023432236,-4.5850476e-05,1.6104677e-05,1.5856525e-05,1.0,40,0.020477261,5.230413e-06,0,-9.795640896956885e-09,1.0
8,8,2201436.2,726.8624,4498.829,4557.1694,-80.822205,7.154483726451872,0.023400003,-3.705012e-05,1.606995e-05,1.5661133e-05,1.0,40,0.020857655,4.576888e-06,0,-1.1934564638371133e-08,1.0
9,9,1905053.1,851.5087,5141.1597,5211.1987,-80.59571,7.706484659371199,0.023386048,-2.0156434e-05,1.6249947e-05,1.581608e-05,1.0,40,0.02038213,3.9112174e-06,0,-1.8108321041659614e-08,1.0
10,10,1648567.4,764.2266,6105.774,6153.415,-82.8657,8.42549197349581,0.023339339,-5.202241e-07,1.5811487e-05,1.5567603e-05,1.0,41,0.018903697,3.072066e-06,0,-2.0604005951886013e-08,1.0
11,11,1426616.2,932.69086,6965.9585,7028.1216,-82.37387,8.841484926611884,0.023395235,9.024964e-07,1.601519e-05,1.5733138e-05,1.0,41,0.021816975,3.1042398e-06,0,-2.110876891702181e-08,1.0
12,12,1234551.2,1058.0172,7988.846,8058.602,-82.45583,9.39349935282371,0.023393333,7.237266e-07,1.6137154e-05,1.5858994e-05,1.0,41,0.021098295,2.6181085e-06,0,-2.1171042311907387e-08,1.0
13,13,1068345.5,1498.0575,9361.302,9480.408,-80.90823,9.945501672365936,0.023459047,-3.387966e-06,1.5913736e-05,1.5516387e-05,1.0,41,0.020664679,2.1797246e-06,0,-2.1384090503870665e-08,1.0
14,14,924510.06,1727.5836,10605.618,10745.402,-80.74816,10.497489938599756,0.0234311,-4.017383e-06,1.6232018e-05,1.5812448e-05,1.0,41,0.020386696,1.8972482e-06,0,-2.168946006598402e-08,1.0
15,15,800039.0,2341.3875,11953.704,12180.852,-78.91771,11.049498018139275,0.023400357,-2.4460738e-07,1.6642036e-05,1.6027145e-05,1.0,41,0.020374395,1.6726576e-06,0,-2.2171849462390174e-08,1.0
16,16,692334.1,2505.4973,13661.72,13889.568,-79.6077,11.601496897666948,0.023387577,4.8164264e-07,1.6826703e-05,1.6279171e-05,1.0,41,0.020325884,1.4633921e-06,0,-2.148079942806981e-08,1.0
17,17,599122.25,3421.6384,15696.538,16065.146,-77.70265,12.153480070555815,0.023357747,3.1147642e-06,1.6923914e-05,1.6156198e-05,1.0,41,0.020501684,1.2761592e-06,0,-2.203496063398802e-08,1.0
18,18,518454.94,4352.473,17791.02,18315.688,-76.25292,12.70549220344401,0.02334409,2.6846014e-06,1.7254733e-05,1.628034e-05,1.0,41,0.020471431,1.1176993e-06,0,-2.202542812138909e-08,1.0
19,19,448662.03,5719.507,20265.982,21057.607,-74.23976,13.25750009631156,0.02344867,-1.3377064e-06,1.7503831e-05,1.6212516e-05,1.0,41,0.020250995,9.616949e-07,0,-2.2763485937807737e-08,1.0
20,20,388258.97,7307.8535,22608.781,23760.508,-72.08757,13.80947838924476,0.023445632,-2.8442093e-06,1.8130988e-05,1.6415886e-05,1.0,41,0.020884268,8.789487e-07,0,-2.2791750460053587e-08,1.0
21,21,335983.9,9794.888,24454.328,26343.006,-68.17202,14.361489988776157,0.023466725,-2.812553e-06,1.9370726e-05,1.6692706e-05,1.0,41,0.020633515,7.832635e-07,0,-2.2758398178828632e-08,1.0
22,22,290751.2,11727.251,28177.596,30520.572,-67.40338,14.913489561673487,0.02347807,-4.0620757e-06,1.9426505e-05,1.6558355e-05,1.0,41,0.020629227,6.759122e-07,0,-2.308960190627671e-08,1.0
23,23,251605.19,14345.363,31716.58,34809.926,-65.66283,15.465486467903247,0.023386458,3.4685781e-06,1.9944087e-05,1.6556964e-05,1.0,41,0.020359151,5.8486626e-07,0,-2.3371047311649643e-08,1.0
24,24,217729.38,17889.496,35264.05,39542.223,-63.10126,16.017495854088338,0.02338547,7.4979613e-07,2.0728645e-05,1.648592e-05,1.0,41,0.020336945,5.143096e-07,0,-2.2702673043457684e-08,1.0
25,25,188418.58,22455.738,37765.22,43937.137,-59.26368,16.569496120297117,0.02343272,-1.024861e-06,2.2366828e-05,1.652437e-05,1.0,41,0.020810518,4.73643e-07,0,-2.3854034174538204e-08,1.0
26,26,163051.14,26514.12,40241.297,48190.875,-56.619976,17.121499586530263,0.023361605,3.511408e-06,2.4256287e-05,1.69137e-05,1.0,41,0.020273708,4.2069598e-07,0,-2.393643155725221e-08,1.0
27,27,141098.2,31060.057,43732.203,53639.844,-54.61637,17.840482447325485,0.023431249,-1.1244645e-06,2.5792728e-05,1.7144506e-05,1.0,42,0.019010479,3.5440965e-07,0,-2.3177150990426633e-08,1.0
28,28,122105.11,37928.688,47417.625,60720.81,-51.344177,18.25649830713519,0.023448689,-1.1369433e-06,2.7488211e-05,1.6762971e-05,1.0,42,0.020484228,3.3735103e-07,0,-2.3277859039879396e-08,1.0
29,29,105663.59,43013.113,47740.246,64259.312,-47.98171,18.672490806871792,0.02342227,-1.0631877e-06,3.155078e-05,1.741435e-05,1.0,42,0.021790667,3.3910518e-07,0,-2.3363372461006183e-08,1.0
30,30,91439.65,49846.555,48441.4,69507.18,-44.180935,19.22448560639168,0.023342228,-1.6508461e-07,3.5930967e-05,1.7451908e-05,1.0,42,0.0203965,2.9344451e-07,0,-2.3422587515377883e-08,1.0
31,31,79127.08,54693.566,49643.773,73864.0,-42.22912,19.640485386160435,0.02337936,-5.2119674e-07,4.051634e-05,1.8301815e-05,1.0,42,0.02127815,2.8807202e-07,0,-2.349659040771194e-08,1.0
32,32,68475.36,62955.98,48229.547,79306.65,-37.455135,20.192495465715183,0.023382528,-3.8895845e-07,4.819174e-05,1.7822958e-05,1.0,42,0.02023958,2.552066e-07,0,-2.368808743766425e-08,1.0
33,33,59252.523,69366.46,46304.465,83401.49,-33.724457,20.608488472149475,0.0234172,-7.7561583e-07,5.8008332e-05,1.7880864e-05,1.0,42,0.020933345,2.5099484e-07,0,-2.3793495653857712e-08,1.0
34,34,51282.285,74835.56,44865.043,87253.84,-30.943321,21.024504438595613,0.02344105,-7.223479e-07,6.917428e-05,1.8289074e-05,1.0,42,0.021368282,2.4489788e-07,0,-2.379779567637118e-08,1.0
35,35,44369.8,80633.9,41267.688,90580.62,-27.10295,21.44048693831428,0.023448465,-1.1168278e-06,8.692056e-05,1.8041483e-05,1.0,42,0.021764837,2.402814e-07,0,-2.3807364728582533e-08,1.0
36,36,38403.727,84656.016,36389.89,92145.89,-23.260736,21.99249880455318,0.023463948,-1.0965265e-06,0.00011388487,1.7761333e-05,1.0,42,0.020167487,2.1886474e-07,0,-2.404671209237034e-08,1.0
37,37,33226.32,88594.76,33984.902,94889.44,-20.986788,22.408481064339867,0.023410344,-1.0477285e-06,0.00014094572,1.8079572e-05,1.0,42,0.020360705,2.1457294e-07,0,-2.4088360589061906e-08,1.0
38,38,28754.086,92088.195,30529.006,97016.78,-18.34135,22.824502897419734,0.023400974,-4.6215462e-07,0.00018130422,1.7953102e-05,1.0,42,0.020492764,2.1122906e-07,0,-2.409593470568695e-08,1.0
39,39,24884.947,94575.46,27018.984,98359.26,-15.9439535,23.24048987714923,0.023411388,-5.1579474e-07,0.0002367088,1.7861665e-05,1.0,42,0.020513821,2.0856015e-07,0,-2.4236298811747294e-08,1.0
40,40,21553.963,96455.59,23962.71,99387.59,-13.951688,23.657479283661814,0.023422418,-7.9423995e-07,0.00030814635,1.7912846e-05,1.0,42,0.02049949,2.0625804e-07,0,-2.424098281536703e-08,1.0
41,41,18631.234,97994.4,21043.666,100228.43,-12.119836,24.073481650062604,0.02344295,-9.929696e-07,0.00040593554,1.7894437e-05,1.0,42,0.020436144,2.0389568e-07,0,-2.4277029235722244e-08,1.0
42,42,16126.037,99427.52,18053.668,101053.29,-10.291424,24.489483189798193,0.023384763,-3.5301036e-07,0.00054667227,1.7448456e-05,1.0,42,0.020306317,2.0094662e-07,0,-2.442527380719501e-08,1.0
43,43,13954.87,98046.85,15658.307,99289.31,-9.073645,24.90550451623858,0.023401663,-2.481508e-07,0.0007283658,1.8114824e-05,1.0,42,0.019882433,2.0024747e-07,0,-2.4450278099333843e-08,1.0
44,44,12080.609,100692.11,12368.557,101448.914,-7.0028706,25.321505042695208,0.023352139,-1.1684358e-07,0.0010651536,1.5832718e-05,1.0,42,0.019732345,1.9450523e-07,0,-2.4623608116450295e-08,1.0
45,45,10447.592,101217.3,10946.554,101807.51,-6.172493,25.738484635803616,0.023440398,-8.3409685e-07,0.0013916388,1.6088728e-05,1.0,42,0.019266658,1.8924594e-07,0,-2.4779250377297323e-08,1.0
46,46,9045.586,100703.53,9396.25,101140.945,-5.33061,26.170258922997164,0.02341843,-6.763415e-07,0.0018725303,1.6161586e-05,1.0,42,0.021875769,2.1628993e-07,0,-2.4914357243047173e-08,1.0
47,47,7827.7437,101241.84,7854.074,101546.04,-4.4359703,26.80694452658645,0.023425194,-8.037375e-07,0.0025887408,1.5486474e-05,1.0,42,0.02018034,1.9873094e-07,0,-2.4937955111719576e-08,1.0
48,48,6770.8345,101195.57,6870.7256,101428.55,-3.8841655,27.345417165459367,0.023370566,-5.090875e-07,0.0034211753,1.5698572e-05,1.0,42,0.020262964,1.9977576e-07,0,-2.519628772178163e-08,1.0
49,49,5860.798,101057.75,5678.8203,101217.18,-3.2162857,27.951969754329184,0.02336123,-8.834563e-08,0.004781952,1.5052652e-05,1.0,42,0.020353165,2.0108409e-07,0,-2.5426944403793092e-08,1.0
50,50,5071.625,100871.086,4734.382,100982.125,-2.687204,28.63268426666764,0.023400562,-6.310812e-07,0.0066284155,1.45695885e-05,1.0,42,0.020405022,2.0206569e-07,0,-2.5420052617549377e-08,1.0
51,51,4388.5933,100771.87,4489.5776,100871.83,-2.5509486,29.312818752296153,0.02342592,-6.549211e-07,0.0080777295,1.6001493e-05,1.0,42,0.020469252,2.0292337e-07,0,-2.5432365541624276e-08,1.0
52,52,3798.7827,100574.52,3787.3848,100645.81,-2.1565967,29.992832224597805,0.023421897,-5.7054916e-07,0.011062066,1.5664758e-05,1.0,42,0.020507649,2.0376058e-07,0,-2.5584373473639892e-08,1.0
53,53,3286.0488,100405.07,3222.2397,100456.76,-1.8381283,30.672679003560916,0.02335661,-4.7444345e-07,0.015031014,1.5464848e-05,1.0,42,0.020543948,2.0450538e-07,0,-2.5850487574567045e-08,1.0
54,54,2844.088,100506.01,2739.4626,100543.336,-1.5613075,31.352815542530152,0.023426125,-5.725977e-07,0.020427335,1.5164773e-05,1.0,42,0.020637738,2.0526211e-07,0,-2.579191160889977e-08,1.0
55,55,2460.7852,100208.445,3417.6252,100266.71,-1.9533246,32.03267581482942,0.023430616,-8.7898076e-07,0.018924395,2.1986561e-05,1.0,42,0.020593556,2.0538776e-07,0,-2.5923928227094488e-08,1.0
56,56,2129.3164,100470.06,2867.9385,100510.984,-1.6350758,32.71180595374608,0.023409506,-5.880567e-07,0.026062142,2.1218892e-05,1.0,42,0.020658024,2.0553001e-07,0,-2.60353367975654e-08,1.0
57,57,1843.2289,99933.91,2938.0527,99977.086,-1.6840086,33.39192961269873,0.023414928,-7.573586e-07,0.029388763,2.5380461e-05,1.0,42,0.020611629,2.0616353e-07,0,-2.6091305397321543e-08,1.0
58,58,1594.4913,100340.36,2884.3992,100381.805,-1.6465797,34.0718434050068,0.02338264,-5.6980366e-07,0.0346053,2.8572178e-05,1.0,42,0.02066709,2.0588482e-07,0,-2.6139414506182548e-08,1.0
59,59,1380.4436,100535.9,3019.9534,100581.24,-1.7205653,34.75168799730454,0.02341925,-6.4709775e-07,0.038176946,3.441658e-05,1.0,42,0.02069025,2.0570684e-07,0,-2.6069522269534454e-08,1.0
60,60,1194.6187,100397.19,3257.386,100450.016,-1.8583091,35.43183608293475,0.023412226,-7.690922e-07,0.040899843,4.300907e-05,1.0,42,0.020660672,2.0568113e-07,0,-2.6302619328859283e-08,1.0
61,61,1033.3434,100554.62,3196.7483,100605.42,-1.8208861,36.11210411522188,0.023346474,-2.643517e-07,0.048180025,4.864533e-05,1.0,42,0.020704465,2.057987e-07,0,-2.6505702477347403e-08,1.0
62,62,894.71045,100640.17,3751.359,100710.06,-2.1347098,36.79184918751707,0.023386365,-5.1392846e-07,0.04741863,6.579312e-05,1.0,42,0.020687971,2.054211e-07,0,-2.6604585802140842e-08,1.0
63,63,774.2569,100837.82,3542.8857,100900.04,-2.0122304,37.47194599316572,0.023361137,-3.9472764e-07,0.05802003,7.153351e-05,1.0,42,0.02068374,2.0499239e-07,0,-2.654032707304515e-08,1.0
64,64,669.7856,100859.81,3924.1138,100936.12,-2.228061,38.151832158793695,0.023431994,-8.1807656e-07,0.06055399,9.152353e-05,1.0,42,0.020679908,2.0488115e-07,0,-2.6626006883810573e-08,1.0
65,65,579.81464,101284.35,4466.7466,101382.8,-2.5251682,38.83184048443218,0.023409264,-9.058008e-07,0.06145251,0.00011928717,1.0,42,0.02071532,2.0432776e-07,0,-2.6929138517463307e-08,1.0
66,66,501.44418,101376.94,4979.1406,101499.14,-2.8118296,39.5091993965616,0.023432832,-9.3224844e-07,0.06374456,0.00015340064,1.0,42,0.020694373,2.0388717e-07,0,-2.7127944957499482e-08,1.0
67,67,434.02762,101504.51,5265.018,101640.96,-2.9692595,40.18919281553826,0.0233761,-5.731564e-07,0.06964708,0.00018688098,1.0,42,0.020714425,2.0379997e-07,0,-2.699056124026855e-08,1.0
68,68,375.6009,102353.91,5417.283,102497.164,-3.0296657,40.86843268779921,0.0233995,-5.575112e-07,0.07821895,0.00021849996,1.0,42,0.020750726,2.024517e-07,0,-2.6961524750594842e-08,1.0
69,69,325.10385,102137.43,6748.4,102360.125,-3.7801387,41.547680746763945,0.023395738,-5.910363e-07,0.07254328,0.00031530962,1.0,42,0.020680426,2.0203596e-07,0,-2.6896010968550668e-08,1.0
70,70,281.3503,102633.96,7182.818,102885.0,-4.003307,42.22480256558629,0.023371255,-3.500275e-07,0.078754954,0.0003838517,1.0,42,0.020715885,2.013499e-07,0,-2.6753253832478743e-08,1.0
71,71,243.36427,102627.664,7845.4067,102927.1,-4.3714933,42.908085104689235,0.023407979,-4.7202172e-07,0.08335811,0.00048430538,1.0,42,0.020646766,2.00596e-07,0,-2.7035565234548246e-08,1.0
72,72,210.60631,103506.94,8735.103,103874.87,-4.823845,43.58516935017542,0.02335117,-2.8856454e-07,0.08651287,0.00061178074,1.0,42,0.020720474,1.9947534e-07,0,-2.7293426137235757e-08,1.0
73,73,182.27473,103988.76,9496.718,104421.5,-5.2180324,44.25726338211098,0.023373453,-5.8265505e-07,0.09194331,0.00076047913,1.0,42,0.020712934,1.983589e-07,0,-2.7218406593658608e-08,1.0
74,74,157.72879,104712.1,10592.38,105246.484,-5.77623,44.94564325482861,0.02334396,-4.5339692e-07,0.095261104,0.00096491154,1.0,42,0.020723505,1.9690448e-07,0,-2.7551065538009567e-08,1.0
75,75,136.52892,105475.09,11698.592,106121.875,-6.3289967,45.61753280667472,0.02341312,-7.3240125e-07,0.09964647,0.0012109305,1.0,42,0.020744525,1.9547831e-07,0,-2.738025255958397e-08,1.0
76,76,118.14758,105663.05,12412.09,106389.56,-6.6997514,46.30591259940411,0.023398383,-6.105931e-07,0.10853015,0.0014772097,1.0,42,0.020683922,1.9441683e-07,0,-2.7528492693599323e-08,1.0
77,77,102.25773,106187.945,13639.329,107060.31,-7.3192906,46.97232396437903,0.023362704,-5.128113e-07,0.11411191,0.001852081,1.0,42,0.020661036,1.9298501e-07,0,-2.7561049848760177e-08,1.0
78,78,88.4436,107579.79,15203.203,108648.74,-8.043787,47.66230111717596,0.0234205,-7.564276e-07,0.118363716,0.0023176048,1.0,42,0.02072992,1.907976e-07,0,-2.7683965869793702e-08,1.0
79,79,76.54279,108260.89,16713.727,109543.46,-8.776252,48.32973944222613,0.023404475,-6.48216e-07,0.12440634,0.0028961177,1.0,42,0.020686911,1.8884661e-07,0,-2.7723309403140284e-08,1.0
80,80,66.250786,109272.96,17667.238,110691.97,-9.184098,48.998002700624056,0.023408053,-3.3997037e-07,0.13597542,0.0034639016,1.0,42,0.020693153,1.8694358e-07,0,-2.7818228621376542e-08,1.0
81,81,57.329906,110302.31,20172.47,112131.75,-10.363919,49.65263419839903,0.023382379,-6.023983e-07,0.13761945,0.0044539035,1.0,42,0.020679435,1.8442087e-07,0,-2.798508292758781e-08,1.0
82,82,49.60321,111490.94,22243.166,113688.12,-11.282742,50.33835172423278,0.023418803,-6.640472e-07,0.1442493,0.0055217505,1.0,42,0.020675903,1.8186512e-07,0,-2.8154089778476295e-08,1.0
83,83,42.92585,113466.234,24547.727,116091.24,-12.207458,51.046443304541754,0.023370752,-4.8655016e-07,0.1510393,0.006753262,1.0,42,0.020735266,1.786118e-07,0,-2.819997711906276e-08,1.0
84,84,37.1518,114708.4,26487.64,117726.85,-13.002428,51.6911844284914,0.023436746,-6.0463356e-07,0.1617324,0.008187146,1.0,42,0.020701217,1.7584108e-07,0,-2.8218984322403885e-08,1.0
85,85,32.150223,116448.63,29162.945,120044.83,-14.05976,52.330397605517646,0.023398736,-5.238004e-07,0.16974802,0.01001799,1.0,42,0.020688597,1.7234059e-07,0,-2.834549631576877e-08,1.0
86,86,27.835518,117623.625,32501.844,122031.5,-15.446579,53.057330013398314,0.023382332,-6.5184867e-07,0.17591903,0.012479147,1.0,42,0.020645753,1.6918379e-07,0,-2.8292682396857867e-08,1.0
87,87,24.082958,120490.18,35515.168,125615.33,-16.423182,53.759366286714794,0.02342104,-5.5620853e-07,0.18607861,0.014874381,1.0,42,0.020703096,1.6481346e-07,0,-2.8409442604309653e-08,1.0
88,88,20.833313,123007.44,38869.215,129002.5,-17.536055,54.41376709120232,0.023408948,-4.3682206e-07,0.1965423,0.01784314,1.0,42,0.02071854,1.6060572e-07,0,-2.9082431471885113e-08,1.0
89,89,18.021912,125534.336,42385.47,132496.78,-18.656763,55.15973464662966,0.023515344,-2.1562932e-06,0.2083542,0.021321885,1.0,42,0.02071521,1.5634501e-07,0,-2.8593227704849116e-08,1.0
90,90,15.604198,128276.31,46412.402,136414.53,-19.890926,55.814000224345364,0.023379192,-4.599179e-07,0.21975796,0.025438497,1.0,42,0.02068745,1.5165136e-07,0,-2.8997372564546904e-08,1.0
91,91,13.500899,131651.27,50652.652,141059.38,-21.044165,56.83498395283823,0.023406608,-5.197492e-07,0.23273154,0.03000929,1.0,43,0.020701213,1.4675531e-07,0,-2.8428450281548043e-08,1.0
92,92,11.686608,135479.53,54793.945,146140.61,-22.020597,57.42590051426669,0.023324247,-4.0264868e-07,0.2485416,0.03493996,1.0,43,0.020722322,1.4179716e-07,0,-2.8477665605000586e-08,1.0
93,93,10.113269,138980.64,60376.527,151528.69,-23.481283,58.099543986230856,0.023359926,-4.5950443e-07,0.26065165,0.04138157,1.0,43,0.020705111,1.3664153e-07,0,-2.9087864089564677e-08,1.0
94,94,8.748621,143163.3,65592.0,157473.94,-24.615458,58.86637159597012,0.023415254,-5.548261e-07,0.27735093,0.048118714,1.0,43,0.02069538,1.3142099e-07,0,-2.994220514126964e-08,1.0
95,95,7.570237,147696.47,71777.945,164214.25,-25.918957,59.742027264263015,0.023429265,-5.5410965e-07,0.29290017,0.05596029,1.0,43,0.020721007,1.2618275e-07,0,-2.8803733495607473e-08,1.0
96,96,6.554112,152385.55,78264.63,171308.81,-27.184856,60.27831968970713,0.023354243,-4.2983947e-07,0.3102707,0.064760834,1.0,43,0.020728434,1.210004e-07,0,-2.993365973207417e-08,1.0
97,97,5.669445,156695.3,84200.01,177884.95,-28.2513,60.88812057199539,0.023475574,-6.572437e-07,0.33340144,0.074698746,1.0,43,0.020612353,1.15874634e-07,0,-2.8917899952771325e-08,1.0
98,98,4.907347,162984.78,91638.0,186980.11,-29.346819,61.58055551155121,0.023402017,-5.767369e-07,0.353914,0.08500767,1.0,43,0.020689618,1.10651435e-07,0,-3.0621416387143635e-08,1.0
99,99,4.245922,168979.44,99740.05,196219.6,-30.55121,62.36832498895819,0.023384027,-3.5316873e-07,0.37581885,0.09710307,1.0,43,0.020711083,1.05550534e-07,0,-2.8993441836284124e-08,1.0
100,100,3.6747382,175341.52,108655.22,206277.98,-31.78557,63.26796108507551,0.023362452,-6.322891e-07,0.39860535,0.11059578,1.0,43,0.020741489,1.0055115e-07,0,-2.95118407525078e-08,1.0
101,101,3.180988,180818.45,117514.19,215649.94,-33.0199,64.29619428052683,0.023423806,-5.6026505e-07,0.42576286,0.12642987,1.0,43,0.020680366,9.589785e-08,0,-3.132672265649905e-08,1.0
102,102,2.752818,187839.69,128702.305,227701.62,-34.417812,65.47513873656862,0.023396,-4.3590788e-07,0.44921708,0.1435148,1.0,43,0.020724889,9.1017746e-08,0,-3.0402455286326854e-08,1.0
103,103,2.3804083,194523.84,140101.47,239724.73,-35.762478,66.82996224091039,0.023373468,-4.755687e-07,0.47722808,0.16299927,1.0,43,0.020728461,8.6467765e-08,0,-2.889523766250098e-08,1.0
104,104,2.060257,201237.98,153871.31,253324.11,-37.40238,68.38629999480327,0.023391262,-5.79363e-07,0.50204325,0.1852266,1.0,43,0.020701244,8.171841e-08,0,-2.989051603934081e-08,1.0
105,105,1.7836765,208230.5,168525.94,267882.3,-38.984077,70.17464711980938,0.023389911,-5.646603e-07,0.5294651,0.20954762,1.0,43,0.020708574,7.730475e-08,0,-3.2216384308659586e-08,1.0
