True,index,freq,Re(Z),Im(Z),Z,Phase(Z),time,Ewe_meas,I_meas,Cs,Cp,cycle_number,I_Range,Ewe,I,Ns,(QQo),cycle
0,0,7000018.5,283.87405,1206.6733,1239.6149,-76.76169,2.465499157056911,0.011372399,-6.8534864e-06,1.8842185e-05,1.7854065e-05,1.0,40,0.010039103,8.0985665e-06,0,7.363301026543922e-10,1.0
1,1,6057573.0,288.7579,1388.6284,1418.3335,-78.25305,3.017489849968115,0.011389503,-2.0491352e-05,1.8920624e-05,1.8136388e-05,1.0,40,0.014140297,9.969655e-06,0,-4.768867568398289e-10,1.0
2,2,5242039.0,340.63913,1591.1282,1627.1829,-77.91615,3.4335022430459503,0.011374989,-3.950603e-05,1.9081597e-05,1.8245355e-05,1.0,40,0.019506816,1.1988091e-05,0,-7.255695275413625e-10,1.0
3,3,4536288.0,346.303,1861.6958,1893.6306,-79.46257,4.80147812134237,0.011403384,-4.720867e-05,1.8845636e-05,1.8215358e-05,1.0,40,0.019796126,1.0454059e-05,0,-1.248698013320235e-08,1.0
4,4,3925558.5,446.75748,2099.5632,2146.5688,-77.98743,5.2174782477959525,0.011364182,-2.1477414e-05,1.931033e-05,1.8473875e-05,1.0,40,0.01858649,8.658698e-06,0,-1.2586129148417058e-08,1.0
5,5,3397055.0,489.6896,2360.213,2410.4773,-78.27875,5.633490480860928,0.011334465,-1.6621403e-05,1.985027e-05,1.9031046e-05,1.0,40,0.019475486,8.079514e-06,0,-1.6127593668493824e-08,1.0
6,6,2939708.2,588.56287,2673.5999,2737.6162,-77.585,6.049482473958051,0.011283433,-8.583872e-06,2.0249741e-05,1.9313775e-05,1.0,40,0.021224873,7.753049e-06,0,-1.7243225251591966e-08,1.0
7,7,2543924.5,638.34393,3104.7852,3169.7278,-78.38188,6.601488900167169,0.011328279,-1.6174876e-05,2.0150432e-05,1.933319e-05,1.0,40,0.020089313,6.337867e-06,0,-1.5611245684100243e-08,1.0
8,8,2201436.2,854.81213,3508.593,3611.2227,-76.30756,7.153496899729362,0.011288631,-2.7542768e-05,2.0605397e-05,1.9450845e-05,1.0,40,0.020998878,5.8148944e-06,0,-1.9192989068099247e-08,1.0
9,9,1905053.1,1002.2019,3989.7817,4113.729,-75.89949,7.705497539282078,0.01132351,-1.9300584e-05,2.0939384e-05,1.969658e-05,1.0,40,0.020648,5.0192903e-06,0,-2.721401572836789e-08,1.0
10,10,1648567.4,1258.8145,4551.591,4722.456,-74.540375,8.257484365516575,0.011347265,-2.2444889e-05,2.1210466e-05,1.9703384e-05,1.0,40,0.019913644,4.216798e-06,0,-3.100178081660943e-08,1.0
11,11,1426616.2,1420.4751,5336.9556,5522.757,-75.09578,8.976499866315862,0.011345122,-3.764138e-06,2.0903519e-05,1.952067e-05,1.0,41,0.019484306,3.5280036e-06,0,-3.884755086993034e-08,1.0
12,12,1234551.2,1700.0354,6138.8877,6369.934,-74.52105,9.5284953325463,0.011328838,-3.935798e-07,2.1000096e-05,1.950432e-05,1.0,41,0.020429336,3.2071503e-06,0,-3.9374110214691566e-08,1.0
13,13,1068345.5,2291.789,6812.3247,7187.4937,-71.40613,10.080480212083785,0.011313281,-1.8218705e-06,2.1868202e-05,1.9644855e-05,1.0,41,0.0209414,2.9135888e-06,0,-4.0203329948076945e-08,1.0
14,14,924510.06,2744.2192,7695.657,8170.3047,-70.37411,10.632487784983823,0.011248275,3.7497698e-06,2.2369833e-05,1.9846215e-05,1.0,41,0.020117205,2.4622343e-06,0,-4.020748316129167e-08,1.0
15,15,800039.0,3136.5874,8337.305,8907.796,-69.38314,11.18450287784799,0.01131166,-2.6412292e-06,2.3860704e-05,2.0902302e-05,1.0,41,0.020575158,2.3097923e-06,0,-4.044470305852441e-08,1.0
16,16,692334.1,4312.8267,9467.301,10403.377,-65.50837,11.736480824096361,0.011275458,-4.8296295e-07,2.4281651e-05,2.0108604e-05,1.0,41,0.020427361,1.9635318e-06,0,-4.078569512200008e-08,1.0
17,17,599122.25,5621.8115,10456.047,11871.549,-61.734802,12.288502743671415,0.011320845,-1.8721485e-06,2.5406052e-05,1.9708676e-05,1.0,41,0.020720836,1.7454198e-06,0,-3.9995194504759484e-08,1.0
18,18,518454.94,6739.7236,11391.38,13235.838,-59.389267,12.840498023171676,0.011295208,1.1315468e-06,2.6948386e-05,1.9961013e-05,1.0,41,0.020507965,1.549427e-06,0,-4.0175869878562686e-08,1.0
19,19,448662.03,8161.763,12076.604,14575.964,-55.947887,13.392489062767709,0.011289301,2.4834885e-06,2.937352e-05,2.0163738e-05,1.0,41,0.02029404,1.392295e-06,0,-4.0536339111623774e-08,1.0
20,20,388258.97,9981.842,12758.22,16199.054,-51.960903,13.944503728969721,0.011325931,4.3136808e-07,3.212984e-05,1.9930098e-05,1.0,41,0.020907843,1.290683e-06,0,-4.15861591171386e-08,1.0
21,21,335983.9,12654.392,11770.086,17282.03,-42.92647,14.49649818186299,0.011270596,3.606054e-07,4.0245934e-05,1.8667743e-05,1.0,41,0.020311004,1.1752672e-06,0,-4.108872456400666e-08,1.0
22,22,290751.2,13612.604,13303.473,19033.795,-44.341988,15.048495781404199,0.011248163,4.0588934e-06,4.114657e-05,2.0100779e-05,1.0,41,0.02063685,1.0842215e-06,0,-4.163366970649286e-08,1.0
23,23,251605.19,15439.7705,13039.666,20209.389,-40.18278,15.600501967623131,0.011292916,2.7590927e-06,4.8510312e-05,2.0195781e-05,1.0,41,0.020223917,1.000719e-06,0,-4.2557418274188624e-08,1.0
24,24,217729.38,17248.928,12607.9375,21365.523,-36.164577,16.15249908718397,0.011331931,1.6102465e-08,5.7977442e-05,2.0189245e-05,1.0,41,0.020356368,9.527671e-07,0,-4.22706068209714e-08,1.0
25,25,188418.58,18802.479,12341.847,22491.207,-33.28068,16.704478953412035,0.011322484,-1.1980383e-06,6.844098e-05,2.060872e-05,1.0,41,0.02015503,8.961293e-07,0,-4.246336377267962e-08,1.0
26,26,163051.14,20438.975,11286.703,23348.262,-28.908127,17.256492072920082,0.011317585,1.9509068e-06,8.6482694e-05,2.0209442e-05,1.0,41,0.02050276,8.781279e-07,0,-4.27070190463073e-08,1.0
27,27,141098.2,21642.025,10346.381,23988.016,-25.551016,17.808501245832304,0.011266515,3.0365568e-06,0.000109021,2.0281424e-05,1.0,41,0.020195957,8.419186e-07,0,-4.3316638459138015e-08,1.0
28,28,122105.11,22858.371,9779.101,24862.34,-23.161852,18.224479345575674,0.011349687,-9.67128e-07,0.00013328689,2.0620597e-05,1.0,41,0.021856682,8.7910803e-07,0,-4.364296952217551e-08,1.0
29,29,105663.59,23497.941,8392.883,24951.828,-19.65547,18.77647947848891,0.0113011515,2.3196183e-06,0.00017946659,2.0304915e-05,1.0,41,0.02028452,8.1294723e-07,0,-4.398520249142419e-08,1.0
30,30,91439.65,24451.738,7512.7275,25579.848,-17.079428,19.19247984487447,0.0113304965,1.196726e-06,0.00023167969,1.9984225e-05,1.0,41,0.021642452,8.4607433e-07,0,-4.3579609239534044e-08,1.0
31,31,79127.08,24736.748,6630.6006,25609.99,-15.005205,19.744502591114724,0.011288258,1.1632058e-06,0.0003033487,2.0334292e-05,1.0,41,0.020374946,7.955859e-07,0,-4.248314470755253e-08,1.0
32,32,68475.36,25256.469,5810.14,25916.152,-12.955248,20.16049951754394,0.011297053,1.9192516e-06,0.0004000361,2.0106263e-05,1.0,41,0.021351367,8.2386333e-07,0,-4.169119997907463e-08,1.0
33,33,59252.523,25569.766,5143.941,26082.045,-11.374529,20.712482930422993,0.011298189,2.129678e-06,0.00052217644,2.031075e-05,1.0,41,0.020279292,7.7751923e-07,0,-4.183571786312415e-08,1.0
34,34,51282.285,25838.879,4617.8975,26248.29,-10.132862,21.128496550169075,0.011274676,3.891298e-06,0.00067206065,2.0801519e-05,1.0,41,0.020929558,7.973685e-07,0,-4.231923359317117e-08,1.0
35,35,44369.8,26167.371,3928.544,26460.627,-8.538128,21.544498036586447,0.011250529,4.954604e-06,0.0009130636,2.0126303e-05,1.0,41,0.021530533,8.136819e-07,0,-4.243626335704044e-08,1.0
36,36,38403.727,26119.008,3505.7893,26353.238,-7.644759,21.960488616401562,0.011256976,2.6380546e-06,0.0011821183,2.092014e-05,1.0,41,0.021911604,8.314578e-07,0,-4.3014769796772925e-08,1.0
37,37,33226.32,26223.72,3035.1655,26398.783,-6.6021075,22.51247898922884,0.011313896,2.9322766e-06,0.0015781763,2.0861833e-05,1.0,41,0.020278085,7.681447e-07,0,-4.379833039527941e-08,1.0
38,38,28754.086,26366.383,2591.1914,26493.402,-5.6127954,22.92848708902602,0.0113372225,2.4779051e-06,0.0021360975,2.0433587e-05,1.0,41,0.02046667,7.725195e-07,0,-4.310786037585738e-08,1.0
39,39,24884.947,26246.078,2468.351,26361.893,-5.372663,23.34449937546742,0.011312703,-1.4270852e-06,0.0025910542,2.2716278e-05,1.0,41,0.020541824,7.792242e-07,0,-4.297187787964655e-08,1.0
40,40,21553.963,26348.76,2195.971,26440.11,-4.7641625,23.761479581909953,0.011291165,1.9415977e-06,0.0033625318,2.319493e-05,1.0,41,0.020576421,7.7822756e-07,0,-4.344635448348792e-08,1.0
41,41,18631.234,26486.43,1978.6974,26560.236,-4.272407,24.177496801683446,0.011330888,-6.337966e-07,0.0043171695,2.3960396e-05,1.0,41,0.020505417,7.720344e-07,0,-4.380061241511789e-08,1.0
42,42,16126.037,26493.197,1802.4432,26554.44,-3.8920743,24.59348914140719,0.011310505,3.4012336e-07,0.0054755895,2.5227824e-05,1.0,41,0.020363763,7.668685e-07,0,-4.383736631676053e-08,1.0
43,43,13954.87,26492.29,1925.9492,26562.203,-4.1580014,25.00950009454391,0.011315404,2.2280648e-07,0.0059217424,3.1132284e-05,1.0,41,0.02005639,7.550725e-07,0,-4.325099560790591e-08,1.0
44,44,12080.609,26082.78,1308.1531,26115.562,-2.871201,25.425492274313,0.011305362,8.168411e-07,0.010071002,2.5269175e-05,1.0,41,0.019558176,7.4890886e-07,0,-4.278553760367269e-08,1.0
45,45,10447.592,26705.994,1408.7219,26743.123,-3.0195124,25.841484640695853,0.011299549,4.4068062e-07,0.010813808,3.0005782e-05,1.0,41,0.019229015,7.1902656e-07,0,-4.21609043587902e-08,1.0
46,46,9045.586,26688.754,1450.2131,26728.125,-3.1102786,26.27325642123469,0.011365114,2.1908623e-07,0.012132537,3.5717272e-05,1.0,41,0.021836229,8.169757e-07,0,-4.176066528848802e-08,1.0
47,47,7827.7437,26613.27,1348.115,26647.393,-2.8998816,26.752939484023955,0.011359301,2.6564132e-07,0.01508192,3.860122e-05,1.0,41,0.021808945,8.1842694e-07,0,-4.108803392662076e-08,1.0
48,48,6770.8345,26662.156,1478.0387,26703.094,-3.1729913,27.466392771253595,0.011341787,-1.4084636e-06,0.015903478,4.8723738e-05,1.0,41,0.020045465,7.506795e-07,0,-4.1976887688248455e-08,1.0
49,49,5860.798,26646.28,1378.1982,26681.896,-2.9608128,28.072957946744282,0.01141678,-6.23337e-06,0.019703876,5.257045e-05,1.0,41,0.020031177,7.5074036e-07,0,-4.286219041051077e-08,1.0
50,50,5071.625,26864.576,1438.1974,26903.045,-3.0644093,28.75367437908426,0.011354047,1.650781e-07,0.021819988,6.235749e-05,1.0,41,0.020084668,7.465574e-07,0,-4.27938422959768e-08,1.0
51,51,4388.5933,27009.611,1441.9263,27048.072,-3.055873,29.4338391313795,0.011377765,1.05488006e-07,0.025150798,7.1476825e-05,1.0,41,0.020104136,7.4327426e-07,0,-4.2082245545175724e-08,1.0
52,52,3798.7827,26874.252,1566.1208,26919.848,-3.33519,30.113831643684534,0.011308157,8.5594615e-07,0.02675164,9.054319e-05,1.0,41,0.020050894,7.448368e-07,0,-4.164932180963711e-08,1.0
53,53,3286.0488,26985.273,1668.2251,27036.79,-3.5375137,30.793682102645107,0.01129558,1.5188828e-06,0.02903297,0.000110532645,1.0,41,0.020082898,7.4279893e-07,0,-4.1998129747014445e-08,1.0
54,54,2844.088,27229.107,1641.0127,27278.512,-3.448865,31.473819948281744,0.01135373,-6.878005e-07,0.034100845,0.00012340925,1.0,41,0.020141719,7.383731e-07,0,-4.127982626842671e-08,1.0
55,55,2460.7852,27223.58,1946.3175,27293.066,-4.089336,32.15371571391006,0.011348364,-4.9599583e-07,0.033230186,0.00016898784,1.0,41,0.020070445,7.353679e-07,0,-4.0859615061148383e-08,1.0
56,56,2129.3164,27210.525,2024.5989,27285.742,-4.255251,32.83381627954077,0.0113557605,-9.615404e-07,0.036918234,0.00020325788,1.0,41,0.020066781,7.35431e-07,0,-4.064785934067198e-08,1.0
57,57,1843.2289,27330.484,2209.5547,27419.656,-4.6220703,33.51393732515862,0.011291705,-4.1778455e-07,0.03907834,0.0002537591,1.0,41,0.020091014,7.3272304e-07,0,-4.013106537592965e-08,1.0
58,58,1594.4913,27514.242,2480.7249,27625.85,-5.1519423,34.19383810414001,0.011299921,-8.945026e-07,0.040236425,0.00032444813,1.0,41,0.020093033,7.2732723e-07,0,-3.9598122646339106e-08,1.0
59,59,1380.4436,27670.994,2631.751,27795.863,-5.432982,34.873686776430986,0.011232121,2.5896359e-06,0.04380833,0.00039272264,1.0,41,0.020112172,7.235671e-07,0,-3.874126502511407e-08,1.0
60,60,1194.6187,27874.375,2810.3071,28015.686,-5.7571325,35.553821795401745,0.011310337,2.0663635e-06,0.04740641,0.00047702607,1.0,41,0.02010589,7.176655e-07,0,-3.8681619984222e-08,1.0
61,61,1033.3434,28020.91,3023.0645,28183.512,-6.157597,36.23407662770478,0.011306033,2.0700877e-06,0.05094811,0.0005861822,1.0,41,0.02009403,7.129711e-07,0,-3.87084497157433e-08,1.0
62,62,894.71045,28001.89,3372.3103,28204.227,-6.8671455,36.913838606662466,0.011327273,6.250363e-07,0.052748498,0.0007541136,1.0,41,0.02005259,7.1097816e-07,0,-3.861680587991145e-08,1.0
63,63,774.2569,27967.873,2950.626,28123.088,-6.022458,37.59395239895093,0.011283246,2.6827454e-06,0.069666006,0.0007668726,1.0,41,0.019914592,7.081225e-07,0,-3.787459595000402e-08,1.0
64,64,669.7856,28714.305,4082.7185,29003.102,-8.092309,38.27381317791878,0.0113106165,1.0123704e-06,0.0582016,0.0011533069,1.0,41,0.020125546,6.939101e-07,0,-3.7635872281201604e-08,1.0
65,65,579.81464,28938.467,4375.7085,29267.416,-8.598407,38.953846756892744,0.011315702,3.4071331e-06,0.06273105,0.001402202,1.0,41,0.020102594,6.868592e-07,0,-3.8084264983357094e-08,1.0
66,66,501.44418,29247.92,4824.8296,29643.209,-9.367331,39.88219989425852,0.011333738,5.104667e-07,0.065783285,0.0017427258,1.0,42,0.02009917,6.7803626e-07,0,-3.878980188419708e-08,1.0
67,67,434.02762,29603.783,5234.043,30062.92,-10.02646,40.56219699323992,0.0113555,3.815804e-07,0.07005925,0.0021236246,1.0,42,0.020112105,6.6900037e-07,0,-3.840330977768897e-08,1.0
68,68,375.6009,29949.94,5660.857,30480.227,-10.703245,41.24144569216878,0.011299381,5.534897e-07,0.07485337,0.0025818995,1.0,42,0.020096537,6.593303e-07,0,-3.770514562250721e-08,1.0
69,69,325.10385,30352.027,6180.2905,30974.854,-11.509246,41.92067620448506,0.011347004,2.0017137e-07,0.07921166,0.0031534678,1.0,42,0.020101044,6.489472e-07,0,-3.709377621212361e-08,1.0
70,70,281.3503,30819.951,6849.646,31571.934,-12.530169,42.59782434330555,0.011299139,5.7248593e-07,0.082585655,0.0038872145,1.0,42,0.020129807,6.375855e-07,0,-3.6658906528607025e-08,1.0
71,71,243.36427,31311.014,7414.2427,32176.863,-13.321891,43.281127309048316,0.01134134,5.3802717e-07,0.08820567,0.0046832,1.0,42,0.020125661,6.2546997e-07,0,-3.6406517153693584e-08,1.0
72,72,210.60631,31822.785,7986.7036,32809.71,-14.088775,43.958195821236586,0.011333664,4.862495e-07,0.09461962,0.005606754,1.0,42,0.020102195,6.126904e-07,0,-3.68283343215094e-08,1.0
73,73,182.27473,32377.396,8844.317,33563.637,-15.278372,44.629257479769876,0.011360326,5.063639e-07,0.09872549,0.006855197,1.0,42,0.0201215,5.99503e-07,0,-3.6059831109399615e-08,1.0
74,74,157.72879,32804.492,9609.627,34183.03,-16.327225,45.31763924582992,0.011360419,3.4004148e-07,0.105003215,0.008298404,1.0,42,0.020032115,5.860251e-07,0,-3.5605907708237005e-08,1.0
75,75,136.52892,33488.914,10432.0625,35076.137,-17.302225,45.98951765100355,0.011230108,9.610027e-07,0.11174428,0.009884214,1.0,42,0.02003156,5.71088e-07,0,-3.574409837964746e-08,1.0
76,76,118.14758,34408.46,11196.721,36184.37,-18.0252,46.67791584375664,0.01136912,3.2849397e-07,0.12031076,0.011519778,1.0,42,0.020105826,5.556494e-07,0,-3.581044119202975e-08,1.0
77,77,102.25773,35204.207,12107.376,37228.01,-18.979038,47.344335582019994,0.011307058,5.801189e-07,0.12855056,0.013596726,1.0,42,0.02010239,5.399802e-07,0,-3.569798438215659e-08,1.0
78,78,88.4436,36029.402,13090.816,38333.89,-19.967958,48.03430678814766,0.011370257,2.5995308e-07,0.13746336,0.01603078,1.0,42,0.020104561,5.244592e-07,0,-3.545711681668232e-08,1.0
79,79,76.54279,36915.598,14151.001,39534.95,-20.973524,48.7007353798399,0.011343725,6.5610817e-07,0.14693615,0.018825244,1.0,42,0.020084742,5.08025e-07,0,-3.538042584140852e-08,1.0
80,80,66.250786,37875.04,15341.23,40864.066,-22.050339,49.36897693158244,0.011334782,7.93561e-07,0.15659176,0.022070194,1.0,42,0.020097014,4.918016e-07,0,-3.506713186267992e-08,1.0
81,81,57.329906,38916.613,16635.586,42323.11,-23.14513,50.02363610935572,0.011365188,1.7073734e-07,0.16687867,0.025782313,1.0,42,0.020113666,4.7524074e-07,0,-3.50508958995748e-08,1.0
82,82,49.60321,39939.59,17901.408,43767.926,-24.142498,50.708363048470346,0.0113372225,5.0021606e-07,0.17923513,0.029983725,1.0,42,0.020064572,4.5843095e-07,0,-3.476558030344753e-08,1.0
83,83,42.92585,41043.875,19599.646,45483.47,-25.525835,51.41642484211479,0.0113187395,4.0988417e-07,0.18917032,0.035127103,1.0,42,0.020100042,4.4191972e-07,0,-3.4655650274212726e-08,1.0
84,84,37.1518,42252.84,21229.104,47286.12,-26.676334,52.060181139357155,0.011331409,5.642863e-07,0.20179419,0.040672846,1.0,42,0.020108324,4.252479e-07,0,-3.493109192066236e-08,1.0
85,85,32.150223,43302.85,23387.738,49215.07,-28.373346,52.699373356386786,0.011299921,7.581729e-07,0.21166444,0.047800027,1.0,42,0.020114329,4.0870262e-07,0,-3.466861886345403e-08,1.0
86,86,27.835518,44709.734,24940.021,51195.36,-29.153688,53.4273306709656,0.01129327,5.1893323e-07,0.22925772,0.05440721,1.0,42,0.020083034,3.9228232e-07,0,-3.503005481798264e-08,1.0
87,87,24.082958,45983.46,27146.807,53398.76,-30.555914,54.1293931043183,0.011288333,6.3729544e-07,0.2434398,0.06291681,1.0,42,0.020065976,3.7577607e-07,0,-3.495901200965711e-08,1.0
88,88,20.833313,47409.332,29650.18,55917.598,-32.022194,54.78377598877705,0.011353656,4.1509745e-07,0.25765255,0.07244228,1.0,42,0.020094683,3.5936242e-07,0,-3.360047762780659e-08,1.0
89,89,18.021912,48821.734,32507.264,58653.934,-33.657104,55.52970922421082,0.011243141,3.802674e-07,0.27166826,0.08344598,1.0,42,0.020111334,3.4288124e-07,0,-3.4908986110573654e-08,1.0
90,90,15.604198,50095.047,35493.85,61394.848,-35.31872,56.18503352199332,0.011276911,5.346684e-07,0.28735948,0.0960435,1.0,42,0.02005929,3.2672594e-07,0,-3.401016459534074e-08,1.0
91,91,13.500899,51558.637,39103.04,64709.664,-37.177364,56.932966224179836,0.011318693,4.4349738e-07,0.30147195,0.11008538,1.0,42,0.020073697,3.1021173e-07,0,-3.355979118788513e-08,1.0
92,92,11.686608,53076.785,43340.426,68523.99,-39.23373,57.523868492251495,0.011328558,5.268444e-07,0.31422338,0.12570123,1.0,42,0.02010177,2.9335376e-07,0,-3.390005672120664e-08,1.0
93,93,10.113269,54805.918,47523.523,72540.84,-40.92934,58.197510657511884,0.011264168,1.1507855e-06,0.33114633,0.1421255,1.0,42,0.020063525,2.7658245e-07,0,-3.522480922450515e-08,1.0
94,94,8.748621,55964.125,53365.277,77329.4,-43.63829,58.96438330729143,0.0113117155,6.251842e-07,0.34089586,0.16234915,1.0,42,0.020080432,2.5967398e-07,0,-3.493738762762493e-08,1.0
95,95,7.570237,57670.105,59558.156,82903.65,-45.92271,59.84001585558872,0.011321134,6.1140116e-07,0.35299566,0.18218163,1.0,42,0.02009787,2.4242445e-07,0,-3.266447500372512e-08,1.0
96,96,6.554112,59381.617,66532.57,89178.24,-48.250465,60.37530697431066,0.011360736,-9.187188e-09,0.36498246,0.20315279,1.0,42,0.020076074,2.25123e-07,0,-3.546642724732409e-08,1.0
97,97,5.669445,61158.984,74715.56,96554.836,-50.6977,61.213139547471656,0.011294668,9.151195e-08,0.37572363,0.22497933,1.0,43,0.020091806,2.08087e-07,0,-3.546696797815249e-08,1.0
98,98,4.907347,63343.773,84130.55,105310.88,-53.02309,61.9055316336744,0.011311697,8.732269e-07,0.38549578,0.24602574,1.0,43,0.020087935,1.907489e-07,0,-3.562017606000268e-08,1.0
99,99,4.245922,65461.562,95046.73,115408.39,-55.443638,62.693287804402644,0.01131683,6.617727e-07,0.39437643,0.26749182,1.0,43,0.020092485,1.74099e-07,0,-3.323450508094024e-08,1.0
100,100,3.6747382,67952.66,107335.95,127037.67,-57.662758,63.59292864718009,0.011314212,3.0322536e-07,0.4035046,0.288054,1.0,43,0.020082735,1.5808487e-07,0,-3.601381232689585e-08,1.0
101,101,3.180988,70708.14,121602.86,140665.9,-59.82338,64.6222366427246,0.011321013,7.121654e-07,0.41144738,0.30748516,1.0,43,0.020067144,1.426582e-07,0,-3.569177394051278e-08,1.0
102,102,2.752818,73910.11,137787.39,156358.78,-61.790585,65.80108955205651,0.011324759,7.0699394e-07,0.41959774,0.32584235,1.0,43,0.020083714,1.2844635e-07,0,-3.273505576173936e-08,1.0
103,103,2.3804083,77807.35,156798.42,175042.08,-63.608227,67.15599406973342,0.011339515,4.876651e-07,0.4264096,0.342157,1.0,43,0.02010652,1.14866786e-07,0,-3.292225546039814e-08,1.0
104,104,2.060257,81898.945,177585.05,195560.44,-65.24172,68.7123216369946,0.011294323,4.9868953e-07,0.43500313,0.35870972,1.0,43,0.020089194,1.0272627e-07,0,-3.5295260575522865e-08,1.0
105,105,1.7836765,87035.68,201928.72,219887.28,-66.68291,70.50066886862624,0.011306991,5.9851277e-07,0.44188166,0.37265068,1.0,43,0.020096887,9.1396316e-08,0,-3.572582523400768e-08,1.0
106,106,1.5427545,92177.664,229136.28,246982.1,-68.08591,72.55920360636082,0.011449961,5.2450275e-07,0.45022485,0.38751295,1.0,43,0.020075604,8.1283645e-08,0,-3.3567735691028965e-08,1.0
