True,index,freq,Re(Z),Im(Z),Z,Phase(Z),time,Ewe_meas,I_meas,Cs,Cp,cycle_number,I_Range,Ewe,I,Ns,(QQo),cycle
0,0,7000018.5,194.61278,1300.683,1315.1617,-81.49033,2.4654855037515517,-0.030694107,8.328523e-06,1.7480324e-05,1.7097558e-05,1.0,40,0.010081336,7.665472e-06,0,2.671754695395773e-09,1.0
1,1,6057573.0,202.77051,1465.617,1479.5773,-82.12304,3.017494863277534,-0.030684922,-1.1337491e-05,1.7926728e-05,1.7590033e-05,1.0,40,0.014172926,9.579037e-06,0,5.911333143002492e-10,1.0
2,2,5242039.0,172.09639,1670.723,1679.5632,-84.118866,3.4334893630293664,-0.030739922,4.308329e-05,1.8172532e-05,1.7981736e-05,1.0,40,0.019604148,1.167217e-05,0,8.672916726126801e-10,1.0
3,3,4536288.0,199.89137,1919.4738,1929.8539,-84.054726,4.801482548034983,-0.030646019,-2.9645173e-05,1.8278364e-05,1.8082264e-05,1.0,40,0.018027425,9.341342e-06,0,-6.086447936531335e-09,1.0
4,4,3925558.5,193.74892,2157.1453,2165.8289,-84.86762,5.353491694229888,-0.03066424,-3.6826845e-05,1.8794868e-05,1.864446e-05,1.0,40,0.019251082,8.888552e-06,0,-1.7370468960545318e-08,1.0
5,5,3397055.0,241.88863,2446.944,2458.8708,-84.35446,5.7694908606645186,-0.030615779,-6.5032604e-05,1.9146682e-05,1.896139e-05,1.0,40,0.020471547,8.325588e-06,0,-1.9391747263448956e-08,1.0
6,6,2939708.2,371.10306,2912.486,2936.0334,-82.73862,6.321492086892249,-0.030700441,-2.828696e-05,1.858883e-05,1.8291856e-05,1.0,40,0.020725908,7.0591527e-06,0,-2.649078300843636e-08,1.0
7,7,2543924.5,235.4811,3215.156,3223.7678,-85.81108,6.873483126430074,-0.030706627,-2.7152035e-05,1.9458701e-05,1.9354879e-05,1.0,40,0.020337423,6.308588e-06,0,-3.822314353192269e-08,1.0
8,8,2201436.2,269.92456,3667.983,3677.9014,-85.79123,7.425490965979407,-0.03074253,-1.2732864e-05,1.9710003e-05,1.960384e-05,1.0,40,0.020995902,5.7086636e-06,0,-4.568623516724478e-08,1.0
9,9,1905053.1,290.58713,4322.823,4332.579,-86.154274,7.977478912187507,-0.030747412,8.774957e-06,1.9326159e-05,1.9239222e-05,1.0,40,0.020529766,4.738463e-06,0,-5.1545854211541254e-08,1.0
10,10,1648567.4,348.7072,4880.655,4893.0957,-85.913345,8.529484325117664,-0.030701876,-4.555277e-05,1.9780413e-05,1.9679956e-05,1.0,40,0.01982888,4.05242e-06,0,-5.6232701343307984e-08,1.0
11,11,1426616.2,263.47122,5861.143,5867.062,-87.42616,9.248496412561508,-0.030665172,-1.0313422e-05,1.9034027e-05,1.899564e-05,1.0,41,0.019359563,3.299703e-06,0,-6.09623511893397e-08,1.0
12,12,1234551.2,454.46762,7052.49,7067.118,-86.31292,9.800477852142649,-0.03070646,-1.1328627e-06,1.8279678e-05,1.8204082e-05,1.0,41,0.020567564,2.9103185e-06,0,-6.084821366115437e-08,1.0
13,13,1068345.5,411.36588,7884.303,7895.0273,-87.01328,10.352485931682168,-0.03068073,-8.026651e-06,1.8894922e-05,1.8843626e-05,1.0,41,0.020678766,2.619214e-06,0,-6.115799794751808e-08,1.0
14,14,924510.06,305.9549,8993.565,8998.769,-88.05159,10.904494731250452,-0.030695615,-5.6449244e-06,1.9141527e-05,1.91194e-05,1.0,41,0.020364936,2.2630804e-06,0,-6.194647790422575e-08,1.0
15,15,800039.0,-1308.3453,12957.416,13023.302,-95.76577,11.456501264154213,-0.030718682,3.47227e-08,1.5352905e-05,1.5197955e-05,1.0,41,0.020427488,1.5685337e-06,0,-6.276511617030817e-08,1.0
16,16,692334.1,142.9383,10939.482,10940.416,-89.2514,12.0084902770177,-0.030723078,-2.7064038e-06,2.1013948e-05,2.101036e-05,1.0,41,0.020056251,1.8332256e-06,0,-6.336690368459586e-08,1.0
17,17,599122.25,663.3085,14096.249,14111.847,-87.30589,12.56048368991469,-0.03074419,-3.9484767e-06,1.8845216e-05,1.8803581e-05,1.0,41,0.020588351,1.458941e-06,0,-6.445173568999962e-08,1.0
18,18,518454.94,570.8767,16605.607,16615.418,-88.03103,13.112495876121102,-0.030676834,-7.4437876e-06,1.8486486e-05,1.8464661e-05,1.0,41,0.020759583,1.2494169e-06,0,-6.450847792328318e-08,1.0
19,19,448662.03,801.1465,18481.14,18498.498,-87.517815,13.664479395694798,-0.030701987,-1.6282034e-06,1.9194289e-05,1.9158286e-05,1.0,41,0.020226136,1.0933934e-06,0,-6.560073816148954e-08,1.0
20,20,388258.97,1236.1759,21030.94,21067.238,-86.636086,14.21648526188801,-0.03078257,8.503597e-07,1.9491263e-05,1.9424153e-05,1.0,41,0.020792749,9.869708e-07,0,-6.697758252857335e-08,1.0
21,21,335983.9,-1196.5636,24049.164,24078.914,-92.8484,14.768492781411624,-0.030733457,-5.537254e-07,1.969707e-05,1.9648429e-05,1.0,41,0.020764612,8.6235667e-07,0,-6.186161791029893e-08,1.0
22,22,290751.2,2363.7947,28424.025,28522.145,-85.24612,15.320500221016118,-0.030730365,3.8540543e-06,1.9258083e-05,1.9125811e-05,1.0,41,0.020738274,7.270938e-07,0,-6.263205375815535e-08,1.0
23,23,251605.19,2789.3354,32544.469,32663.785,-85.10124,15.87250344720087,-0.030687213,7.851805e-07,1.9436737e-05,1.9294997e-05,1.0,41,0.020476863,6.2689804e-07,0,-6.210667844395583e-08,1.0
24,24,217729.38,3476.719,36893.207,37056.664,-84.61649,16.42548374013859,-0.030662209,-5.557403e-06,1.9813295e-05,1.9638886e-05,1.0,41,0.020210259,5.45388e-07,0,-6.341006351339867e-08,1.0
25,25,188418.58,4924.9565,41618.824,41909.207,-83.2513,16.977489553013584,-0.030663997,-4.5127194e-06,2.029582e-05,2.0015541e-05,1.0,41,0.02084993,4.9750236e-07,0,-6.270224131402339e-08,1.0
26,26,163051.14,5561.2363,50291.81,50598.35,-83.6899,17.52949984589941,-0.030699678,-3.4996954e-06,1.9408817e-05,1.9174358e-05,1.0,41,0.020308534,4.013675e-07,0,-6.300069913465951e-08,1.0
27,27,141098.2,4792.161,56057.504,56261.965,-85.11386,18.248479160043644,-0.030650917,-1.8970342e-06,2.012171e-05,1.9975727e-05,1.0,42,0.019048274,3.3856395e-07,0,-6.388574157809717e-08,1.0
28,28,122105.11,5507.6978,65760.31,65990.555,-85.21242,18.664502433181042,-0.030680804,-1.3852158e-06,1.9820858e-05,1.9682788e-05,1.0,42,0.020751804,3.1446626e-07,0,-6.402419992386834e-08,1.0
29,29,105663.59,6951.711,73038.164,73368.25,-84.56301,19.21648693937459,-0.030663662,-1.0371124e-06,2.062267e-05,2.0437525e-05,1.0,42,0.020311082,2.7683748e-07,0,-6.443228277333664e-08,1.0
30,30,91439.65,9061.133,87667.89,88134.914,-84.09901,19.632501999119995,-0.030739214,-1.0618837e-06,1.9853864e-05,1.964401e-05,1.0,42,0.021687986,2.4607712e-07,0,-6.454978031783456e-08,1.0
31,31,79127.08,11227.686,100227.56,100854.48,-83.60826,20.184491785330465,-0.030672532,-1.4841154e-06,2.0068172e-05,1.981946e-05,1.0,42,0.020316126,2.0144e-07,0,-6.480667594475619e-08,1.0
32,32,68475.36,13561.992,116218.68,117007.305,-83.34405,20.60048871175968,-0.030761795,-6.603263e-07,1.9999074e-05,1.9730396e-05,1.0,42,0.021202074,1.8120299e-07,0,-6.490753133706879e-08,1.0
33,33,59252.523,17693.482,130946.51,132136.47,-82.3048,21.01649590485613,-0.030807704,-5.686905e-07,2.0512536e-05,2.0144746e-05,1.0,42,0.021889867,1.6566105e-07,0,-6.50168656673208e-08,1.0
34,34,51282.285,22555.115,150776.86,152454.56,-81.49206,21.568497504427796,-0.030618872,-1.6279009e-06,2.0583446e-05,2.0132913e-05,1.0,42,0.02036053,1.3355147e-07,0,-6.527397486062636e-08,1.0
35,35,44369.8,37331.043,176129.55,180042.28,-78.033134,21.98549293758697,-0.030736549,-9.657783e-07,2.0365751e-05,1.949018e-05,1.0,42,0.020806126,1.1556245e-07,0,-6.540825872388802e-08,1.0
36,36,38403.727,47832.0,193386.22,199213.78,-76.10733,22.402489144034917,-0.030634243,-1.6513686e-06,2.1429954e-05,2.0194519e-05,1.0,42,0.020997792,1.0540331e-07,0,-6.553936413398196e-08,1.0
37,37,33226.32,57838.35,223024.56,230402.33,-75.46141,22.81850175044383,-0.030754548,-9.0804036e-07,2.1477574e-05,2.0124118e-05,1.0,42,0.021293558,9.241902e-08,0,-6.565230358183053e-08,1.0
38,38,28754.086,76533.875,252326.67,263678.2,-73.126785,23.234496863529785,-0.030711062,-1.408311e-06,2.1935999e-05,2.0087937e-05,1.0,42,0.021408258,8.1190855e-08,0,-6.58001781170962e-08,1.0
39,39,24884.947,107258.82,288622.53,307908.12,-69.61377,23.650489389983704,-0.030696696,-7.350129e-07,2.2159153e-05,1.9470242e-05,1.0,42,0.021494424,6.980792e-08,0,-6.588381655975508e-08,1.0
40,40,21553.963,124127.65,316842.62,340289.47,-68.60652,24.067501089797588,-0.030662153,-1.2818463e-06,2.3305016e-05,2.0204103e-05,1.0,42,0.021409145,6.291451e-08,0,-6.59570626767991e-08,1.0
41,41,18631.234,158532.25,345055.3,379731.0,-65.32405,24.483491696213605,-0.030685034,-1.3097842e-06,2.475653e-05,2.044161e-05,1.0,42,0.021266526,5.6004186e-08,0,-6.602422615178483e-08,1.0
42,42,16126.037,207077.62,371791.2,425570.0,-60.883377,24.899490595940733,-0.030674543,-1.4595299e-06,2.6545651e-05,2.0260472e-05,1.0,42,0.02106581,4.9500226e-08,0,-6.618814328254392e-08,1.0
43,43,13954.87,260744.84,433826.72,506155.6,-58.99268,25.481492063583573,-0.030702174,-9.551384e-07,2.628924e-05,1.9312682e-05,1.0,43,0.020649934,4.07976e-08,0,-6.639867307635796e-08,1.0
44,44,12080.609,321791.88,431983.38,538664.7,-53.316936,25.897479203384137,-0.03068071,-9.5221446e-07,3.0497498e-05,1.9613779e-05,1.0,43,0.020078506,3.7274592e-08,0,-6.651816831920229e-08,1.0
45,45,10447.592,361016.75,485183.94,604761.56,-53.347717,26.31349660977139,-0.030758908,-9.212633e-07,3.1397678e-05,2.0208869e-05,1.0,43,0.019566346,3.2353817e-08,0,-6.662508022409044e-08,1.0
46,46,9045.586,400369.88,504208.53,643834.06,-51.54845,26.886253517033765,-0.030722948,-9.551197e-07,3.4895806e-05,2.1401574e-05,1.0,43,0.020194404,3.136585e-08,0,-6.677301355140447e-08,1.0
47,47,7827.7437,478472.75,534859.44,717642.5,-48.18493,27.366943273198558,-0.03072224,-9.312451e-07,3.8014026e-05,2.111577e-05,1.0,43,0.020228121,2.8186905e-08,0,-6.68950704917817e-08,1.0
48,48,6770.8345,586294.75,539441.3,796704.75,-42.61671,27.905428712052526,-0.030656619,-9.742082e-07,4.3574633e-05,1.9976866e-05,1.0,43,0.020318829,2.5503587e-08,0,-6.703571889843158e-08,1.0
49,49,5860.798,634161.25,506009.34,811298.94,-38.587032,28.51196178092505,-0.030646037,-9.391598e-07,5.3666692e-05,2.0876616e-05,1.0,43,0.020246724,2.4955936e-08,0,-6.718631136562199e-08,1.0
50,50,5071.625,713558.94,502415.0,872689.6,-35.149277,29.192696719932428,-0.030724496,-9.781377e-07,6.2461215e-05,2.0702175e-05,1.0,43,0.020317296,2.3281238e-08,0,-6.73714177089817e-08,1.0
51,51,4388.5933,821110.6,524758.8,974471.4,-32.582005,29.872840832234942,-0.030722147,-9.2960624e-07,6.9109075e-05,2.0040861e-05,1.0,43,0.020530183,2.106802e-08,0,-6.754518265283041e-08,1.0
52,52,3798.7827,835863.8,451207.16,949871.7,-28.360592,30.552803797865636,-0.030726004,-9.1953126e-07,9.28538e-05,2.0951822e-05,1.0,43,0.020301376,2.1372756e-08,0,-6.772309961432615e-08,1.0
53,53,3286.0488,859757.3,398755.8,947728.25,-24.881891,31.23267361683247,-0.030780613,-9.242056e-07,0.00012146163,2.1502328e-05,1.0,43,0.020265859,2.1383618e-08,0,-6.789758814884768e-08,1.0
54,54,2844.088,919390.9,389948.03,998668.6,-22.983616,31.91283506245236,-0.030705193,-9.4102205e-07,0.0001435061,2.1879683e-05,1.0,43,0.020285511,2.0312555e-08,0,-6.807177270431808e-08,1.0
55,55,2460.7852,949175.3,363383.25,1016356.8,-20.948895,32.5926961614241,-0.030593533,-9.0599235e-07,0.00017798424,2.2751967e-05,1.0,43,0.020343473,2.0016074e-08,0,-6.824730592748314e-08,1.0
56,56,2129.3164,991169.4,323362.72,1042583.44,-18.068586,33.272807233719504,-0.030760752,-8.949676e-07,0.00023114793,2.2235568e-05,1.0,43,0.02035953,1.9527961e-08,0,-6.841064415690014e-08,1.0
57,57,1843.2289,1009224.94,305514.78,1054454.5,-16.842228,33.95296819935902,-0.030807443,-8.131385e-07,0.00028262375,2.372561e-05,1.0,43,0.020343374,1.9292795e-08,0,-6.858812882836515e-08,1.0
58,58,1594.4913,1029746.9,272317.47,1065145.8,-14.812826,34.6328055383201,-0.030700684,-9.2996004e-07,0.00036654095,2.3958268e-05,1.0,43,0.02030231,1.9060593e-08,0,-6.876895624514291e-08,1.0
59,59,1380.4436,1048905.2,243682.83,1076839.6,-13.079008,35.31271197061869,-0.030747877,-9.299972e-07,0.0004731257,2.4228377e-05,1.0,43,0.020319723,1.8869775e-08,0,-6.893535457003786e-08,1.0
60,60,1194.6187,1053683.8,224566.81,1077348.5,-12.031181,35.992824402914266,-0.030658707,-9.4346154e-07,0.0005932603,2.5776502e-05,1.0,43,0.020315435,1.8856884e-08,0,-6.911906153851632e-08,1.0
61,61,1033.3434,1067658.6,197278.44,1085731.9,-10.468847,36.67307654189062,-0.030803122,-8.674242e-07,0.000780721,2.5775667e-05,1.0,43,0.020322917,1.8718172e-08,0,-6.929773885663377e-08,1.0
62,62,894.71045,1079439.2,194514.97,1096825.0,-10.215074,37.35283324084594,-0.03068997,-9.2753896e-07,0.0009145019,2.8761795e-05,1.0,43,0.020349853,1.8553418e-08,0,-6.945882632254749e-08,1.0
63,63,774.2569,1094701.5,152554.11,1105280.1,-7.9334636,38.03293039315031,-0.030759355,-8.591929e-07,0.0013474453,2.5669315e-05,1.0,43,0.020465638,1.8516246e-08,0,-6.962622281791178e-08,1.0
64,64,669.7856,1090182.1,166315.0,1102795.4,-8.673998,38.71280511877558,-0.030753132,-8.8960405e-07,0.001428739,3.24957e-05,1.0,43,0.020371573,1.8472669e-08,0,-6.980736623283295e-08,1.0
65,65,579.81464,1097133.1,158330.89,1108498.9,-8.211848,39.39280461774615,-0.03072157,-9.1327377e-07,0.0017336655,3.536927e-05,1.0,43,0.020396858,1.8400431e-08,0,-6.996797820345554e-08,1.0
66,66,501.44418,1103451.0,153148.73,1114028.1,-7.9016433,40.07017147654551,-0.030708266,-9.373159e-07,0.0020724502,3.9166847e-05,1.0,43,0.020425325,1.8334658e-08,0,-7.012205742413495e-08,1.0
67,67,434.02762,1096392.8,155407.78,1107352.1,-8.067625,40.75019004216301,-0.030607507,-9.457707e-07,0.0023595546,4.6473357e-05,1.0,43,0.020303575,1.8335248e-08,0,-7.030385866702796e-08,1.0
68,68,375.6009,1112145.6,166179.44,1124492.5,-8.498396,41.429456607758766,-0.030771373,-8.759534e-07,0.0025498592,5.5687495e-05,1.0,43,0.020393174,1.8135447e-08,0,-7.04727239743227e-08,1.0
69,69,325.10385,1118675.6,170077.84,1131530.6,-8.644763,42.10869432007894,-0.030638378,-8.988596e-07,0.0028783942,6.5029904e-05,1.0,43,0.020393796,1.8023194e-08,0,-7.065493861236405e-08,1.0
70,70,281.3503,1128626.5,173912.44,1141947.1,-8.759929,42.78580315223371,-0.030781899,-8.520788e-07,0.0032526855,7.544168e-05,1.0,43,0.020392478,1.7857637e-08,0,-7.08230211946902e-08,1.0
71,71,243.36427,1126211.8,189934.64,1142115.6,-9.5728035,43.46911211797851,-0.030667203,-9.175197e-07,0.0034431752,9.5224204e-05,1.0,43,0.020296238,1.7770738e-08,0,-7.100859473457256e-08,1.0
72,72,210.60631,1143490.9,192391.14,1159562.8,-9.550508,44.146175643458264,-0.030723862,-8.9763046e-07,0.0039279293,0.00010812978,1.0,43,0.020374348,1.7570716e-08,0,-7.116050350739044e-08,1.0
73,73,182.27473,1186299.4,208628.94,1204505.0,-9.974344,44.81827076870832,-0.030721756,-8.9533984e-07,0.0041852277,0.0001255599,1.0,43,0.02065112,1.7144902e-08,0,-7.134270011722036e-08,1.0
74,74,157.72879,1172519.4,222618.11,1193465.8,-10.750394,45.50664720147688,-0.03062938,-9.2562067e-07,0.0045326133,0.00015770654,1.0,43,0.020438217,1.7125098e-08,0,-7.151257940121052e-08,1.0
75,75,136.52892,1178080.5,255659.6,1205502.1,-12.244113,46.17851720665931,-0.030745735,-8.631036e-07,0.0045596696,0.0002050792,1.0,43,0.02036745,1.6895408e-08,0,-7.168903408339271e-08,1.0
76,76,118.14758,1200898.8,257214.97,1228135.8,-12.089261,46.86689115938498,-0.03066044,-8.990458e-07,0.005237199,0.00022972,1.0,43,0.020437833,1.6641346e-08,0,-7.185008479200583e-08,1.0
77,77,102.25773,1210637.4,287315.3,1244264.0,-13.350762,47.53334044435178,-0.03068127,-9.2163543e-07,0.005417079,0.00028884024,1.0,43,0.020395864,1.639191e-08,0,-7.20246618348652e-08,1.0
78,78,88.4436,1224741.1,303612.44,1261812.8,-13.922904,48.22327037047944,-0.030728035,-8.720054e-07,0.005926989,0.00034314953,1.0,43,0.020360764,1.6136122e-08,0,-7.219207816284445e-08,1.0
79,79,76.54279,1247013.2,323400.47,1288266.2,-14.538792,48.89070754887507,-0.03076677,-9.012806e-07,0.00642947,0.0004051774,1.0,43,0.02036655,1.580927e-08,0,-7.236273480526674e-08,1.0
80,80,66.250786,1264934.8,352084.94,1313020.9,-15.554137,49.559000087261666,-0.030708248,-9.1366485e-07,0.0068230988,0.0004906065,1.0,43,0.020360045,1.5506261e-08,0,-7.253844799915083e-08,1.0
81,81,57.329906,1295755.1,393375.47,1354151.2,-16.887651,50.21362489171406,-0.030755907,-8.6170695e-07,0.0070571876,0.0005955412,1.0,43,0.020440727,1.5094862e-08,0,-7.267960667877274e-08,1.0
82,82,49.60321,1320035.5,407997.25,1381649.5,-17.175362,50.899381190916756,-0.03066955,-9.13907e-07,0.0078641735,0.00068575947,1.0,43,0.020373613,1.4745861e-08,0,-7.284499883638576e-08,1.0
83,83,42.92585,1341210.6,462743.06,1418794.2,-19.035404,51.60744183787028,-0.030660309,-9.436291e-07,0.008012376,0.0008523193,1.0,43,0.020379556,1.4363997e-08,0,-7.304292232326582e-08,1.0
84,84,37.1518,1382541.0,491837.12,1467420.6,-19.582949,52.25118106845184,-0.030712906,-8.840731e-07,0.0087100165,0.0009784809,1.0,43,0.020456703,1.39405865e-08,0,-7.320801576042513e-08,1.0
85,85,32.150223,1425245.6,556194.2,1529927.1,-21.31794,52.890381738805445,-0.03071231,-8.9735124e-07,0.008900403,0.0011763081,1.0,43,0.02053512,1.3422286e-08,0,-7.333311446190096e-08,1.0
86,86,27.835518,1418061.9,593634.8,1537303.4,-22.71536,53.61832217339543,-0.03074446,-8.7273173e-07,0.009631667,0.0014362201,1.0,43,0.020282457,1.3193529e-08,0,-7.352681436878999e-08,1.0
87,87,24.082958,1488346.4,634843.2,1618085.5,-23.100317,54.320387700077845,-0.030677935,-8.8533943e-07,0.010409835,0.0016024107,1.0,43,0.020409483,1.2613353e-08,0,-7.368520643637587e-08,1.0
88,88,20.833313,1539398.9,687097.1,1685779.1,-24.053175,54.97474389117269,-0.030715011,-8.891199e-07,0.011118434,0.0018470497,1.0,43,0.020431938,1.2120175e-08,0,-7.382593937027475e-08,1.0
89,89,18.021912,1586456.4,753186.4,1756170.1,-25.396507,55.72072699328419,-0.030263899,-1.2281686e-06,0.011725107,0.0021566942,1.0,43,0.020402148,1.161741e-08,0,-7.403975662590451e-08,1.0
90,90,15.604198,1646990.6,803625.56,1832591.6,-26.009401,56.375999371055514,-0.030668674,-8.99586e-07,0.012691851,0.0024406249,1.0,43,0.020398753,1.1131096e-08,0,-7.421060179775275e-08,1.0
91,91,13.500899,1710915.6,887174.8,1927254.9,-27.408457,57.12399324658327,-0.030685434,-8.8612165e-07,0.013287651,0.0028157127,1.0,43,0.020440523,1.060603e-08,0,-7.438650730376552e-08,1.0
92,92,11.686608,1760472.4,946631.25,1998843.1,-28.267557,57.714896474644775,-0.030818623,-8.159878e-07,0.014386357,0.003226674,1.0,43,0.020359762,1.0185773e-08,0,-7.454591811639154e-08,1.0
93,93,10.113269,1870046.5,1034702.75,2137214.0,-28.955896,58.38852735995897,-0.030775322,-8.8168946e-07,0.015209431,0.0035649068,1.0,43,0.020467728,9.576826e-09,0,-7.471605712452423e-08,1.0
94,94,8.748621,1945010.2,1125436.9,2247147.8,-30.054865,59.15540976970806,-0.030643316,-9.257047e-07,0.016164392,0.0040545105,1.0,43,0.02043119,9.092055e-09,0,-7.483393463871973e-08,1.0
95,95,7.570237,2034751.6,1210685.6,2367693.8,-30.752821,60.03102178464178,-0.03074648,-8.762702e-07,0.017365178,0.004540367,1.0,43,0.020417996,8.62358e-09,0,-7.507812312723781e-08,1.0
96,96,6.554112,2142530.0,1300466.4,2506321.5,-31.256786,60.56732130344608,-0.030701447,-8.8777915e-07,0.018672701,0.0050272658,1.0,43,0.02044493,8.157345e-09,0,-7.523406924049208e-08,1.0
97,97,5.669445,2248250.2,1349593.6,2622219.0,-30.975813,61.17713757240563,-0.030670797,-8.924908e-07,0.020800633,0.0055099125,1.0,43,0.020328177,7.752281e-09,0,-7.535366882940635e-08,1.0
98,98,4.907347,2402222.2,1487915.6,2825697.2,-31.773716,61.86955827192287,-0.03072606,-9.056572e-07,0.021796916,0.006043665,1.0,43,0.020436388,7.2323343e-09,0,-7.550333291254634e-08,1.0
99,99,4.245922,2507328.8,1598380.5,2973469.0,-32.516834,62.65728542939178,-0.03077088,-8.709069e-07,0.023451354,0.0067764376,1.0,43,0.020414226,6.8654575e-09,0,-7.579594960731327e-08,1.0
100,100,3.6747382,2651131.0,1681592.8,3139466.5,-32.386654,63.55692883214215,-0.030782457,-8.2642606e-07,0.025755674,0.007389292,1.0,43,0.020385511,6.493304e-09,0,-7.589644803474322e-08,1.0
101,101,3.180988,2828775.5,1784390.1,3344550.8,-32.24371,64.58621242767549,-0.03068329,-8.913083e-07,0.02803937,0.007981275,1.0,43,0.020392315,6.097176e-09,0,-7.612712921276711e-08,1.0
102,102,2.752818,2983987.2,1903928.4,3539650.2,-32.53985,65.76517267033341,-0.030735157,-8.769468e-07,0.030366309,0.008785622,1.0,43,0.020419843,5.768887e-09,0,-7.653688843714887e-08,1.0
103,103,2.3804083,3193914.8,1980834.0,3758296.8,-31.806778,67.11999542801641,-0.030711222,-8.79225e-07,0.033753637,0.009376368,1.0,43,0.020402849,5.4287486e-09,0,-7.688918129196252e-08,1.0
104,104,2.060257,3373662.8,2081176.8,3963949.8,-31.669996,68.67630579523393,-0.030681703,-9.0433036e-07,0.037118446,0.0102317855,1.0,43,0.0203989,5.1461044e-09,0,-7.715083636870704e-08,1.0
