True,index,freq,Re(Z),Im(Z),Z,Phase(Z),time,Ewe_meas,I_meas,Cs,Cp,cycle_number,I_Range,Ewe,I,Ns,(QQo),cycle
110,110,7000018.5,124.50971,1209.16,1215.5536,-84.12086,82.97949562131544,-0.037400972,-4.9043786e-07,1.8803436e-05,1.860615e-05,2.0,40,0.009969203,8.2013685e-06,0,-6.369561332079085e-08,2.0
111,111,6057573.0,216.14201,1536.0184,1551.1511,-81.99017,83.5314966875303,-0.037409954,-1.2137523e-05,1.7105078e-05,1.677296e-05,2.0,40,0.014228213,9.17268e-06,0,-6.96677298364396e-08,2.0
112,112,5242039.0,187.3871,1692.0068,1702.3517,-83.680336,83.94849022731069,-0.037384745,-3.1598734e-05,1.794394e-05,1.7726517e-05,2.0,40,0.019522147,1.1467752e-05,0,-7.184048317139219e-08,2.0
113,113,4536288.0,135.78198,1977.274,1981.9308,-86.071594,85.31649421228212,-0.037368327,-4.0008374e-05,1.7744045e-05,1.7660761e-05,2.0,40,0.018209297,9.187655e-06,0,-8.025550273905797e-08,2.0
114,114,3925558.5,255.62617,2284.411,2298.6687,-83.61515,85.86849021181115,-0.03741081,-2.1402979e-05,1.7747796e-05,1.7528313e-05,2.0,40,0.020355806,8.855476e-06,0,-8.949229671656371e-08,2.0
115,115,3397055.0,266.28143,2526.367,2540.3613,-83.983185,86.28448628491606,-0.037426703,-2.6221775e-05,1.8544755e-05,1.8341e-05,2.0,40,0.021150278,8.325696e-06,0,-9.257659096809532e-08,2.0
116,116,2939708.2,269.7837,2990.2993,3002.4446,-84.84476,86.83649300449179,-0.03740142,-1.6026022e-05,1.8105113e-05,1.7958933e-05,2.0,40,0.020301605,6.7616916e-06,0,-9.975790077792486e-08,2.0
117,117,2543924.5,326.26993,3340.646,3356.541,-84.4218,87.38850735072629,-0.03743697,-1.3030555e-05,1.8727744e-05,1.8550792e-05,2.0,40,0.020879975,6.2206823e-06,0,-1.0202830490893078e-07,2.0
118,118,2201436.2,396.68875,3740.3975,3761.374,-83.94611,87.94050756361685,-0.03748204,-8.639683e-06,1.9328416e-05,1.9113435e-05,2.0,40,0.020555189,5.4648085e-06,0,-1.0263781709898526e-07,2.0
119,119,1905053.1,432.16238,4388.419,4409.647,-84.37576,88.4924975631584,-0.037423704,-3.291971e-05,1.9037281e-05,1.8854433e-05,2.0,40,0.02050078,4.649075e-06,0,-1.0743366550559783e-07,2.0
120,120,1648567.4,184.51836,5180.6636,5183.9487,-87.960175,89.04448572269757,-0.03743848,-3.0687068e-05,1.8634943e-05,1.8611332e-05,2.0,40,0.019783583,3.8163153e-06,0,-1.1769349083388212e-07,2.0
121,121,1426616.2,180.48729,6183.323,6185.957,-88.32805,89.76350247682421,-0.03746311,-2.1161097e-06,1.8042263e-05,1.8026903e-05,2.0,41,0.01943282,3.1414413e-06,0,-1.2143185522389604e-07,2.0
122,122,1234551.2,180.18544,6837.911,6840.2847,-88.490555,90.31548172971816,-0.03749534,-5.8384597e-08,1.8853307e-05,1.8840225e-05,2.0,41,0.020749167,3.0333777e-06,0,-1.2064978176229128e-07,2.0
123,123,1068345.5,301.18304,7944.6675,7950.3745,-87.82895,90.86750626258436,-0.037370715,-1.1054555e-05,1.8751358e-05,1.8724446e-05,2.0,41,0.02056817,2.5870693e-06,0,-1.203209500481665e-07,2.0
124,124,924510.06,485.4032,9122.747,9135.651,-86.95428,91.41948610215331,-0.03741299,-4.2129086e-06,1.8870476e-05,1.8817203e-05,2.0,41,0.020331167,2.2254753e-06,0,-1.218164819248402e-07,2.0
125,125,800039.0,2922.0305,12279.683,12622.554,-76.61502,91.97149588839966,-0.037398383,-3.1309812e-06,1.6200253e-05,1.53321e-05,2.0,41,0.021317951,1.6888779e-06,0,-1.2332504122423574e-07,2.0
126,126,692334.1,163.59357,11798.5205,11799.654,-89.20561,92.52350482126349,-0.037362795,-6.618844e-06,1.9483943e-05,1.94802e-05,2.0,41,0.020058159,1.6998938e-06,0,-1.2455215366777218e-07,2.0
127,127,599122.25,792.9359,14502.471,14524.132,-86.870415,93.07548834083718,-0.037427783,-4.8386e-06,1.8317352e-05,1.8262757e-05,2.0,41,0.020608239,1.4188964e-06,0,-1.2501625658384323e-07,2.0
128,128,518454.94,660.475,16244.824,16258.245,-87.671776,93.6274991670216,-0.03748554,1.8764179e-06,1.8897053e-05,1.8865869e-05,2.0,41,0.020542936,1.2635396e-06,0,-1.245118480879602e-07,2.0
129,129,448662.03,827.11237,19146.598,19164.455,-87.52642,94.17950513990945,-0.037474718,7.684207e-07,1.8527175e-05,1.8492663e-05,2.0,41,0.020296156,1.0590521e-06,0,-1.2595991650435048e-07,2.0
130,130,388258.97,1519.2892,21751.504,21804.498,-86.00452,94.73149380614632,-0.03734398,-8.076931e-06,1.8845572e-05,1.8754079e-05,2.0,41,0.020851212,9.562802e-07,0,-1.2615596484749067e-07,2.0
131,131,335983.9,5157.019,25898.795,26407.242,-78.73845,95.28350711238454,-0.03736954,-7.6151105e-06,1.8290351e-05,1.7592805e-05,2.0,41,0.020795725,7.875008e-07,0,-1.2717741816098283e-07,2.0
132,132,290751.2,2156.4927,29370.033,29449.098,-85.8006,95.83548516526935,-0.037458505,1.4853599e-06,1.863778e-05,1.8537838e-05,2.0,41,0.020559436,6.9813467e-07,0,-1.270940156473933e-07,2.0
133,133,251605.19,3020.4207,33971.918,34105.926,-84.91923,96.38748964478145,-0.03740792,-3.7715733e-06,1.8620034e-05,1.8474e-05,2.0,41,0.020527005,6.018604e-07,0,-1.2788642907601084e-07,2.0
134,134,217729.38,3652.601,38970.8,39141.598,-84.6455,96.93949820435955,-0.037545945,3.3158815e-06,1.8757019e-05,1.8593679e-05,2.0,41,0.020174606,5.154262e-07,0,-1.276408377818162e-07,2.0
135,135,188418.58,5431.0117,44478.906,44809.25,-83.03847,97.49150540391565,-0.03737064,-5.462433e-06,1.8990759e-05,1.8711782e-05,2.0,41,0.020802103,4.6423682e-07,0,-1.274291956500567e-07,2.0
136,136,163051.14,5864.8267,50358.24,50698.6,-83.35714,98.04348863012274,-0.037494168,3.0197941e-06,1.9383215e-05,1.912383e-05,2.0,41,0.02019948,3.9842283e-07,0,-1.2848563818001127e-07,2.0
137,137,141098.2,4824.1836,56898.746,57102.89,-85.15375,98.76250279761734,-0.03748541,-9.609357e-07,1.9824212e-05,1.968272e-05,2.0,42,0.018859029,3.30264e-07,0,-1.2963854781772475e-07,2.0
138,138,122105.11,13643.776,59723.387,61262.023,-77.13164,99.17848879066878,-0.037460163,-1.1388056e-06,2.1824379e-05,2.0741878e-05,2.0,42,0.020155475,3.290044e-07,0,-1.2978149732315497e-07,2.0
139,139,105663.59,6878.1685,78864.98,79164.34,-85.01559,99.7304899635783,-0.037381295,-1.883624e-06,1.9098998e-05,1.8954821e-05,2.0,42,0.02030382,2.5647682e-07,0,-1.2967548063530168e-07,2.0
140,140,91439.65,10702.584,90095.96,90729.42,-83.225525,100.14648561002105,-0.037444364,-1.1654394e-06,1.9318806e-05,1.9049985e-05,2.0,42,0.021568336,2.3772151e-07,0,-1.2978896896895107e-07,2.0
141,141,79127.08,13167.349,99104.02,99974.93,-82.431786,100.69850491624675,-0.03747509,-1.0106647e-06,2.0295685e-05,1.9943624e-05,2.0,42,0.020127907,2.0132956e-07,0,-1.2996547494007455e-07,2.0
142,142,68475.36,15524.965,117478.74,118500.125,-82.47191,101.11450738934218,-0.037481572,-8.6073254e-07,1.9784566e-05,1.9444979e-05,2.0,42,0.021047963,1.7761975e-07,0,-1.3009109658241435e-07,2.0
143,143,59252.523,20369.316,137209.9,138713.61,-81.5559,101.53149394245702,-0.03739572,-1.6115109e-06,1.9576173e-05,1.915405e-05,2.0,42,0.021826386,1.5734855e-07,0,-1.302341453705351e-07,2.0
144,144,51282.285,21865.963,158575.4,160075.86,-82.148994,102.08348279536585,-0.037502833,-6.243797e-07,1.9571176e-05,1.9206e-05,2.0,42,0.020303085,1.2683415e-07,0,-1.304821375794517e-07,2.0
145,145,44369.8,38747.117,181842.4,185924.72,-77.97127,102.49950836176868,-0.03746007,-1.1067704e-06,1.972593e-05,1.8869203e-05,2.0,42,0.020716067,1.11421805e-07,0,-1.3062371643662925e-07,2.0
146,146,38403.727,44398.74,201418.9,206254.27,-77.56909,102.9154976082209,-0.03746378,-1.0242611e-06,2.0575317e-05,1.9621903e-05,2.0,42,0.02099397,1.0178684e-07,0,-1.3095323541079512e-07,2.0
147,147,33226.32,63879.62,224247.78,233168.77,-74.09977,103.3314834679768,-0.037372652,-1.9676233e-06,2.1360416e-05,1.9757195e-05,2.0,42,0.021177502,9.0824784e-08,0,-1.3107593177723705e-07,2.0
148,148,28754.086,81345.42,257547.48,270088.47,-72.471466,103.74748511440703,-0.037441496,-1.1253956e-06,2.1491329e-05,1.9541856e-05,2.0,42,0.021295937,7.8848004e-08,0,-1.3126118007663715e-07,2.0
149,149,24884.947,96001.52,283114.94,298948.75,-71.2687,104.16349657412502,-0.03733373,-1.9137965e-06,2.259023e-05,2.0260619e-05,2.0,42,0.021307303,7.12741e-08,0,-1.3142465556955408e-07,2.0
150,150,21553.963,136061.92,313232.38,341507.5,-66.52083,104.58049384728656,-0.037480343,-8.650164e-07,2.3573622e-05,1.9831663e-05,2.0,42,0.021260878,6.2255964e-08,0,-1.3153649262663612e-07,2.0
151,151,18631.234,170564.53,346887.12,386552.62,-63.816635,104.99650813368498,-0.037449118,-1.3790694e-06,2.4625799e-05,1.983122e-05,2.0,42,0.02122777,5.49156e-08,0,-1.316722340882009e-07,2.0
152,152,16126.037,218173.58,382157.94,440050.44,-60.277996,105.41248436682508,-0.03728687,-2.345713e-06,2.582555e-05,1.9477375e-05,2.0,42,0.020934848,4.7573746e-08,0,-1.3184263697375935e-07,2.0
153,153,13954.87,323152.28,414683.4,525727.8,-52.071617,105.9945047411311,-0.037500482,-1.171071e-06,2.750285e-05,1.711154e-05,2.0,43,0.020743357,3.945646e-08,0,-1.3201382239922724e-07,2.0
154,154,12080.609,290446.44,484868.1,565204.56,-59.07748,106.41048316084198,-0.037295144,-1.274186e-06,2.7171127e-05,1.999602e-05,2.0,43,0.020096447,3.555606e-08,0,-1.3215120546338238e-07,2.0
155,155,10447.592,373484.16,486881.72,613632.0,-52.508392,106.82648659395636,-0.03750192,-1.167067e-06,3.1288193e-05,1.9697512e-05,2.0,43,0.019503504,3.1783713e-08,0,-1.3228288879524068e-07,2.0
156,156,9045.586,408366.94,493281.53,640382.9,-50.38008,107.39927334114327,-0.037481498,-1.1439188e-06,3.5668807e-05,2.1164054e-05,2.0,43,0.020088019,3.1368764e-08,0,-1.324670595344865e-07,2.0
157,157,7827.7437,500399.16,532040.1,730387.56,-46.755383,107.8799497106811,-0.037471175,-1.1446265e-06,3.8215465e-05,2.0277816e-05,2.0,43,0.020177558,2.7625823e-08,0,-1.326211016257961e-07,2.0
158,158,6770.8345,562736.4,532571.0,774792.94,-43.422443,108.41842314958922,-0.03750434,-1.1352777e-06,4.413676e-05,2.085375e-05,2.0,43,0.020076293,2.5911818e-08,0,-1.3279087430072106e-07,2.0
159,159,5860.798,645971.5,534503.2,838434.75,-39.605747,109.02400211169152,-0.037410084,-1.1837532e-06,5.080577e-05,2.0647863e-05,2.0,43,0.02017747,2.4065642e-08,0,-1.3297409103356413e-07,2.0
160,160,5071.625,714396.3,504119.88,874356.3,-35.209034,109.70471177071886,-0.03728983,-1.2444266e-06,6.224997e-05,2.069331e-05,2.0,43,0.020158354,2.305508e-08,0,-1.3320200946353585e-07,2.0
161,161,4388.5933,745164.06,455168.9,873182.8,-31.417856,110.38481681633857,-0.037466723,-1.1735106e-06,7.967503e-05,2.1649957e-05,2.0,43,0.02000884,2.2914834e-08,0,-1.3342410601343008e-07,2.0
162,162,3798.7827,835941.94,446912.25,947907.94,-28.129904,111.06482303531084,-0.037437268,-1.1650558e-06,9.374615e-05,2.083846e-05,2.0,43,0.020165645,2.1273843e-08,0,-1.3364234929955682e-07,2.0
163,163,3286.0488,898079.75,414006.72,988912.94,-24.749279,111.74470650761214,-0.037357673,-1.2301242e-06,0.0001169873,2.0503943e-05,2.0,43,0.0203011,2.0528702e-08,0,-1.338535727701766e-07,2.0
164,164,2844.088,916166.0,396137.66,998140.9,-23.382996,112.42381440653116,-0.037480846,-1.1600275e-06,0.00014126384,2.225049e-05,2.0,43,0.020121885,2.0159364e-08,0,-1.3407415926151876e-07,2.0
165,165,2460.7852,969310.8,365942.97,1036087.7,-20.682978,113.10369718549191,-0.03731767,-1.1856713e-06,0.00017673925,2.2047878e-05,2.0,43,0.02028254,1.9576085e-08,0,-1.3428799535638705e-07,2.0
166,166,2129.3164,993562.3,329602.62,1046806.56,-18.352657,113.78382095112465,-0.037411984,-1.1418142e-06,0.00022677191,2.2482143e-05,2.0,43,0.020212235,1.9308471e-08,0,-1.3451673381379614e-07,2.0
167,167,1843.2289,1041320.6,283968.38,1079345.5,-15.253677,114.46397231676383,-0.037461862,-1.1476619e-06,0.00030406812,2.1046984e-05,2.0,43,0.020370409,1.8872928e-08,0,-1.3472692018033664e-07,2.0
168,168,1594.4913,1047992.7,280338.97,1084840.4,-14.976031,115.14383370905125,-0.037465326,-1.1548129e-06,0.0003560529,2.3776602e-05,2.0,43,0.020289736,1.8702968e-08,0,-1.349381745864038e-07,2.0
169,169,1380.4436,1062529.8,256359.84,1093018.6,-13.564685,115.82369262135035,-0.037375744,-1.1600647e-06,0.0004497296,2.473981e-05,2.0,43,0.020240497,1.851798e-08,0,-1.3516201686266368e-07,2.0
170,170,1194.6187,1076336.4,228628.28,1100350.4,-11.992152,116.50384102697717,-0.03746104,-1.1213476e-06,0.0005827213,2.5156998e-05,2.0,43,0.020307641,1.8455614e-08,0,-1.3536871262332065e-07,2.0
171,171,1033.3434,1085492.0,206677.4,1104992.5,-10.780071,117.18408916593762,-0.037388638,-1.166862e-06,0.0007452165,2.6070527e-05,2.0,43,0.020235676,1.8312953e-08,0,-1.3557813814465112e-07,2.0
172,172,894.71045,1091628.4,214310.56,1112466.4,-11.107157,117.86383079824736,-0.037438124,-1.1581651e-06,0.0008300305,3.080402e-05,2.0,43,0.020200588,1.815838e-08,0,-1.3580720244935742e-07,2.0
173,173,774.2569,1109453.9,194330.8,1126344.8,-9.935082,118.54395072386251,-0.037430037,-1.1160214e-06,0.0010577753,3.1487198e-05,2.0,43,0.02033718,1.805591e-08,0,-1.3602412319058665e-07,2.0
174,174,669.7856,1110067.6,182227.12,1124925.2,-9.322447,119.22384811617667,-0.037405852,-1.1480714e-06,0.0013039813,3.421764e-05,2.0,43,0.020296603,1.8042623e-08,0,-1.362281375741728e-07,2.0
175,175,579.81464,1103812.0,169870.34,1116806.5,-8.748856,119.90382625514758,-0.037444923,-1.1419631e-06,0.0016158959,3.7384594e-05,2.0,43,0.020164534,1.805553e-08,0,-1.364501641451845e-07,2.0
176,176,501.44418,1119166.4,172693.66,1132411.8,-8.771877,120.58119860730949,-0.037398085,-1.1589285e-06,0.0018378969,4.2743017e-05,2.0,43,0.020285137,1.7913216e-08,0,-1.366762880477247e-07,2.0
177,177,434.02762,1123892.4,169636.0,1136622.4,-8.583216,121.26121978621813,-0.037452787,-1.1514421e-06,0.0021616467,4.8149122e-05,2.0,43,0.02023429,1.7802122e-08,0,-1.368882000861961e-07,2.0
178,178,375.6009,1129900.0,162477.75,1141522.2,-8.182944,121.94045648517204,-0.037460927,-1.121813e-06,0.0026079523,5.2834628e-05,2.0,43,0.020255331,1.774414e-08,0,-1.3709192680807705e-07,2.0
179,179,325.10385,1139733.9,169740.28,1152304.2,-8.470784,122.61972305081144,-0.03740932,-1.1566751e-06,0.0028841186,6.258188e-05,2.0,43,0.020285346,1.7604158e-08,0,-1.372992780513008e-07,2.0
180,180,281.3503,1145667.6,178666.89,1159515.5,-8.86388,123.29682924297231,-0.037378166,-1.1977386e-06,0.0031661296,7.517332e-05,2.0,43,0.020256944,1.747018e-08,0,-1.3751178034843054e-07,2.0
181,181,243.36427,1146354.4,193940.1,1162644.0,-9.60237,123.98010551536572,-0.03739708,-1.1454641e-06,0.0033720632,9.382907e-05,2.0,43,0.020194896,1.7369802e-08,0,-1.3771851009251023e-07,2.0
182,182,210.60631,1161417.8,197164.6,1178034.4,-9.634791,124.65717162753572,-0.037468232,-1.1368603e-06,0.0038328324,0.00010736476,2.0,43,0.020219753,1.7163975e-08,0,-1.37944618269285e-07,2.0
183,183,182.27473,1183633.2,181511.3,1197469.9,-8.718444,125.3292676594865,-0.03743572,-1.1597853e-06,0.0048104976,0.000110526926,2.0,43,0.020359091,1.7001756e-08,0,-1.3814968515545574e-07,2.0
184,184,157.72879,1191427.8,220726.55,1211701.4,-10.495745,126.01764569220904,-0.03737122,-1.1544032e-06,0.0045714565,0.00015169544,2.0,43,0.020297881,1.6751555e-08,0,-1.3837253919376163e-07,2.0
185,185,136.52892,1205781.8,248789.0,1231180.6,-11.658239,126.6895331107371,-0.037374906,-1.1908296e-06,0.00468559,0.00019133002,2.0,43,0.020279452,1.647155e-08,0,-1.385789531123266e-07,2.0
186,186,118.14758,1218338.5,262946.03,1246390.5,-12.178968,127.3779269301449,-0.03743861,-1.1651672e-06,0.005123051,0.00022800987,2.0,43,0.02027417,1.6266306e-08,0,-1.388091671290768e-07,2.0
187,187,102.25773,1236679.8,289189.38,1270042.2,-13.161734,128.04433293509646,-0.03745111,-1.1332662e-06,0.005381975,0.00027904226,2.0,43,0.020315759,1.5996129e-08,0,-1.3901697962274067e-07,2.0
188,188,88.4436,1253024.4,308922.38,1290543.8,-13.849586,128.73327483449248,-0.037388172,-1.1752609e-06,0.0058251126,0.0003337779,2.0,43,0.020300027,1.5729825e-08,0,-1.392382093007044e-07,2.0
189,189,76.54279,1273392.1,332406.53,1316062.9,-14.630028,129.40073083955212,-0.037493702,-1.1398214e-06,0.006255273,0.00039905438,2.0,43,0.020285519,1.5413791e-08,0,-1.3945404398315257e-07,2.0
190,190,66.250786,1282441.2,349852.53,1329305.2,-15.259104,130.06898540462134,-0.037407752,-1.1689849e-06,0.006866637,0.000475625,2.0,43,0.020160988,1.516656e-08,0,-1.396585873576078e-07,2.0
191,191,57.329906,1310456.1,397465.3,1369406.4,-16.87271,130.72364834239852,-0.037462924,-1.1270275e-06,0.0069845705,0.00058840105,2.0,43,0.020227851,1.4771255e-08,0,-1.3988422285465775e-07,2.0
192,192,49.60321,1354119.2,428584.0,1420325.0,-17.56278,131.40935549492133,-0.037436653,-1.1576996e-06,0.0074864235,0.00068166474,2.0,43,0.020361075,1.4335504e-08,0,-1.4010869441343745e-07,2.0
193,193,42.92585,1368434.4,468329.94,1446356.0,-18.892883,132.1174267019087,-0.037418447,-1.1793207e-06,0.007916793,0.0008300471,2.0,43,0.020254612,1.4003891e-08,0,-1.4033279582338822e-07,2.0
194,194,37.1518,1405413.4,502280.22,1492471.9,-19.666363,132.7611885991355,-0.03737664,-1.1890604e-06,0.008528924,0.0009659932,2.0,43,0.02027816,1.3586963e-08,0,-1.4054533884346416e-07,2.0
195,195,32.150223,1443439.6,548077.6,1543990.6,-20.791895,133.40037569616106,-0.03752083,-1.1360038e-06,0.00903221,0.0011381222,2.0,43,0.020304367,1.3150577e-08,0,-1.4077732863397172e-07,2.0
196,196,27.835518,1473045.0,607508.94,1593401.6,-22.412088,134.12735407732544,-0.03742373,-1.1913884e-06,0.009411701,0.0013681161,2.0,43,0.020300722,1.2740492e-08,0,-1.4100742475735237e-07,2.0
197,197,24.082958,1526314.8,646365.25,1657535.8,-22.951735,134.82940427071298,-0.03737949,-1.2225073e-06,0.01022427,0.0015547569,2.0,43,0.02036979,1.2289202e-08,0,-1.412500741248037e-07,2.0
198,198,20.833313,1571111.4,699123.06,1719640.6,-23.988409,135.48374624848657,-0.037425175,-1.1428384e-06,0.010927182,0.0018060927,2.0,43,0.020286096,1.1796707e-08,0,-1.4142809841708567e-07,2.0
199,199,18.021912,1622057.0,750834.3,1787406.2,-24.838957,136.22975660391967,-0.037419595,-1.1218318e-06,0.011761838,0.002075472,2.0,43,0.02024617,1.1327123e-08,0,-1.4170033721266584e-07,2.0
200,200,15.604198,1678600.1,824987.7,1870375.1,-26.1729,136.88402388829854,-0.03740302,-1.1803264e-06,0.012363209,0.002405297,2.0,43,0.020288099,1.0847074e-08,0,-1.4187929953106485e-07,2.0
201,201,13.500899,1738542.4,914619.2,1964448.5,-27.748137,137.63196307051112,-0.03738994,-1.1902804e-06,0.012888937,0.002793936,2.0,43,0.02031045,1.0339009e-08,0,-1.4212057136958833e-07,2.0
202,202,11.686608,1821449.6,962830.44,2060272.1,-27.861229,138.22288291191217,-0.037568882,-1.0787385e-06,0.0141443135,0.0030891025,2.0,43,0.020271683,9.839323e-09,0,-1.4229440075454628e-07,2.0
203,203,10.113269,1891934.1,1079253.2,2178119.0,-29.702583,138.8965301172284,-0.037345674,-1.1921707e-06,0.014581601,0.003580047,2.0,43,0.020367866,9.351127e-09,0,-1.4254659687660226e-07,2.0
204,204,8.748621,1962607.9,1137161.6,2268251.8,-30.088585,139.6634197269741,-0.037413463,-1.1759314e-06,0.015997728,0.0040208716,2.0,43,0.020234969,8.920954e-09,0,-1.428443967048868e-07,2.0
205,205,7.570237,2063836.0,1239619.0,2407503.8,-30.99064,140.5389722485852,-0.037428714,-1.1601858e-06,0.016959867,0.0044964,2.0,43,0.020280609,8.423916e-09,0,-1.4303750217929552e-07,2.0
206,206,6.554112,2158400.8,1336396.2,2538631.2,-31.76415,141.07430075397133,-0.03741882,-1.1824309e-06,0.018170675,0.0050354963,2.0,43,0.020280436,7.988729e-09,0,-1.432802858430375e-07,2.0
207,207,5.669445,2277326.5,1424386.6,2686092.5,-32.024513,141.68414032962755,-0.037461262,-1.1330429e-06,0.019708415,0.0055419877,2.0,43,0.020253522,7.540144e-09,0,-1.4340144759526414e-07,2.0
208,208,4.907347,2401558.0,1538150.0,2851909.2,-32.638752,142.37655294916476,-0.0374758,-1.1729146e-06,0.02108505,0.0061333906,2.0,43,0.020262321,7.104827e-09,0,-1.4372857971522436e-07,2.0
209,209,4.245922,2546635.0,1641272.9,3029707.2,-32.80125,143.16431565323728,-0.037417665,-1.1705308e-06,0.022838486,0.006702357,2.0,43,0.020274187,6.6917973e-09,0,-1.4387198585819425e-07,2.0
210,210,3.6747382,2708049.2,1745122.0,3221642.8,-32.798553,144.0639475893404,-0.037373442,-1.2178051e-06,0.024818067,0.007282236,2.0,43,0.020285718,6.2967e-09,0,-1.441869447279765e-07,2.0
211,211,3.180988,2853104.0,1859729.5,3405700.5,-33.097385,145.09223710480728,-0.03744034,-1.1594037e-06,0.026903471,0.008022227,2.0,43,0.020266749,5.9508314e-09,0,-1.4462485178051625e-07,2.0
212,212,2.752818,3040949.8,1966908.4,3621616.2,-32.89508,146.2711637741595,-0.037452575,-1.1401878e-06,0.029393986,0.008670055,2.0,43,0.020262787,5.594957e-09,0,-1.4494159258387758e-07,2.0
