True,index,freq,Re(Z),Im(Z),Z,Phase(Z),time,Ewe_meas,I_meas,Cs,Cp,cycle_number,I_Range,Ewe,I,Ns,(QQo),cycle
0,0,7000018.5,-3.1077724,1296.596,1296.5997,-90.13733,2.4644941170408856,-0.02186395,7.4726704e-06,1.7535425e-05,1.7535323e-05,1.0,40,0.010093676,7.784728e-06,0,-2.5281153738837424e-09,1.0
1,1,6057573.0,254.06894,1399.4207,1422.2971,-79.70986,3.016497076576343,-0.021784933,-3.543146e-05,1.877471e-05,1.8175615e-05,1.0,40,0.014145509,9.945537e-06,0,-9.524253483770431e-09,1.0
2,2,5242039.0,201.32115,1673.3673,1685.4342,-83.13977,3.432482723001158,-0.02174111,-3.4668625e-05,1.8143815e-05,1.7884942e-05,1.0,40,0.019574204,1.1613746e-05,0,-1.15970539037941e-08,1.0
3,3,4536288.0,201.05215,1942.9012,1953.276,-84.09204,4.800484441308072,-0.021795815,-3.961766e-05,1.8057965e-05,1.7866645e-05,1.0,40,0.018202703,9.319064e-06,0,-2.604977920529766e-09,1.0
4,4,3925558.5,203.94685,2214.1284,2223.5015,-84.73724,5.352491720841499,-0.021823036,-3.545005e-05,1.831116e-05,1.8157107e-05,1.0,40,0.020228978,9.097803e-06,0,-1.0754706741819418e-08,1.0
5,5,3397055.0,241.9235,2492.8896,2504.6008,-84.45706,5.768503100640373,-0.021854412,6.25802e-07,1.8793795e-05,1.8618452e-05,1.0,40,0.02109048,8.420695e-06,0,-1.2327642794705045e-08,1.0
6,6,2939708.2,272.151,2919.5088,2932.166,-84.674385,6.3204807535221335,-0.02187539,7.0818705e-06,1.8544115e-05,1.8384362e-05,1.0,40,0.020281933,6.917048e-06,0,-1.826656787861225e-08,1.0
7,7,2543924.5,305.80203,3359.0864,3372.9773,-84.79829,6.872487073036609,-0.021834662,-4.568301e-05,1.8624934e-05,1.8471845e-05,1.0,40,0.02085735,6.1836618e-06,0,-2.8112513797042186e-08,1.0
8,8,2201436.2,309.59818,3818.4685,3830.999,-85.36465,7.424480939254863,-0.021760395,-6.680012e-05,1.8933233e-05,1.8809582e-05,1.0,40,0.020445934,5.3369718e-06,0,-3.772846610905213e-08,1.0
9,9,1905053.1,296.12152,4339.945,4350.0356,-86.096664,7.976494858827209,-0.021887165,-2.4826371e-05,1.9249916e-05,1.916071e-05,1.0,40,0.020576388,4.7301655e-06,0,-5.6457111736310454e-08,1.0
10,10,1648567.4,473.1424,4867.5674,4890.509,-84.44812,8.528498165047495,-0.021856498,-3.2659238e-05,1.9833597e-05,1.9647954e-05,1.0,40,0.019924114,4.074037e-06,0,-6.445723579327654e-08,1.0
11,11,1426616.2,310.25284,5897.1753,5905.331,-86.98842,9.247490305890096,-0.021811781,-9.562965e-06,1.8917726e-05,1.8865509e-05,1.0,41,0.019383347,3.2823473e-06,0,-6.421911790793741e-08,1.0
12,12,1234551.2,173.7454,6709.6074,6711.8564,-88.516655,9.799487025447888,-0.021920834,3.0663516e-06,1.9213827e-05,1.9200954e-05,1.0,41,0.020722335,3.0874223e-06,0,-6.599258393583164e-08,1.0
13,13,1068345.5,357.20117,7842.997,7851.127,-87.39233,10.351487638283288,-0.021937247,1.608265e-06,1.8994435e-05,1.8955117e-05,1.0,41,0.020517787,2.6133557e-06,0,-6.720136638507925e-08,1.0
14,14,924510.06,357.57678,9276.759,9283.647,-87.7926,10.903481744549936,-0.021833505,-4.7178884e-07,1.855719e-05,1.8529661e-05,1.0,41,0.02028426,2.184945e-06,0,-6.772816299360645e-08,1.0
15,15,800039.0,918.3482,10017.597,10059.603,-84.76214,11.455488677398534,-0.021797584,-1.00936695e-05,1.9858453e-05,1.9692954e-05,1.0,41,0.021280758,2.1154672e-06,0,-6.818845361022202e-08,1.0
16,16,692334.1,110.52429,12547.886,12548.372,-89.49534,12.007479823631002,-0.021896705,3.0067636e-06,1.8320352e-05,1.8318933e-05,1.0,41,0.020487623,1.6326917e-06,0,-6.793752552822083e-08,1.0
17,17,599122.25,673.1238,14109.769,14125.815,-87.26871,12.55948739653104,-0.02189773,1.5766075e-06,1.8827159e-05,1.8784409e-05,1.0,41,0.020547813,1.4546284e-06,0,-6.874989514184904e-08,1.0
18,18,518454.94,909.02997,15785.568,15811.721,-86.7042,13.111498649377609,-0.021837214,-3.4512757e-06,1.9446834e-05,1.9382556e-05,1.0,41,0.02036805,1.2881616e-06,0,-6.942890279385476e-08,1.0
19,19,448662.03,1195.9951,18482.057,18520.713,-86.297485,13.66348672893946,-0.021829408,-2.7287495e-06,1.9193338e-05,1.91133e-05,1.0,41,0.02016646,1.0888598e-06,0,-6.943259244663618e-08,1.0
20,20,388258.97,1300.4379,21670.559,21709.543,-86.565834,14.215492861840175,-0.021887613,1.397841e-06,1.8915965e-05,1.8848092e-05,1.0,41,0.02082625,9.593132e-07,0,-6.92364429223156e-08,1.0
21,21,335983.9,445.5455,27768.709,27772.283,-89.08077,14.76750166140846,-0.021937322,3.898746e-06,1.70587e-05,1.705431e-05,1.0,41,0.020977395,7.5533563e-07,0,-7.051441906737724e-08,1.0
22,22,290751.2,1983.2827,28260.482,28329.988,-85.98564,15.3194789942645,-0.02186641,-4.2911206e-06,1.9369529e-05,1.9274601e-05,1.0,41,0.020586537,7.2666944e-07,0,-7.148081754843005e-08,1.0
23,23,251605.19,2461.2112,31796.61,31891.723,-85.57385,15.87149219380808,-0.021875242,3.2522428e-07,1.989389e-05,1.9775405e-05,1.0,41,0.020464906,6.416996e-07,0,-7.173773654496981e-08,1.0
24,24,217729.38,3582.6177,37574.016,37744.426,-84.55341,16.423479366727406,-0.021748899,-1.2309664e-05,1.9454295e-05,1.9279025e-05,1.0,41,0.02012239,5.3312215e-07,0,-7.192192285237277e-08,1.0
25,25,188418.58,6519.3633,43633.086,44117.438,-81.50211,16.97548003293923,-0.021914238,1.0924405e-06,1.9358891e-05,1.8936154e-05,1.0,41,0.020862676,4.7288958e-07,0,-7.125698137758205e-08,1.0
26,26,163051.14,6708.43,49714.203,50164.777,-82.31493,17.52748843250447,-0.021852212,-2.7380624e-06,1.9634319e-05,1.9283196e-05,1.0,41,0.020359047,4.0584345e-07,0,-7.053976414142582e-08,1.0
27,27,141098.2,4796.952,58187.52,58384.914,-85.28722,18.246497319982154,-0.021957817,-7.8902593e-07,1.9385134e-05,1.9254276e-05,1.0,42,0.018866325,3.23137e-07,0,-7.082225678156817e-08,1.0
28,28,122105.11,10564.422,66802.24,67632.44,-81.0134,18.662480219703866,-0.021775002,-1.6856388e-06,1.9511708e-05,1.9035631e-05,1.0,42,0.020333048,3.0064047e-07,0,-7.104324705098206e-08,1.0
29,29,105663.59,8414.786,75102.74,75572.69,-83.60703,19.078503492841264,-0.02192549,-1.4209759e-06,2.0055752e-05,1.9807096e-05,1.0,42,0.021798732,2.884472e-07,0,-7.118554446196118e-08,1.0
30,30,91439.65,10575.101,86941.945,87582.73,-83.06495,19.630492052383488,-0.021911219,-1.25335e-06,2.0019637e-05,1.9727771e-05,1.0,42,0.020536222,2.3447798e-07,0,-7.141178084828167e-08,1.0
31,31,79127.08,15792.703,98509.81,99767.695,-80.89207,20.0464862321096,-0.021817185,-1.5770544e-06,2.0418109e-05,1.9906487e-05,1.0,42,0.02155991,2.1610111e-07,0,-7.15292411375636e-08,1.0
32,32,68475.36,16768.39,115506.77,116717.58,-81.73994,20.598482925008284,-0.021791473,-2.0285272e-06,2.0122334e-05,1.970701e-05,1.0,42,0.020318229,1.7408028e-07,0,-7.174443373054176e-08,1.0
33,33,59252.523,22484.506,133667.53,135545.42,-80.45154,21.014502224774333,-0.021932011,-9.575832e-07,2.0094969e-05,1.9542022e-05,1.0,42,0.021045415,1.5526467e-07,0,-7.190170977039716e-08,1.0
34,34,51282.285,28697.83,146720.0,149500.25,-78.93291,21.43049533784506,-0.02184476,-1.6238035e-06,2.1152584e-05,2.0373152e-05,1.0,42,0.021509258,1.4387439e-07,0,-7.209032661828611e-08,1.0
35,35,44369.8,37637.875,175466.73,179458.03,-77.893425,21.982494964060606,-0.021928566,-8.968652e-07,2.0442681e-05,1.9543468e-05,1.0,42,0.020162344,1.1235131e-07,0,-7.228528934236126e-08,1.0
36,36,38403.727,43451.15,203044.03,207641.23,-77.92097,22.398483197175665,-0.02179382,-1.6491338e-06,2.0410635e-05,1.9516852e-05,1.0,42,0.020562578,9.902936e-08,0,-7.24773623647859e-08,1.0
37,37,33226.32,69911.3,224416.1,235053.55,-72.69687,22.814484203612665,-0.021751806,-2.145493e-06,2.1344396e-05,1.945621e-05,1.0,42,0.02071461,8.81272e-08,0,-7.267999676938115e-08,1.0
38,38,28754.086,85840.695,254100.48,268208.28,-71.33391,23.23048299670336,-0.021846175,-1.8052122e-06,2.1782867e-05,1.9551573e-05,1.0,42,0.020848507,7.773253e-08,0,-7.282215533617987e-08,1.0
39,39,24884.947,103468.81,277501.0,296163.12,-69.55157,23.646490589802852,-0.021861156,-1.1106815e-06,2.3047238e-05,2.0234198e-05,1.0,42,0.020817425,7.0290405e-08,0,-7.304107548993412e-08,1.0
40,40,21553.963,142513.78,294452.78,327127.84,-64.17323,24.063487062900094,-0.021875037,-1.1982197e-06,2.5077099e-05,2.0317657e-05,1.0,42,0.020821229,6.36486e-08,0,-7.32310172345281e-08,1.0
41,41,18631.234,171519.39,338129.53,379144.4,-63.10317,24.479480762704043,-0.021844387,-1.5569394e-06,2.526361e-05,2.0093348e-05,1.0,42,0.02068011,5.4544156e-08,0,-7.341894458377239e-08,1.0
42,42,16126.037,206416.77,371031.97,424585.22,-60.911434,24.895503902429482,-0.021944905,-7.717043e-07,2.659997e-05,2.0312998e-05,1.0,42,0.020495946,4.8272867e-08,0,-7.354605822433216e-08,1.0
43,43,13954.87,255526.44,440059.7,508867.66,-59.857845,25.477499850065215,-0.021917535,-1.1610704e-06,2.5916883e-05,1.9381896e-05,1.0,43,0.020000992,3.93049e-08,0,-7.371885009376259e-08,1.0
44,44,12080.609,301260.88,441857.38,534786.0,-55.71361,25.894487789919367,-0.021849083,-1.16297e-06,2.9815987e-05,2.0354166e-05,1.0,43,0.019559916,3.6575223e-08,0,-7.386185090350751e-08,1.0
45,45,10447.592,366690.12,460066.6,588322.1,-51.443855,26.310481409629574,-0.021751974,-1.2411303e-06,3.311183e-05,2.0248566e-05,1.0,43,0.019024372,3.2336658e-08,0,-7.400112230216492e-08,1.0
46,46,9045.586,421507.5,466656.56,628837.75,-47.91008,26.742268950183643,-0.021842804,-1.1479041e-06,3.770388e-05,2.0763644e-05,1.0,43,0.021660857,3.444586e-08,0,-7.414336566296993e-08,1.0
47,47,7827.7437,497542.84,486344.28,695758.3,-44.34789,27.222936999693047,-0.021825923,-1.1603628e-06,4.1806106e-05,2.042728e-05,1.0,43,0.021694414,3.1180964e-08,0,-7.430166037067781e-08,1.0
48,48,6770.8345,553670.25,478746.9,731949.0,-40.849274,27.761422038573073,-0.0219025,-1.1226887e-06,4.9098926e-05,2.100498e-05,1.0,43,0.021639252,2.9563878e-08,0,-7.447049375320737e-08,1.0
49,49,5860.798,621652.3,469733.84,779167.2,-37.075478,28.367998334084405,-0.021885283,-1.1059094e-06,5.7811136e-05,2.1011349e-05,1.0,43,0.02163925,2.777228e-08,0,-7.464911081363704e-08,1.0
50,50,5071.625,694995.44,441509.56,823376.8,-32.42656,29.04872015309229,-0.02191856,-1.1103043e-06,7.107762e-05,2.0436939e-05,1.0,43,0.02169579,2.6349772e-08,0,-7.487007798294283e-08,1.0
51,51,4388.5933,733792.06,410729.47,840921.8,-29.237288,29.728833385393955,-0.021804646,-1.1661358e-06,8.829558e-05,2.1063932e-05,1.0,43,0.021587355,2.5671062e-08,0,-7.507991275406558e-08,1.0
52,52,3798.7827,791937.9,404103.9,889081.3,-27.033957,30.40880648435268,-0.021818452,-1.1597668e-06,0.000103677055,2.1418338e-05,1.0,43,0.02165745,2.4359359e-08,0,-7.52944219583178e-08,1.0
53,53,3286.0488,831088.06,367276.7,908625.06,-23.841724,31.08870502332138,-0.021904288,-1.1190943e-06,0.00013187205,2.154617e-05,1.0,43,0.021645872,2.3822667e-08,0,-7.55135233539381e-08,1.0
54,54,2844.088,874109.75,346913.7,940434.44,-21.646969,31.76882185561408,-0.021809304,-1.1655399e-06,0.00016130792,2.1950353e-05,1.0,43,0.021709941,2.3085013e-08,0,-7.572388169536224e-08,1.0
55,55,2460.7852,899115.56,315800.03,952963.0,-19.353014,32.44869487458345,-0.02177886,-1.1671415e-06,0.00020480203,2.2490884e-05,1.0,43,0.02174067,2.281376e-08,0,-7.592558414077505e-08,1.0
56,56,2129.3164,926972.2,292064.44,971894.56,-17.488262,33.128817280216026,-0.021932123,-1.1167479e-06,0.00025591825,2.3111083e-05,1.0,43,0.021716148,2.2344139e-08,0,-7.613741626543912e-08,1.0
57,57,1843.2289,928347.1,251964.2,961932.6,-15.184933,34.02996646967949,-0.021899164,-1.1124087e-06,0.00034269047,2.3512044e-05,1.0,43,0.019825194,2.0609754e-08,0,-7.641314841174819e-08,1.0
58,58,1594.4913,962249.8,236831.48,990966.1,-13.826966,34.70980759531085,-0.021920685,-1.121329e-06,0.0004214621,2.4072422e-05,1.0,43,0.019940786,2.012257e-08,0,-7.663460448240853e-08,1.0
59,59,1380.4436,968674.3,212909.58,991796.56,-12.396203,35.38970949427312,-0.021792758,-1.1319627e-06,0.00054150977,2.4954648e-05,1.0,43,0.01991715,2.008189e-08,0,-7.684730840477913e-08,1.0
60,60,1194.6187,982568.25,196629.2,1002049.6,-11.316411,36.06982341990806,-0.021878092,-1.0925194e-06,0.0006775523,2.608918e-05,1.0,43,0.019942332,1.9901542e-08,0,-7.706077070575201e-08,1.0
61,61,1033.3434,994795.7,177900.08,1010577.5,-10.1390705,36.75010387887596,-0.021813719,-1.147699e-06,0.00086576364,2.6829486e-05,1.0,43,0.019978773,1.976966e-08,0,-7.728008527005227e-08,1.0
62,62,894.71045,1006805.56,164329.72,1020128.25,-9.270013,37.42983868450392,-0.02186518,-1.1090007e-06,0.0010824841,2.8089513e-05,1.0,43,0.020021465,1.962642e-08,0,-7.747952408181725e-08,1.0
63,63,774.2569,1006730.2,196754.62,1025776.8,-11.058454,38.10995607680525,-0.021905946,-1.105723e-06,0.0010447446,3.843742e-05,1.0,43,0.019951561,1.9450198e-08,0,-7.768480334864829e-08,1.0
64,64,669.7856,1018894.3,145530.2,1029235.0,-8.128663,38.78985040241969,-0.021828588,-1.1302865e-06,0.0016327933,3.2644377e-05,1.0,43,0.020054366,1.948473e-08,0,-7.790687436761937e-08,1.0
65,65,579.81464,1017774.4,147168.33,1028359.44,-8.227838,39.46981390139263,-0.02185305,-1.1071011e-06,0.0018651622,3.8199305e-05,1.0,43,0.019975435,1.9424565e-08,0,-7.810789050877097e-08,1.0
66,66,501.44418,1021085.9,142600.5,1030995.25,-7.950264,40.14719385353965,-0.021728534,-1.2201792e-06,0.0022257506,4.257996e-05,1.0,43,0.01996965,1.9369294e-08,0,-7.830191728780693e-08,1.0
67,67,434.02762,1029286.3,138325.89,1038539.56,-7.654126,40.82723409918253,-0.021893276,-1.10468e-06,0.0026509361,4.7028396e-05,1.0,43,0.02001034,1.9267768e-08,0,-7.852410469857348e-08,1.0
68,68,375.6009,1035579.7,147957.3,1046095.94,-8.1310425,41.50645122476271,-0.02184746,-1.10833e-06,0.0028638954,5.729106e-05,1.0,43,0.02002902,1.9146446e-08,0,-7.874775901408408e-08,1.0
69,69,325.10385,1039995.1,151523.53,1050975.4,-8.289462,42.185713230399415,-0.02172028,-1.1774024e-06,0.0032308586,6.715727e-05,1.0,43,0.019999282,1.902926e-08,0,-7.897277293351617e-08,1.0
70,70,281.3503,1049319.6,161199.12,1061629.4,-8.7336445,42.86280960922886,-0.021897469,-1.0765965e-06,0.0035092158,8.0907645e-05,1.0,43,0.020024065,1.8861634e-08,0,-7.918614576037166e-08,1.0
71,71,243.36427,1067353.4,156224.05,1078725.8,-8.327016,43.54610540161957,-0.02183483,-1.0997821e-06,0.004186156,8.779891e-05,1.0,43,0.020147327,1.867697e-08,0,-7.94021140251718e-08,1.0
72,72,210.60631,1065884.1,172158.8,1079697.9,-9.175026,44.22316964712809,-0.021853404,-1.0947539e-06,0.0043895454,0.000111602385,1.0,43,0.020022156,1.854422e-08,0,-7.959746288912425e-08,1.0
73,73,182.27473,1077555.2,184765.62,1093281.1,-9.729741,44.89425554565969,-0.02179846,-1.1354077e-06,0.0047257687,0.00013497431,1.0,43,0.020067105,1.8354935e-08,0,-7.982201681281471e-08,1.0
74,74,157.72879,1071291.4,211383.36,1091947.0,-11.162011,45.582646778417256,-0.021830022,-1.0895022e-06,0.0047735153,0.0001788862,1.0,43,0.019868294,1.819529e-08,0,-8.003884503867662e-08,1.0
75,75,136.52892,1097926.0,221259.34,1119998.8,-11.393913,46.25449998359545,-0.021865813,-1.1582208e-06,0.0052685835,0.00020561843,1.0,43,0.02002516,1.7879627e-08,0,-8.023979031108001e-08,1.0
76,76,118.14758,1119539.5,242139.81,1145425.9,-12.204244,46.94287638968672,-0.021880085,-1.0725927e-06,0.005563257,0.0002486151,1.0,43,0.020108748,1.7555696e-08,0,-8.041896814385277e-08,1.0
77,77,102.25773,1122866.8,262663.94,1153179.1,-13.1660385,47.60934700796497,-0.021815043,-1.1077527e-06,0.0059254803,0.00030741913,1.0,43,0.01998853,1.7333413e-08,0,-8.062674550586932e-08,1.0
78,78,88.4436,1138311.0,288989.78,1174422.0,-14.245064,48.29926130743115,-0.021768425,-1.126506e-06,0.0062268903,0.00037704033,1.0,43,0.020043245,1.7066476e-08,0,-8.084648829845037e-08,1.0
79,79,76.54279,1158468.1,303814.66,1197644.2,-14.695198,48.965709125768626,-0.02181875,-1.0680116e-06,0.006843954,0.00044042186,1.0,43,0.020019861,1.6716033e-08,0,-8.104483791515933e-08,1.0
80,80,66.250786,1180024.8,337168.56,1227249.4,-15.946233,49.63398401081213,-0.021782996,-1.1443655e-06,0.0071249534,0.0005377873,1.0,43,0.02003811,1.632766e-08,0,-8.125985967351656e-08,1.0
81,81,57.329906,1204577.0,364343.0,1258471.9,-16.828756,50.28863212194301,-0.021860931,-1.0721272e-06,0.0076195346,0.0006386491,1.0,43,0.020050675,1.5932557e-08,0,-8.144972150066623e-08,1.0
82,82,49.60321,1220224.0,399342.56,1283908.5,-18.121714,50.974387034453684,-0.021850275,-1.082705e-06,0.008034609,0.0007772984,1.0,43,0.019987788,1.5567922e-08,0,-8.165423584527609e-08,1.0
83,83,42.92585,1254363.1,433931.78,1327299.4,-19.082443,51.682449414773146,-0.021809956,-1.135352e-06,0.008544365,0.00091324,1.0,43,0.020040374,1.5098609e-08,0,-8.188284831925329e-08,1.0
84,84,37.1518,1283340.0,475308.56,1368532.0,-20.323036,52.32719363205251,-0.02179002,-1.1308452e-06,0.009012902,0.0010871914,1.0,43,0.019995166,1.4610667e-08,0,-8.207183633885684e-08,1.0
85,85,32.150223,1310557.2,547935.5,1420490.6,-22.68949,52.96536656902754,-0.02183889,-1.089279e-06,0.009034554,0.0013442772,1.0,43,0.020042766,1.4109749e-08,0,-8.224877497135679e-08,1.0
86,86,27.835518,1365110.4,558416.7,1474908.6,-22.247675,53.69333620360703,-0.021815825,-1.0982459e-06,0.010239115,0.0014677395,1.0,43,0.020047717,1.3592515e-08,0,-8.246019086818644e-08,1.0
87,87,24.082958,1371399.8,608955.9,1500521.4,-23.943121,54.39539354361477,-0.021854952,-1.0783659e-06,0.010852367,0.0017873589,1.0,43,0.019745614,1.3159169e-08,0,-8.265875657068694e-08,1.0
88,88,20.833313,1441433.0,676990.3,1592496.5,-25.15779,55.04977685473568,-0.021809882,-1.0808428e-06,0.011284423,0.002039329,1.0,43,0.020023098,1.2573402e-08,0,-8.289080853074696e-08,1.0
89,89,18.021912,1497599.0,733604.56,1667626.6,-26.098099,55.79570235684514,-0.02119412,-1.614026e-06,0.012038081,0.0023296124,1.0,43,0.020033322,1.2013074e-08,0,-8.318485098472501e-08,1.0
90,90,15.604198,1548197.1,801463.1,1743346.6,-27.369478,56.45102081462392,-0.02185769,-1.0639891e-06,0.012726095,0.0026896435,1.0,43,0.02002607,1.1487141e-08,0,-8.341662928659647e-08,1.0
91,91,13.500899,1610424.8,865580.3,1828304.5,-28.257395,57.19898330347496,-0.021822384,-1.1051085e-06,0.013619152,0.0030525848,1.0,43,0.020020079,1.0950079e-08,0,-8.364828586185573e-08,1.0
92,92,11.686608,1699188.9,924408.5,1934366.5,-28.547485,57.789887998224,-0.021890445,-1.0844743e-06,0.014732205,0.0033644808,1.0,43,0.020023614,1.035151e-08,0,-8.381646698689791e-08,1.0
93,93,10.113269,1759937.1,1005886.2,2027112.6,-29.74998,58.46352837685845,-0.021893425,-1.0668756e-06,0.01564515,0.003852314,1.0,43,0.020016836,9.874555e-09,0,-8.396657584626945e-08,1.0
94,94,8.748621,1841933.8,1090719.0,2140651.2,-30.632309,59.230400999920676,-0.02187622,-1.0824258e-06,0.016678909,0.0043301363,1.0,43,0.020008592,9.346965e-09,0,-8.416924469203855e-08,1.0
95,95,7.570237,1939191.5,1174862.8,2267325.8,-31.209654,60.10600016155513,-0.021842664,-1.078096e-06,0.017894661,0.00480474,1.0,43,0.020024886,8.8319405e-09,0,-8.45266535712717e-08,1.0
96,96,6.554112,2033798.6,1268040.4,2396719.2,-31.94287,60.64232621368137,-0.02180675,-1.0963744e-06,0.019150196,0.0053604967,1.0,43,0.020043291,8.362803e-09,0,-8.458708284951004e-08,1.0
97,97,5.669445,2152865.0,1362574.5,2547829.8,-32.33022,61.252130775974365,-0.021844443,-1.0529086e-06,0.020602472,0.0058924924,1.0,43,0.02005155,7.870051e-09,0,-8.487570566977117e-08,1.0
98,98,4.907347,2258543.0,1444019.0,2680710.2,-32.593166,61.94455792885856,-0.02179084,-1.1095221e-06,0.022459516,0.0065169814,1.0,43,0.02001132,7.464933e-09,0,-8.49655904882205e-08,1.0
99,99,4.245922,2374656.2,1549442.5,2835447.8,-33.1241,62.73227689959458,-0.021813923,-1.1028739e-06,0.024192048,0.007224042,1.0,43,0.019995281,7.0518955e-09,0,-8.528947051349374e-08,1.0
100,100,3.6747382,2547069.5,1624630.8,3021090.5,-32.531487,63.63191718235612,-0.021778543,-1.1433787e-06,0.026658705,0.007709406,1.0,43,0.02000245,6.620937e-09,0,-8.559698057565572e-08,1.0
101,101,3.180988,2690459.5,1717400.9,3191870.8,-32.551308,64.66019608450006,-0.02185333,-1.0689057e-06,0.02913308,0.008434108,1.0,43,0.020025382,6.27387e-09,0,-8.577594750697257e-08,1.0
102,102,2.752818,2872494.8,1831718.9,3406819.8,-32.52465,65.83914110049955,-0.021851374,-1.0723384e-06,0.0315634,0.009124375,1.0,43,0.02001857,5.8760286e-09,0,-8.613839791219786e-08,1.0
103,103,2.3804083,3035042.8,1940021.6,3602106.0,-32.587013,67.19403111154679,-0.021840872,-1.0919358e-06,0.034463715,0.009996829,1.0,43,0.020051507,5.5666067e-09,0,-8.667847449398517e-08,1.0
104,104,2.060257,3215864.8,2028650.2,3802263.5,-32.244785,68.75027110546944,-0.021886043,-1.0642918e-06,0.03807953,0.010839806,1.0,43,0.020019576,5.265173e-09,0,-8.717178819689488e-08,1.0
