True,index,freq,Re(Z),Im(Z),Z,Phase(Z),time,Ewe_meas,I_meas,Cs,Cp,cycle_number,I_Range,Ewe,I,Ns,(QQo),cycle
0,0,7000018.5,77.901024,1359.9993,1362.2285,-86.72167,2.467475583864143,-0.014486212,6.59122e-05,1.6717922e-05,1.6663249e-05,1.0,40,0.010092072,7.408502e-06,0,1.3180065046024462e-08,1.0
1,1,6057573.0,190.1904,1706.0975,1716.6658,-83.63911,3.019503023388097,-0.014427764,-2.1347183e-05,1.539989e-05,1.5210863e-05,1.0,40,0.014328095,8.346467e-06,0,1.0582608437264045e-08,1.0
2,2,5242039.0,220.90985,1883.2798,1896.1919,-83.309746,3.4354776831751224,-0.0143958675,-2.2407678e-05,1.6121485e-05,1.5902675e-05,1.0,40,0.019690152,1.038405e-05,0,1.1215133496762064e-08,1.0
3,3,4536288.0,213.75563,2131.0098,2141.7036,-84.27198,4.667497288348386,-0.014577657,5.993978e-05,1.6463951e-05,1.6299948e-05,1.0,40,0.021810114,1.0183536e-05,0,6.389033405323769e-09,1.0
4,4,3925558.5,276.83276,2504.0686,2519.3245,-83.69138,5.084489068161929,-0.014516414,3.89343e-05,1.6190954e-05,1.5995458e-05,1.0,40,0.01999354,7.936072e-06,0,2.4946774609841466e-09,1.0
5,5,3397055.0,250.76033,2795.1516,2806.3772,-84.87357,5.500496154563734,-0.014477865,2.302669e-05,1.6761473e-05,1.6627648e-05,1.0,40,0.021067306,7.50694e-06,0,-5.5676547692276774e-09,1.0
6,6,2939708.2,423.13397,3216.7258,3244.4363,-82.50623,6.052498180797556,-0.014479058,-2.6054317e-05,1.6830687e-05,1.6544416e-05,1.0,40,0.020941438,6.4545693e-06,0,-1.2155098557431168e-08,1.0
7,7,2543924.5,320.93393,3723.953,3737.7566,-85.07436,6.604495246981969,-0.014502422,6.6300413e-07,1.6800095e-05,1.6676237e-05,1.0,40,0.020690186,5.535456e-06,0,-2.0493391584750498e-08,1.0
8,8,2201436.2,361.72842,4250.3286,4265.6934,-85.135506,7.156489859888097,-0.0144488,-1.1263033e-05,1.7009499e-05,1.6887185e-05,1.0,40,0.020706397,4.8541688e-06,0,-1.519715661282185e-08,1.0
9,9,1905053.1,384.8125,4854.767,4869.994,-85.46793,7.708494152786443,-0.014547697,-5.141863e-06,1.7208564e-05,1.710112e-05,1.0,40,0.020325374,4.173593e-06,0,-1.3320754369584304e-08,1.0
10,10,1648567.4,219.29637,5599.386,5603.6787,-87.757195,8.427500586927636,-0.0144422045,-9.047143e-06,1.724142e-05,1.7215016e-05,1.0,41,0.01901222,3.3928106e-06,0,-1.9557470932282524e-08,1.0
11,11,1426616.2,249.37979,6711.053,6715.685,-87.871895,8.843488526676083,-0.01448692,-5.553676e-06,1.6623493e-05,1.660057e-05,1.0,41,0.02195417,3.2690887e-06,0,-2.017647808258655e-08,1.0
12,12,1234551.2,576.19916,7925.451,7946.369,-85.841774,9.395490552909905,-0.014503204,-1.9038054e-06,1.6266233e-05,1.6180707e-05,1.0,41,0.020951718,2.6366404e-06,0,-1.993921418727022e-08,1.0
13,13,1068345.5,395.39273,8842.728,8851.5625,-87.43979,9.947499832458561,-0.0144763,-5.592783e-06,1.6846985e-05,1.681337e-05,1.0,41,0.020878604,2.358748e-06,0,-2.315947288281311e-08,1.0
14,14,924510.06,400.6401,10166.795,10174.686,-87.74333,10.499493325332878,-0.014390054,-8.855322e-06,1.693263e-05,1.6906377e-05,1.0,41,0.020245522,1.9897934e-06,0,-2.3455513750639687e-08,1.0
15,15,800039.0,334.48276,9323.3955,9329.394,-87.94536,11.052481271588476,-0.014430969,-8.3301875e-06,2.1337073e-05,2.1309646e-05,1.0,41,0.019179607,2.0558257e-06,0,-2.516878339006073e-08,1.0
16,16,692334.1,565.20154,13047.084,13059.32,-87.51949,11.604499244509498,-0.0144437505,-3.4605887e-06,1.7619393e-05,1.758639e-05,1.0,41,0.020593297,1.5769042e-06,0,-2.5718236123692703e-08,1.0
17,17,599122.25,840.6469,15958.556,15980.682,-86.98463,12.156478257355047,-0.014508459,1.9415954e-06,1.6646047e-05,1.6599985e-05,1.0,41,0.020524168,1.2843112e-06,0,-2.564256554559721e-08,1.0
18,18,518454.94,841.9605,17887.182,17906.986,-87.30504,12.708478736953111,-0.014520271,-2.1294635e-07,1.7161972e-05,1.7124032e-05,1.0,41,0.020563908,1.1483735e-06,0,-2.566692766034685e-08,1.0
19,19,448662.03,1171.0746,20865.408,20898.246,-86.787636,13.260487429826753,-0.014423889,-2.335833e-06,1.7000979e-05,1.6947592e-05,1.0,41,0.020224087,9.677409e-07,0,-2.9327457882759393e-08,1.0
20,20,388258.97,1833.9109,24460.797,24529.447,-85.71236,13.812488922703778,-0.014442987,-3.7343284e-06,1.6758226e-05,1.6664555e-05,1.0,41,0.020980911,8.5533566e-07,0,-2.9017656803265228e-08,1.0
21,21,335983.9,-2808.0405,24106.674,24269.668,-96.6441,14.364503455610247,-0.014508571,3.3382282e-06,1.965008e-05,1.938703e-05,1.0,41,0.019587714,8.070862e-07,0,-2.8516834935577626e-08,1.0
22,22,290751.2,3402.777,31537.979,31721.018,-83.84192,14.916502121806843,-0.014470319,-7.492561e-07,1.7356606e-05,1.7156877e-05,1.0,41,0.020543303,6.4762435e-07,0,-2.807955880123182e-08,1.0
23,23,251605.19,3420.4841,36191.117,36352.395,-84.600914,15.468503241339931,-0.014503744,9.639491e-07,1.7478274e-05,1.7323533e-05,1.0,41,0.020377425,5.605525e-07,0,-2.7595240941773606e-08,1.0
24,24,217729.38,4996.242,43762.523,44046.805,-83.48691,16.02050204089028,-0.01442266,-3.3432725e-06,1.6703241e-05,1.648833e-05,1.0,41,0.020449033,4.6425689e-07,0,-2.808716546407671e-08,1.0
25,25,188418.58,7355.0,49434.887,49979.035,-81.53752,16.572501827118685,-0.014485151,1.8149669e-06,1.7086884e-05,1.671684e-05,1.0,41,0.020668782,4.1354903e-07,0,-2.8466980083098607e-08,1.0
26,26,163051.14,5979.9023,54209.24,54538.066,-83.70507,17.291496341262246,-0.01448502,-1.2965602e-06,1.8006238e-05,1.7789762e-05,1.0,42,0.019247103,3.5291137e-07,0,-2.8653315302669568e-08,1.0
27,27,141098.2,5437.111,64860.164,65087.656,-85.2082,17.70848281439976,-0.014473729,-1.373668e-06,1.7390841e-05,1.7269485e-05,1.0,42,0.020985007,3.2241147e-07,0,-2.8771840224469534e-08,1.0
28,28,122105.11,7030.096,77943.21,78259.61,-84.846146,18.26049729398801,-0.014418374,-1.7171153e-06,1.6722763e-05,1.6587817e-05,1.0,42,0.020531416,2.6235008e-07,0,-2.892167764149889e-08,1.0
29,29,105663.59,13250.528,82644.164,83699.664,-80.89116,18.67648483373341,-0.014573577,-8.6017366e-07,1.8225632e-05,1.7768858e-05,1.0,42,0.021760665,2.599851e-07,0,-2.907446079670982e-08,1.0
30,30,91439.65,18888.54,98437.72,100233.53,-79.13793,19.22848560658167,-0.014502012,-1.323194e-06,1.7681701e-05,1.7053797e-05,1.0,42,0.020455237,2.0407579e-07,0,-2.9301663662106946e-08,1.0
31,31,79127.08,23973.455,111929.44,114468.01,-77.910835,19.644481013034238,-0.014584104,-6.558561e-07,1.7970107e-05,1.7181896e-05,1.0,42,0.02148477,1.8769235e-07,0,-2.9450990758765745e-08,1.0
32,32,68475.36,25212.604,127338.47,129810.484,-78.800476,20.196490959235234,-0.014538046,-8.0280853e-07,1.8252662e-05,1.75641e-05,1.0,42,0.02023308,1.558663e-07,0,-2.9659027210255732e-08,1.0
33,33,59252.523,31109.053,143842.16,147167.72,-77.79647,20.61248276566039,-0.014473151,-1.693834e-06,1.8673558e-05,1.7839158e-05,1.0,42,0.020915993,1.4212351e-07,0,-2.9783351813807437e-08,1.0
34,34,51282.285,41879.277,165991.86,171193.38,-75.83995,21.02848971876665,-0.014339897,-2.6351472e-06,1.8696743e-05,1.7577846e-05,1.0,42,0.02150278,1.2560521e-07,0,-2.994504855568842e-08,1.0
35,35,44369.8,51232.54,184693.78,191667.86,-74.49642,21.44449371183873,-0.014573949,-6.6535506e-07,1.9421394e-05,1.8033761e-05,1.0,42,0.021867195,1.14089005e-07,0,-3.009877017108486e-08,1.0
36,36,38403.727,74935.2,212036.75,224888.56,-70.536255,21.99649699139991,-0.0144714005,-2.2226009e-06,1.9544997e-05,1.7374934e-05,1.0,42,0.020211162,8.98719e-08,0,-3.028116780165332e-08,1.0
37,37,33226.32,95657.83,234940.69,253668.19,-67.84594,22.4124866911734,-0.014471232,-1.3123915e-06,2.0388237e-05,1.7488965e-05,1.0,42,0.020407422,8.0449276e-08,0,-3.040394175669567e-08,1.0
38,38,28754.086,117775.84,258683.2,284232.56,-65.520706,22.828480017575203,-0.014479449,-1.5405494e-06,2.1396972e-05,1.772316e-05,1.0,42,0.020474281,7.203355e-08,0,-3.050407936786274e-08,1.0
39,39,24884.947,151501.22,280498.88,318798.12,-61.625923,23.244485637376783,-0.014458284,-1.4677253e-06,2.2800916e-05,1.7651557e-05,1.0,42,0.02053145,6.440267e-08,0,-3.059587222017039e-08,1.0
40,40,21553.963,197865.83,298906.38,358463.25,-56.4968,23.6614957904967,-0.0145160975,-1.0311526e-06,2.4703462e-05,1.7176666e-05,1.0,42,0.020578574,5.7407764e-08,0,-3.0751584341632484e-08,1.0
41,41,18631.234,223500.95,317213.5,388042.62,-54.832405,24.077493063610746,-0.014549821,-9.667095e-07,2.692941e-05,1.7995806e-05,1.0,42,0.020357506,5.246204e-08,0,-3.0913295952592574e-08,1.0
42,42,16126.037,275155.84,333750.78,432550.94,-50.496635,24.49350433665677,-0.014510415,-8.011323e-07,2.9571285e-05,1.760517e-05,1.0,42,0.020211978,4.6727394e-08,0,-3.100129731580263e-08,1.0
43,43,13954.87,287564.5,334095.7,440809.78,-49.2806,24.909501236426877,-0.014591351,-1.326768e-07,3.4136854e-05,1.9609332e-05,1.0,42,0.019751733,4.4807837e-08,0,-3.105837742342822e-08,1.0
44,44,12080.609,363748.2,354550.53,507955.53,-44.26638,25.49150001074304,-0.014519731,-1.2215017e-06,3.7158068e-05,1.8103312e-05,1.0,43,0.019197322,3.7793313e-08,0,-3.122713863277577e-08,1.0
45,45,10447.592,436185.34,362662.47,567258.06,-39.74153,25.907480003865203,-0.014450216,-1.2610382e-06,4.200503e-05,1.7169008e-05,1.0,43,0.0187886,3.3121786e-08,0,-3.1368239428899117e-08,1.0
46,46,9045.586,454349.2,361600.1,580678.75,-38.515015,26.33925501102931,-0.014447384,-1.2200678e-06,4.865807e-05,1.8868617e-05,1.0,43,0.021296836,3.6675765e-08,0,-3.150142657375356e-08,1.0
47,47,7827.7437,532249.6,347883.53,635855.8,-33.16902,26.819941140536685,-0.014509297,-1.2225261e-06,5.844531e-05,1.7494443e-05,1.0,43,0.021367637,3.3604532e-08,0,-3.165972114871746e-08,1.0
48,48,6770.8345,560026.06,325057.22,647527.1,-30.132263,27.35842303276877,-0.014463295,-1.2690274e-06,7.23133e-05,1.8223081e-05,1.0,43,0.021268284,3.2845396e-08,0,-3.184199252497673e-08,1.0
49,49,5860.798,610047.5,289963.3,675452.94,-25.422335,27.964963008271297,-0.014499627,-1.2306829e-06,9.365271e-05,1.7259024e-05,1.0,43,0.02142991,3.1726724e-08,0,-3.2033170593613905e-08,1.0
50,50,5071.625,635375.4,279702.62,694215.7,-23.75988,28.64567741395149,-0.014387166,-1.279028e-06,0.00011219577,1.8212968e-05,1.0,43,0.021371005,3.078439e-08,0,-3.226731210533609e-08,1.0
51,51,4388.5933,655500.9,259588.33,705030.1,-21.60432,29.325843152910238,-0.014428547,-1.2451901e-06,0.00013970425,1.893933e-05,1.0,43,0.021300389,3.0212025e-08,0,-3.2496545203377634e-08,1.0
52,52,3798.7827,688119.7,236951.3,727773.75,-19.000944,30.005840625221026,-0.014391451,-1.2726402e-06,0.00017681398,1.8743125e-05,1.0,43,0.021386055,2.9385582e-08,0,-3.273421647480262e-08,1.0
53,53,3286.0488,707692.4,212085.19,738788.6,-16.682714,30.6856971375164,-0.014456048,-1.2377967e-06,0.0002283683,1.8819846e-05,1.0,43,0.021403497,2.897107e-08,0,-3.297492160299213e-08,1.0
54,54,2844.088,718115.44,187904.1,742292.2,-14.663419,31.365816983146942,-0.014492398,-1.21571e-06,0.0002978111,1.9083744e-05,1.0,43,0.021373913,2.8794474e-08,0,-3.320503606996119e-08,1.0
55,55,2460.7852,724509.5,173022.62,744883.1,-13.431435,32.045708775447565,-0.01441202,-1.2517638e-06,0.00037380363,2.0168474e-05,1.0,43,0.021370513,2.8689753e-08,0,-3.3447260542875054e-08,1.0
56,56,2129.3164,741890.44,153648.42,757634.0,-11.700763,32.724824301025365,-0.014479486,-1.2450782e-06,0.00048646526,2.000733e-05,1.0,43,0.021395093,2.823935e-08,0,-3.3672357273763117e-08,1.0
57,57,1843.2289,738582.75,122002.53,748591.44,-9.3796835,33.404953586665215,-0.014399296,-1.2754335e-06,0.00070773717,1.879836e-05,1.0,43,0.021293161,2.8444303e-08,0,-3.391385982134546e-08,1.0
58,58,1594.4913,757159.1,127986.125,767900.0,-9.594279,34.084839272283716,-0.014466519,-1.2262132e-06,0.0007798931,2.1664642e-05,1.0,43,0.021450607,2.7934115e-08,0,-3.41493162714374e-08,1.0
59,59,1380.4436,760427.1,110334.875,768390.0,-8.25577,34.76471989126003,-0.014433764,-1.3016731e-06,0.0010449335,2.1545216e-05,1.0,43,0.021454623,2.7921528e-08,0,-3.4375990848567956e-08,1.0
60,60,1194.6187,757392.7,105047.28,764642.8,-7.896316,35.444808696891414,-0.014436764,-1.2425453e-06,0.0012682534,2.3936378e-05,1.0,43,0.021374276,2.7953282e-08,0,-3.4619756955778825e-08,1.0
61,61,1033.3434,761741.3,99617.016,768227.44,-7.450596,36.12506955585559,-0.014507005,-1.1806801e-06,0.0015461155,2.5997368e-05,1.0,43,0.021348238,2.7788955e-08,0,-3.485854490020775e-08,1.0
62,62,894.71045,761315.94,85799.28,766135.44,-6.430026,36.80480596148118,-0.014472257,-1.2215014e-06,0.002073261,2.6002206e-05,1.0,43,0.021374226,2.7898757e-08,0,-3.5073867724791264e-08,1.0
63,63,774.2569,758541.6,85880.79,763387.8,-6.4594245,37.484971167112235,-0.01447058,-1.2470706e-06,0.002393531,3.0292886e-05,1.0,43,0.021303048,2.7905932e-08,0,-3.528417632613233e-08,1.0
64,64,669.7856,772082.0,90636.85,777383.9,-6.695466,38.164827652741224,-0.0144620845,-1.2120967e-06,0.002621679,3.5638393e-05,1.0,43,0.021468306,2.7616094e-08,0,-3.553178255308865e-08,1.0
65,65,579.81464,776402.1,87293.32,781294.06,-6.415003,38.84483400503814,-0.014468848,-1.2204583e-06,0.0031444882,3.925391e-05,1.0,43,0.02153637,2.7565001e-08,0,-3.5767558892505194e-08,1.0
66,66,501.44418,777584.56,89428.91,782710.2,-6.5606823,39.5221620904922,-0.014514066,-1.2011092e-06,0.0035491113,4.633119e-05,1.0,43,0.02151713,2.7490545e-08,0,-3.597411442967453e-08,1.0
67,67,434.02762,781044.5,96670.45,787004.25,-7.0556574,40.202200389496284,-0.014520736,-1.1989862e-06,0.0037932287,5.7232453e-05,1.0,43,0.021510785,2.733249e-08,0,-3.620061542026755e-08,1.0
68,68,375.6009,781947.44,96183.805,787840.8,-7.0124683,40.880448981683,-0.014394674,-1.2317811e-06,0.004405463,6.5662665e-05,1.0,43,0.021468012,2.7249174e-08,0,-3.643379233359509e-08,1.0
69,69,325.10385,787252.9,106780.55,794461.56,-7.724284,41.559698907338316,-0.014495975,-1.1959506e-06,0.004584647,8.2821745e-05,1.0,43,0.021488018,2.7047273e-08,0,-3.663579999511403e-08,1.0
70,70,281.3503,790180.0,118992.03,799089.2,-8.56374,42.23679035282112,-0.014463239,-1.2053553e-06,0.004753953,0.00010541444,1.0,43,0.021458067,2.6853156e-08,0,-3.6844351525094e-08,1.0
71,71,243.36427,812745.44,132925.11,823543.7,-9.28853,42.92008694526157,-0.01444308,-1.2043682e-06,0.0049199006,0.00012817315,1.0,43,0.021726275,2.6381448e-08,0,-3.707961041879552e-08,1.0
72,72,210.60631,807885.56,137101.61,819436.4,-9.631575,43.59716356408899,-0.0145537155,-1.1510881e-06,0.005511962,0.00015429819,1.0,43,0.021531088,2.6275485e-08,0,-3.7331945907953647e-08,1.0
73,73,182.27473,810230.94,163278.17,826519.2,-11.393678,44.26927292931941,-0.014487609,-1.1795997e-06,0.005347681,0.00020869685,1.0,43,0.021460027,2.5964342e-08,0,-3.7533036726458926e-08,1.0
74,74,157.72879,820284.25,173007.48,838330.4,-11.909796,44.95764224206505,-0.014465066,-1.2065099e-06,0.0058323587,0.00024839546,1.0,43,0.021456549,2.5594384e-08,0,-3.778410382950585e-08,1.0
75,75,136.52892,835127.0,191545.02,856811.9,-12.917952,45.62950742061366,-0.01454848,-1.1544774e-06,0.0060858973,0.00030415528,1.0,43,0.021531554,2.512985e-08,0,-3.7978686666026895e-08,1.0
76,76,118.14758,843909.3,198996.53,867053.94,-13.268156,46.317886093311245,-0.014530518,-1.1663775e-06,0.006769394,0.0003565731,1.0,43,0.021489935,2.4785004e-08,0,-3.822080718027257e-08,1.0
77,77,102.25773,857776.25,221418.56,885892.94,-14.473861,46.98436732494156,-0.014497745,-1.1792087e-06,0.0070292656,0.00043911222,1.0,43,0.021531701,2.4305082e-08,0,-3.8430805266969316e-08,1.0
78,78,88.4436,867964.5,239526.44,900408.4,-15.427557,47.67430205104756,-0.014424765,-1.2070127e-06,0.007512772,0.00053165277,1.0,43,0.021445604,2.3817641e-08,0,-3.8664847607080825e-08,1.0
79,79,76.54279,886732.4,265408.7,925600.4,-16.663017,48.34172378946096,-0.014512148,-1.1788549e-06,0.007834309,0.0006441454,1.0,43,0.021504087,2.3232582e-08,0,-3.888505185131308e-08,1.0
80,80,66.250786,905233.1,284609.3,948920.2,-17.453379,49.01000142117846,-0.014453812,-1.1786127e-06,0.00844073,0.0007593095,1.0,43,0.02149079,2.2647626e-08,0,-3.909427933707644e-08,1.0
81,81,57.329906,927609.5,315658.34,979846.7,-18.793043,49.66463113230384,-0.014553044,-1.1754654e-06,0.008794712,0.00091272494,1.0,43,0.02155645,2.1999819e-08,0,-3.933606651022339e-08,1.0
82,82,49.60321,961013.3,328190.34,1015507.5,-18.855265,50.35038559147506,-0.014495659,-1.1996939e-06,0.009776525,0.0010211037,1.0,43,0.02155709,2.12279e-08,0,-3.957576198628862e-08,1.0
83,83,42.92585,974784.4,370766.3,1042915.25,-20.824675,51.058453438425204,-0.014438477,-1.2430108e-06,0.010000022,0.0012638731,1.0,43,0.021496655,2.0612083e-08,0,-3.9792274421844336e-08,1.0
84,84,37.1518,1006400.75,396065.9,1081531.6,-21.481966,51.703185442398535,-0.014411368,-1.277817e-06,0.010816154,0.0014505388,1.0,43,0.021516522,1.9894491e-08,0,-3.999602267481035e-08,1.0
85,85,32.150223,1034049.6,424238.28,1117692.6,-22.306812,52.342366699449485,-0.014514159,-1.1729701e-06,0.011668802,0.0016811297,1.0,43,0.021463117,1.9203059e-08,0,-4.023242593075535e-08,1.0
86,86,27.835518,1073680.2,468726.28,1171534.8,-23.584175,53.07030590737122,-0.0144596435,-1.2115474e-06,0.0121983625,0.0019526741,1.0,43,0.021546058,1.839131e-08,0,-4.0444781312149715e-08,1.0
87,87,24.082958,1102436.0,509188.9,1214346.9,-24.79109,53.77237330071512,-0.014580899,-1.141125e-06,0.012978706,0.0022819373,1.0,43,0.021454282,1.7667343e-08,0,-4.0686346520715234e-08,1.0
88,88,20.833313,1150813.0,549112.6,1275106.0,-25.50823,54.426745171818766,-0.014584849,-1.1635096e-06,0.013912346,0.002580065,1.0,43,0.021554522,1.6904103e-08,0,-4.096517323122903e-08,1.0
89,89,18.021912,1193355.4,589042.5,1330814.9,-26.271034,55.17273846057651,-0.014537953,-1.193353e-06,0.014992451,0.0029371805,1.0,43,0.021512605,1.6164988e-08,0,-4.112497129761028e-08,1.0
90,90,15.604198,1240924.1,632419.7,1392784.0,-27.005032,55.82902843839838,-0.014434174,-1.2194157e-06,0.016127732,0.0033251904,1.0,43,0.021490641,1.5429988e-08,0,-4.136560339073291e-08,1.0
91,91,13.500899,1292914.9,687682.1,1464423.2,-28.007847,56.57700084726093,-0.014540151,-1.1809875e-06,0.017142324,0.0037801752,1.0,43,0.02151605,1.4692507e-08,0,-4.1633470116633556e-08,1.0
92,92,11.686608,1340076.4,718421.4,1520504.5,-28.195972,57.167888848664006,-0.014373006,-1.2998481e-06,0.01895625,0.004231901,1.0,43,0.0214073,1.40790775e-08,0,-4.179563410385908e-08,1.0
93,93,10.113269,1401671.5,795302.75,1611579.8,-29.570402,57.84151818728424,-0.014534618,-1.1717599e-06,0.019787736,0.004819006,1.0,43,0.021515502,1.3350566e-08,0,-4.196047534651834e-08,1.0
94,94,8.748621,1477777.5,838127.7,1698906.8,-29.559921,58.60837403705227,-0.014528823,-1.1813785e-06,0.021705527,0.0052826474,1.0,43,0.021504844,1.2658048e-08,0,-4.2272341393871335e-08,1.0
95,95,7.570237,1542408.0,903310.5,1787454.1,-30.355352,59.48399013199378,-0.014481629,-1.1826263e-06,0.023274137,0.0059439875,1.0,43,0.02150789,1.2032696e-08,0,-4.2618545578605007e-08,1.0
96,96,6.554112,1628237.2,962706.9,1891549.9,-30.594006,60.02029525078251,-0.014460482,-1.1813135e-06,0.025223898,0.006533784,1.0,43,0.02153298,1.1383777e-08,0,-4.2674995114846304e-08,1.0
97,97,5.669445,1711120.2,1001061.1,1982436.9,-30.329025,60.63012082644855,-0.014439782,-1.232992e-06,0.028042646,0.007150583,1.0,43,0.021435922,1.0812915e-08,0,-4.301404947536769e-08,1.0
98,98,4.907347,1782700.5,1102382.1,2096012.2,-31.73172,61.322530645964434,-0.014441663,-1.1836786e-06,0.029419897,0.008138004,1.0,43,0.021509416,1.0262066e-08,0,-4.3143070778300955e-08,1.0
99,99,4.245922,1886176.8,1172435.6,2220871.0,-31.864824,62.110279563377844,-0.014474866,-1.1898334e-06,0.031971212,0.008910261,1.0,43,0.021511853,9.686223e-09,0,-4.3381912308219404e-08,1.0
100,100,3.6747382,1982005.9,1237347.9,2336531.0,-31.976149,63.00994952613837,-0.014559053,-1.1625788e-06,0.035002727,0.009816178,1.0,43,0.0214743,9.190676e-09,0,-4.3841058957458046e-08,1.0
101,101,3.180988,2079697.0,1341333.2,2474735.2,-32.82063,64.03816578831174,-0.014491662,-1.1752704e-06,0.03730108,0.010958151,1.0,43,0.021504601,8.689657e-09,0,-4.4083066225324726e-08,1.0
102,102,2.752818,2198974.8,1416547.5,2615740.2,-32.789043,65.21712949764333,-0.0144924475,-1.1900102e-06,0.040814217,0.011969734,1.0,43,0.02149182,8.216343e-09,0,-4.434307565224464e-08,1.0
103,103,2.3804083,2340707.8,1512683.4,2786956.0,-32.872585,66.57098860194674,-0.014460929,-1.2051942e-06,0.044199836,0.013021364,1.0,43,0.021533253,7.726442e-09,0,-4.489884650351704e-08,1.0
104,104,2.060257,2471914.0,1591746.8,2940070.8,-32.77882,68.1272636091744,-0.014481895,-1.2132377e-06,0.048531618,0.01422516,1.0,43,0.0215104,7.3162862e-09,0,-4.5593320319186505e-08,1.0
