True,index,freq,Re(Z),Im(Z),Z,Phase(Z),time,Ewe_meas,I_meas,Cs,Cp,cycle_number,I_Range,Ewe,I,Ns,(QQo),cycle
110,110,7000018.5,224.85846,1600.8345,1616.5496,-82.00436,82.42547970163287,-0.020922955,7.561316e-07,1.4202818e-05,1.3928018e-05,2.0,40,0.0102131665,6.31788e-06,0,-6.461133559232578e-08,2.0
111,111,6057573.0,235.23701,1636.8529,1653.6698,-81.821846,82.97748154119472,-0.021019764,-1.3644558e-05,1.6051361e-05,1.5726553e-05,2.0,40,0.014260992,8.623845e-06,0,-6.513446869716707e-08,2.0
112,112,5242039.0,239.38287,1901.0941,1916.1062,-82.82317,83.39350702762022,-0.020969255,-7.78383e-06,1.5970418e-05,1.572115e-05,2.0,40,0.019705633,1.0284207e-05,0,-6.721349694709527e-08,2.0
113,113,4536288.0,200.32329,2169.6357,2178.864,-84.724815,84.76149287927547,-0.020935494,-2.2779785e-05,1.6170843e-05,1.6034155e-05,2.0,40,0.01869892,8.581958e-06,0,-8.094141339286745e-08,2.0
114,114,3925558.5,298.83173,2443.3655,2461.5718,-83.02717,85.17749089901918,-0.020981869,-1.3179409e-05,1.6593203e-05,1.6348657e-05,2.0,40,0.018239936,7.4098734e-06,0,-8.479795721886162e-08,2.0
115,115,3397055.0,292.5675,2815.0781,2830.2405,-84.06663,85.59350334547344,-0.020916173,-5.2994932e-05,1.6642827e-05,1.6464985e-05,2.0,40,0.019413026,6.8591435e-06,0,-8.74829543986871e-08,2.0
116,116,2939708.2,285.6811,3166.1064,3178.969,-84.8441,86.00949355188641,-0.020896219,-5.5488053e-05,1.7099774e-05,1.6961678e-05,2.0,40,0.021310346,6.7035403e-06,0,-9.078332585134793e-08,2.0
117,117,2543924.5,294.55157,3654.425,3666.2764,-85.391846,86.56148309810669,-0.02098429,-2.5185022e-06,1.7119728e-05,1.7009226e-05,2.0,40,0.020540545,5.6025633e-06,0,-1.021225139815163e-07,2.0
118,118,2201436.2,411.50482,4243.3105,4263.2173,-84.46093,87.11448672434199,-0.020905217,-2.510544e-05,1.7037632e-05,1.687889e-05,2.0,40,0.020930862,4.90964e-06,0,-1.0166957043320875e-07,2.0
119,119,1905053.1,446.09412,4864.6064,4885.0176,-84.76051,87.66648397725658,-0.02102828,8.737749e-06,1.7173757e-05,1.7030543e-05,2.0,40,0.020611458,4.219321e-06,0,-1.0873058071677318e-07,2.0
120,120,1648567.4,291.77042,5485.935,5493.6885,-86.95558,88.38549094469636,-0.02101179,-8.177502e-06,1.7597979e-05,1.754834e-05,2.0,41,0.018738547,3.4109228e-06,0,-1.1643840568256772e-07,2.0
121,121,1426616.2,223.50877,6708.0044,6711.727,-88.09163,88.8014890444756,-0.021028299,7.349025e-07,1.663105e-05,1.6612605e-05,2.0,41,0.02176995,3.2435692e-06,0,-1.17486907568041e-07,2.0
122,122,1234551.2,583.0143,7295.707,7318.965,-85.43109,89.35348915072973,-0.020937078,-8.387914e-06,1.7670287e-05,1.7558163e-05,2.0,41,0.020995269,2.8686118e-06,0,-1.1646079137378724e-07,2.0
123,123,1068345.5,460.73468,8770.973,8783.065,-86.99305,89.90550680356682,-0.02090928,-6.777128e-06,1.6984808e-05,1.6938071e-05,2.0,41,0.020782923,2.3662494e-06,0,-1.1699401254403262e-07,2.0
124,124,924510.06,103.57606,10359.909,10360.427,-89.427185,90.45750010982738,-0.020996531,-3.0732533e-06,1.6616998e-05,1.6615337e-05,2.0,41,0.02033948,1.9631893e-06,0,-1.1779472809157277e-07,2.0
125,125,800039.0,-1672.6359,11176.225,11300.695,-98.51173,91.0095007493801,-0.021044116,3.4183024e-06,1.7799746e-05,1.7409799e-05,2.0,41,0.01979836,1.7519595e-06,0,-1.1667023736898822e-07,2.0
126,126,692334.1,458.3588,13134.479,13142.474,-88.001335,91.56148573555402,-0.02098867,1.9434558e-06,1.7502156e-05,1.7480868e-05,2.0,41,0.020279048,1.5430161e-06,0,-1.168565279668646e-07,2.0
127,127,599122.25,809.515,16012.853,16033.302,-87.10593,92.11349565515411,-0.02090369,-1.1808738e-05,1.6589604e-05,1.6547312e-05,2.0,41,0.020579843,1.2835686e-06,0,-1.1778387627958706e-07,2.0
128,128,518454.94,1749.134,18375.168,18458.23,-84.56239,92.66550432136864,-0.020920904,-4.0751083e-06,1.6706204e-05,1.6556187e-05,2.0,41,0.020322572,1.1010032e-06,0,-1.1765297696243079e-07,2.0
129,129,448662.03,1044.6824,21059.691,21085.586,-87.160126,93.2174872008909,-0.02088761,-6.43449e-06,1.6844138e-05,1.6802793e-05,2.0,41,0.020237228,9.59766e-07,0,-1.1913254151538094e-07,2.0
130,130,388258.97,1276.4698,24512.87,24546.082,-87.019104,93.76948720045038,-0.020903243,-7.1700492e-06,1.6722626e-05,1.6677403e-05,2.0,41,0.020823067,8.483255e-07,0,-1.2007620774776247e-07,2.0
131,131,335983.9,775.38165,27989.756,28000.494,-88.41318,94.32149704001495,-0.020918204,-2.546259e-06,1.6923981e-05,1.6911003e-05,2.0,41,0.020269398,7.238943e-07,0,-1.1969293608323993e-07,2.0
132,132,290751.2,2442.537,31964.684,32057.87,-85.63031,94.8734862128913,-0.020960497,-1.1142425e-06,1.7124907e-05,1.7025495e-05,2.0,41,0.020339377,6.3445816e-07,0,-1.1979199694169216e-07,2.0
133,133,251605.19,4017.429,36401.95,36622.965,-83.70215,95.42548319909838,-0.020914495,-9.523845e-06,1.7377044e-05,1.716794e-05,2.0,41,0.020512678,5.6010424e-07,0,-1.20234209035917e-07,2.0
134,134,217729.38,3596.9006,42192.344,42345.383,-85.12731,95.97749826530344,-0.02096031,1.5840558e-06,1.7324848e-05,1.7199849e-05,2.0,41,0.020242255,4.7802746e-07,0,-1.2030707010459648e-07,2.0
135,135,188418.58,6302.3433,47643.062,48058.098,-82.46452,96.52948303820449,-0.021125892,7.077486e-06,1.772951e-05,1.7424603e-05,2.0,41,0.020762032,4.3201942e-07,0,-1.210014100676678e-07,2.0
136,136,163051.14,5536.2764,55836.59,56110.383,-84.33755,97.24849539235584,-0.02106899,-3.3606304e-07,1.7481449e-05,1.7311262e-05,2.0,42,0.019137725,3.410728e-07,0,-1.1987794937771037e-07,2.0
137,137,141098.2,6098.769,64112.465,64401.887,-84.566025,97.66449557212763,-0.021008866,-1.3628655e-06,1.7593658e-05,1.7435883e-05,2.0,42,0.020772517,3.2254516e-07,0,-1.2006371735039817e-07,2.0
138,138,122105.11,8966.917,76113.13,76639.51,-83.28094,98.21650821165531,-0.02093199,-1.6871289e-06,1.7124848e-05,1.6890423e-05,2.0,42,0.020512965,2.6765522e-07,0,-1.2021036225238803e-07,2.0
139,139,105663.59,7125.0205,85029.6,85327.6,-85.21011,98.6324871647812,-0.020907061,-1.765168e-06,1.7714325e-05,1.759081e-05,2.0,42,0.021947213,2.5721118e-07,0,-1.2031849613687997e-07,2.0
140,140,91439.65,11196.288,98364.76,98999.914,-83.5063,99.1844913509849,-0.02106668,-6.9739025e-07,1.7694816e-05,1.7468494e-05,2.0,42,0.020419931,2.062621e-07,0,-1.2049485706473362e-07,2.0
141,141,79127.08,13671.917,111906.3,112738.375,-83.03453,99.60048782409285,-0.021031745,-5.0834535e-07,1.7973824e-05,1.7709488e-05,2.0,42,0.021422444,1.900191e-07,0,-1.206015648774598e-07,2.0
142,142,68475.36,22864.43,128549.984,130567.53,-79.914604,100.15250843696413,-0.02096877,-1.2833364e-06,1.808064e-05,1.7526187e-05,2.0,42,0.020145837,1.5429438e-07,0,-1.207441762842731e-07,2.0
143,143,59252.523,28811.54,146658.12,149461.4,-78.88557,100.56848765673931,-0.020951852,-1.05462e-06,1.831501e-05,1.7634424e-05,2.0,42,0.020868948,1.3962767e-07,0,-1.2083919672365795e-07,2.0
144,144,51282.285,29493.787,172580.56,175082.66,-80.30192,100.98448812981951,-0.020943506,-1.4463061e-06,1.7982948e-05,1.7472636e-05,2.0,42,0.0214572,1.225547e-07,0,-1.210214575583459e-07,2.0
145,145,44369.8,50378.938,195451.62,201839.97,-75.54625,101.40050761625753,-0.021026716,-7.0372295e-07,1.835242e-05,1.7209077e-05,2.0,42,0.021844832,1.0822848e-07,0,-1.2114673181687193e-07,2.0
146,146,38403.727,58353.33,216381.06,224111.3,-74.90759,101.95248700244701,-0.020945387,-1.6835902e-06,1.9152589e-05,1.7854123e-05,2.0,42,0.02025482,9.03784e-08,0,-1.211331795074635e-07,2.0
147,147,33226.32,75894.18,252987.42,264126.03,-73.30118,102.36848315552925,-0.021050544,-4.643901e-07,1.8933852e-05,1.7370583e-05,2.0,42,0.02055376,7.7818e-08,0,-1.2121619095661036e-07,2.0
148,148,28754.086,100193.914,279784.12,297183.4,-70.29697,102.78450338865514,-0.021098781,-2.6603266e-07,1.9783243e-05,1.7534547e-05,2.0,42,0.02062229,6.939247e-08,0,-1.213408893059488e-07,2.0
149,149,24884.947,124395.27,306883.88,331137.28,-67.934845,103.20049324838328,-0.02095828,-1.0451214e-06,2.0840558e-05,1.7899518e-05,2.0,42,0.02064544,6.234707e-08,0,-1.2163212945929933e-07,2.0
150,150,21553.963,163671.84,335076.84,372914.16,-63.966312,103.6165011615085,-0.0210969,-4.964254e-07,2.2036802e-05,1.779179e-05,2.0,42,0.020550178,5.5106995e-08,0,-1.217156530963699e-07,2.0
151,151,18631.234,202757.23,371213.0,422977.06,-61.356552,104.0325008079235,-0.020977676,-1.5502343e-06,2.3012051e-05,1.7724256e-05,2.0,42,0.020517448,4.8507236e-08,0,-1.2182630878345436e-07,2.0
152,152,16126.037,244347.23,417551.84,483792.44,-59.66425,104.61449614222511,-0.020900875,-1.0780868e-06,2.3636441e-05,1.7606973e-05,2.0,43,0.020056322,4.145646e-08,0,-1.2199806786704117e-07,2.0
153,153,13954.87,290494.3,419488.34,510252.3,-55.297527,105.03049672199995,-0.020918073,-1.0882735e-06,2.7187823e-05,1.8375717e-05,2.0,43,0.01968265,3.8574345e-08,0,-1.2211552513128273e-07,2.0
154,154,12080.609,361592.03,453522.75,580027.3,-51.434772,105.44648828843492,-0.021053433,-9.561812e-07,2.9049068e-05,1.7759612e-05,2.0,43,0.019333033,3.3331247e-08,0,-1.2222566151301192e-07,2.0
155,155,10447.592,434564.25,475257.6,643984.4,-47.560947,105.86248998818337,-0.02109256,-9.3392686e-07,3.2053456e-05,1.745751e-05,2.0,43,0.018912971,2.936868e-08,0,-1.2233530719608195e-07,2.0
156,156,9045.586,492041.66,480481.88,687726.56,-44.318993,106.29425779535086,-0.0209384,-1.0146385e-06,3.6618992e-05,1.7874292e-05,2.0,43,0.02143857,3.11731e-08,0,-1.2245158824888e-07,2.0
157,157,7827.7437,568616.6,485825.38,747897.8,-40.51054,106.77493480488192,-0.02099994,-9.4444874e-07,4.185076e-05,1.7659533e-05,2.0,43,0.021451248,2.8682058e-08,0,-1.2257462851960336e-07,2.0
158,158,6770.8345,646762.75,472095.12,800734.56,-36.127037,107.31342749707983,-0.020955225,-1.0170037e-06,4.9790724e-05,1.730734e-05,2.0,43,0.021555314,2.6919425e-08,0,-1.227175350731014e-07,2.0
159,159,5860.798,713531.75,459706.8,848797.94,-32.792454,107.9189774992119,-0.021001078,-9.3811695e-07,5.9072103e-05,1.7327491e-05,2.0,43,0.021553732,2.5393243e-08,0,-1.228830402383717e-07,2.0
160,160,5071.625,748976.94,428360.03,862820.25,-29.766397,108.59967979822977,-0.020887591,-1.0457201e-06,7.3259514e-05,1.805682e-05,2.0,43,0.021412315,2.4816657e-08,0,-1.2307045333539612e-07,2.0
161,161,4388.5933,767196.5,427281.3,878157.06,-29.11512,109.27980553719681,-0.020992208,-9.525311e-07,8.487522e-05,2.0093903e-05,2.0,43,0.021290846,2.4244919e-08,0,-1.232600892983044e-07,2.0
162,162,3798.7827,846728.06,371538.34,924656.25,-23.691528,109.95980844949372,-0.021038452,-9.599617e-07,0.000112764414,1.8206176e-05,2.0,43,0.021541769,2.3297057e-08,0,-1.234483600969087e-07,2.0
163,163,3286.0488,876778.06,338882.4,939989.94,-21.131952,110.63969528179587,-0.021001302,-9.912853e-07,0.00014292134,1.857585e-05,2.0,43,0.021478273,2.2849472e-08,0,-1.2363267086568443e-07,2.0
164,164,2844.088,908115.6,314910.34,961167.25,-19.125185,111.3198351807514,-0.020933108,-9.871138e-07,0.00017770113,1.9075069e-05,2.0,43,0.021479547,2.2347356e-08,0,-1.2381828418612332e-07,2.0
165,165,2460.7852,933733.1,284937.34,976241.2,-16.970057,111.99971014638868,-0.020931711,-1.0190706e-06,0.00022698494,1.9336663e-05,2.0,43,0.021531686,2.2055703e-08,0,-1.2400587355520148e-07,2.0
166,166,2129.3164,953220.1,253888.92,986452.3,-14.914406,112.67881652530923,-0.020919768,-9.921233e-07,0.0002943989,1.9501656e-05,2.0,43,0.021519618,2.1815163e-08,0,-1.24193099598629e-07,2.0
167,167,1843.2289,978506.8,247974.9,1009439.0,-14.220614,113.35897175761056,-0.021034205,-9.2236183e-07,0.0003482035,2.1013018e-05,2.0,43,0.021560287,2.1358682e-08,0,-1.2438460757029547e-07,2.0
168,168,1594.4913,977349.5,203710.77,998353.7,-11.773699,114.03885002990137,-0.020943264,-9.905403e-07,0.0004899863,2.0400608e-05,2.0,43,0.021500444,2.1535898e-08,0,-1.2457862490894497e-07,2.0
169,169,1380.4436,988945.06,173363.14,1004025.44,-9.942983,114.71872200886719,-0.020987121,-9.636674e-07,0.00066503533,1.9827537e-05,2.0,43,0.021510333,2.1424091e-08,0,-1.2476460214947376e-07,2.0
170,170,1194.6187,990286.44,171272.55,1004988.3,-9.812381,115.39882214783574,-0.020948984,-1.0180464e-06,0.00077786297,2.25921e-05,2.0,43,0.02145434,2.134785e-08,0,-1.2494942917051637e-07,2.0
171,171,1033.3434,998116.3,152469.22,1009694.5,-8.685189,116.0791005534411,-0.021005176,-9.4491406e-07,0.0010101673,2.303444e-05,2.0,43,0.021496369,2.1289972e-08,0,-1.2512458707296595e-07,2.0
172,172,894.71045,993116.3,154560.84,1005071.7,-8.8461,116.75882045242179,-0.021035584,-9.579687e-07,0.0011509015,2.7217175e-05,2.0,43,0.021375244,2.1267383e-08,0,-1.2530459925118918e-07,2.0
173,173,774.2569,987510.7,148985.17,998686.1,-8.579477,117.43894080471364,-0.021029677,-9.343362e-07,0.0013797234,3.0705778e-05,2.0,43,0.021305343,2.1333372e-08,0,-1.254972628356062e-07,2.0
174,174,669.7856,1010352.94,129242.9,1018585.7,-7.2896056,118.11882153035549,-0.020872407,-9.814894e-07,0.0018385594,2.9600285e-05,2.0,43,0.021512797,2.1120263e-08,0,-1.2567957855229394e-07,2.0
175,175,579.81464,1016471.6,118529.96,1023359.1,-6.6511774,118.79883412265917,-0.020994278,-9.553801e-07,0.0023158095,3.1067262e-05,2.0,43,0.021582663,2.1090019e-08,0,-1.2584788918037206e-07,2.0
176,176,501.44418,1024663.4,127429.875,1032556.75,-7.089059,119.4761803947913,-0.020966291,-9.641515e-07,0.0024907277,3.7935075e-05,2.0,43,0.021636186,2.0953992e-08,0,-1.260182656503055e-07,2.0
177,177,434.02762,1028292.9,127979.93,1036226.4,-7.0944734,120.15619930709363,-0.020935867,-9.571306e-07,0.0028652393,4.3705426e-05,2.0,43,0.02163917,2.0882666e-08,0,-1.2621666789409305e-07,2.0
178,178,375.6009,1023418.06,135794.12,1032387.8,-7.558247,120.83445213930099,-0.020965118,-9.3459687e-07,0.0031204163,5.3986947e-05,2.0,43,0.021566527,2.0889948e-08,0,-1.2641221043093034e-07,2.0
179,179,325.10385,1033030.8,138205.1,1042234.75,-7.620127,121.51372265161626,-0.021045197,-9.045581e-07,0.0035422074,6.2286075e-05,2.0,43,0.021596357,2.0721203e-08,0,-1.2658102314990317e-07,2.0
180,180,281.3503,1040827.25,145685.17,1050973.6,-7.967956,122.19082423043437,-0.020893665,-9.89702e-07,0.0038829108,7.461127e-05,2.0,43,0.02162289,2.057415e-08,0,-1.2673110945834922e-07,2.0
181,181,243.36427,1049426.2,144318.28,1059303.1,-7.8302646,122.87410210285452,-0.02096359,-9.5078013e-07,0.0045315,8.410933e-05,2.0,43,0.021635205,2.0423997e-08,0,-1.2695007568118812e-07,2.0
182,182,210.60631,1053637.2,169786.88,1067229.6,-9.154152,123.55119306835695,-0.020990308,-9.669822e-07,0.0044508674,0.00011265154,2.0,43,0.021619514,2.0257602e-08,0,-1.27137007288128e-07,2.0
183,183,182.27473,1077051.0,171443.8,1090610.8,-9.0444,124.22328579358873,-0.020981068,-9.269055e-07,0.0050929785,0.00012585656,2.0,43,0.021770192,1.9961469e-08,0,-1.272849331889141e-07,2.0
184,184,157.72879,1065916.2,199737.28,1084468.8,-10.613319,124.91166177301056,-0.020935606,-9.737795e-07,0.005051845,0.00017136976,2.0,43,0.021513438,1.9837767e-08,0,-1.2748287675033747e-07,2.0
185,185,136.52892,1089323.6,220894.84,1111494.8,-11.463097,125.58351196485455,-0.02092068,-1.0094237e-06,0.0052772774,0.00020843289,2.0,43,0.021667989,1.949446e-08,0,-1.276480107276588e-07,2.0
186,186,118.14758,1090309.0,237869.17,1115955.0,-12.307192,126.27190530425287,-0.021073053,-9.018764e-07,0.005663138,0.00025730018,2.0,43,0.021558883,1.9318774e-08,0,-1.2782214444769835e-07,2.0
187,187,102.25773,1118371.2,256375.42,1147380.8,-12.9114,126.9383290958649,-0.020990755,-9.2671934e-07,0.0060708234,0.0003030995,2.0,43,0.021683477,1.889824e-08,0,-1.2799125964519102e-07,2.0
188,188,88.4436,1119901.4,282279.25,1154928.9,-14.147126,127.62828987531248,-0.020939369,-9.9203e-07,0.00637492,0.0003808221,2.0,43,0.021519847,1.8633049e-08,0,-1.281767957661428e-07,2.0
189,189,76.54279,1147029.2,312100.94,1188731.8,-15.221395,128.29573553374212,-0.021050917,-8.930305e-07,0.0066622472,0.00045924366,2.0,43,0.021655707,1.8217488e-08,0,-1.283513273831921e-07,2.0
190,190,66.250786,1161670.0,341985.78,1210963.0,-16.403982,128.96400177880423,-0.020977695,-9.2835825e-07,0.0070245913,0.0005602417,2.0,43,0.021591296,1.7829857e-08,0,-1.285427110708276e-07,2.0
191,191,57.329906,1189496.0,370141.66,1245755.0,-17.284847,129.61863151658144,-0.020919917,-9.2925217e-07,0.007500167,0.00066212745,2.0,43,0.02160277,1.7341106e-08,0,-1.2868943363188084e-07,2.0
192,192,49.60321,1205916.6,405349.75,1272219.9,-18.579254,130.30438733575284,-0.020994948,-9.465714e-07,0.007915538,0.00080355554,2.0,43,0.021556847,1.6944277e-08,0,-1.28869200146288e-07,2.0
193,193,42.92585,1233035.0,439334.6,1308965.4,-19.611156,131.01241774272057,-0.020999176,-9.246337e-07,0.0084392885,0.0009506931,2.0,43,0.021551723,1.64647e-08,0,-1.2906911865736978e-07,2.0
194,194,37.1518,1272355.2,486587.2,1362224.2,-20.92837,131.65617795995786,-0.02096292,-9.632205e-07,0.008803992,0.0011233207,2.0,43,0.021629311,1.5877937e-08,0,-1.292252795598533e-07,2.0
195,195,32.150223,1292512.2,527245.1,1395913.8,-22.191664,132.29439265697147,-0.020935308,-9.774483e-07,0.009389091,0.0013394655,2.0,43,0.021488296,1.5393713e-08,0,-1.2937861156168986e-07,2.0
196,196,27.835518,1358389.4,583249.4,1478310.4,-23.237152,133.02231495818705,-0.020981012,-9.151547e-07,0.00980317,0.0015259625,2.0,43,0.021727145,1.46972825e-08,0,-1.295590367632838e-07,2.0
197,197,24.082958,1373641.6,643850.7,1517048.1,-25.113337,133.72436960486812,-0.020936947,-9.230136e-07,0.010264201,0.001848829,2.0,43,0.021574585,1.4221424e-08,0,-1.297385612830592e-07,2.0
198,198,20.833313,1434513.1,680718.4,1587830.4,-25.385706,134.37877363599546,-0.021125427,-8.94353e-07,0.011222621,0.0020626287,2.0,43,0.021610871,1.3610315e-08,0,-1.2994827501904994e-07,2.0
199,199,18.021912,1484564.8,742388.9,1659841.5,-26.568338,135.12473972476437,-0.021392977,-6.914936e-07,0.011895641,0.0023796742,2.0,43,0.021593375,1.3009299e-08,0,-1.3007514064906267e-07,2.0
200,200,15.604198,1542384.4,801480.0,1738194.4,-27.45806,135.7790079958213,-0.02098744,-9.552126e-07,0.012725826,0.0027056693,2.0,43,0.021601379,1.2427482e-08,0,-1.302860113608821e-07,2.0
201,201,13.500899,1612866.8,887455.0,1840900.8,-28.82111,136.52698173801764,-0.020988418,-9.5358314e-07,0.013283457,0.0030870454,2.0,43,0.02166538,1.1768901e-08,0,-1.3049375460381896e-07,2.0
202,202,11.686608,1629985.1,967228.5,1895358.1,-30.684772,137.11789648610284,-0.021083914,-8.78598e-07,0.014079996,0.0036667236,2.0,43,0.021528961,1.1358782e-08,0,-1.3062525885485657e-07,2.0
203,203,10.113269,1756669.6,1026064.3,2034378.6,-30.289043,137.79150622469024,-0.021063047,-8.903118e-07,0.015337479,0.0039015717,2.0,43,0.021609262,1.06220455e-08,0,-1.307434327890253e-07,2.0
204,204,8.748621,1835072.5,1100098.2,2139557.8,-30.94205,138.55838154113735,-0.020993868,-9.3025795e-07,0.016536707,0.0043718372,2.0,43,0.021596653,1.009398e-08,0,-1.3091780450014785e-07,2.0
205,205,7.570237,1926726.2,1189428.4,2264291.0,-31.688332,139.43401110277046,-0.021001805,-9.336939e-07,0.017675525,0.004877356,2.0,43,0.021585686,9.533088e-09,0,-1.3124258627057807e-07,2.0
206,206,6.554112,2027703.9,1272402.9,2393865.5,-32.10865,139.96931334151304,-0.021007469,-9.3090983e-07,0.01908454,0.005391771,2.0,43,0.021588428,9.018229e-09,0,-1.3126707643154213e-07,2.0
207,207,5.669445,2139666.5,1350901.6,2530436.2,-32.266712,140.57912785044755,-0.020958168,-9.71992e-07,0.020780494,0.0059226016,2.0,43,0.021530434,8.508586e-09,0,-1.315489539948251e-07,2.0
208,208,4.907347,2254229.0,1474764.2,2693785.0,-33.19356,141.27156430998002,-0.020971248,-9.5066866e-07,0.021991292,0.0065912846,2.0,43,0.021603487,8.019752e-09,0,-1.3159889057356287e-07,2.0
209,209,4.245922,2392119.0,1561307.1,2856556.2,-33.131996,142.05929368073703,-0.020950586,-9.721037e-07,0.024008209,0.007172175,2.0,43,0.021613976,7.566445e-09,0,-1.3188111948761143e-07,2.0
210,210,3.6747382,2523560.8,1674418.1,3028536.8,-33.564835,142.95891967019998,-0.02089918,-1.0096569e-06,0.025866032,0.007906639,2.0,43,0.021609599,7.1353266e-09,0,-1.3218207276913398e-07,2.0
211,211,3.180988,2673742.2,1773273.6,3208332.5,-33.553047,143.98719947898644,-0.020972915,-9.3682263e-07,0.028215148,0.008619362,2.0,43,0.021593004,6.7302888e-09,0,-1.3231768599900482e-07,2.0
212,212,2.752818,2837745.0,1895616.6,3412647.0,-33.742966,145.16610814831802,-0.020971242,-9.4684475e-07,0.030499455,0.009410449,2.0,43,0.021616338,6.334185e-09,0,-1.3260645226111793e-07,2.0
