True,index,freq,Re(Z),Im(Z),Z,Phase(Z),time,Ewe_meas,I_meas,Cs,Cp,cycle_number,I_Range,Ewe,I,Ns,(QQo),cycle
0,0,7000018.5,321.5736,1709.6327,1739.613,-79.347404,2.4654942503839266,-0.004274466,2.9352632e-05,1.3298975e-05,1.2844537e-05,1.0,40,0.010065644,5.78614e-06,0,8.24303173466016e-09,1.0
1,1,6057573.0,490.36493,2008.4851,2067.4792,-76.27983,3.0174868632748257,-0.0041183503,-5.3683354e-05,1.3081359e-05,1.2345475e-05,1.0,40,0.0143306665,6.9314683e-06,0,8.643860388051255e-09,1.0
2,2,5242039.0,495.44,2254.7217,2308.5127,-77.60709,3.4334882697148714,-0.004230476,5.9176953e-05,1.3465638e-05,1.2845419e-05,1.0,40,0.01989051,8.616158e-06,0,-2.3465001606837177e-09,1.0
3,3,4536288.0,396.3159,2630.4355,2660.1235,-81.431946,4.665488968224963,-0.0041638864,-1.9523837e-05,1.3338035e-05,1.3041981e-05,1.0,40,0.020453969,7.689105e-06,0,-3.269241552781447e-09,1.0
4,4,3925558.5,554.9629,3052.06,3102.1047,-79.694374,5.081479947984917,-0.004220564,-1.2937533e-05,1.32838995e-05,1.2858753e-05,1.0,40,0.019354668,6.239205e-06,0,-4.97622095691794e-09,1.0
5,5,3397055.0,590.0659,3422.4048,3472.8997,-80.21766,5.4974788211111445,-0.0041659917,-4.211078e-05,1.3689456e-05,1.3294269e-05,1.0,40,0.020378532,5.8678725e-06,0,-1.1568923688754593e-08,1.0
6,6,2939708.2,734.24695,3826.4973,3896.306,-79.13784,6.049491860641865,-0.0042166887,2.8212307e-06,1.4148633e-05,1.3646184e-05,1.0,40,0.020377722,5.2300106e-06,0,-1.641632362654693e-08,1.0
7,7,2543924.5,922.7717,4274.434,4372.905,-77.81785,6.6014872468367685,-0.0042450274,1.0728531e-05,1.4636502e-05,1.3984743e-05,1.0,40,0.020461343,4.6791192e-06,0,-1.274463102684346e-08,1.0
8,8,2201436.2,1318.0957,4908.845,5082.7295,-74.96979,7.320503387687495,-0.0042618145,-1.406619e-06,1.4727691e-05,1.3737236e-05,1.0,41,0.020057518,3.94621e-06,0,-1.0294107650046335e-08,1.0
9,9,1905053.1,813.9402,5927.3574,5982.9814,-82.18109,7.872484587220242,-0.004131411,-6.829272e-06,1.4094572e-05,1.38337155e-05,1.0,41,0.020620668,3.4465538e-06,0,-9.88324583564943e-09,1.0
10,10,1648567.4,1463.743,6743.0435,6900.0854,-77.752556,8.424482240137877,-0.0042873775,4.219038e-06,1.431718e-05,1.3672895e-05,1.0,41,0.019774126,2.8657798e-06,0,-9.23930957092504e-09,1.0
11,11,1426616.2,1867.0471,7867.944,8086.4336,-76.65074,8.976490479690256,-0.0042790305,-2.6859207e-06,1.41792e-05,1.3423327e-05,1.0,41,0.020290436,2.5091947e-06,0,-9.545317678867743e-09,1.0
12,12,1234551.2,1997.967,8984.937,9204.398,-77.4632,9.528484319191193,-0.0043030465,2.65481e-06,1.4348153e-05,1.3672099e-05,1.0,41,0.020819318,2.2618879e-06,0,-8.838348870556147e-09,1.0
13,13,1068345.5,2754.9238,10048.256,10419.071,-74.66801,10.080491465429077,-0.0043377765,8.818621e-06,1.4825787e-05,1.3789264e-05,1.0,41,0.0207045,1.9871734e-06,0,-9.173566086330551e-09,1.0
14,14,924510.06,3076.1213,11393.784,11801.73,-74.891365,10.632499064988224,-0.0041424227,-8.423298e-06,1.5109165e-05,1.4082673e-05,1.0,41,0.020226631,1.71387e-06,0,-9.04425745815729e-09,1.0
15,15,800039.0,2897.6025,11735.224,12087.662,-76.13024,11.18447893121629,-0.0042099627,1.3419709e-06,1.6951868e-05,1.5977754e-05,1.0,41,0.020371221,1.6852904e-06,0,-6.501148774589183e-09,1.0
16,16,692334.1,5842.491,14258.92,15409.462,-67.71899,11.73649130409467,-0.0041630478,-9.46053e-06,1.6121958e-05,1.3804354e-05,1.0,41,0.020383788,1.3228099e-06,0,-7.536583351826683e-09,1.0
17,17,599122.25,6631.8354,15980.651,17302.094,-67.46196,12.288493917003507,-0.0043063257,6.2488143e-06,1.6623031e-05,1.4180837e-05,1.0,41,0.020481108,1.1837358e-06,0,-7.708156719783372e-09,1.0
18,18,518454.94,8301.584,17731.932,19579.012,-64.912346,12.840480876533547,-0.0041946284,-7.19612e-06,1.7312232e-05,1.4199845e-05,1.0,41,0.020609071,1.0526104e-06,0,-7.545511186923272e-09,1.0
19,19,448662.03,10340.365,18985.395,21618.703,-61.425148,13.392490582744358,-0.0043555507,5.178063e-06,1.8684486e-05,1.4409906e-05,1.0,41,0.020131415,9.3120366e-07,0,-6.863724730262927e-09,1.0
20,20,388258.97,12562.674,19677.635,23345.879,-57.444862,13.944499035627814,-0.004210484,-3.561146e-06,2.083175e-05,1.4799638e-05,1.0,41,0.020751463,8.888705e-07,0,-6.1134087894427264e-09,1.0
21,21,335983.9,10452.824,24333.65,26483.732,-66.753456,14.49648074185825,-0.0044275997,1.4779457e-05,1.946679e-05,1.6434275e-05,1.0,41,0.020002559,7.552772e-07,0,-5.392340580791386e-09,1.0
22,22,290751.2,18075.879,22886.113,29163.531,-51.697666,15.048497648065677,-0.0042928737,3.1501481e-06,2.3918094e-05,1.4729583e-05,1.0,41,0.020478727,7.022033e-07,0,-4.343498357993907e-09,1.0
23,23,251605.19,22055.072,23407.762,32161.305,-46.70426,15.600492100958945,-0.0041966224,-5.3786343e-06,2.7023441e-05,1.4315058e-05,1.0,41,0.020352498,6.328256e-07,0,-2.3419253959925885e-09,1.0
24,24,217729.38,24907.834,24037.69,34615.18,-43.981514,16.153482047229772,-0.0043394906,7.958293e-06,3.040958e-05,1.4664344e-05,1.0,41,0.02019432,5.833949e-07,0,-2.1164916027708314e-09,1.0
25,25,188418.58,28029.893,23988.857,36893.633,-40.55794,16.70548879346461,-0.0042595416,4.3251825e-06,3.5211688e-05,1.488686e-05,1.0,41,0.020811468,5.6409374e-07,0,-8.301363322221015e-10,1.0
26,26,163051.14,32237.857,22763.22,39464.46,-35.225998,17.257501112966565,-0.0041579427,-6.5853255e-06,4.288077e-05,1.4266508e-05,1.0,41,0.020170828,5.1111374e-07,0,-1.2800805059182624e-09,1.0
27,27,141098.2,34759.26,21605.889,40927.016,-31.86453,17.673483399412362,-0.0042574736,-2.030431e-06,5.2206728e-05,1.4549585e-05,1.0,41,0.021942219,5.361304e-07,0,-9.445413203271253e-10,1.0
28,28,122105.11,39159.61,16352.714,42436.85,-22.664993,18.225495878985384,-0.0042962274,8.220863e-06,7.9707e-05,1.1835588e-05,1.0,41,0.020531727,4.838183e-07,0,-3.0382742818661305e-10,1.0
29,29,105663.59,39229.375,19726.006,43909.67,-26.694971,18.777499345160322,-0.004296097,1.1371351e-06,7.6358185e-05,1.5410387e-05,1.0,41,0.020171747,4.5939188e-07,0,-1.3283543840492993e-09,1.0
30,30,91439.65,41441.504,16203.73,44496.73,-21.355621,19.19348941827775,-0.0043527936,8.8540055e-06,0.0001074164,1.4244408e-05,1.0,41,0.02145125,4.8208597e-07,0,-1.012941170721926e-09,1.0
31,31,79127.08,43923.938,14697.216,46317.605,-18.500553,19.745480484474683,-0.0043030838,5.2190294e-06,0.00013685477,1.37796405e-05,1.0,41,0.020461299,4.417607e-07,0,-6.056180926034487e-10,1.0
32,32,68475.36,44103.043,13716.086,46186.68,-17.275742,20.161482290917775,-0.004329019,-3.6038458e-08,0.00016945548,1.4944539e-05,1.0,41,0.02118683,4.5872164e-07,0,-8.525724559831237e-10,1.0
33,33,59252.523,44958.57,11320.225,46361.844,-14.132856,20.5775009773497,-0.004342788,5.170616e-06,0.00023727841,1.4146432e-05,1.0,41,0.021887066,4.7209224e-07,0,1.4469849653500313e-11,1.0
34,34,51282.285,45846.55,10565.46,47048.223,-12.977395,21.129501110262936,-0.00425874,4.6398904e-06,0.00029374086,1.48133995e-05,1.0,41,0.02030528,4.3158443e-07,0,-1.1079851762790064e-09,1.0
35,35,44369.8,46660.383,9542.433,47626.14,-11.558084,21.54548411667929,-0.0042599887,2.1780936e-06,0.00037590103,1.5090407e-05,1.0,41,0.020742731,4.3553248e-07,0,-7.614866023130847e-10,1.0
36,36,38403.727,46144.25,8015.9277,46835.316,-9.854768,21.96148218974122,-0.0042701988,1.0514731e-06,0.0005170029,1.5144455e-05,1.0,41,0.020936646,4.4702688e-07,0,-9.834022826377377e-10,1.0
37,37,33226.32,47425.367,7422.016,48002.62,-8.894578,22.377481756178895,-0.004193231,-1.1719679e-06,0.0006453807,1.5428719e-05,1.0,41,0.021245867,4.4259806e-07,0,-9.255441900787802e-10,1.0
38,38,28754.086,49432.902,6742.9487,49890.67,-7.7675543,22.95948959715315,-0.0042749126,9.41789e-08,0.00082086306,1.4994491e-05,1.0,42,0.019243928,3.8572196e-07,0,-7.623125559806191e-10,1.0
39,39,24884.947,49643.13,5901.42,49992.668,-6.7793283,23.375504336931044,-0.004324548,-1.6453818e-08,0.0010837445,1.5101751e-05,1.0,42,0.019264586,3.8534824e-07,0,-7.384287557235833e-10,1.0
40,40,21553.963,49699.707,5169.6094,49967.848,-5.938374,23.792481370066525,-0.004389647,1.0172403e-06,0.001428352,1.528866e-05,1.0,42,0.01923414,3.8493033e-07,0,-7.533642432685753e-10,1.0
41,41,18631.234,49939.105,4141.425,50110.535,-4.740662,24.20848848312744,-0.0042916257,-1.7849109e-07,0.002062665,1.4088677e-05,1.0,42,0.01927054,3.8456062e-07,0,-6.850245608976217e-10,1.0
42,42,16126.037,49922.12,4042.8176,50085.55,-4.6298513,24.624500556237763,-0.004263212,2.4709337e-07,0.0024412277,1.590566e-05,1.0,42,0.019108497,3.8151714e-07,0,-4.3782572447860336e-10,1.0
43,43,13954.87,49717.68,3059.814,49811.746,-3.521757,25.040489909326425,-0.0042147883,-3.4276346e-07,0.0037273425,1.406455e-05,1.0,42,0.018908776,3.7960476e-07,0,-2.3865697776073416e-10,1.0
44,44,12080.609,49931.38,3908.6094,50084.13,-4.475964,25.45649832909112,-0.004290545,1.13738444e-07,0.003370614,2.0528314e-05,1.0,42,0.018689722,3.7316656e-07,0,-1.5094370043772848e-10,1.0
45,45,10447.592,49949.684,2010.5475,49990.133,-2.304994,25.87249133552541,-0.004247021,-4.256448e-07,0.0075768656,1.2256026e-05,1.0,42,0.018378692,3.6764638e-07,0,-9.434757205334993e-12,1.0
46,46,9045.586,49623.52,1972.4377,49662.703,-2.2761967,26.304250289365882,-0.0042421767,-3.831784e-07,0.008920314,1.40710345e-05,1.0,42,0.02091231,4.2108684e-07,0,1.7340319634940993e-10,1.0
47,47,7827.7437,49779.914,1019.7241,49790.355,-1.1735198,26.784945672232425,-0.004261237,-1.7007213e-08,0.019938884,8.363263e-06,1.0,42,0.021185039,4.2548479e-07,0,3.974415027193645e-10,1.0
48,48,6770.8345,49630.28,1046.2173,49641.31,-1.2076287,27.323413591104327,-0.00423042,-1.7029114e-07,0.022467567,9.979606e-06,1.0,42,0.021378174,4.306529e-07,0,2.138210424031333e-10,1.0
49,49,5860.798,49484.027,1238.1476,49499.516,-1.4333076,27.929967459931504,-0.004319368,5.861251e-08,0.021932641,1.3722521e-05,1.0,42,0.021558471,4.3552893e-07,0,1.571111978413173e-11,1.0
50,50,5071.625,49341.6,1078.6041,49353.39,-1.2522824,28.61068719895411,-0.0041220766,-8.2216883e-07,0.029094502,1.3896361e-05,1.0,42,0.021681627,4.3931382e-07,0,2.0123995701562228e-10,1.0
51,51,4388.5933,49372.707,1004.0259,49382.914,-1.1649861,29.29082488459244,-0.004223303,-3.0178262e-07,0.03612018,1.4930911e-05,1.0,42,0.02187591,4.4298542e-07,0,1.4439374742084936e-10,1.0
52,52,3798.7827,49137.305,1211.0024,49152.227,-1.4117844,30.191829300718382,-0.004286222,7.0533034e-08,0.034596384,2.1000726e-05,1.0,42,0.020071924,4.0836247e-07,0,1.668766705067807e-10,1.0
53,53,3286.0488,49167.156,1300.2987,49184.348,-1.514919,30.871706159683526,-0.004311207,1.8153895e-07,0.037248004,2.6033671e-05,1.0,42,0.020177664,4.1024563e-07,0,4.187111831394579e-10,1.0
54,54,2844.088,48978.9,860.47034,48986.457,-1.0064793,31.551835578648024,-0.0042674416,-1.8121929e-08,0.065034114,2.0066007e-05,1.0,42,0.02023121,4.1299597e-07,0,3.40035490536899e-10,1.0
55,55,2460.7852,49387.855,1060.1516,49399.234,-1.229713,32.23167665094661,-0.0042531323,-3.630591e-07,0.06100683,2.8097907e-05,1.0,42,0.020429378,4.1355656e-07,0,6.124118311585041e-10,1.0
56,56,2129.3164,48969.29,1372.5037,48988.52,-1.605457,32.91182532324456,-0.004247021,-9.740759e-09,0.054458592,4.2746917e-05,1.0,42,0.020358536,4.1557772e-07,0,3.4486529539714787e-10,1.0
57,57,1843.2289,49242.117,1048.3075,49253.273,-1.2195764,33.591945862193825,-0.004032328,-1.8864073e-06,0.082366794,3.731293e-05,1.0,42,0.020463888,4.154828e-07,0,6.119336652514369e-10,1.0
58,58,1594.4913,49032.43,1696.6302,49061.773,-1.9817698,34.271812881168444,-0.0042712796,-2.2219304e-08,0.058831614,7.035561e-05,1.0,42,0.020419933,4.1620862e-07,0,9.648348390069636e-10,1.0
59,59,1380.4436,49147.668,1894.5886,49184.17,-2.2075963,34.95170347347448,-0.0043356335,2.4542376e-07,0.060853638,9.0295405e-05,1.0,42,0.02047152,4.1622172e-07,0,1.0261952382898646e-09,1.0
60,60,1194.6187,49195.81,2120.191,49241.473,-2.4677482,35.63180875910621,-0.0043236534,2.6367647e-07,0.062837064,0.000116494055,1.0,42,0.020489762,4.161078e-07,0,1.2580032877830765e-09,1.0
61,61,1033.3434,49249.023,2682.6238,49322.03,-3.117854,36.312090818042634,-0.0043001217,-4.0472088e-08,0.057413723,0.00016984523,1.0,42,0.020499557,4.156268e-07,0,1.3987267586767679e-09,1.0
62,62,894.71045,49449.715,2504.7556,49513.11,-2.8997009,36.99180802369665,-0.004265168,2.4952132e-07,0.07101863,0.00018174505,1.0,42,0.020541184,4.1486354e-07,0,1.1391822871758119e-09,1.0
63,63,774.2569,48920.4,3808.999,49068.46,-4.4521337,37.67196136264829,-0.0041617807,-5.938244e-07,0.053966496,0.0003251929,1.0,42,0.020392405,4.1559088e-07,0,9.85931666046263e-10,1.0
64,64,669.7856,49461.082,3484.9324,49583.7,-4.0302896,38.35181347496109,-0.004250058,-3.302217e-08,0.06818518,0.00033682233,1.0,42,0.020487566,4.1319154e-07,0,1.2506675086948964e-09,1.0
65,65,579.81464,49944.215,4001.2563,50104.24,-4.5804405,39.031812947258004,-0.0042393077,-1.4588993e-07,0.06860165,0.00043750036,1.0,42,0.020600634,4.111555e-07,0,9.039449945081386e-10,1.0
66,66,501.44418,49640.363,4414.0874,49836.23,-5.0814524,39.7091711127141,-0.0042500766,3.201105e-07,0.07190459,0.00056408957,1.0,42,0.020464372,4.1063242e-07,0,4.949103679660801e-10,1.0
67,67,434.02762,50022.47,5282.7646,50300.645,-6.0285378,40.389188558358,-0.0043306216,2.0035121e-07,0.06941311,0.00076562644,1.0,42,0.02053066,4.0815897e-07,0,7.212834810685785e-10,1.0
68,68,375.6009,50159.26,5984.465,50515.0,-6.803756,41.06743149724207,-0.0042851227,3.3469874e-08,0.0708057,0.0009937523,1.0,42,0.020516828,4.0615316e-07,0,1.0738877102483126e-09,1.0
69,69,325.10385,50479.184,6616.581,50910.973,-7.467498,41.74670928955311,-0.004260212,-1.8705158e-07,0.07398853,0.0012497089,1.0,42,0.020515706,4.029722e-07,0,7.279354089241297e-10,1.0
70,70,281.3503,50898.57,7563.277,51457.434,-8.452024,42.42380009504268,-0.004340813,3.3469778e-08,0.07479331,0.0016157959,1.0,42,0.020557798,3.9951075e-07,0,3.082478616597273e-10,1.0
71,71,243.36427,51093.438,8029.689,51720.55,-8.931378,43.10709524745471,-0.0043349257,4.3899885e-08,0.08144503,0.00196307,1.0,42,0.020470884,3.9579785e-07,0,7.075124881371137e-10,1.0
72,72,210.60631,51686.016,9251.81,52507.523,-10.14848,43.78418133294326,-0.0042504864,3.5332125e-08,0.08168119,0.0025359015,1.0,42,0.020531612,3.9102227e-07,0,1.0280009209253772e-09,1.0
73,73,182.27473,52276.25,10802.389,53380.688,-11.675299,44.45526331147994,-0.004275136,-3.0973695e-08,0.08083023,0.0033101304,1.0,42,0.020601582,3.85937e-07,0,6.873965423940007e-10,1.0
74,74,157.72879,52518.266,11789.693,53825.32,-12.652431,45.14364305090203,-0.0042306064,-2.526128e-07,0.08558677,0.004106184,1.0,42,0.020484287,3.8056973e-07,0,7.842898735734972e-10,1.0
75,75,136.52892,52932.69,13391.276,54600.332,-14.197198,45.81551641607075,-0.004379623,4.2813534e-07,0.087050945,0.0052363286,1.0,42,0.020436225,3.7428757e-07,0,5.514296787731102e-10,1.0
76,76,118.14758,53951.355,14672.73,55910.98,-15.214312,46.50388444881537,-0.00434875,6.4625127e-09,0.09180881,0.0063228374,1.0,42,0.02049431,3.665525e-07,0,7.487827401651857e-10,1.0
77,77,102.25773,54473.8,16651.309,56961.926,-16.99711,47.170365493773716,-0.0042590387,-1.3601229e-09,0.09347072,0.007987356,1.0,42,0.020452945,3.5906342e-07,0,6.609251261046056e-10,1.0
78,78,88.4436,55546.75,18160.14,58439.99,-18.104347,47.86030469989055,-0.0042568026,2.0802787e-08,0.09909105,0.009568693,1.0,42,0.020447344,3.4988616e-07,0,6.308897718400535e-10,1.0
79,79,76.54279,56518.715,20136.08,59998.56,-19.6096,48.52774726496136,-0.004249164,-2.4269827e-08,0.10326209,0.0116307875,1.0,42,0.02045192,3.4087353e-07,0,6.208972826553157e-10,1.0
80,80,66.250786,58003.37,22723.094,62295.504,-21.392996,49.19596417667344,-0.004198113,-7.0893003e-07,0.105721086,0.0140664065,1.0,42,0.020563984,3.3010383e-07,0,3.529401763115879e-10,1.0
81,81,57.329906,59108.168,25148.197,64235.562,-23.047842,49.85062234113866,-0.004378654,1.1429948e-07,0.11039059,0.01691978,1.0,42,0.020505225,3.192192e-07,0,7.301460596655065e-10,1.0
82,82,49.60321,60204.01,27445.002,66164.58,-24.50666,50.53638101366232,-0.004297513,2.3945975e-07,0.11690877,0.020115115,1.0,42,0.020417746,3.085903e-07,0,9.043126129100311e-10,1.0
83,83,42.92585,61527.766,30773.191,68794.3,-26.571985,51.24444920729729,-0.0041933805,-7.586373e-08,0.12048381,0.024108429,1.0,42,0.020458462,2.97386e-07,0,5.711340413157141e-10,1.0
84,84,37.1518,63596.82,34012.566,72120.805,-28.138563,51.888181077869376,-0.00432084,1.1113181e-07,0.1259508,0.028012933,1.0,42,0.020529533,2.846548e-07,0,4.5857094129313983e-10,1.0
85,85,32.150223,65078.66,37916.504,75318.61,-30.22618,52.52738086823956,-0.0042786207,-2.729183e-07,0.13055931,0.033087187,1.0,42,0.020516308,2.723936e-07,0,1.3665665934187905e-09,1.0
86,86,27.835518,66949.305,42072.582,79071.56,-32.14626,53.25434986277833,-0.0041859183,-6.29217e-07,0.13590069,0.038475063,1.0,42,0.020570371,2.601488e-07,0,1.092145392680297e-09,1.0
87,87,24.082958,69099.86,45825.043,82913.96,-33.551197,53.95640114942216,-0.0041959514,6.363718e-08,0.14421399,0.04405121,1.0,42,0.02051957,2.4748027e-07,0,1.4700168869457883e-09,1.0
88,88,20.833313,70858.16,50960.836,87280.5,-35.723503,54.610754913883284,-0.004251083,1.2249262e-07,0.14990814,0.051105056,1.0,42,0.020512294,2.3501578e-07,0,1.7170210950452223e-09,1.0
89,89,18.021912,73223.26,56076.11,92228.93,-37.44575,55.3567131093223,-0.0039419546,-2.1818073e-06,0.1574858,0.058218744,1.0,42,0.02053013,2.2259968e-07,0,8.298039608452854e-10,1.0
90,90,15.604198,75518.984,61434.88,97351.74,-39.12844,56.01199700709549,-0.0041972557,-1.8035239e-07,0.16602124,0.066115946,1.0,42,0.020456223,2.1012693e-07,0,4.821331811607981e-10,1.0
91,91,13.500899,78751.49,69021.63,104717.63,-41.2329,56.75998770928709,-0.0042142384,-4.225725e-07,0.17079385,0.07419985,1.0,42,0.020602716,1.9674543e-07,0,5.252495530104268e-10,1.0
92,92,11.686608,80095.5,75957.36,110384.82,-43.48101,57.35086445737397,-0.0042171357,-3.9137552e-07,0.17929237,0.084895134,1.0,42,0.020468317,1.8542691e-07,0,1.5304856504628884e-10,1.0
93,93,10.113269,82246.69,85977.99,118982.07,-46.270638,58.02453712929855,-0.00416942,-5.163505e-07,0.18303801,0.09557688,1.0,42,0.020588556,1.7303915e-07,0,8.017554913428458e-11,1.0
94,94,8.748621,85005.67,95411.695,127786.37,-48.30102,59.07036661900929,-0.004251176,-3.3592212e-07,0.19066848,0.106295064,1.0,43,0.020515257,1.605434e-07,0,-6.970593393826021e-10,1.0
95,95,7.570237,87203.48,107575.984,138481.19,-50.971012,59.94501972722355,-0.004336202,-2.6898246e-07,0.19543183,0.11793546,1.0,43,0.020545788,1.4836519e-07,0,4.118895927886933e-10,1.0
96,96,6.554112,89884.836,120845.61,150608.58,-53.35817,60.48131780602853,-0.004332019,-5.0489703e-08,0.20094417,0.12937124,1.0,43,0.020557197,1.364942e-07,0,-1.4810186740433897e-10,1.0
97,97,5.669445,92110.99,136363.97,164558.7,-55.961803,61.091144875012105,-0.0042277,-5.135866e-07,0.20586377,0.14136358,1.0,43,0.020517485,1.2468186e-07,0,2.0950688770604575e-10,1.0
98,98,4.907347,95270.26,154242.22,181292.81,-58.29776,61.783531387889525,-0.0042566163,-2.9808223e-07,0.2102665,0.15220027,1.0,43,0.020510826,1.1313645e-07,0,-9.191030715207537e-10,1.0
99,99,4.245922,98696.02,174965.36,200882.52,-60.573135,62.571316838642815,-0.0042456235,-1.8142845e-07,0.21423776,0.1625234,1.0,43,0.020522613,1.0216227e-07,0,7.929775683283014e-10,1.0
100,100,3.6747382,102537.3,199134.88,223983.47,-62.755436,63.47093970805872,-0.0042533744,-4.8037276e-07,0.21749355,0.17191315,1.0,43,0.020534987,9.168081e-08,0,-5.238540290887957e-10,1.0
101,101,3.180988,107319.266,226102.64,250279.5,-64.60872,64.49917749021552,-0.0041846232,-3.122453e-07,0.22128522,0.1805981,1.0,43,0.020484619,8.184697e-08,0,-1.38675090990127e-09,1.0
102,102,2.752818,111899.28,258241.52,281442.94,-66.57231,65.67813775953255,-0.0042278236,-2.0659299e-07,0.22388065,0.18848984,1.0,43,0.020531025,7.2949156e-08,0,1.3224850764332391e-11,1.0
103,103,2.3804083,118170.84,294816.06,317617.47,-68.15765,67.03198795719072,-0.004198013,-3.60636e-07,0.22678669,0.19539392,1.0,43,0.020508304,6.456919e-08,0,5.094640874454177e-10,1.0
104,104,2.060257,126208.02,335537.6,358488.4,-69.38687,68.58834192439099,-0.0042358562,-3.650934e-07,0.23022771,0.20169248,1.0,43,0.020489315,5.7154747e-08,0,-8.477928550685669e-10,1.0
105,105,1.7836765,135994.66,383145.25,406564.66,-70.458046,70.3765647560067,-0.004232033,-3.1936443e-07,0.23288451,0.20682749,1.0,43,0.02051846,5.0467886e-08,0,-2.060336811189963e-09,1.0
