True,index,freq,Re(Z),Im(Z),Z,Phase(Z),time,Ewe_meas,I_meas,Cs,Cp,cycle_number,I_Range,Ewe,I,Ns,(QQo),cycle
0,0,7000018.5,324.89655,1755.255,1785.0708,-79.513275,2.4674960105039645,-0.012965312,6.2075205e-06,1.2953309e-05,1.2524209e-05,1.0,40,0.010124879,5.671976e-06,0,-1.9829690508130523e-10,1.0
1,1,6057573.0,391.4547,1948.6298,1987.5599,-78.6412,3.0194806233921554,-0.012957934,-5.386941e-05,1.3483175e-05,1.2960159e-05,1.0,40,0.014346535,7.2181647e-06,0,-3.259132675292875e-09,1.0
2,2,5242039.0,519.48505,2321.964,2379.366,-77.389084,3.4354813898389693,-0.013028194,1.5026372e-05,1.3075683e-05,1.2452396e-05,1.0,40,0.019922707,8.373116e-06,0,-1.9134204225868717e-09,1.0
3,3,4536288.0,317.44925,2638.3403,2657.3696,-83.13906,4.667493341694353,-0.012994229,-5.4209454e-06,1.3298073e-05,1.3108301e-05,1.0,40,0.020729706,7.800836e-06,0,-1.5681485295241753e-08,1.0
4,4,3925558.5,435.6467,3011.8696,3043.2131,-81.76963,5.083489281445509,-0.013093648,4.7548583e-05,1.3461161e-05,1.3185302e-05,1.0,40,0.019535001,6.4192027e-06,0,-1.4902794822005048e-08,1.0
5,5,3397055.0,507.34586,3388.812,3426.5793,-81.485374,5.499486821208848,-0.013105051,-7.969894e-06,1.3825157e-05,1.3522078e-05,1.0,40,0.020590045,6.008921e-06,0,-1.330688021072193e-08,1.0
6,6,2939708.2,528.85645,3854.1245,3890.2397,-82.18677,6.0514797007490415,-0.013044385,-1.8835435e-05,1.4047213e-05,1.3787607e-05,1.0,40,0.020565504,5.286436e-06,0,-1.12761909345096e-08,1.0
7,7,2543924.5,655.693,4456.2544,4504.2354,-81.62956,6.6034899936348666,-0.013104529,8.998214e-06,1.4039315e-05,1.3741804e-05,1.0,40,0.020496197,4.5504275e-06,0,-1.1143930477462365e-08,1.0
8,8,2201436.2,645.5522,4883.8105,4926.291,-82.47018,7.155486499861581,-0.013136407,9.481969e-06,1.4803187e-05,1.4548985e-05,1.0,40,0.02058564,4.17873e-06,0,-1.3810758708776424e-08,1.0
9,9,1905053.1,1001.7294,5943.779,6027.6006,-80.43361,7.8754844807263,-0.013140526,1.7143947e-06,1.4055632e-05,1.3667426e-05,1.0,41,0.01971594,3.2709434e-06,0,-1.3755372083135992e-08,1.0
10,10,1648567.4,830.2163,6779.0674,6829.7153,-83.01789,8.427497786906315,-0.013161859,5.617191e-07,1.4241098e-05,1.4030663e-05,1.0,41,0.019876223,2.9102564e-06,0,-1.503808481911939e-08,1.0
11,11,1426616.2,1180.1987,7532.619,7624.5146,-81.09538,8.979480746464105,-0.013133072,9.416042e-07,1.4810406e-05,1.4455549e-05,1.0,41,0.020243626,2.6550708e-06,0,-1.3420020460920847e-08,1.0
12,12,1234551.2,1587.3915,9045.477,9183.706,-80.04651,9.531501146004302,-0.0131495055,1.6175762e-06,1.4252121e-05,1.3826317e-05,1.0,41,0.020923287,2.2783054e-06,0,-1.436379885606382e-08,1.0
13,13,1068345.5,1144.1245,9832.177,9898.521,-83.36261,10.083502105582738,-0.013057837,-5.006196e-06,1.5151609e-05,1.49491825e-05,1.0,41,0.020404892,2.0614082e-06,0,-1.4718526165921582e-08,1.0
14,14,924510.06,2165.8367,11780.57,11978.009,-79.5826,10.635488185129361,-0.01299626,-5.0192334e-06,1.4613093e-05,1.4135317e-05,1.0,41,0.020284526,1.6934806e-06,0,-1.5204679652760584e-08,1.0
15,15,800039.0,2667.4429,11780.688,12078.902,-77.24193,11.187503811350325,-0.013072967,-1.8125601e-06,1.6886446e-05,1.6062928e-05,1.0,41,0.020086436,1.6629356e-06,0,-1.694544888073319e-08,1.0
16,16,692334.1,3632.8445,15483.82,15904.284,-76.795975,11.739503730874276,-0.013024524,-3.4307939e-06,1.4846575e-05,1.4071949e-05,1.0,41,0.020461401,1.2865339e-06,0,-1.70080573059799e-08,1.0
17,17,599122.25,4377.358,17611.467,18147.314,-76.04189,12.291502930427669,-0.0130035635,-6.9912826e-06,1.5083744e-05,1.4206121e-05,1.0,41,0.02058229,1.1341783e-06,0,-1.765110503779166e-08,1.0
18,18,518454.94,5538.4272,20243.709,20987.662,-74.69901,12.843489463353762,-0.0130428765,-3.1421557e-06,1.51641825e-05,1.4108183e-05,1.0,41,0.020575479,9.803607e-07,0,-1.8741810049454918e-08,1.0
19,19,448662.03,6787.203,22656.666,23651.441,-73.32349,13.39548276955611,-0.0130864,-4.490373e-06,1.5656866e-05,1.4367512e-05,1.0,41,0.020174686,8.530003e-07,0,-1.8779770804869046e-08,1.0
20,20,388258.97,8660.526,26642.107,28014.4,-71.992256,13.947499062429415,-0.012902449,-1.4907408e-05,1.5386155e-05,1.3915684e-05,1.0,41,0.020864824,7.4478925e-07,0,-1.8918565444996123e-08,1.0
21,21,335983.9,18009.893,28115.844,33389.473,-57.35799,14.499490875314223,-0.013079022,-1.8404912e-06,1.6848084e-05,1.1946306e-05,1.0,41,0.021430915,6.418465e-07,0,-1.879140405961572e-08,1.0
22,22,290751.2,13813.0205,31924.068,34784.273,-66.60265,15.051499221561244,-0.013082152,-3.225954e-06,1.7146695e-05,1.4442786e-05,1.0,41,0.020665321,5.9409956e-07,0,-1.9788549952456357e-08,1.0
23,23,251605.19,18871.754,33513.582,38461.71,-60.615807,15.603499754419317,-0.012964586,-5.252008e-06,1.8874684e-05,1.4330594e-05,1.0,41,0.020327732,5.285187e-07,0,-2.0648362577877697e-08,1.0
24,24,217729.38,22714.938,36176.594,42716.676,-57.875683,16.155503140675137,-0.013049472,-1.4777248e-07,2.0205773e-05,1.4492252e-05,1.0,41,0.020266527,4.7444064e-07,0,-2.0739341957364588e-08,1.0
25,25,188418.58,27319.828,39174.812,47760.223,-55.108757,16.70747911350918,-0.013036244,-3.1402951e-06,2.1562022e-05,1.4506767e-05,1.0,41,0.020793833,4.3537975e-07,0,-2.0634191690543997e-08,1.0
26,26,163051.14,31787.47,40932.777,51826.01,-52.167892,17.25949692641734,-0.013111609,4.4313288e-06,2.3846524e-05,1.48755125e-05,1.0,41,0.020356275,3.9278106e-07,0,-2.076289602366415e-08,1.0
27,27,141098.2,37996.465,42558.805,57052.46,-48.24155,17.97749101385125,-0.012998421,-3.4458985e-06,2.6503863e-05,1.474821e-05,1.0,42,0.019210314,3.3671316e-07,0,-2.1275125870255805e-08,1.0
28,28,122105.11,42754.44,39797.156,58410.24,-42.948345,18.39348823358887,-0.013078463,-2.8865863e-06,3.2751734e-05,1.5204088e-05,1.0,42,0.020533651,3.5154198e-07,0,-2.1621599584563296e-08,1.0
29,29,105663.59,49063.836,43957.723,65875.195,-41.85809,18.809503720054636,-0.0130507015,-3.0596138e-06,3.4265697e-05,1.5257596e-05,1.0,42,0.021966152,3.3345103e-07,0,-2.1989222433079843e-08,1.0
30,30,91439.65,55085.297,43244.793,70032.15,-38.13374,19.361487692949595,-0.013052844,-2.7582594e-06,4.024869e-05,1.5347036e-05,1.0,42,0.020353848,2.9063577e-07,0,-2.2594745962061778e-08,1.0
31,31,79127.08,60671.426,40063.61,72705.67,-33.438274,19.777479792683152,-0.012984876,-3.5051264e-06,5.0204766e-05,1.5244335e-05,1.0,42,0.021277616,2.9265414e-07,0,-2.287124097563314e-08,1.0
32,32,68475.36,66439.17,39348.047,77216.79,-30.635786,20.329485658876365,-0.013090275,-2.4217034e-06,5.906941e-05,1.5338592e-05,1.0,42,0.020249885,2.6224717e-07,0,-2.328909439837437e-08,1.0
33,33,59252.523,70189.84,36013.055,78889.51,-27.161486,20.745485038642073,-0.013066017,-2.68916e-06,7.458531e-05,1.5542995e-05,1.0,42,0.020825805,2.63987e-07,0,-2.3616004587113535e-08,1.0
34,34,51282.285,74515.875,34942.31,82301.766,-25.123024,21.161498098430457,-0.01305536,-2.6656924e-06,8.881804e-05,1.6009806e-05,1.0,42,0.02138467,2.5983246e-07,0,-2.3937723233556004e-08,1.0
35,35,44369.8,77905.78,29289.648,83229.766,-20.604376,21.577497504855273,-0.01298087,-3.0072767e-06,0.00012246684,1.5166643e-05,1.0,42,0.021732265,2.611117e-07,0,-2.430162719512779e-08,1.0
36,36,38403.727,80046.03,26484.979,84313.83,-18.307926,21.993500351294642,-0.013154145,-1.7687065e-06,0.00015647578,1.5440051e-05,1.0,42,0.021998426,2.6091124e-07,0,-2.463227581430368e-08,1.0
37,37,33226.32,82387.11,24583.186,85976.56,-16.614382,22.545480430853786,-0.0129570775,-2.9813878e-06,0.0001948497,1.5930005e-05,1.0,42,0.020238966,2.3540098e-07,0,-2.5135541684938764e-08,1.0
38,38,28754.086,84558.84,21467.146,87241.26,-14.244866,22.961490290559595,-0.01305331,-2.9594098e-06,0.0002578376,1.5611731e-05,1.0,42,0.020378651,2.335896e-07,0,-2.5504891860031995e-08,1.0
39,39,24884.947,86083.234,18441.582,88036.445,-12.091686,23.377490950369975,-0.012981969,-3.163541e-06,0.0003468049,1.52179655e-05,1.0,42,0.02043188,2.3208433e-07,0,-2.579328384813663e-08,1.0
40,40,21553.963,86966.45,16064.991,88437.82,-10.466054,23.793479850079166,-0.013028661,-3.1870081e-06,0.00045963438,1.5166921e-05,1.0,42,0.020418288,2.3087733e-07,0,-2.6180607733470848e-08,1.0
41,41,18631.234,87663.516,14294.441,88821.3,-9.261162,24.209483523183735,-0.01297515,-3.0508584e-06,0.000597601,1.5477879e-05,1.0,42,0.020314712,2.2871443e-07,0,-2.652633087671467e-08,1.0
42,42,16126.037,88303.34,12608.645,89198.984,-8.126211,24.625499249639688,-0.01304364,-2.738515e-06,0.00078275177,1.5640155e-05,1.0,42,0.020173399,2.2616176e-07,0,-2.674917905631455e-08,1.0
43,43,13954.87,86352.51,10547.259,86994.26,-6.9637218,25.04148844271549,-0.013205998,-1.5766799e-06,0.0010813213,1.5894717e-05,1.0,42,0.019788029,2.2746362e-07,0,-2.696628503673685e-08,1.0
44,44,12080.609,88600.96,8495.36,89007.31,-5.4769697,25.45749614245142,-0.013128396,-2.1434423e-06,0.0015507773,1.4127382e-05,1.0,42,0.019651737,2.207879e-07,0,-2.7207634312317985e-08,1.0
45,45,10447.592,89408.12,7561.0596,89727.26,-4.8338842,25.873493895545835,-0.013038256,-2.550587e-06,0.0020147504,1.43066445e-05,1.0,42,0.019232783,2.1434717e-07,0,-2.7471931114476335e-08,1.0
46,46,9045.586,89380.266,6151.5,89591.7,-3.9371114,26.305253996077226,-0.013129272,-2.4205824e-06,0.0028602392,1.3484314e-05,1.0,42,0.021915255,2.4461255e-07,0,-2.7891997731951218e-08,1.0
47,47,7827.7437,88951.805,5095.8438,89097.65,-3.2787592,26.94192951967125,-0.01307373,-2.4006538e-06,0.00398995,1.3051702e-05,1.0,42,0.020088553,2.254667e-07,0,-2.8470811588792365e-08,1.0
48,48,6770.8345,88628.58,4217.465,88728.87,-2.7244122,27.480399011896225,-0.013071905,-2.6867351e-06,0.0055734804,1.259214e-05,1.0,42,0.020179117,2.2742448e-07,0,-2.8860860465609268e-08,1.0
49,49,5860.798,88844.14,3653.0688,88919.21,-2.3545458,28.08698952072882,-0.013269625,-4.46692e-07,0.007433708,1.2546715e-05,1.0,42,0.020288225,2.2816471e-07,0,-2.879106331361599e-08,1.0
50,50,5071.625,88561.695,3597.2354,88634.72,-2.325985,28.767689606414933,-0.013049398,-2.5980787e-06,0.008723768,1.43692505e-05,1.0,42,0.0203792,2.2992344e-07,0,-2.91091113151303e-08,1.0
51,51,4388.5933,87135.62,2878.185,87183.14,-1.8918546,29.446831505323644,-0.013045876,-3.047875e-06,0.012600161,1.3732465e-05,1.0,42,0.020231633,2.32059e-07,0,-2.9665576740263157e-08,1.0
52,52,3798.7827,88563.04,3048.1543,88615.48,-1.9712226,30.12682655095705,-0.012991304,-2.9012954e-06,0.013744811,1.6262731e-05,1.0,42,0.020507809,2.3142469e-07,0,-2.9991578195680055e-08,1.0
53,53,3286.0488,89429.84,2461.9592,89463.73,-1.576926,30.80670863659907,-0.012998458,-2.6874793e-06,0.019672759,1.4898173e-05,1.0,42,0.020704929,2.3143379e-07,0,-3.036487110910308e-08,1.0
54,54,2844.088,88317.1,3065.1597,88370.27,-1.9877266,31.48684168222826,-0.013047683,-2.6001271e-06,0.018256772,2.1964323e-05,1.0,42,0.020574365,2.3281997e-07,0,-3.0910414026362375e-08,1.0
55,55,2460.7852,88174.6,2253.5662,88203.4,-1.4640466,32.16668094119086,-0.013142761,-2.2043434e-06,0.028699618,1.8734672e-05,1.0,42,0.020592183,2.3346247e-07,0,-3.119772229826642e-08,1.0
56,56,2129.3164,88101.05,2660.3145,88141.2,-1.7295877,32.846812813484576,-0.013048802,-2.6040384e-06,0.02809616,2.5594989e-05,1.0,42,0.020635229,2.3411557e-07,0,-3.168831026746766e-08,1.0
57,57,1843.2289,86090.78,4008.5508,86184.055,-2.6658752,33.52694239246193,-0.012978168,-2.887513e-06,0.021540387,4.6598765e-05,1.0,42,0.020379465,2.3646446e-07,0,-3.1953791981003714e-08,1.0
58,58,1594.4913,88592.43,3257.3782,88652.3,-2.1057103,34.206835998091265,-0.013068961,-2.41965e-06,0.030642897,4.137006e-05,1.0,42,0.020719694,2.3371864e-07,0,-3.221603841638555e-08,1.0
59,59,1380.4436,88638.02,3289.4897,88699.04,-2.125357,34.886716190383595,-0.013063036,-3.1044951e-06,0.035048783,4.820501e-05,1.0,42,0.020738455,2.3380697e-07,0,-3.266998086482885e-08,1.0
60,60,1194.6187,87933.72,2972.13,87983.93,-1.9358411,35.56683872935537,-0.013045299,-2.5068152e-06,0.044825286,5.115074e-05,1.0,42,0.020620774,2.3436978e-07,0,-3.3063047615490504e-08,1.0
61,61,1033.3434,88952.6,4004.5918,89042.695,-2.5776806,36.247100708278595,-0.01303561,-2.5287932e-06,0.0384607,7.779239e-05,1.0,42,0.020767082,2.332261e-07,0,-3.3562730680656195e-08,1.0
62,62,894.71045,87195.28,3120.1086,87251.086,-2.0493405,36.92684060728061,-0.013106485,-2.2555625e-06,0.05701222,7.2906405e-05,1.0,42,0.02053486,2.3535364e-07,0,-3.412046885458923e-08,1.0
63,63,774.2569,89445.96,4941.9316,89582.38,-3.1624033,37.60695533291437,-0.013087723,-2.0143677e-06,0.041594733,0.00012658627,1.0,42,0.02079399,2.3212142e-07,0,-3.4465991269480984e-08,1.0
64,64,669.7856,88614.16,5381.768,88777.43,-3.475453,38.28682851187477,-0.013020593,-2.5034628e-06,0.044152915,0.00016225729,1.0,42,0.020658862,2.32704e-07,0,-3.482930676252711e-08,1.0
65,65,579.81464,89036.01,6237.419,89254.22,-4.00731,38.96681342416559,-0.012995346,-2.3585594e-06,0.044007435,0.00021492076,1.0,42,0.02070169,2.3194075e-07,0,-3.548383513977151e-08,1.0
66,66,501.44418,89695.07,6275.889,89914.36,-4.0024147,39.64418857629062,-0.013045914,-2.7917795e-06,0.050573412,0.00024638523,1.0,42,0.020770334,2.310013e-07,0,-3.620158665081262e-08,1.0
67,67,434.02762,89445.875,7182.2646,89733.77,-4.590848,40.324233781924704,-0.013087798,-2.278099e-06,0.051055364,0.00032707874,1.0,42,0.020670956,2.3035871e-07,0,-3.6560858699015005e-08,1.0
68,68,375.6009,90254.7,7874.637,90597.58,-4.9863753,41.00346040088334,-0.013075091,-1.9812144e-06,0.053809997,0.00040652842,1.0,42,0.020758208,2.2912542e-07,0,-3.681872565011821e-08,1.0
69,69,325.10385,90608.555,8198.063,90978.67,-5.1699195,41.68271576651023,-0.013078426,-2.7213769e-06,0.059715454,0.00048487535,1.0,42,0.020761024,2.2819661e-07,0,-3.705808809581848e-08,1.0
70,70,281.3503,90037.94,10054.93,90597.64,-6.372068,42.35981233199709,-0.012993987,-2.8599475e-06,0.05625922,0.0006929757,1.0,42,0.020629127,2.2770048e-07,0,-3.7303115647389777e-08,1.0
71,71,243.36427,91386.06,11793.581,92143.914,-7.353509,43.0430922844389,-0.013009749,-2.606087e-06,0.055452053,0.000908397,1.0,42,0.020767994,2.253865e-07,0,-3.782904270613881e-08,1.0
72,72,210.60631,92035.78,12598.709,92894.09,-7.7947297,43.72020100991358,-0.013105796,-2.5058841e-06,0.059982244,0.0011033127,1.0,42,0.020778503,2.2367948e-07,0,-3.857451499840319e-08,1.0
73,73,182.27473,92015.11,14392.545,93133.914,-8.889888,44.39128018842894,-0.0130563285,-2.2993315e-06,0.060667492,0.0014488236,1.0,42,0.020695632,2.2221371e-07,0,-3.8777746687262155e-08,1.0
74,74,157.72879,93247.19,15533.787,94532.195,-9.457891,45.07966488786042,-0.012968834,-2.4710553e-06,0.06495787,0.0017539896,1.0,42,0.020772949,2.197447e-07,0,-3.921544066316073e-08,1.0
75,75,136.52892,93676.28,16691.824,95151.79,-10.103282,45.75153803973808,-0.013120869,-2.1650444e-06,0.06983798,0.0021491433,1.0,42,0.020720381,2.1776134e-07,0,-3.961817327401995e-08,1.0
76,76,118.14758,94760.77,19640.078,96774.67,-11.709314,46.43990188578027,-0.012926801,-2.7433546e-06,0.06858862,0.0028249782,1.0,42,0.020740245,2.143148e-07,0,-4.0214555366989776e-08,1.0
77,77,102.25773,96222.49,22377.31,98790.24,-13.091886,47.106331170740305,-0.013016103,-2.7535984e-06,0.06955303,0.0035686484,1.0,42,0.02080506,2.1059834e-07,0,-4.063734715873402e-08,1.0
78,78,88.4436,97476.84,24546.19,100519.9,-14.134109,47.796301523485454,-0.013078221,-2.1397145e-06,0.073311076,0.0043715322,1.0,42,0.020795606,2.0688049e-07,0,-4.105391732812218e-08,1.0
79,79,76.54279,98569.7,27288.268,102277.25,-15.474341,48.46372328859434,-0.012985882,-2.8733582e-06,0.07619735,0.005424175,1.0,42,0.020741489,2.027967e-07,0,-4.155620958832588e-08,1.0
80,80,66.250786,100631.04,29764.783,104940.69,-16.477234,49.132005026971456,-0.0130128795,-2.3049195e-06,0.08070982,0.0064929794,1.0,42,0.020774638,1.9796552e-07,0,-4.187333233809731e-08,1.0
81,81,57.329906,101879.55,34553.72,107579.74,-18.735008,49.78664609809857,-0.013013308,-2.6962334e-06,0.08034227,0.008288438,1.0,42,0.02078164,1.9317429e-07,0,-4.249149156903383e-08,1.0
82,82,49.60321,105000.26,37654.816,111547.92,-19.728668,50.47236415729276,-0.013058974,-2.2192444e-06,0.085209854,0.009709747,1.0,42,0.02085346,1.869462e-07,0,-4.2986271686258744e-08,1.0
83,83,42.92585,105799.41,40125.723,113152.94,-20.769848,51.18045219089254,-0.012958698,-3.2309608e-06,0.09240136,0.011619634,1.0,42,0.020637466,1.8238559e-07,0,-4.3323216680331655e-08,1.0
84,84,37.1518,109000.6,45565.08,118141.05,-22.686193,51.824165874830214,-0.013097299,-2.253515e-06,0.09401739,0.013985268,1.0,42,0.02075839,1.7570854e-07,0,-4.38162698261646e-08,1.0
85,85,32.150223,111857.734,49087.445,122154.53,-23.6937,52.462361931829946,-0.01305113,-2.6465052e-06,0.10084764,0.016284985,1.0,42,0.020703351,1.6948492e-07,0,-4.465099629250879e-08,1.0
86,86,27.835518,114830.19,54541.09,127124.75,-25.406395,53.1893130329845,-0.012988071,-2.8192537e-06,0.10483275,0.01929676,1.0,42,0.0206888,1.6274407e-07,0,-4.5098060197402825e-08,1.0
87,87,24.082958,118991.945,60505.01,133491.34,-26.952421,53.89140263965237,-0.01313337,-1.944153e-06,0.10922422,0.022438584,1.0,42,0.02077157,1.5560238e-07,0,-4.576437071260722e-08,1.0
88,88,20.833313,123011.77,66957.65,140054.36,-28.560293,54.54576957746758,-0.013082376,-2.4297099e-06,0.114093676,0.026077665,1.0,42,0.020802628,1.4853252e-07,0,-4.592994356244853e-08,1.0
89,89,18.021912,128238.945,73215.56,147667.69,-29.723375,55.564704025870014,-0.012811302,-2.6807704e-06,0.12061905,0.029651847,1.0,43,0.020758916,1.4057859e-07,0,-4.6461509137604534e-08,1.0
90,90,15.604198,132278.84,81193.03,155209.53,-31.54169,56.22002379031619,-0.013024431,-2.544507e-06,0.12562034,0.03437642,1.0,43,0.020783866,1.3390844e-07,0,-4.6527417827524e-08,1.0
91,91,13.500899,137881.38,88723.125,163960.56,-32.760242,56.96797347915708,-0.013033039,-2.5225788e-06,0.13286807,0.0389059,1.0,43,0.02083653,1.2708257e-07,0,-4.693267733973686e-08,1.0
92,92,11.686608,142063.92,98091.77,172638.8,-34.624157,57.55889510724228,-0.01298074,-2.5762224e-06,0.13883503,0.04482161,1.0,43,0.020810358,1.2054277e-07,0,-4.747133113953082e-08,1.0
93,93,10.113269,147326.25,104183.28,180441.62,-35.266434,58.23251036586589,-0.013060409,-2.5438374e-06,0.15105343,0.050356224,1.0,43,0.020611951,1.1423058e-07,0,-4.852983035003966e-08,1.0
94,94,8.748621,154185.56,115160.52,192445.14,-36.755894,58.9993862422707,-0.013102479,-2.531276e-06,0.15797083,0.056567926,1.0,43,0.020779008,1.0797367e-07,0,-4.928278524018085e-08,1.0
95,95,7.570237,159898.4,126261.8,203738.9,-38.295948,59.8750141239143,-0.013172329,-2.48998e-06,0.16650936,0.06394913,1.0,43,0.02075473,1.01869254e-07,0,-4.887224871516886e-08,1.0
96,96,6.554112,165966.58,137792.25,215711.86,-39.700848,60.41132094935165,-0.012981149,-2.706099e-06,0.17623067,0.071908966,1.0,43,0.020720001,9.6054066e-08,0,-5.04233040132923e-08,1.0
97,97,5.669445,172070.95,151746.25,229423.92,-41.408485,61.02113161832676,-0.013044908,-2.3914838e-06,0.18499568,0.08093198,1.0,43,0.020765893,9.05132e-08,0,-4.9597531615874325e-08,1.0
98,98,4.907347,178770.98,166489.75,244290.61,-42.962795,61.71352829123498,-0.01304446,-2.719638e-06,0.19479859,0.0904789,1.0,43,0.020770898,8.502536e-08,0,-5.146395322851088e-08,1.0
99,99,4.245922,185032.86,183332.23,260476.23,-44.735485,62.50129414195544,-0.013008351,-2.3997338e-06,0.20446043,0.10128631,1.0,43,0.020768002,7.973089e-08,0,-5.1052089444779804e-08,1.0
100,100,3.6747382,190722.97,202057.7,277853.5,-46.652966,63.400913331395714,-0.012984214,-2.5739512e-06,0.21434744,0.11335414,1.0,43,0.020718342,7.4565705e-08,0,-5.130371487623463e-08,1.0
101,101,3.180988,195298.12,225437.17,298267.12,-49.09734,64.43020844689454,-0.013052928,-2.604707e-06,0.22193846,0.12678644,1.0,43,0.020733967,6.951476e-08,0,-5.342985007148767e-08,1.0
102,102,2.752818,202947.6,252252.8,323757.94,-51.18191,65.60915164960898,-0.01303846,-2.432112e-06,0.22919579,0.13913544,1.0,43,0.020786988,6.420534e-08,0,-5.4008728331677836e-08,1.0
103,103,2.3804083,208537.97,281289.97,350160.16,-53.44813,66.96302099392051,-0.013002917,-2.4736103e-06,0.23769192,0.15338732,1.0,43,0.02073667,5.922053e-08,0,-5.358014359773853e-08,1.0
104,104,2.060257,214352.66,318429.28,383854.5,-56.053288,68.51933712113532,-0.013008804,-2.5569866e-06,0.24259719,0.16694695,1.0,43,0.020765092,5.4096258e-08,0,-5.4647242503127516e-08,1.0
