True,index,freq,Re(Z),Im(Z),Z,Phase(Z),time,Ewe_meas,I_meas,Cs,Cp,cycle_number,I_Range,Ewe,I,Ns,(QQo),THD_Ewe,NSD_Ewe,NSR_Ewe,Ewe_h2,Ewe_h3,Ewe_h4,Ewe_h5,Ewe_h6,Ewe_h7,THD_I,NSD_I,NSR_I,I_h2,I_h3,I_h4,I_h5,I_h6,I_h7,cycle
84,84,7000018.5,7.5673933,0.20032188,7.570044,-1.5163635,86.072494781547,1.1607985,-0.0273057,0.11349914,7.9479025e-05,3.0,38,0.0011399887,0.00015059208,0,-0.0003386348185469146,11.5379095,1.1084878,36.422012,1.7456558e-05,2.411087e-06,3.8987368e-05,0.00012357728,8.121664e-06,9.246852e-06,17.014517,1.2285587,45.355427,2.7667281e-06,1.4617135e-06,8.318051e-06,2.3831708e-05,1.8171196e-06,2.151844e-06,3.0
85,85,4765894.0,7.4361877,-0.012769057,7.4361987,0.09838541,86.83849569791346,1.1608377,-0.02680076,-2.6152723,-7.711389e-06,3.0,38,0.0033307977,0.0004479167,0,-0.0003446096827493651,4.3818645,0.31752074,14.232543,0.00011946704,1.1838483e-05,7.500346e-06,4.0643235e-06,1.27327385e-05,8.1143204e-05,4.833052,0.37971628,13.407165,1.2863149e-05,2.7561775e-06,1.2799557e-06,4.4531006e-07,2.2980585e-06,1.689651e-05,3.0
86,86,3244822.5,7.7343936,0.15753365,7.7359977,-1.1668355,87.65250296323211,1.1608928,-0.026685217,0.311355,0.00012911296,3.0,38,0.00988849,0.0012782436,0,-0.00035153513913070087,5.0562377,0.10505667,4.605763,0.00049312663,7.913409e-05,2.1454756e-05,4.274104e-06,2.6360492e-06,5.8134424e-06,4.970952,0.098453596,3.9789665,6.265315e-05,1.00880225e-05,2.849711e-06,5.5209756e-07,6.2907037e-07,9.313346e-07,3.0
87,87,2209211.8,7.9478507,0.3235935,7.9544353,-2.3314865,88.73648717472679,1.1608385,-0.028075159,0.22262965,0.00036843753,3.0,38,0.019910231,0.0025030351,0,-0.00035923416816180463,3.5508375,0.04258172,1.6328876,0.0006749319,0.00020926623,1.7061919e-05,8.913042e-06,7.943535e-06,5.8215505e-06,3.7076788,0.026108922,1.1971452,8.8555884e-05,2.75143e-05,3.257137e-06,1.1868921e-06,3.2586715e-07,7.626359e-07,3.0
88,88,1504119.6,8.10398,0.43921563,8.115873,-3.1022542,89.55149465342402,1.1607816,-0.029329116,0.24091285,0.000705578,3.0,38,0.021643203,0.0026667744,0,-0.00036909916199721595,0.68107736,0.12967367,1.2355444,0.00013318512,5.08944e-05,3.5870977e-05,6.1458622e-06,6.482583e-06,4.813611e-06,0.7034083,0.09958142,0.7962086,1.6950313e-05,6.7140313e-06,4.1984936e-06,1.2642122e-06,7.322417e-07,7.830998e-07,3.0
89,89,1024068.44,8.242904,0.5002899,8.258072,-3.4732153,90.3654926654126,1.1607721,-0.028643446,0.3106486,0.0011401331,3.0,38,0.021553969,0.0026100485,0,-0.00037875471426679645,0.42232102,0.04562375,1.2349749,8.7271976e-05,1.2058532e-05,1.8387878e-05,5.1004113e-06,1.240606e-05,2.047297e-06,0.42629948,0.03414403,0.7606954,1.0398271e-05,2.5773206e-06,2.6000569e-06,1.1192146e-06,9.993894e-07,4.630992e-07,3.0
90,90,697233.1,8.381596,0.54538715,8.399321,-3.7229657,91.17948993077152,1.1607729,-0.028278254,0.41854024,0.0017646505,3.0,38,0.021683011,0.0025815195,0,-0.00038651511161397824,0.3663468,0.028693695,1.2195021,7.416492e-05,1.5896023e-05,2.0929894e-05,2.6492905e-06,9.428281e-06,1.7808808e-06,0.3283803,0.035376225,0.7486818,7.844466e-06,2.0510693e-06,2.0429593e-06,5.411373e-07,7.1813423e-07,7.944574e-07,3.0
91,91,474706.8,8.519578,0.58012676,8.539307,-3.8954494,91.99348210278549,1.1607832,-0.02752177,0.5779254,0.0026673032,3.0,38,0.021387797,0.0025046293,0,-0.0003897992350014894,0.25951478,0.035859045,1.2222916,4.9718783e-05,1.3758998e-05,1.4259321e-05,9.136691e-06,8.433714e-06,2.7325282e-06,0.24626178,0.030584909,0.766502,5.65403e-06,1.4736177e-06,1.3595403e-06,6.870555e-07,1.0565665e-06,6.0301136e-07,3.0
92,92,323198.12,8.651933,0.6139247,8.673687,-4.0587964,92.80750555478153,1.1607757,-0.02805093,0.8021142,0.004018453,3.0,38,0.021335926,0.002459845,0,-0.0004004136285931891,0.18681361,0.054381758,1.2399387,3.239442e-05,1.6641952e-05,1.1174615e-05,8.261294e-06,2.1301507e-06,7.638947e-06,0.19889776,0.0587243,0.7854184,4.354144e-06,1.6451221e-06,1.317526e-06,5.190534e-07,1.867815e-07,3.9330226e-07,3.0
93,93,220049.0,8.785228,0.6652609,8.81038,-4.3304553,93.62149764675996,1.1607758,-0.027831072,1.0871983,0.0061987406,3.0,38,0.0212687,0.0024140503,0,-0.00040454423744548207,0.15900049,0.06759592,1.2272463,2.4633799e-05,1.2766843e-05,1.4242752e-05,8.410336e-06,4.4862427e-06,7.1325503e-06,0.12527546,0.059962086,0.7825473,2.5329264e-06,1.1645147e-06,8.552591e-07,4.318023e-07,4.758553e-07,3.4372368e-07,3.0
94,94,149820.0,8.922087,0.7436318,8.953023,-4.7644362,94.43549867210095,1.1607667,-0.027657792,1.42854,0.009855278,3.0,38,0.021228291,0.0023710753,0,-0.00041393207954933396,0.16163965,0.06590219,1.2078817,2.5714371e-05,1.3313665e-05,1.3516989e-05,4.887827e-06,7.672084e-06,5.627091e-06,0.09188322,0.04730377,0.81241006,1.426194e-06,1.0026863e-06,9.0897214e-07,4.999272e-07,4.4178532e-07,5.011049e-07,3.0
95,95,101998.59,9.082473,0.8484026,9.122012,-5.3365684,95.24949641744024,1.1607664,-0.027201302,1.8391789,0.015909139,3.0,38,0.021070026,0.0023098001,0,-0.00042291341403003673,0.0842544,0.03656515,1.2275968,1.1090061e-05,7.427956e-06,4.0208974e-06,5.2790124e-06,5.3714725e-06,4.9212113e-06,0.08285458,0.016149202,0.8127436,9.5272975e-07,1.2335573e-06,6.644516e-07,4.2620715e-07,5.493686e-07,4.2891176e-07,3.0
96,96,69449.59,9.272487,0.98273826,9.324419,-6.04987,96.06448216279387,1.1607661,-0.027730456,2.3319142,0.025902681,3.0,38,0.020948822,0.0022466625,0,-0.00043276896708334324,0.06646167,0.06840703,1.2358669,3.932496e-06,3.869694e-06,6.4703936e-06,4.3745217e-06,6.169647e-06,4.968629e-06,0.074354455,0.049823597,0.8429826,9.264962e-07,3.072241e-07,7.562817e-07,4.8723945e-07,6.429926e-07,7.257347e-07,3.0
97,97,47283.254,9.512198,1.1363872,9.579838,-6.8126273,96.87850161475944,1.160762,-0.027203165,2.9620094,0.04167953,3.0,38,0.020651896,0.0021557668,0,-0.00044083151562112065,0.09445292,0.024071123,1.2461253,1.0871134e-05,9.24907e-06,4.446395e-06,4.039889e-06,7.375374e-06,4.0163263e-06,0.09270229,0.028343542,0.88085437,1.2351485e-06,1.1149616e-06,5.965904e-07,5.2964305e-07,3.894255e-07,4.4317235e-07,3.0
98,98,32196.41,9.787095,1.3058394,9.873826,-7.5997825,97.69250226675649,1.1607673,-0.026731774,3.785497,0.06621121,3.0,38,0.020346276,0.0020606273,0,-0.00044624628722085135,0.09428136,0.048701417,1.295425,8.7058e-06,6.106342e-06,6.1960995e-06,1.1593446e-05,5.736209e-06,6.0760617e-06,0.0884112,0.03523521,0.92531055,8.467288e-07,1.2588051e-06,5.304058e-07,6.277887e-07,1.9561243e-07,4.4067286e-07,3.0
99,99,21915.822,10.119778,1.4856814,10.228252,-8.351913,98.37150160569581,1.1607685,-0.027434215,4.8880615,0.103130035,3.0,38,0.021453528,0.0020974774,0,-0.00045153134152832274,0.083764255,0.042929612,1.2100828,4.0417635e-06,9.351185e-06,7.2652238e-06,1.0006309e-05,4.6746095e-06,5.071115e-06,0.08338807,0.03775194,0.9101424,4.5120402e-07,1.0981926e-06,8.0180405e-07,7.677317e-07,3.5701447e-07,1.7404712e-07,3.0
100,100,14919.832,10.493611,1.6644462,10.624795,-9.0128975,99.05048942464055,1.1607687,-0.026975853,6.408943,0.15728411,3.0,38,0.02140334,0.002014471,0,-0.000455297631114157,0.13440953,0.03777824,1.2282758,4.0630703e-06,1.8124414e-05,1.1087913e-05,1.5170845e-05,8.882614e-06,3.6998847e-06,0.11810822,0.04972766,0.94563717,5.460474e-07,1.6307148e-06,4.861578e-07,1.4644746e-06,1.7780225e-07,3.720758e-07,3.0
101,101,10159.962,10.905756,1.8498819,11.061536,-9.627126,99.72949356355821,1.160772,-0.027657807,8.468062,0.23683244,3.0,38,0.020338485,0.0018386673,0,-0.0004620864572524879,0.13474534,0.030524949,1.2697879,5.697461e-06,1.53035e-05,5.7157185e-06,1.8919445e-05,6.953533e-06,5.0535114e-06,0.14121039,0.039017476,1.03517,7.046731e-07,1.9549004e-06,1.3684014e-07,1.4728865e-06,3.2449577e-07,2.1042716e-07,3.0
102,102,6916.754,11.348715,2.0582855,11.533857,-10.279836,100.62219707263284,1.1607969,-0.025921265,11.179237,0.35601988,3.0,38,0.020308457,0.0017607689,0,-0.00046506779826425835,0.14942777,0.058307778,1.2501435,4.2974934e-06,1.5778733e-05,1.027265e-05,2.1628282e-05,6.4857936e-06,4.746151e-06,0.14847517,0.06092941,1.096765,7.3422126e-07,1.6130114e-06,6.9272295e-07,1.6573824e-06,4.792671e-07,1.7921315e-07,3.0
103,103,4708.491,11.8285675,2.2906382,12.048321,-10.959843,101.38682054897072,1.1608047,-0.026649795,14.75645,0.5333863,3.0,38,0.020297093,0.0016846409,0,-0.00047167646700400413,0.13705963,0.07836148,1.2647811,5.263461e-06,1.1658885e-05,1.25792885e-05,1.9520161e-05,6.3021985e-06,4.024886e-06,0.1486588,0.06386054,1.1596712,7.3954027e-07,1.7571554e-06,2.403419e-07,1.5191473e-06,3.3001265e-07,3.0036495e-07,3.0
104,104,3206.0295,12.354498,2.5675337,12.618472,-11.740196,102.12868493087444,1.1608129,-0.0259865,19.334656,0.8004887,3.0,38,0.02027435,0.0016067199,0,-0.0004782630168820534,0.13635324,0.11482202,1.2843431,8.933204e-06,8.492321e-06,5.6895665e-06,2.0919282e-05,8.480379e-06,7.1301833e-06,0.1681208,0.10839471,1.2105432,1.004445e-06,1.5983175e-06,8.481859e-07,1.4419305e-06,7.0170944e-07,4.4518347e-07,3.0
105,105,2182.901,12.940109,2.9104586,13.263378,-12.675891,102.87297352621681,1.1608152,-0.026403863,25.05098,1.2062553,3.0,38,0.020247139,0.0015265447,0,-0.00048485147508157305,0.14563286,0.08503208,1.2864432,7.3620786e-06,1.615614e-05,1.8083055e-06,2.224025e-05,4.1769017e-06,5.6830754e-06,0.13435796,0.114578776,1.2642487,5.216444e-07,1.4109935e-06,3.3650517e-07,1.1743288e-06,2.2999349e-07,4.778271e-07,3.0
106,106,1486.4281,13.640715,3.3331163,14.042035,-13.731193,103.61557969477144,1.1608043,-0.02662,32.123714,1.8099501,3.0,38,0.020224655,0.0014402937,0,-0.000491449102328091,0.13573031,0.062420696,1.2907368,1.0588388e-05,1.4312139e-05,5.472697e-06,1.7448636e-05,4.906865e-06,4.8390816e-06,0.14254577,0.04770732,1.3406365,6.518866e-07,1.4351936e-06,3.2730966e-07,1.1221798e-06,3.0340007e-07,4.887548e-07,3.0
107,107,1012.2657,14.497844,3.815539,14.991525,-14.744734,104.35832906342694,1.1607975,-0.027208783,41.20688,2.6692538,3.0,38,0.020214284,0.0013483808,0,-0.0004960519453433129,0.13867913,0.060469378,1.2876242,4.7609337e-06,1.9278854e-05,4.555843e-06,1.7948332e-05,5.032068e-06,3.0530155e-06,0.19612929,0.057987936,1.4210703,8.787807e-07,1.5477098e-06,5.341649e-07,1.6430741e-06,4.5292282e-07,5.161819e-07,3.0
108,108,688.8978,15.570459,4.310328,16.156055,-15.473541,105.10310605875566,1.1608062,-0.025889613,53.598793,3.8150916,3.0,38,0.020201914,0.0012504236,0,-0.0005024388590424755,0.1509901,0.032396328,1.2799101,1.0611099e-05,1.4103341e-05,2.4887424e-06,2.2309006e-05,6.2489016e-06,7.131135e-06,0.16879414,0.056495965,1.5472339,5.899115e-07,1.6684019e-06,2.4323307e-07,8.832904e-07,3.7149422e-07,5.4472895e-07,3.0
109,109,468.94922,16.859661,4.6984935,17.502115,-15.572226,105.84823310750653,1.1608249,-0.024978494,72.23301,5.2056127,3.0,38,0.020195171,0.0011538703,0,-0.0005064685213615464,0.13751844,0.055026766,1.3059471,5.975044e-06,1.264273e-05,7.4675727e-06,1.9843172e-05,6.3777356e-06,6.5758945e-06,0.22974099,0.060316518,1.6692528,6.8276785e-07,1.768766e-06,1.378733e-07,1.6583745e-06,2.3081401e-07,7.522403e-07,3.0
110,110,319.28494,18.309208,4.867237,18.945107,-14.886947,106.5932041562337,1.1608253,-0.025371639,102.41396,6.759742,3.0,38,0.020190993,0.001065763,0,-0.0005129025820308371,0.15893799,0.037537646,1.3067267,5.145542e-06,1.4808314e-05,2.0708543e-05,1.7599508e-05,3.093157e-06,5.17337e-06,0.18713756,0.035956714,1.8152102,6.7528185e-07,1.2946366e-06,4.779075e-07,1.0427581e-06,2.0183144e-07,6.4317794e-07,3.0
111,111,217.43552,19.743916,4.768297,20.311544,-13.577356,107.33353856470785,1.1608174,-0.025982782,153.50635,8.459936,3.0,38,0.020186353,0.0009938364,0,-0.0005192402208251847,0.12610853,0.043974496,1.2527477,3.6240185e-06,1.2948282e-05,1.994622e-06,1.9239977e-05,5.248438e-06,6.449289e-06,0.17811653,0.05315554,1.948758,6.586913e-07,1.0721304e-06,3.614151e-07,1.0436765e-06,3.4002977e-07,2.7334403e-07,3.0
112,112,148.05719,21.008915,4.4629674,21.477722,-11.993176,108.08336857365794,1.160823,-0.024896514,240.86124,10.400109,3.0,38,0.020184347,0.0009397807,0,-0.0005240038910977342,0.12255816,0.051551033,1.2909272,4.178964e-06,1.45594595e-05,3.895017e-06,1.7768169e-05,5.057652e-06,3.2709868e-06,0.17242575,0.052500386,2.0440178,4.1865468e-07,1.1110768e-06,2.808103e-07,1.0090223e-06,1.4178909e-07,2.029575e-07,3.0
113,113,100.80636,22.018343,4.1369524,22.403612,-10.641053,109.07417864739546,1.160815,-0.002602484,381.63806,13.012977,3.0,39,0.020183245,0.0009008924,0,-0.0005262352044702728,0.13069394,0.029244162,1.232331,7.502288e-06,1.0553099e-05,7.853574e-06,1.8545574e-05,5.7294305e-06,7.306424e-06,0.14757311,0.00769644,0.3962177,2.885092e-07,9.226717e-07,4.290107e-08,8.934601e-07,7.696183e-08,1.5068896e-07,3.0
114,114,68.616714,22.87213,3.9101603,23.203959,-9.701352,109.81280153583793,1.1608168,-0.0026883483,593.1925,16.844597,3.0,39,0.020178288,0.0008696054,0,-0.0005271900372708559,0.13879919,0.05278114,1.2529607,6.849957e-06,1.527003e-05,4.81933e-06,1.929375e-05,8.300589e-06,3.6068482e-06,0.14069502,0.013204499,0.41098407,2.472833e-07,8.56045e-07,3.656812e-08,8.258784e-07,4.4571337e-08,1.2823857e-07,3.0
115,115,46.71924,23.646177,3.8426127,23.956364,-9.230144,110.51639274254558,1.160825,-0.0022586633,886.5388,22.809156,3.0,39,0.020172816,0.000842065,0,-0.0005278190441007254,0.14105384,0.041518815,1.2625796,5.1534935e-06,1.8811843e-05,2.866157e-06,1.949899e-05,2.1400824e-06,4.9499645e-06,0.141739,0.012396213,0.42326674,2.1650915e-07,8.6398904e-07,5.0607973e-08,7.7559974e-07,8.2247595e-08,1.0686981e-07,3.0
116,116,31.801239,24.444998,3.9399786,24.760479,-9.156035,111.21744962918456,1.1608244,-0.0024134393,1270.2296,32.162655,3.0,39,0.020178182,0.0008149351,0,-0.000528888828921148,0.14671095,0.035033014,1.2567008,6.9005e-06,1.1594524e-05,7.735934e-06,2.2965229e-05,8.153565e-06,4.8030306e-06,0.13548565,0.017026056,0.4366109,2.6391717e-07,7.9796496e-07,8.1529e-08,6.939735e-07,6.634582e-08,1.2941271e-07,3.0
117,117,21.656305,25.292229,4.1244264,25.626308,-9.261752,111.91143984880182,1.1608336,-0.003028632,1781.8545,46.155903,3.0,39,0.020169958,0.00078708015,0,-0.0005296711945631735,0.12517081,0.043244746,1.2523587,7.331626e-06,1.0154146e-05,4.4676067e-06,1.8359955e-05,9.708074e-06,4.2564097e-06,0.13368337,0.052088376,0.47284937,2.193378e-07,7.996886e-07,1.3252256e-07,6.249347e-07,4.8465765e-08,7.202134e-08,3.0
118,118,14.74984,26.231174,4.3713646,26.592918,-9.461265,112.63917079006205,1.1608355,-0.0033571834,2468.4014,66.69878,3.0,39,0.020174552,0.0007586438,0,-0.0005287327146158949,0.1542256,0.03968901,1.2440317,1.1279214e-05,2.0176598e-05,4.4845237e-06,1.9122388e-05,5.07388e-06,3.4061377e-06,0.13429908,0.025809476,0.47726792,2.1209254e-07,7.054034e-07,8.210195e-08,6.887371e-07,8.8040906e-08,6.668903e-08,3.0
119,119,10.041743,27.23201,4.6541553,27.626862,-9.698575,113.35494418407325,1.1608365,-0.0035015298,3405.4158,96.64709,3.0,39,0.02017687,0.00073033525,0,-0.0005312185603956395,0.11008391,0.052776907,1.25797,4.7264853e-06,1.2928524e-05,7.3592537e-06,1.486368e-05,2.8729994e-06,4.1407375e-06,0.16953813,0.17538899,0.50847214,4.4248083e-07,8.845908e-07,2.4344573e-07,6.471844e-07,1.3236983e-07,1.07520876e-07,3.0
120,120,6.8350806,28.181347,5.0777555,28.63515,-10.214043,114.24946009318228,1.1608344,-0.0043809223,4585.69,144.1947,3.0,39,0.020172214,0.00070445635,0,-0.0005331467604307076,0.12303726,0.02478967,0.9000924,3.4512193e-06,1.4855809e-05,5.789108e-06,1.6708867e-05,6.313999e-06,4.7723374e-06,0.18976372,0.23269504,0.38729697,9.722298e-07,4.034847e-07,2.1234109e-07,6.549871e-07,1.614968e-07,2.318891e-07,3.0
121,121,4.6544523,29.141666,5.6457033,29.683508,-10.96426,115.4025766813138,1.1608354,-0.0054724403,6056.6636,219.09837,3.0,39,0.020168483,0.0006794508,0,-0.0005245423572603888,0.11395693,0.012921007,0.74632907,3.3674878e-06,1.3288354e-05,4.259073e-06,1.6357515e-05,6.688451e-06,2.717521e-06,0.24006571,0.25454888,0.33771694,1.3514981e-06,4.2704227e-07,1.9149081e-07,7.3228705e-07,1.1984017e-07,1.3668684e-07,3.0
122,122,3.1693728,30.22031,6.492384,30.90984,-12.12485,116.95402768836357,1.1608382,-0.0022848763,7734.6846,341.23807,3.0,39,0.020171937,0.00065260567,0,-0.0005289008317882787,0.109050825,0.024111185,0.57542515,2.6419389e-06,1.2831803e-05,3.7174693e-06,1.6148433e-05,4.4226613e-06,3.656767e-06,0.4068611,0.4042928,0.36712715,2.1313178e-06,1.1278918e-06,3.9380004e-07,9.016986e-07,2.734519e-07,2.7414578e-07,3.0
123,123,2.1581502,31.404774,7.6906986,32.33275,-13.760327,119.1048402171873,1.1608274,-0.002360389,9588.986,542.52405,3.0,39,0.02017401,0.00062394975,0,-0.000548260709681566,0.117602825,0.012576236,0.45176804,3.8570315e-06,1.5471156e-05,3.0316778e-06,1.556914e-05,5.976346e-06,4.3788345e-06,0.44943923,0.40909562,0.3652283,2.4818123e-06,9.3767017e-07,4.6033028e-07,4.971735e-07,3.1068308e-07,2.3923425e-07,3.0
124,124,1.4679656,32.881916,9.450919,34.213158,-16.035707,122.14409150820575,1.160823,-0.0042555803,11471.764,875.3706,3.0,39,0.020171404,0.0005895803,0,-0.0005204657105152081,0.120887026,0.021457935,0.3670582,3.2683365e-06,1.4904849e-05,2.956017e-06,1.7888951e-05,4.7849944e-06,2.9240557e-06,0.46609434,0.49947807,0.35114622,2.3170992e-06,1.0117169e-06,4.5502532e-07,6.156761e-07,2.9145312e-07,2.402742e-07,3.0
125,125,1.0000616,34.733562,11.545257,36.602093,-18.386541,126.48768550119712,1.1608326,-0.0016213835,13784.46,1371.4662,3.0,39,0.020174155,0.0005511749,0,-0.0005498340399174954,0.11749491,0.01985162,0.3056183,2.0280515e-06,1.5810503e-05,3.5802143e-06,1.6418133e-05,3.868427e-06,2.7604228e-06,0.7329391,0.5037823,0.37079513,3.6809472e-06,1.1260822e-06,4.7908657e-07,8.3944514e-07,3.26544e-07,3.4008966e-07,3.0
