True,index,freq,Re(Z),Im(Z),Z,Phase(Z),time,Ewe_meas,I_meas,Cs,Cp,cycle_number,I_Range,Ewe,I,Ns,(QQo),THD_Ewe,NSD_Ewe,NSR_Ewe,Ewe_h2,Ewe_h3,Ewe_h4,Ewe_h5,Ewe_h6,Ewe_h7,THD_I,NSD_I,NSR_I,I_h2,I_h3,I_h4,I_h5,I_h6,I_h7,cycle
0,0,7000018.5,7.5501127,0.23136687,7.553657,-1.7552319,3.732481750572333,1.1601268,-0.024130752,0.09826974,9.219505e-05,1.0,38,0.0011352724,0.0001502944,0,-1.1077127384193267e-05,11.243699,1.1567907,36.917797,1.4952592e-05,6.598313e-06,4.0389805e-05,0.00011929815,6.456295e-06,7.204138e-06,16.601952,1.0879025,45.515812,1.6932319e-06,1.3467007e-06,7.362792e-06,2.3636967e-05,1.0974593e-06,1.265396e-06,1.0
1,1,4765894.0,7.4460645,-0.026168885,7.4461102,0.20136282,5.8294930235424545,1.1601738,-0.024043174,-1.2761171,-1.5761663e-05,1.0,38,0.003349727,0.00044986268,0,-2.4315021553869075e-05,4.073111,0.40100086,14.003363,0.00010915344,1.982151e-05,7.823084e-06,7.0777082e-06,1.6106906e-05,7.607947e-05,4.5760465,0.31695512,13.154693,1.2115692e-05,1.9523054e-06,1.1724269e-06,8.0733645e-07,2.6047876e-06,1.6212436e-05,1.0
2,2,3244822.5,7.7398143,0.16064787,7.7414813,-1.1890626,7.9754757387854625,1.1602361,-0.024402754,0.30531925,0.00013147888,1.0,38,0.009917226,0.0012810502,0,-3.8116504358515766e-05,5.010306,0.15550528,4.5972214,0.0004896579,8.12654e-05,1.4092955e-05,9.39238e-06,8.510204e-06,9.624948e-06,4.8946576,0.121106505,3.989944,6.17e-05,1.0446537e-05,2.8234524e-06,1.3372829e-06,1.6869282e-06,1.108466e-06,1.0
3,3,2209211.8,7.94419,0.32721376,7.950926,-2.3586266,10.392495880281786,1.1601748,-0.025440546,0.22016647,0.00037288846,1.0,38,0.019851627,0.0024967692,0,-5.574737262292506e-05,3.4822643,0.042427417,1.63435,0.00065803924,0.00020924657,2.8620312e-05,9.341856e-06,8.092555e-06,7.34834e-06,3.6575034,0.035811834,1.2087216,8.6739194e-05,2.8253307e-05,3.422261e-06,1.7759897e-06,8.5491655e-07,9.2073395e-07,1.0
4,4,1504119.6,8.103009,0.4392094,8.114903,-3.1025813,12.538497715519043,1.1601409,-0.026655372,0.24091627,0.0007057367,1.0,38,0.021664137,0.0026696727,0,-6.336016128036297e-05,0.6520519,0.115000635,1.2426033,0.00012995218,4.1920826e-05,3.29287e-05,8.1924945e-06,7.748636e-06,6.131841e-06,0.68462116,0.09999554,0.7906581,1.6804963e-05,5.6200956e-06,4.3580085e-06,8.170918e-07,7.334438e-07,6.946554e-07,1.0
5,5,1024068.44,8.242582,0.5036565,8.257956,-3.4966662,14.684494964109035,1.160129,-0.026107583,0.30857214,0.0011478377,1.0,38,0.021609776,0.0026168432,0,-7.939085317560239e-05,0.43590027,0.03598906,1.2229148,8.641015e-05,2.5731939e-05,2.2950837e-05,5.2715727e-06,6.631911e-06,5.043239e-06,0.44507843,0.02776418,0.761497,1.0821182e-05,3.0829208e-06,2.410022e-06,7.888143e-07,1.0242691e-06,1.1336537e-06,1.0
6,6,697233.1,8.38033,0.5447379,8.398016,-3.719106,16.83049415939604,1.1601194,-0.026851017,0.4190391,0.0017630974,1.0,38,0.021669513,0.0025803135,0,-8.860424866822237e-05,0.3420844,0.04834292,1.2099973,6.7961904e-05,1.8343748e-05,1.9233115e-05,6.033644e-06,6.4297424e-06,5.587353e-06,0.3325373,0.040611967,0.75083286,7.89599e-06,2.4345757e-06,2.0183365e-06,5.020262e-07,7.34314e-07,5.020769e-07,1.0
7,7,474706.8,8.519808,0.57902956,8.539461,-3.8879998,18.97649479462416,1.1601328,-0.02610758,0.57902056,0.002662162,1.0,38,0.021384632,0.0025042132,0,-0.00010315481270626575,0.25858894,0.029198699,1.2130439,4.755553e-05,1.7564924e-05,1.8433775e-05,5.7550737e-06,4.326612e-06,7.859059e-06,0.24796422,0.021092609,0.7657131,5.6139675e-06,1.8330225e-06,1.6415979e-06,3.201233e-07,4.0213038e-07,6.5566604e-07,1.0
8,8,323198.12,8.653409,0.61470187,8.675215,-4.063226,21.12248708322295,1.1601336,-0.026845418,0.8011001,0.004022123,1.0,38,0.021342248,0.0024601405,0,-0.00011454543740310085,0.1979369,0.049044028,1.21871,3.4052002e-05,1.5905187e-05,1.4129178e-05,7.378449e-06,7.0475053e-06,3.8208273e-06,0.1936541,0.045161705,0.774003,4.070995e-06,1.8331998e-06,1.0755235e-06,8.5592563e-07,4.1728336e-07,5.848109e-07,1.0
9,9,220049.0,8.781778,0.66337836,8.806799,-4.3199368,23.26947667854256,1.1601224,-0.027067143,1.0902835,0.0061862273,1.0,38,0.021311847,0.002419931,0,-0.0001375906531356741,0.15571241,0.058146436,1.2262717,2.5290652e-05,1.1689214e-05,1.0610427e-05,6.8094864e-06,5.5357577e-06,7.631446e-06,0.13572033,0.06286469,0.7857901,2.7485403e-06,1.1359726e-06,8.690237e-07,6.267314e-07,2.9904143e-07,6.9258107e-07,1.0
10,10,149820.0,8.9193535,0.7429598,8.950243,-4.761603,25.415479500457877,1.1601117,-0.027514324,1.4298321,0.00985249,1.0,38,0.021201635,0.0023688334,0,-0.00015356202950450178,0.13784519,0.042645987,1.2313433,2.006357e-05,1.0795167e-05,1.0743902e-05,5.9628655e-06,7.45907e-06,7.5649878e-06,0.109141536,0.04294455,0.8048086,1.9142226e-06,1.1618882e-06,7.779024e-07,5.906361e-07,3.32521e-07,3.7186535e-07,1.0
11,11,101998.59,9.080176,0.8484977,9.119734,-5.3385057,27.56147885575774,1.1601137,-0.027456567,1.8389727,0.015918871,1.0,38,0.021063693,0.0023096828,0,-0.00016726875821078041,0.10510082,0.036502913,1.2221859,1.5841779e-05,6.9166094e-06,7.3716033e-06,5.257205e-06,5.61191e-06,6.026417e-06,0.08646995,0.025359511,0.8242237,1.3854337e-06,1.0233073e-06,5.291956e-07,4.92527e-07,3.8432663e-07,4.148277e-07,1.0
12,12,69449.59,9.273666,0.9803605,9.325341,-6.0345783,29.70749727767543,1.16012,-0.028011804,2.33757,0.0258349,1.0,38,0.020950636,0.0022466348,0,-0.00017987697956975575,0.09859732,0.060133718,1.2406901,1.21343255e-05,8.66604e-06,7.401543e-06,4.5401653e-06,7.759655e-06,3.998229e-06,0.08276424,0.053206094,0.84501135,1.1285719e-06,8.10478e-07,6.6158873e-07,6.078247e-07,5.061289e-07,3.1495745e-07,1.0
13,13,47283.254,9.507089,1.1354918,9.574658,-6.810934,31.85350233959616,1.1601111,-0.02803417,2.9643452,0.04169176,1.0,38,0.020642364,0.0021559375,0,-0.0001959786846104285,0.06404433,0.038705733,1.2608545,5.8643786e-06,5.983033e-06,4.4460508e-06,6.0465895e-06,4.443154e-06,3.926193e-06,0.07399044,0.02568386,0.88407946,8.133163e-07,8.327764e-07,4.1734327e-07,6.589068e-07,4.0191068e-07,4.4238323e-07,1.0
14,14,32196.41,9.785739,1.3055997,9.872451,-7.5994434,33.99950174821424,1.160112,-0.027974552,3.7861917,0.0662175,1.0,38,0.020350367,0.0020613289,0,-0.00021326370571989617,0.09113983,0.053299997,1.2793871,6.2945023e-06,9.551064e-06,5.2910677e-06,8.472763e-06,7.3793453e-06,5.440988e-06,0.09590927,0.050436433,0.9324858,7.4357035e-07,1.2512617e-06,4.8972026e-07,9.0400704e-07,3.600686e-07,6.150617e-07,1.0
15,15,21915.822,10.118607,1.4844879,10.22692,-8.3462515,36.010490937071154,1.1601192,-0.027531104,4.8919916,0.10307404,1.0,38,0.021458505,0.0020982372,0,-0.00023032880660486018,0.092349984,0.041636698,1.2045135,5.14907e-06,9.127305e-06,4.7250555e-06,1.0516268e-05,8.46392e-06,4.4429407e-06,0.100534,0.04597968,0.91233134,6.357723e-07,1.2943509e-06,6.28796e-07,1.1602851e-06,3.453022e-07,5.417495e-07,1.0
16,16,14919.832,10.493546,1.665449,10.6248865,-9.018294,38.022481112595415,1.1601167,-0.028140377,6.405084,0.15737616,1.0,38,0.021405136,0.0020146226,0,-0.00024763718803109887,0.10966124,0.048799094,1.2169511,5.168476e-06,1.5362806e-05,6.65988e-06,1.0807675e-05,6.0627026e-06,6.428294e-06,0.11333659,0.040991556,0.9569033,5.3959e-07,1.6627814e-06,6.5486955e-07,1.0192675e-06,3.511453e-07,4.4429603e-07,1.0
17,17,10159.962,10.902025,1.8520521,11.058221,-9.641444,40.03349507480743,1.1601226,-0.02794102,8.458139,0.23725247,1.0,38,0.020336645,0.0018390521,0,-0.00026474233437219583,0.1286534,0.04225184,1.2830772,5.8981755e-06,1.6402897e-05,1.1237636e-05,1.2265548e-05,3.3371507e-06,5.4419124e-06,0.13335355,0.030308992,1.0415345,6.256102e-07,1.8288779e-06,4.8678936e-07,1.1898225e-06,3.9706583e-07,4.5078738e-07,1.0
18,18,6916.754,11.345215,2.0536988,11.529595,-10.260513,42.25521416697302,1.1601715,-0.026325585,11.2042055,0.35548922,1.0,38,0.020306382,0.0017612398,0,-0.0002795862739602259,0.13311398,0.057598267,1.2974726,5.895769e-06,1.662894e-05,8.766601e-06,1.5822714e-05,6.9628854e-06,3.3173137e-06,0.14992632,0.0589418,1.0958732,7.453296e-07,1.5724454e-06,5.31297e-07,1.6458393e-06,5.176e-07,5.13577e-07,1.0
19,19,4708.491,11.827873,2.2848504,12.04654,-10.933444,44.469832432223484,1.1601471,-0.02680258,14.79383,0.5321958,1.0,38,0.020296738,0.0016848603,0,-0.00029680951833537417,0.14469403,0.07255601,1.287901,5.2298797e-06,1.7204267e-05,7.441636e-06,1.8301927e-05,6.6678895e-06,5.270527e-06,0.15436807,0.061421007,1.1505351,7.022306e-07,1.6395034e-06,5.313043e-07,1.6760686e-06,2.7807167e-07,4.159896e-07,1.0
20,20,3206.0295,12.349523,2.5658574,12.61326,-11.737339,46.66067973628378,1.1601319,-0.02790004,19.347288,0.80062735,1.0,38,0.02027234,0.0016072245,0,-0.0003123623269723854,0.11603033,0.11339446,1.2888135,4.6326504e-06,1.3514006e-05,3.7394323e-06,1.580103e-05,4.6439986e-06,4.1450826e-06,0.14940438,0.10181728,1.194094,6.2437516e-07,1.6430394e-06,4.6515302e-07,1.42439e-06,3.3437234e-07,4.1991336e-07,1.0
21,21,2182.901,12.940078,2.9113338,13.263539,-12.679609,48.85695464059245,1.1601452,-0.02782924,25.043447,1.2065887,1.0,38,0.020246757,0.0015264973,0,-0.00033014576386842723,0.14472689,0.11192859,1.297987,5.087464e-06,1.848814e-05,4.57579e-06,1.997839e-05,6.3290136e-06,2.0372104e-06,0.162685,0.10842386,1.2682698,8.332867e-07,1.5935535e-06,4.6548698e-07,1.48316e-06,4.306731e-07,3.9582196e-07,1.0
22,22,1486.4281,13.640158,3.3306458,14.040908,-13.72194,51.04856938464218,1.160152,-0.026500754,32.147545,1.8088989,1.0,38,0.020231606,0.0014409045,0,-0.0003458318992000358,0.13748682,0.04425638,1.2811911,5.8792716e-06,1.6051285e-05,6.6089906e-06,1.7981187e-05,6.6766406e-06,4.230889e-06,0.17718968,0.052712105,1.3351014,7.195378e-07,1.7272984e-06,4.3877537e-07,1.5411971e-06,2.7100398e-07,3.94866e-07,1.0
23,23,1012.2657,14.491414,3.8119333,14.984389,-14.737658,53.239309542026604,1.1601475,-0.02648026,41.245857,2.669272,1.0,38,0.020215873,0.0013491289,0,-0.0003609585830481762,0.1423697,0.053125747,1.2889769,5.5834894e-06,1.7370987e-05,5.9151685e-06,1.8175326e-05,7.892822e-06,5.4195e-06,0.18000025,0.06782049,1.4315556,5.311301e-07,1.6579828e-06,2.3963761e-07,1.4761167e-06,4.6041865e-07,3.691737e-07,1.0
24,24,688.8978,15.558866,4.299025,16.141869,-15.445853,55.43606207307312,1.1601793,-0.025630625,53.73971,3.8117788,1.0,38,0.020203916,0.0012516467,0,-0.0003775345887719175,0.13033578,0.046255913,1.2824413,5.321792e-06,1.5369387e-05,4.641108e-06,1.6665816e-05,5.809272e-06,6.8485483e-06,0.1852416,0.047445856,1.5350161,7.328588e-07,1.4584194e-06,3.3073718e-07,1.3108776e-06,5.1686436e-07,5.013234e-07,1.0
25,25,468.94922,16.853085,4.6884084,17.493074,-15.546188,57.633196284092264,1.1601748,-0.02501017,72.38838,5.1998096,1.0,38,0.020196512,0.0011545434,0,-0.0003919724885113085,0.14027546,0.042391706,1.3001585,5.500757e-06,1.4554201e-05,3.6927286e-06,2.0838153e-05,6.4477485e-06,5.320502e-06,0.19574657,0.049524512,1.6699663,6.5833177e-07,1.5662841e-06,4.5404616e-07,1.2190385e-06,3.494974e-07,3.9206824e-07,1.0
26,26,319.28494,18.297466,4.849997,18.929335,-14.845647,59.83019212176441,1.16019,-0.024915146,102.778015,6.7470274,1.0,38,0.020189427,0.0010665682,0,-0.00040801011534745017,0.15795992,0.03292667,1.2931241,6.120948e-06,1.5167076e-05,1.4750031e-05,1.966706e-05,7.3183714e-06,6.3614953e-06,0.2051105,0.05282281,1.8261874,3.0340127e-07,1.485555e-06,3.324744e-07,1.2754623e-06,4.5469585e-07,4.395672e-07,1.0
27,27,217.43552,19.726032,4.7342734,20.286194,-13.495805,62.01453649214818,1.1601909,-0.025824409,154.60954,8.420577,1.0,38,0.02018557,0.0009950397,0,-0.00042244156777768675,0.13016617,0.037131537,1.3014605,5.1129186e-06,1.552523e-05,4.0344185e-06,1.699945e-05,7.09836e-06,5.2243377e-06,0.20709711,0.053472627,1.9472862,5.5864825e-07,1.3962486e-06,4.965801e-07,1.1087259e-06,3.95626e-07,3.9727607e-07,1.0
28,28,148.05719,20.973764,4.438197,21.4382,-11.947941,64.22238307705265,1.1601845,-0.025099607,242.20554,10.380555,1.0,38,0.020182319,0.0009414185,0,-0.0004389215647893531,0.12946,0.030674431,1.2900254,5.4805964e-06,1.6611533e-05,4.572324e-06,1.6843744e-05,5.0717636e-06,4.9531022e-06,0.19044954,0.053237975,2.066585,5.7058185e-07,1.2380995e-06,3.7772432e-07,9.021359e-07,3.6177494e-07,2.7393375e-07,1.0
29,29,100.80636,21.989227,4.1127543,22.370535,-10.593914,66.65718324601767,1.1601503,-0.0027660136,383.8835,12.975146,1.0,39,0.020183655,0.0009022428,0,-0.00044220857357149036,0.13535205,0.04147767,1.2624713,3.9067345e-06,1.6065378e-05,5.244488e-06,1.8420067e-05,5.710001e-06,5.1188867e-06,0.14474525,0.010551846,0.3880517,2.8349328e-07,9.0629686e-07,5.25371e-08,8.7734674e-07,5.4810993e-08,1.387768e-07,1.0
30,30,68.616714,22.834518,3.8945835,23.16426,-9.679051,68.80779678821273,1.1601826,-0.0027146093,595.56506,16.835047,1.0,39,0.020177288,0.0008710525,0,-0.00044441303679339277,0.14366108,0.037991956,1.2575196,6.2932572e-06,1.7034028e-05,3.8597423e-06,1.9353036e-05,6.1142487e-06,6.7377346e-06,0.13871944,0.011026568,0.40176108,2.6304912e-07,8.50252e-07,4.8716505e-08,7.9962547e-07,6.509091e-08,1.3163654e-07,1.0
31,31,46.71924,23.608177,3.829865,23.916813,-9.2146015,70.88741216695053,1.1601697,-0.0027172167,889.4897,22.808737,1.0,39,0.020175248,0.0008435592,0,-0.0004466349753776287,0.13447429,0.040398862,1.2549396,3.6939512e-06,1.5897365e-05,5.254635e-06,1.8102808e-05,5.966125e-06,6.092907e-06,0.1349483,0.019135816,0.42248577,2.453898e-07,8.095213e-07,5.1122683e-08,7.4469216e-07,6.1031656e-08,9.6219e-08,1.0
32,32,31.801239,24.398346,3.914669,24.710402,-9.11531,72.95143594496767,1.160169,-0.0027851998,1278.442,32.0857,1.0,39,0.020173984,0.00081641664,0,-0.0004470588239700301,0.14711252,0.034450468,1.2554252,4.311968e-06,1.7839777e-05,6.6123707e-06,1.9557647e-05,4.8735374e-06,7.769884e-06,0.13737163,0.017795656,0.43661833,2.2892395e-07,8.27997e-07,5.6852716e-08,6.9920293e-07,7.060568e-08,1.14098356e-07,1.0
33,33,21.656305,25.252422,4.0992403,25.582975,-9.220428,75.00047633561189,1.1601688,-0.002389971,1792.8024,46.029587,1.0,39,0.02017101,0.00078845443,0,-0.0004504570457762133,0.13385195,0.036210854,1.2592216,6.432383e-06,1.6030945e-05,3.3265471e-06,1.6825565e-05,7.951998e-06,7.027662e-06,0.13961391,0.02502678,0.4585244,2.0500607e-07,8.1101933e-07,8.865725e-08,6.8714024e-07,7.354992e-08,9.754749e-08,1.0
34,34,14.74984,26.177439,4.3441577,26.535448,-9.42239,77.13616235708469,1.1601987,-0.002401893,2483.8606,66.57107,1.0,39,0.020167485,0.0007600205,0,-0.0004492341930369665,0.13694276,0.027223771,1.2505802,7.030985e-06,1.36887e-05,6.2375766e-06,1.9210813e-05,5.0399117e-06,6.6457237e-06,0.13946612,0.040556997,0.4784205,3.183267e-07,6.88307e-07,6.9826854e-08,7.0254896e-07,7.359269e-08,7.9501795e-08,1.0
35,35,10.041743,27.150364,4.6299834,27.542313,-9.677622,79.24793875074829,1.1601883,-0.0024132559,3423.1943,96.736336,1.0,39,0.020171057,0.00073236617,0,-0.0004504023312846031,0.12906155,0.03445503,1.2534307,3.3913045e-06,1.6191925e-05,4.9628916e-06,1.6957683e-05,5.517668e-06,5.1474744e-06,0.16004044,0.083744705,0.49110276,5.3727473e-07,7.738147e-07,1.5168933e-07,6.195602e-07,9.452855e-08,1.237664e-07,1.0
36,36,6.8350806,28.092617,5.0114384,28.536112,-10.11459,81.85844916806673,1.1601908,-0.002490085,4646.373,143.30103,1.0,39,0.020171847,0.00070688844,0,-0.00044999083764489235,0.14454915,0.031998612,0.8943601,5.785905e-06,1.5877584e-05,6.2601034e-06,2.1032305e-05,5.804644e-06,5.733673e-06,0.15836315,0.05668931,0.3734489,5.840266e-07,7.063698e-07,7.090883e-08,6.177106e-07,7.961945e-08,1.0109418e-07,1.0
37,37,4.6544523,29.063751,5.5772157,29.594036,-10.862775,85.24262402216846,1.1601951,-0.0025330004,6131.039,217.7512,1.0,39,0.020170463,0.0006815719,0,-0.00046088848131106675,0.12229078,0.028327197,0.7515572,3.744349e-06,1.4282642e-05,4.421534e-06,1.763767e-05,4.84135e-06,3.7773832e-06,0.2324451,0.14461519,0.3375686,1.1589352e-06,7.889305e-07,1.8776761e-07,6.6209304e-07,1.11241484e-07,1.3240142e-07,1.0
38,38,3.1693728,30.06009,6.4350615,30.741161,-12.083118,89.81101005245,1.1601933,-0.0026824502,7803.584,341.9471,1.0,39,0.020171572,0.00065617467,0,-0.0004559960576668705,0.11960202,0.020975936,0.56389064,2.8396573e-06,1.486576e-05,3.1027673e-06,1.7236749e-05,4.956817e-06,3.3186504e-06,0.2419025,0.046627242,0.2690821,1.3252676e-06,6.093162e-07,6.755243e-08,6.039278e-07,5.4801717e-08,8.093682e-08,1.0
39,39,2.1581502,31.22908,7.6700897,32.157204,-13.799121,96.15083779359702,1.1601702,-0.0026874018,9614.75,546.9937,1.0,39,0.020170715,0.0006272534,0,-0.00045879292086157755,0.12366344,0.017796298,0.45049235,3.3797066e-06,1.4656437e-05,2.661567e-06,1.8503582e-05,4.3920672e-06,4.0842406e-06,0.3234983,0.047948442,0.23469314,1.8683955e-06,5.512269e-07,6.1796854e-08,5.5274023e-07,3.834416e-08,7.9647926e-08,1.0
40,40,1.4679656,32.71252,9.320713,34.014477,-15.903737,105.11479227269592,1.1601747,-0.0024683145,11632.019,873.42535,1.0,39,0.020171802,0.0005930358,0,-0.0004564984073640387,0.12403844,0.01753311,0.3681978,3.944501e-06,1.5285746e-05,3.5588707e-06,1.8031218e-05,4.1678168e-06,3.9232323e-06,0.47838998,0.18236855,0.26788566,2.6371945e-06,7.292713e-07,2.0303838e-07,5.8228443e-07,1.350196e-07,1.4566879e-07,1.0
41,41,1.0000616,34.52981,11.454883,36.380245,-18.352694,117.92456978777773,1.16017,-0.0026409093,13893.214,1377.3768,1.0,39,0.020173918,0.0005545295,0,-0.0004705075743689991,0.11842461,0.01724563,0.30870527,3.2101473e-06,1.5225538e-05,3.0560634e-06,1.6710428e-05,4.80723e-06,3.6259487e-06,0.5551348,0.1618347,0.23206843,2.961241e-06,5.8993976e-07,1.4630277e-07,4.4602896e-07,9.805396e-08,1.1552262e-07,1.0
