True,index,freq,Re(Z),Im(Z),Z,Phase(Z),time,Ewe_meas,I_meas,Cs,Cp,cycle_number,I_Range,Ewe,I,Ns,(QQo),cycle
0,0,7000018.5,46.893272,475.92523,478.22986,-84.372765,3.8524950629507657,-0.0039078,-5.8381196e-05,4.7772966e-05,4.7313635e-05,1.0,40,0.01817234,3.7999176e-05,0,-4.040712685683603e-08,1.0
1,1,6065061.0,80.64288,471.8992,478.74014,-80.3024,4.136482196423458,-0.0038792153,-0.00013600526,5.5607798e-05,5.402994e-05,1.0,40,0.021146089,4.4170287e-05,0,-5.214284853054273e-08,1.0
2,2,5255001.0,97.52485,490.3763,499.98,-78.751915,5.095490322011756,-0.003878098,-0.0001400701,6.17615e-05,5.9411635e-05,1.0,40,0.021558098,4.311792e-05,0,-7.945115784650625e-08,1.0
3,3,4553128.5,117.3309,521.11084,534.1564,-77.31114,5.3804763622174505,-0.0038940015,-0.00014206527,6.707801e-05,6.3841566e-05,1.0,40,0.01894993,3.5476372e-05,0,-9.18923064439241e-08,1.0
4,4,3945006.2,135.97964,555.6317,572.02893,-76.24831,5.7994992354360875,-0.0039057706,-0.00013285404,7.2608156e-05,6.8505185e-05,1.0,40,0.018107561,3.1654974e-05,0,-1.1432713799374344e-07,1.0
5,5,3418098.8,148.57838,604.27594,622.274,-76.18623,6.218482428666903,-0.003907819,-0.00013678837,7.7054894e-05,7.266203e-05,1.0,40,0.019441493,3.1242656e-05,0,-1.2799363180570506e-07,1.0
6,6,2961568.5,167.36334,669.94086,690.52966,-75.973564,6.502497162175132,-0.003920743,-0.00013766474,8.021617e-05,7.550403e-05,1.0,40,0.019802669,2.8677507e-05,0,-1.3612986966412184e-07,1.0
7,7,2566016.5,192.67989,751.67786,775.9801,-75.62276,6.786494802305242,-0.003922363,-0.00013464404,8.251425e-05,7.74268e-05,1.0,40,0.020840723,2.6857291e-05,0,-1.5102513671561407e-07,1.0
8,8,2223296.5,230.25108,842.0764,872.9881,-74.707275,7.2054910888837185,-0.0039207614,-0.00013809357,8.501024e-05,7.9096564e-05,1.0,40,0.020662135,2.3668288e-05,0,-1.7219116296049226e-07,1.0
9,9,1926347.2,278.0492,945.71454,985.742,-73.61616,7.624489162088139,-0.0039260313,-0.0001375342,8.736258e-05,8.041167e-05,1.0,40,0.02046836,2.0764419e-05,0,-1.97508544449344e-07,1.0
10,10,1669054.4,339.26233,1062.4677,1115.319,-72.29092,8.043486115377164,-0.0039342996,-0.00014107698,8.974989e-05,8.144552e-05,1.0,40,0.020472683,1.83559e-05,0,-2.17551758295738e-07,1.0
11,11,1446129.0,415.18076,1185.0034,1255.6306,-70.69145,8.462486695236294,-0.0039345603,-0.00014478757,9.287387e-05,8.271969e-05,1.0,40,0.01992747,1.5870488e-05,0,-2.431919344137188e-07,1.0
12,12,1252987.6,510.6637,1317.5676,1413.0682,-68.81464,8.8824932485295,-0.0039322884,-0.00014454518,9.6405194e-05,8.381466e-05,1.0,40,0.020301882,1.4367234e-05,0,-2.6297117988295013e-07,1.0
13,13,1085631.2,624.6991,1457.4872,1585.7231,-66.79936,9.301491588441422,-0.0039354167,-0.00014148718,0.000100584955,8.497434e-05,1.0,40,0.020564163,1.29683185e-05,0,-2.8370174993637594e-07,1.0
14,14,940636.1,766.064,1608.3013,1781.4283,-64.53066,9.720479101670207,-0.0039397,-0.00014642843,0.00010520371,8.574902e-05,1.0,40,0.020264681,1.1375524e-05,0,-3.108889487474092e-07,1.0
15,15,814995.94,921.361,1749.0344,1976.8732,-62.220516,10.13947912157164,-0.00393821,-0.00014525373,0.00011165195,8.7398796e-05,1.0,40,0.020686476,1.046424e-05,0,-3.3018318311736845e-07,1.0
16,16,706149.8,1106.1644,1890.9231,2190.7053,-59.672943,10.558477168116951,-0.0039334986,-0.00015110863,0.000119192635,8.8803325e-05,1.0,40,0.020519108,9.366439e-06,0,-3.5538142305762855e-07,1.0
17,17,611833.8,1312.8107,2029.0624,2416.7263,-57.09699,10.977492174686631,-0.003934523,-0.00015360722,0.00012820096,9.037059e-05,1.0,40,0.02042847,8.452951e-06,0,-3.649684365273566e-07,1.0
18,18,530118.0,1544.7639,2155.7297,2652.0684,-54.37518,11.396485394594492,-0.003940296,-0.00014721157,0.00013926861,9.201793e-05,1.0,40,0.02060665,7.77003e-06,0,-3.8609747591340237e-07,1.0
19,19,459313.75,1791.8224,2271.8345,2893.4165,-51.736744,11.815479707816849,-0.003932419,-0.00015129508,0.00015252252,9.402978e-05,1.0,40,0.020512952,7.089526e-06,0,-4.1239173370862166e-07,1.0
20,20,397964.3,2062.8174,2368.3813,3140.7715,-48.94472,12.235495274449931,-0.0039451,-0.0001540734,0.00016885906,9.6018506e-05,1.0,40,0.02032545,6.471483e-06,0,-4.322809167600907e-07,1.0
21,21,344807.75,2353.4158,2446.6816,3394.822,-46.113117,12.654495027702069,-0.0039338525,-0.00015599396,0.00018865384,9.7991084e-05,1.0,40,0.020833097,6.1367273e-06,0,-4.430312349638825e-07,1.0
22,22,298758.53,2649.9954,2502.5696,3644.9048,-43.361095,13.073496620956575,-0.0039393646,-0.0001626693,0.0002128696,0.00010034913,1.0,40,0.020352593,5.5838477e-06,0,-4.6185060545164765e-07,1.0
23,23,258851.69,2971.2607,2528.2139,3901.3147,-40.394104,13.492495067504933,-0.003947372,-0.00016177428,0.00024319536,0.000102131795,1.0,40,0.020591654,5.278132e-06,0,-4.823217968096287e-07,1.0
24,24,224279.98,3285.256,2530.3752,4146.7705,-37.60424,13.911484447395196,-0.0039412454,-0.00015646014,0.00028044306,0.00010442261,1.0,40,0.020364387,4.910903e-06,0,-4.971481522501714e-07,1.0
25,25,194328.98,3610.971,2503.2805,4393.805,-34.731365,14.33050105397706,-0.0039326423,-0.00016184889,0.00032716966,0.00010619657,1.0,40,0.020343488,4.630039e-06,0,-5.116752293296353e-07,1.0
26,26,168367.73,3926.1885,2437.1614,4621.1157,-31.82973,14.74949379384634,-0.0039430703,-0.00016669692,0.00038786177,0.00010788272,1.0,40,0.020691898,4.4776843e-06,0,-5.304741757342981e-07,1.0
27,27,145885.92,4211.357,2345.6956,4820.5615,-29.117493,15.168499707098817,-0.0039357333,-0.00016194214,0.00046508797,0.000110124296,1.0,40,0.020427763,4.2376314e-06,0,-5.478474880113835e-07,1.0
28,28,126401.055,4497.666,2228.9724,5019.693,-26.362291,15.587500366993481,-0.0039358824,-0.00015756028,0.0005648911,0.00011138324,1.0,40,0.020148914,4.0139735e-06,0,-5.663115181766993e-07,1.0
29,29,109514.18,4742.2446,2079.4875,5178.1416,-23.677588,15.871500727167586,-0.0039418787,-0.000155994,0.0006988653,0.00011270891,1.0,40,0.021692103,4.1891676e-06,0,-5.77534120424995e-07,1.0
30,30,94891.26,6314.5215,1572.307,6507.329,-13.982229,16.591491054714425,-0.003933536,-2.1330052e-05,0.0010667351,6.227672e-05,1.0,41,0.019214422,2.9527355e-06,0,-5.893930113763493e-07,1.0
31,31,82216.82,6380.372,1265.8156,6504.724,-11.221324,16.875481228198623,-0.0039338153,-1.4855704e-05,0.0015292871,5.791247e-05,1.0,41,0.020459486,3.1453274e-06,0,-5.902025424739905e-07,1.0
32,32,71231.08,6391.49,999.07477,6469.1035,-8.884198,17.159476014989195,-0.0039276886,-1.6210968e-05,0.002236416,5.3340907e-05,1.0,41,0.021746948,3.3616634e-06,0,-5.93462604931637e-07,1.0
33,33,61720.6,6368.1304,791.9722,6417.188,-7.0891876,17.578490541578503,-0.003936404,-1.6824288e-05,0.0032559673,4.959186e-05,1.0,41,0.02033934,3.1695097e-06,0,-5.956802347359371e-07,1.0
34,34,53481.297,6318.3496,616.6779,6348.3726,-5.574476,17.862501915049506,-0.003943424,-1.6089793e-05,0.004825694,4.5535675e-05,1.0,41,0.02154382,3.3935971e-06,0,-5.951654169417427e-07,1.0
35,35,46336.844,6266.9663,487.68796,6285.913,-4.449723,18.282483028335264,-0.0039486196,-1.33326475e-05,0.007042902,4.2393473e-05,1.0,41,0.020235937,3.2192518e-06,0,-5.931853026511362e-07,1.0
36,36,40148.086,6203.996,411.70273,6217.6416,-3.7966323,18.566490268480266,-0.0039294204,-1.4000027e-05,0.009628787,4.221703e-05,1.0,41,0.021314386,3.42805e-06,0,-5.967971951208079e-07,1.0
37,37,34785.105,6152.917,323.83212,6161.4326,-3.0127354,18.985497115092585,-0.003944188,-1.4011211e-05,0.014128852,3.9028633e-05,1.0,41,0.02031057,3.2964037e-06,0,-6.025955581520368e-07,1.0
38,38,30136.578,6112.2803,285.77377,6118.957,-2.6768599,19.26948822187842,-0.0039451746,-1.3300935e-05,0.01848008,4.0308234e-05,1.0,41,0.02119298,3.4634957e-06,0,-6.052091888081779e-07,1.0
39,39,26109.71,6066.656,272.15118,6072.757,-2.5685763,19.553476288710954,-0.003941525,-1.5685227e-05,0.022397928,4.4983837e-05,1.0,41,0.021930376,3.611272e-06,0,-6.036503271011055e-07,1.0
40,40,22620.99,6037.596,266.52676,6043.476,-2.5276535,19.972492281958694,-0.0039442624,-1.5461543e-05,0.026397796,5.1342347e-05,1.0,41,0.02019916,3.3423082e-06,0,-6.046929325665297e-07,1.0
41,41,19605.48,6010.71,268.3275,6016.6963,-2.5560763,20.25748346882756,-0.003930854,-1.7221333e-05,0.030253625,6.0171616e-05,1.0,41,0.02060015,3.4238308e-06,0,-6.074574503231563e-07,1.0
42,42,16988.941,6006.0146,286.33282,6012.836,-2.7294724,20.541484948975267,-0.00394389,-1.6613598e-05,0.032717694,7.4193566e-05,1.0,41,0.020878246,3.4722793e-06,0,-6.095867337937509e-07,1.0
43,43,14715.709,5991.143,320.82034,5999.7266,-3.06521,20.82650040250155,-0.0039473907,-1.37837515e-05,0.033711422,9.639132e-05,1.0,41,0.020971103,3.4953432e-06,0,-6.134931373111259e-07,1.0
44,44,12748.666,5990.385,337.7715,5999.9,-3.2272403,21.11047926932224,-0.0039414503,-1.24974595e-05,0.03696003,0.000117136,1.0,41,0.020899776,3.4833542e-06,0,-6.131907104319351e-07,1.0
45,45,11050.701,5994.6235,376.2328,6006.4185,-3.5912704,21.39447738949093,-0.003938992,-1.3651396e-05,0.03828015,0.0001501951,1.0,41,0.02066384,3.440293e-06,0,-6.167199709878383e-07,1.0
46,46,9575.419,5999.0425,422.56503,6013.9067,-4.029188,21.81349220938864,-0.003926869,-1.3135019e-05,0.039334062,0.000194197,1.0,41,0.020300502,3.375593e-06,0,-6.251716033942911e-07,1.0
47,47,8297.25,6011.606,465.95425,6029.6367,-4.4320836,22.12849025099422,-0.0039087315,-1.1216764e-05,0.04116638,0.00024583683,1.0,41,0.020438822,3.389727e-06,0,-6.242799223738934e-07,1.0
48,48,7183.023,6027.7183,518.32983,6049.963,-4.914834,22.480702827800997,-0.0039260313,-1.3720371e-05,0.0427471,0.00031377163,1.0,41,0.02055102,3.3968836e-06,0,-6.230282744006672e-07,1.0
49,49,6224.543,6045.473,583.86304,6073.602,-5.516434,22.876733246608637,-0.003918564,-1.3962718e-05,0.043792695,0.00040469793,1.0,41,0.020621376,3.3952465e-06,0,-6.217460229330464e-07,1.0
50,50,5395.718,6061.1357,644.9325,6095.351,-6.073679,23.323085881129373,-0.0039258823,-1.2614908e-05,0.04573584,0.00051202095,1.0,41,0.0206624,3.3898623e-06,0,-6.259736475853843e-07,1.0
51,51,4673.5034,6091.5254,722.2696,6134.1953,-6.761966,23.78880302325706,-0.0039326237,-1.3791215e-05,0.04714962,0.0006536747,1.0,41,0.02071826,3.3775025e-06,0,-6.279709484869929e-07,1.0
52,52,4048.705,6121.438,808.1254,6174.5503,-7.5204496,24.253828992004856,-0.003913312,-1.41286355e-05,0.048643544,0.00083324383,1.0,41,0.020746708,3.3600354e-06,0,-6.273301009895375e-07,1.0
53,53,3508.8806,6150.0894,900.5171,6215.668,-8.330247,24.71884373409557,-0.0039328653,-1.2961648e-05,0.050368566,0.0010572261,1.0,41,0.02075917,3.3398132e-06,0,-6.259521098432085e-07,1.0
54,54,3040.9768,6193.6304,1010.30707,6275.49,-9.264511,25.18370391618373,-0.003919141,-1.4576047e-05,0.051802844,0.001342657,1.0,41,0.020789264,3.3127712e-06,0,-6.303436477891814e-07,1.0
55,55,2634.1602,6226.6895,1134.9567,6329.2803,-10.330064,25.648826124932384,-0.0039174277,-1.3847144e-05,0.053235173,0.0017117825,1.0,41,0.020778276,3.2828814e-06,0,-6.300232227131851e-07,1.0
56,56,2282.1873,6279.237,1265.4352,6405.4775,-11.394029,26.11355289365747,-0.0039120833,-1.2857261e-05,0.055109814,0.0021508283,1.0,41,0.020801097,3.2473922e-06,0,-6.291070957888678e-07,1.0
57,57,1978.0994,6322.9077,1410.0481,6478.225,-12.571609,26.579962995805545,-0.0039122137,-1.3108929e-05,0.057060834,0.0027032979,1.0,41,0.020782024,3.207981e-06,0,-6.284164456694093e-07,1.0
58,58,1713.3579,6380.921,1581.5015,6573.9863,-13.920163,27.044940724561457,-0.0039051373,-1.2819987e-05,0.05873574,0.003399257,1.0,41,0.020786138,3.1618772e-06,0,-6.324263584947024e-07,1.0
59,59,1484.5282,6442.6914,1773.964,6682.456,-15.394637,27.509799893334275,-0.00390402,-1.2868465e-05,0.060434777,0.004258967,1.0,41,0.020794075,3.1117413e-06,0,-6.356363848634538e-07,1.0
60,60,1286.2384,6510.9756,1987.1641,6807.4683,-16.972305,27.974573675339343,-0.0039139083,-1.2340894e-05,0.062268004,0.0053059254,1.0,41,0.020787068,3.053568e-06,0,-6.357544693003724e-07,1.0
61,61,1114.6442,6588.732,2214.617,6950.9653,-18.578623,28.439804977504537,-0.003909327,-1.2126513e-05,0.0644741,0.006544738,1.0,41,0.02078512,2.9902494e-06,0,-6.370474602822595e-07,1.0
62,62,965.93054,6672.6914,2479.4363,7118.456,-20.38404,28.904573319508927,-0.0039107986,-1.3289767e-05,0.06645402,0.008062237,1.0,41,0.020776827,2.9187265e-06,0,-6.412823778309758e-07,1.0
63,63,836.8716,6764.4194,2779.9502,7313.378,-22.341022,29.36930891496013,-0.0039045787,-1.4723339e-05,0.06841074,0.009884672,1.0,41,0.020775348,2.8407321e-06,0,-6.446236420653627e-07,1.0
64,64,724.77014,6861.738,3103.4907,7530.943,-24.336733,29.834805337086436,-0.0039010218,-1.3686846e-05,0.070756994,0.012016322,1.0,41,0.020759562,2.7565688e-06,0,-6.448449692454056e-07,1.0
65,65,628.1905,6976.6323,3479.6104,7796.2227,-26.507826,30.301353919232497,-0.0038828468,-1.1259666e-05,0.072811194,0.014504104,1.0,41,0.02077254,2.6644364e-06,0,-6.458516749634352e-07,1.0
66,66,544.12933,7089.0117,3895.2874,8088.7173,-28.788021,30.768066608085064,-0.00386199,-1.1684704e-05,0.07508937,0.017413985,1.0,41,0.020770043,2.5677796e-06,0,-6.496943809166535e-07,1.0
67,67,471.6605,7203.1074,4365.7007,8422.832,-31.219456,31.23007313668495,-0.0038642248,-1.1727581e-05,0.077292375,0.020764826,1.0,41,0.020752119,2.4637936e-06,0,-6.52924882858555e-07,1.0
68,68,408.56152,7341.565,4899.317,8826.204,-33.71675,31.695461985451402,-0.0038661056,-1.1382709e-05,0.07951099,0.024499107,1.0,41,0.020754572,2.351472e-06,0,-6.555216901826574e-07,1.0
69,69,353.9808,7470.55,5504.768,9279.633,-36.385113,32.16235755427624,-0.0038745413,-1.0536366e-05,0.0816773,0.028742058,1.0,41,0.020751167,2.2362055e-06,0,-6.584016823416556e-07,1.0
70,70,306.66812,7612.7974,6186.9688,9809.855,-39.10098,32.62566520299151,-0.0038729957,-1.1951291e-05,0.08388293,0.033366006,1.0,41,0.020732814,2.1134679e-06,0,-6.587729777470612e-07,1.0
71,71,265.7652,7752.959,6989.8354,10438.687,-42.036873,33.090165918372804,-0.0038752488,-1.1789111e-05,0.08567519,0.038414687,1.0,41,0.020748457,1.9876502e-06,0,-6.612641987858928e-07,1.0
72,72,230.2207,7915.9155,7876.2783,11166.803,-44.85619,33.553573753655655,-0.003879048,-1.1032249e-05,0.08777174,0.04366557,1.0,41,0.020739676,1.8572619e-06,0,-6.616426323670971e-07,1.0
73,73,199.55338,8085.215,8899.796,12024.0205,-47.745735,34.020227935834555,-0.0038712637,-1.1427463e-05,0.08961506,0.0490955,1.0,41,0.020735538,1.7245095e-06,0,-6.617854681411725e-07,1.0
74,74,172.84303,8256.753,10091.11,13038.576,-50.709267,34.49023315819795,-0.0038665337,-1.1110558e-05,0.09124925,0.05465714,1.0,41,0.020738665,1.5905621e-06,0,-6.642391748463423e-07,1.0
75,75,149.76039,8445.074,11448.507,14226.299,-53.58539,34.95809040704626,-0.003866776,-1.3053054e-05,0.092827,0.060115736,1.0,41,0.020732008,1.4573016e-06,0,-6.649165677441715e-07,1.0
76,76,129.7921,8654.497,13002.683,15619.542,-56.352535,35.42309976249817,-0.0038606864,-1.1494589e-05,0.09430591,0.06535341,1.0,41,0.020735428,1.3275311e-06,0,-6.656800225212263e-07,1.0
77,77,112.40989,8874.29,14755.609,17218.625,-58.97654,35.87848767745891,-0.003857465,-1.0374211e-05,0.09595298,0.070465386,1.0,41,0.020716941,1.2031704e-06,0,-6.684580541569542e-07,1.0
78,78,97.39995,9124.453,16811.756,19128.271,-61.509438,36.333827139111236,-0.0038800535,-1.0750779e-05,0.09719598,0.075079784,1.0,41,0.020733552,1.0839219e-06,0,-6.693000988003759e-07,1.0
79,79,84.37932,9513.456,19118.002,21354.246,-63.544247,37.05620914671454,-0.0038675766,-1.219721e-06,0.09866012,0.07907844,1.0,42,0.02076627,9.724656e-07,0,-6.723303821236597e-07,1.0
80,80,73.105095,9927.334,21840.703,23991.004,-65.55661,37.53092732929508,-0.0038646343,-2.069106e-06,0.09967951,0.08261184,1.0,42,0.020747209,8.647912e-07,0,-6.731234107682364e-07,1.0
81,81,63.3578,10593.309,24930.191,27087.5,-66.97845,38.0069689785596,-0.0038625114,-1.2227051e-06,0.10076146,0.08535084,1.0,42,0.020748211,7.6596996e-07,0,-6.737952153921216e-07,1.0
82,82,54.91212,10669.021,28384.31,30323.21,-69.399895,38.47305788070662,-0.003858396,-1.3802089e-06,0.102111235,0.089470506,1.0,42,0.020744968,6.8412834e-07,0,-6.746074638781276e-07,1.0
83,83,47.579185,10949.757,32410.637,34210.33,-71.33274,38.95794091708376,-0.0038691224,-1.5723822e-06,0.10320853,0.09263523,1.0,42,0.020730179,6.0596255e-07,0,-6.754561021740023e-07,1.0
84,84,41.1997,11838.367,37170.246,39009.92,-72.333824,39.41094320526463,-0.0038839641,-2.0782504e-06,0.10392753,0.094356395,1.0,42,0.020737773,5.316025e-07,0,-6.766239681279021e-07,1.0
85,85,35.696774,12329.322,42288.293,44048.973,-73.74574,39.86687306690146,-0.0038712453,-6.786386e-07,0.10543165,0.09717169,1.0,42,0.020727217,4.705494e-07,0,-6.763500303207637e-07,1.0
86,86,30.940622,13176.486,48373.58,50136.043,-74.76286,40.319656048439356,-0.0038613942,-1.1393986e-06,0.10633662,0.09899179,1.0,42,0.020727174,4.1341863e-07,0,-6.764254094033346e-07,1.0
87,87,26.810244,14050.177,55093.12,56856.48,-75.693054,40.757231082505314,-0.0038734984,-1.2145157e-06,0.10775116,0.10117117,1.0,42,0.020725522,3.645235e-07,0,-6.771185025667326e-07,1.0
88,88,23.223833,15155.468,62722.97,64527.973,-76.41624,41.25504129283945,-0.003872195,-1.38898e-06,0.109259605,0.103232585,1.0,42,0.020722277,3.2113635e-07,0,-6.778981713968714e-07,1.0
89,89,20.12238,16468.621,71624.68,73493.61,-77.05108,41.71752270145225,-0.0038730516,-1.2109775e-06,0.110427715,0.104882814,1.0,42,0.02072564,2.82006e-07,0,-6.778382920442741e-07,1.0
90,90,17.438606,17439.7,81462.78,83308.63,-77.91641,42.12476802749734,-0.003897614,-3.7967257e-07,0.112033814,0.1071242,1.0,42,0.020728959,2.4882127e-07,0,-6.779075402283626e-07,1.0
91,91,15.111193,19793.71,93173.06,95252.35,-78.00638,42.588310102786636,-0.0038712267,-1.6585046e-06,0.11303971,0.10815842,1.0,42,0.020719497,2.1752216e-07,0,-6.783866515112038e-07,1.0
92,92,13.0935755,21570.252,106149.086,108318.53,-78.51349,43.11489135451848,-0.0038713196,-1.0782686e-06,0.11451058,0.109969586,1.0,42,0.020713056,1.9122356e-07,0,-6.791990907527526e-07,1.0
93,93,11.33889,23498.979,120650.74,122917.875,-78.97856,43.5311279342568,-0.0038724183,-1.8171249e-06,0.11633747,0.11208552,1.0,42,0.02070726,1.684642e-07,0,-6.80285350448789e-07,1.0
94,94,9.827018,26994.182,138863.0,141462.42,-78.99922,44.260287035576766,-0.0038778747,-2.5361118e-07,0.11663043,0.11238355,1.0,43,0.02072354,1.4649503e-07,0,-6.792213377789094e-07,1.0
95,95,8.510351,30047.717,157624.14,160462.56,-79.20726,44.797768287797226,-0.0038792433,-1.7206604e-07,0.118645124,0.114484824,1.0,43,0.02071633,1.2910382e-07,0,-6.793810270061379e-07,1.0
96,96,7.377267,34445.527,179602.81,182876.1,-79.143234,45.128299023461295,-0.0038710404,-3.2908898e-07,0.12011895,0.11585744,1.0,43,0.020714575,1.132711e-07,0,-6.78972443169046e-07,1.0
97,97,6.393209,37369.215,205085.84,208462.61,-79.67328,45.505157521372894,-0.0038705934,-1.532374e-08,0.12138515,0.1174845,1.0,43,0.020727675,9.943114e-08,0,-6.79058224804413e-07,1.0
98,98,5.5368543,43812.7,232194.83,236292.17,-79.31453,45.931349488237174,-0.003868992,-3.065658e-07,0.1237954,0.11953936,1.0,43,0.02070439,8.762199e-08,0,-6.796719127684278e-07,1.0
99,99,4.7988296,50184.344,263766.1,268497.72,-79.227615,46.41413716450916,-0.0038630702,1.287489e-06,0.1257378,0.12134519,1.0,43,0.02072277,7.718043e-08,0,-6.784974998415534e-07,1.0
100,100,4.155584,55274.25,301283.88,306312.28,-79.60399,46.963422737288056,-0.0038873253,1.5983735e-06,0.12711951,0.122980185,1.0,43,0.02072106,6.7646845e-08,0,-6.788177586146923e-07,1.0
101,101,3.6035552,66305.11,339617.97,346029.97,-78.95286,47.590318847069284,-0.0038726418,-3.4906898e-07,0.13004638,0.12527147,1.0,43,0.020722305,5.988587e-08,0,-6.796298350104388e-07,1.0
102,102,3.1200051,76528.66,392557.28,399947.3,-78.968605,48.30436432096758,-0.0038687312,-4.617901e-07,0.12994565,0.12518787,1.0,43,0.02071889,5.1804047e-08,0,-6.791178790300371e-07,1.0
103,103,2.7042255,83071.29,445708.84,453384.2,-79.44234,49.12262489322711,-0.003877092,-5.8717625e-08,0.13204622,0.12761325,1.0,43,0.020720975,4.5702908e-08,0,-6.783207954886829e-07,1.0
104,104,2.3439825,99048.37,502901.66,512562.84,-78.85799,50.05954368432867,-0.003870742,-1.6697324e-07,0.13501522,0.12997343,1.0,43,0.020709403,4.0403638e-08,0,-6.785812907845386e-07,1.0
