True,index,freq,Re(Z),Im(Z),Z,Phase(Z),time,Ewe_meas,I_meas,Cs,Cp,cycle_number,I_Range,Ewe,I,Ns,(QQo),cycle
0,0,7000018.5,225.01715,1212.3353,1233.0408,-79.48519,2.4664791571267415,-0.0046521784,-2.4361145e-05,1.8754185e-05,1.8129625e-05,1.0,40,0.009961614,8.078901e-06,0,-6.531862937909713e-09,1.0
1,1,6057573.0,205.164,1382.4844,1397.6249,-81.55878,3.0184910500247497,-0.0045973635,-6.423261e-05,1.9004712e-05,1.8595185e-05,1.0,40,0.01398846,1.0008737e-05,0,-6.972329422695446e-09,1.0
2,2,5242039.0,233.02538,1590.2363,1607.2189,-81.66349,3.4344822964339983,-0.0045705712,-4.385968e-05,1.9092298e-05,1.8690956e-05,1.0,40,0.019409595,1.207651e-05,0,-6.726760932369618e-09,1.0
3,3,4536288.0,177.5068,1823.2012,1831.8218,-84.43921,4.802498254721286,-0.0046827155,-2.0026177e-05,1.9243538e-05,1.9062843e-05,1.0,40,0.021095293,1.1516018e-05,0,-1.9586276601989836e-08,1.0
4,4,3925558.5,276.522,2048.781,2067.3577,-82.31329,5.2185006744985,-0.0047278604,-8.081526e-06,1.9788968e-05,1.943493e-05,1.0,40,0.019027432,9.203744e-06,0,-2.003064872939654e-08,1.0
5,5,3397055.0,347.80057,2336.5242,2362.268,-81.53347,5.634492747572949,-0.0046970434,-3.405465e-05,2.0051519e-05,1.9616858e-05,1.0,40,0.019872624,8.412519e-06,0,-2.190608925942191e-08,1.0
6,6,2939708.2,333.40823,2683.0012,2703.6377,-82.91634,6.05148322074092,-0.0047183395,-1.876101e-05,2.0178786e-05,1.9871917e-05,1.0,40,0.021627525,7.999417e-06,0,-2.4912676462539214e-08,1.0
7,7,2543924.5,406.30975,3043.7896,3070.7886,-82.396645,6.604490793688456,-0.0047055394,-4.6650483e-05,2.0554233e-05,2.0194388e-05,1.0,40,0.020829352,6.783063e-06,0,-2.3880267442892645e-08,1.0
8,8,2201436.2,586.4527,3676.2708,3722.7534,-80.936325,7.156491913221544,-0.0047433805,-2.983121e-05,1.966557e-05,1.9177543e-05,1.0,40,0.020357657,5.468441e-06,0,-3.152055632339549e-08,1.0
9,9,1905053.1,674.0905,4127.9634,4182.64,-80.72554,7.709485406143358,-0.00475959,-5.6814156e-06,2.0238447e-05,1.971278e-05,1.0,40,0.02077771,4.9676064e-06,0,-2.21044288660879e-08,1.0
10,10,1648567.4,685.476,4702.545,4752.242,-81.70657,8.261485405702842,-0.004749007,2.3529032e-05,2.05296e-05,2.0102463e-05,1.0,40,0.020079397,4.225247e-06,0,-3.150147067207045e-08,1.0
11,11,1426616.2,621.32764,5411.5796,5447.1313,-83.450294,8.98047959987889,-0.0046810573,-5.9708213e-06,2.0615265e-05,2.0347044e-05,1.0,41,0.019395996,3.5607725e-06,0,-3.0402585635818646e-08,1.0
12,12,1234551.2,1025.1036,6353.5986,6435.7637,-80.834755,9.532479066081578,-0.0048509785,7.207839e-06,2.0290428e-05,1.9775642e-05,1.0,41,0.02059758,3.2004875e-06,0,-3.220953132717281e-08,1.0
13,13,1068345.5,1022.08795,7232.1245,7303.991,-81.95589,10.084501652308973,-0.004763186,3.4592729e-06,2.0598829e-05,2.0195464e-05,1.0,41,0.020873072,2.8577624e-06,0,-3.2269499167856314e-08,1.0
14,14,924510.06,1246.21,8128.6147,8223.589,-81.28377,10.636490051838337,-0.0046625,-6.132814e-06,2.117834e-05,2.069199e-05,1.0,41,0.019993424,2.4312285e-06,0,-3.1091960690162464e-08,1.0
15,15,800039.0,2009.8928,8497.666,8732.124,-76.69279,11.18849735808908,-0.0048465817,7.4164045e-06,2.3410425e-05,2.217016e-05,1.0,41,0.02061962,2.3613522e-06,0,-3.029574997967494e-08,1.0
16,16,692334.1,1914.907,10728.088,10897.648,-79.879585,11.74050261094817,-0.004842613,9.271132e-06,2.1428023e-05,2.0766396e-05,1.0,41,0.020392368,1.8712631e-06,0,-2.9174794245722384e-08,1.0
17,17,599122.25,2753.6387,12396.785,12698.93,-77.47649,12.29248407718842,-0.004641912,-5.479188e-06,2.1428688e-05,2.042112e-05,1.0,41,0.020748556,1.6338822e-06,0,-2.9175834669120734e-08,1.0
18,18,518454.94,3552.8774,14185.241,14623.406,-75.9388,12.844487890048185,-0.0047627576,5.82206e-07,2.1640755e-05,2.0363328e-05,1.0,41,0.02052712,1.4037167e-06,0,-2.9427109143484563e-08,1.0
19,19,448662.03,4341.4414,15783.228,16369.435,-74.62019,13.396494502929272,-0.00472637,-1.3954296e-06,2.2475273e-05,2.089437e-05,1.0,41,0.020200266,1.2340234e-06,0,-2.8310617892411885e-08,1.0
20,20,388258.97,5867.864,17789.912,18732.666,-71.74526,13.948486369132297,-0.004830931,5.3549697e-06,2.3042248e-05,2.0781326e-05,1.0,41,0.020819979,1.1114264e-06,0,-2.8596820206951338e-08,1.0
21,21,335983.9,2964.184,18517.197,18752.945,-80.9054,14.50048820869415,-0.004790817,1.882005e-06,2.5581523e-05,2.4942381e-05,1.0,41,0.02027248,1.0810292e-06,0,-2.9056665577925067e-08,1.0
22,22,290751.2,9590.061,22554.986,24509.113,-66.96549,15.052503088285448,-0.004910917,1.4850223e-05,2.4269233e-05,2.055351e-05,1.0,41,0.020805366,8.4888285e-07,0,-2.8249660810063895e-08,1.0
23,23,251605.19,11524.524,24739.318,27291.914,-65.02209,15.60447972783004,-0.0047814264,2.2339575e-06,2.5568947e-05,2.100972e-05,1.0,41,0.020191286,7.3982665e-07,0,-2.7011926745912894e-08,1.0
24,24,217729.38,14407.407,26948.48,30558.043,-61.8698,16.15649474071688,-0.004717799,-1.5984093e-06,2.7124943e-05,2.109533e-05,1.0,41,0.02046376,6.696685e-07,0,-2.7508738902801452e-08,1.0
25,25,188418.58,16658.342,28000.055,32580.72,-59.24991,16.708502206922276,-0.0048180562,7.3623996e-06,3.0167374e-05,2.228096e-05,1.0,41,0.02068067,6.3475176e-07,0,-2.669600978188274e-08,1.0
26,26,163051.14,21321.615,30459.496,37180.535,-55.008022,17.260500953154406,-0.0048069335,3.02166e-06,3.204598e-05,2.1507392e-05,1.0,41,0.02011909,5.411189e-07,0,-2.5596467905925143e-08,1.0
27,27,141098.2,25799.3,32724.75,41671.492,-51.74872,17.677485852938844,-0.0047527337,6.231744e-07,3.4468492e-05,2.125675e-05,1.0,41,0.02206005,5.2937986e-07,0,-2.342550934350523e-08,1.0
28,28,122105.11,28140.93,29561.266,40813.973,-46.410046,18.2294943058223,-0.004764714,3.027245e-06,4.4092354e-05,2.313085e-05,1.0,41,0.020296985,4.973048e-07,0,-2.257696660785058e-08,1.0
29,29,105663.59,35176.1,33173.117,48350.945,-43.321423,18.781497612042585,-0.00479445,3.6901795e-06,4.54055e-05,2.1373276e-05,1.0,41,0.020383978,4.2158385e-07,0,-2.3242251592782123e-08,1.0
30,30,91439.65,38890.85,32775.28,50859.78,-40.122528,19.197485045151552,-0.004825714,7.1203144e-06,5.3105454e-05,2.205378e-05,1.0,41,0.02159348,4.2456887e-07,0,-2.321500624337997e-08,1.0
31,31,79127.08,44757.12,35602.21,57190.188,-38.500618,19.916489852621453,-0.004725997,2.9175553e-08,5.649604e-05,2.1894193e-05,1.0,42,0.018643362,3.2598882e-07,0,-2.326889731149473e-08,1.0
32,32,68475.36,49304.527,34287.473,60054.703,-34.815617,20.332481552351965,-0.0047429707,-3.425816e-07,6.778761e-05,2.209669e-05,1.0,42,0.019335471,3.219643e-07,0,-2.3324759209377612e-08,1.0
33,33,59252.523,54168.35,31821.168,62823.54,-30.432081,20.748493892111583,-0.004765198,2.8638885e-07,8.441063e-05,2.1656317e-05,1.0,42,0.020035198,3.1891227e-07,0,-2.339152103734331e-08,1.0
34,34,51282.285,57956.03,29955.438,65239.785,-27.332855,21.164478871884057,-0.0046936153,-5.902952e-07,0.000103604136,2.1842552e-05,1.0,42,0.020458957,3.1359633e-07,0,-2.3401342746312695e-08,1.0
35,35,44369.8,60173.984,27429.604,66130.87,-24.505314,21.58049625167041,-0.00479568,5.9929084e-07,0.0001307715,2.249799e-05,1.0,42,0.020714646,3.132372e-07,0,-2.3490471829331592e-08,1.0
36,36,38403.727,63112.016,24772.896,67799.875,-21.431133,21.996484431409044,-0.0047472185,-1.5297707e-07,0.00016729,2.2333961e-05,1.0,42,0.021023585,3.1008295e-07,0,-2.3484965970635466e-08,1.0
37,37,33226.32,65256.496,22251.66,68945.97,-18.828743,22.41248253118829,-0.004714147,-3.5710806e-07,0.00021526602,2.2422424e-05,1.0,42,0.021216633,3.077284e-07,0,-2.3473448099696587e-08,1.0
38,38,28754.086,67915.17,19710.31,70717.516,-16.183762,22.828497697628336,-0.0046496815,-5.252926e-07,0.0002808194,2.1815242e-05,1.0,42,0.021456122,3.0340607e-07,0,-2.3479004810214674e-08,1.0
39,39,24884.947,69235.02,17298.492,71363.34,-14.028249,23.244489797361894,-0.004795382,9.509343e-07,0.00036972188,2.1724074e-05,1.0,42,0.021447254,3.0053602e-07,0,-2.3526400444892836e-08,1.0
40,40,21553.963,70136.93,15208.791,71766.96,-12.234841,23.66148635049467,-0.0047007883,2.6011127e-08,0.00048551013,2.180412e-05,1.0,42,0.021429576,2.9859947e-07,0,-2.3435226702571773e-08,1.0
41,41,18631.234,70612.46,13218.575,71839.06,-10.602988,24.07749615694047,-0.0047195316,9.417931e-08,0.00064624,2.1879723e-05,1.0,42,0.0213075,2.966005e-07,0,-2.352173581777824e-08,1.0
42,42,16126.037,71770.59,11675.595,72714.08,-9.239899,24.4934807367099,-0.0046719834,-7.9852214e-07,0.00084530504,2.1793876e-05,1.0,42,0.021236317,2.9205236e-07,0,-2.3482230264641086e-08,1.0
43,43,13954.87,71158.66,7299.5347,71532.07,-5.8569784,24.909479769790778,-0.004803188,9.082839e-07,0.001562425,1.6270014e-05,1.0,42,0.02110141,2.949923e-07,0,-2.3318136345567255e-08,1.0
44,44,12080.609,71102.13,8775.213,71641.59,-7.035696,25.325498082878767,-0.004754895,5.154808e-07,0.0015013211,2.2524671e-05,1.0,42,0.020537242,2.8666648e-07,0,-2.327597541838047e-08,1.0
45,45,10447.592,72540.84,6628.2817,72843.04,-5.2207956,25.74149524929817,-0.004749436,1.2100105e-07,0.0022982801,1.9029561e-05,1.0,42,0.020280354,2.784117e-07,0,-2.3307229795051397e-08,1.0
46,46,9045.586,72351.016,6000.978,72599.46,-4.741405,26.31426647651824,-0.0047789114,2.0313863e-07,0.0029319825,2.0032661e-05,1.0,42,0.020229049,2.786391e-07,0,-2.3263368592492068e-08,1.0
47,47,7827.7437,72414.945,4510.6484,72555.29,-3.5642872,26.79493924602866,-0.004688529,1.5378214e-07,0.0045075915,1.7421453e-05,1.0,42,0.020377614,2.8085634e-07,0,-2.3369275295762925e-08,1.0
48,48,6770.8345,72015.984,4055.0142,72130.055,-3.2227585,27.333421671559336,-0.004643868,-4.19871e-07,0.0057967636,1.8320521e-05,1.0,42,0.020419523,2.8309313e-07,0,-2.3288789953592786e-08,1.0
49,49,5860.798,71946.68,3289.1345,72021.82,-2.6175275,27.938963940367103,-0.004988872,1.6605543e-06,0.00825623,1.7219352e-05,1.0,42,0.020586573,2.8583798e-07,0,-2.3138456689466914e-08,1.0
50,50,5071.625,71852.055,2877.431,71909.65,-2.293276,28.61969799938379,-0.0048102126,4.6798834e-07,0.010906066,1.7462386e-05,1.0,42,0.020694427,2.8778373e-07,0,-2.329160440942641e-08,1.0
51,51,4388.5933,71607.11,3106.8286,71674.48,-2.4843426,29.299812645011116,-0.0047196997,-9.559384e-09,0.0116728665,2.1932243e-05,1.0,42,0.020765854,2.8972454e-07,0,-2.3073408959721716e-08,1.0
52,52,3798.7827,70952.76,1972.898,70980.18,-1.5927444,29.9798259306408,-0.0046795295,1.711042e-07,0.021235919,1.640613e-05,1.0,42,0.020721467,2.9193313e-07,0,-2.2840460086880417e-08,1.0
53,53,3286.0488,71177.734,2132.197,71209.664,-1.7158366,30.65970190961525,-0.0047839046,5.7824957e-07,0.022715317,2.0365524e-05,1.0,42,0.020855099,2.9286895e-07,0,-2.2633460795663604e-08,1.0
54,54,2844.088,71476.18,1881.2084,71500.93,-1.5076411,31.3398124219093,-0.0047441255,4.247786e-07,0.029746797,2.0591626e-05,1.0,42,0.021010013,2.9384253e-07,0,-2.252074478819329e-08,1.0
55,55,2460.7852,71159.445,1812.8792,71182.53,-1.4593686,32.019711867542355,-0.0047125635,2.9272658e-07,0.035676118,2.314027e-05,1.0,42,0.020972721,2.9463297e-07,0,-2.2190914490502836e-08,1.0
56,56,2129.3164,71015.945,1668.2571,71035.54,-1.345705,32.69980189984199,-0.004790556,4.171426e-07,0.044804018,2.471107e-05,1.0,42,0.020965261,2.9513765e-07,0,-2.2272540599346593e-08,1.0
57,57,1843.2289,71056.8,1185.6609,71066.69,-0.95595443,33.37997171879397,-0.0045992825,-6.798768e-07,0.07282498,2.0270722e-05,1.0,42,0.021020398,2.957841e-07,0,-2.2113037989824768e-08,1.0
58,58,1594.4913,70946.15,2116.6443,70977.72,-1.7088852,34.05983073776588,-0.00473358,2.3405765e-07,0.047157425,4.1937426e-05,1.0,42,0.021020861,2.961614e-07,0,-2.1810954211576453e-08,1.0
59,59,1380.4436,71406.62,2298.5942,71443.6,-1.8437268,34.739715330069885,-0.0046870196,-4.140783e-08,0.05015788,5.1920288e-05,1.0,42,0.021094918,2.9526672e-07,0,-2.1584837803739593e-08,1.0
60,60,1194.6187,71598.06,2405.683,71638.47,-1.9244047,35.419808855702286,-0.004728531,1.9736635e-07,0.055379935,6.245061e-05,1.0,42,0.021163085,2.954151e-07,0,-2.1432399152517058e-08,1.0
61,61,1033.3434,71596.18,2490.7126,71639.49,-1.9924219,36.10008008798468,-0.004725997,5.3690235e-07,0.06183749,7.4747055e-05,1.0,42,0.021141822,2.9511406e-07,0,-2.1333281194323205e-08,1.0
62,62,894.71045,71012.33,3100.7944,71079.99,-2.5002651,36.7798211069603,-0.004725792,2.960798e-07,0.057367336,0.000109173154,1.0,42,0.021026678,2.9581713e-07,0,-2.144306007065132e-08,1.0
63,63,774.2569,74674.484,5337.5034,74864.99,-4.088374,37.45993396593258,-0.004709694,-3.822473e-07,0.038512073,0.00019575626,1.0,42,0.021755433,2.9059555e-07,0,-2.1385994643551164e-08,1.0
64,64,669.7856,71378.8,4053.5132,71493.805,-3.2502651,38.13984759821324,-0.0046839453,2.0986402e-08,0.05862094,0.00018844262,1.0,42,0.021043284,2.9433716e-07,0,-2.115744314798462e-08,1.0
65,65,579.81464,72137.89,4561.019,72281.94,-3.6177897,38.819816270523006,-0.004741685,3.58101e-07,0.060182344,0.00023962563,1.0,42,0.021174477,2.9294287e-07,0,-2.1382720459558394e-08,1.0
66,66,501.44418,72034.74,4920.2427,72202.586,-3.907447,39.49719110268052,-0.0046950122,2.7691852e-08,0.06450762,0.00029955636,1.0,42,0.021114035,2.9242767e-07,0,-2.1564654069509556e-08,1.0
67,67,434.02762,72233.35,5357.3853,72431.75,-4.2417326,40.17718905498623,-0.0046782997,-1.0305697e-07,0.068446286,0.00037445332,1.0,42,0.021104502,2.9137087e-07,0,-2.1345017518835936e-08,1.0
68,68,375.6009,72604.39,5940.6807,72847.02,-4.67767,40.85645930052851,-0.0047810352,5.076607e-07,0.07132755,0.00047435786,1.0,42,0.021108717,2.8976774e-07,0,-2.078814416017612e-08,1.0
69,69,325.10385,72838.51,6691.6704,73145.24,-5.2490263,41.53568439952505,-0.00479132,3.7262825e-07,0.07315828,0.00061229453,1.0,42,0.02111849,2.8871995e-07,0,-2.045622952760024e-08,1.0
70,70,281.3503,73352.86,7325.4233,73717.734,-5.7029653,42.21278045834333,-0.0046442226,2.4225258e-07,0.07722181,0.00076253805,1.0,42,0.02116652,2.871293e-07,0,-2.0261152927047654e-08,1.0
71,71,243.36427,73611.11,8450.732,74094.6,-6.549023,42.89610462411656,-0.0047462313,3.5549348e-07,0.07738718,0.001006664,1.0,42,0.021144927,2.8537744e-07,0,-2.020124799092334e-08,1.0
72,72,210.60631,73907.54,8977.532,74450.79,-6.925776,43.573170949617634,-0.00472024,4.5513767e-07,0.084176674,0.0012239597,1.0,42,0.021088397,2.8325283e-07,0,-2.0436562315676413e-08,1.0
73,73,182.27473,75763.69,10377.948,76471.16,-7.799714,44.24425626147422,-0.004701664,5.525648e-08,0.084136054,0.0015495651,1.0,42,0.021348575,2.791716e-07,0,-2.0049763137552173e-08,1.0
74,74,157.72879,74836.66,10830.046,75616.234,-8.234438,44.93264490754518,-0.0046379436,-9.860739e-07,0.09317059,0.0019112142,1.0,42,0.021053823,2.7842992e-07,0,-1.98921318127966e-08,1.0
75,75,136.52892,75711.516,13339.498,76877.664,-9.992305,45.60453136605793,-0.0047016265,7.371217e-07,0.08738884,0.0026310834,1.0,42,0.02111159,2.746128e-07,0,-1.9891502807827207e-08,1.0
76,76,118.14758,76915.34,14226.42,78219.95,-10.479116,46.2929245721316,-0.0046932423,1.8192162e-08,0.094689034,0.0031322457,1.0,42,0.021162374,2.7054955e-07,0,-1.980584356382151e-08,1.0
77,77,102.25773,77154.51,15438.13,78683.88,-11.315095,46.95935788375209,-0.0047583417,2.346161e-07,0.10081596,0.003881031,1.0,42,0.021015754,2.6709097e-07,0,-1.976318242636034e-08,1.0
78,78,88.4436,78690.2,17552.29,80624.01,-12.574301,47.649269329878734,-0.0046488615,1.4540142e-07,0.10252268,0.0048591318,1.0,42,0.021119349,2.6194863e-07,0,-1.967517315897993e-08,1.0
79,79,76.54279,79850.07,19521.695,82201.766,-13.738157,48.3167341882654,-0.004689814,3.9610946e-08,0.10651194,0.0060071857,1.0,42,0.021143705,2.5721715e-07,0,-1.9657773199123774e-08,1.0
80,80,66.250786,81596.15,21491.654,84379.04,-14.756029,48.98499720665859,-0.004665798,-6.375865e-08,0.11177875,0.0072515323,1.0,42,0.021224478,2.5153733e-07,0,-1.9425640966213268e-08,1.0
81,81,57.329906,82808.14,23236.424,86006.51,-15.674415,49.63964030444913,-0.004751839,-9.6166346e-08,0.11947295,0.008720584,1.0,42,0.021137523,2.4576656e-07,0,-1.956532545316334e-08,1.0
82,82,49.60321,84763.4,25917.568,88637.2,-17.00173,50.32534076363663,-0.004726705,3.5549226e-07,0.123798706,0.010584553,1.0,42,0.02120688,2.3925483e-07,0,-1.9559492251651988e-08,1.0
83,83,42.92585,85493.08,27323.547,89753.234,-17.723854,51.033455810596934,-0.0047348286,1.7594644e-07,0.1356951,0.012575872,1.0,42,0.020978382,2.33734e-07,0,-1.9222428613236924e-08,1.0
84,84,37.1518,88411.51,30808.863,93625.75,-19.211973,51.677190827875165,-0.0047591804,4.3017957e-07,0.13904797,0.015056546,1.0,42,0.021154838,2.2595106e-07,0,-1.9295183725804557e-08,1.0
85,85,32.150223,90894.5,33382.805,96830.89,-20.166758,52.3153902181366,-0.004747871,2.9067684e-07,0.14829049,0.01762508,1.0,42,0.021165848,2.185857e-07,0,-1.956492968401117e-08,1.0
86,86,27.835518,93583.24,34354.254,99689.71,-20.158102,53.04332158606849,-0.004734223,3.1721763e-07,0.16643333,0.019765174,1.0,42,0.021075932,2.1141533e-07,0,-1.9543480701989165e-08,1.0
87,87,24.082958,95719.42,38423.67,103143.52,-21.871504,53.74538383274921,-0.0046330434,-3.1351544e-08,0.17199326,0.023868507,1.0,42,0.021086683,2.0444021e-07,0,-1.9720171600402144e-08,1.0
88,88,20.833313,98876.4,41918.36,107395.02,-22.974375,54.399778077204246,-0.0047934996,5.257253e-07,0.1822458,0.027765004,1.0,42,0.02111584,1.9661842e-07,0,-1.920485990911184e-08,1.0
89,89,18.021912,102224.86,45983.914,112091.23,-24.219694,55.145737072627526,-0.004900502,1.9485908e-06,0.19204958,0.03232079,1.0,42,0.021174436,1.889036e-07,0,-1.9421602143781215e-08,1.0
90,90,15.604198,105282.35,49016.152,116133.36,-24.965206,55.80101211706642,-0.004737791,1.6197652e-07,0.20808437,0.037068408,1.0,42,0.02111345,1.8180349e-07,0,-1.8793324795299307e-08,1.0
91,91,13.500899,108779.64,53292.543,121132.59,-26.100826,56.54900759260636,-0.0047363006,3.8286987e-07,0.22120298,0.04281558,1.0,42,0.021118501,1.7434202e-07,0,-1.8651502131800435e-08,1.0
92,92,11.686608,112321.57,56018.574,125515.8,-26.506987,57.139895967324264,-0.0047418154,4.2514887e-07,0.2431082,0.0484247,1.0,42,0.021020314,1.6747146e-07,0,-1.871033835100396e-08,1.0
93,93,10.113269,117172.29,61881.316,132509.03,-27.83954,58.06351593116415,-0.004896943,2.0544577e-07,0.2543133,0.05546221,1.0,43,0.021169715,1.5976055e-07,0,-1.9214146259149028e-08,1.0
94,94,8.748621,121417.53,65937.65,138166.53,-28.504848,58.83036706093117,-0.004718861,1.7199909e-07,0.27589706,0.06283596,1.0,43,0.02110933,1.5278178e-07,0,-1.8372487179819232e-08,1.0
95,95,7.570237,125966.125,70838.93,144518.58,-29.351873,59.70599995588418,-0.004720296,1.5433496e-07,0.29678273,0.07130751,1.0,43,0.021107031,1.4605064e-07,0,-1.9832613979551026e-08,1.0
96,96,6.554112,130214.8,76204.11,150873.98,-30.336962,60.242317021329654,-0.004779023,1.2890517e-07,0.31866026,0.08129352,1.0,43,0.02106478,1.3961838e-07,0,-1.8503602028118847e-08,1.0
97,97,5.669445,134936.11,82679.77,158252.02,-31.497164,60.85212483696523,-0.004792028,1.5557269e-07,0.3395317,0.09267879,1.0,43,0.021104282,1.333587e-07,0,-1.9874701775305444e-08,1.0
98,98,4.907347,139873.97,88867.76,165717.25,-32.429497,61.544559643167304,-0.004694733,2.5570733e-07,0.36494642,0.10494992,1.0,43,0.021081887,1.2721601e-07,0,-1.7926584627971032e-08,1.0
99,99,4.245922,145623.97,96755.03,174836.72,-33.600735,62.33228821391822,-0.0047826655,-1.8571182e-08,0.38741332,0.11864689,1.0,43,0.021184526,1.2116749e-07,0,-1.9823856153858323e-08,1.0
100,100,3.6747382,150547.03,104318.11,183157.52,-34.719135,63.2319621766801,-0.004702279,2.7642517e-07,0.4151777,0.13468026,1.0,43,0.021123564,1.1533004e-07,0,-1.9533078162338945e-08,1.0
101,101,3.180988,155101.53,113738.4,192335.4,-36.25318,64.26016550548957,-0.0046973974,2.1096561e-07,0.43989697,0.153832,1.0,43,0.021122105,1.09819126e-07,0,-1.7490603983681494e-08,1.0
102,102,2.752818,160685.84,123979.414,202955.25,-37.652485,65.4391120148648,-0.004737095,3.6835125e-08,0.46632963,0.17401697,1.0,43,0.021102145,1.0397437e-07,0,-1.852711954053553e-08,1.0
103,103,2.3804083,166211.72,135857.12,214670.67,-39.26167,66.79304103917093,-0.004756913,1.0482105e-07,0.49213728,0.19710864,1.0,43,0.021143304,9.849182e-08,0,-2.0497936321693424e-08,1.0
104,104,2.060257,171749.08,150217.97,228173.58,-41.174118,68.34926452641957,-0.00475156,2.023524e-07,0.5142531,0.22288966,1.0,43,0.021142,9.265753e-08,0,-1.9767902861730134e-08,1.0
105,105,1.7836765,177177.72,165601.47,242519.67,-43.065758,70.13765629138652,-0.0047050766,1.889053e-07,0.53881526,0.2512316,1.0,43,0.021157183,8.723904e-08,0,-1.7345300437807985e-08,1.0
