True,index,freq,Re(Z),Im(Z),Z,Phase(Z),time,Ewe_meas,I_meas,Cs,Cp,cycle_number,I_Range,Ewe,I,Ns,(QQo),cycle
110,110,7000018.5,145.80571,1472.7532,1479.9531,-84.346016,82.53948570703506,0.008116913,-1.6342217e-05,1.5437998e-05,1.5288153e-05,2.0,40,0.009999832,6.7568576e-06,0,2.99750443801674e-08,2.0
111,111,6057573.0,197.37138,1569.8467,1582.2054,-82.834,83.09148629326955,0.00815045,-2.4807783e-05,1.6736485e-05,1.6476046e-05,2.0,40,0.014147029,8.941335e-06,0,2.686882375172534e-08,2.0
112,112,5242039.0,262.0819,1752.1227,1771.6154,-81.49279,83.50748471301631,0.008131949,-3.6906442e-06,1.7328277e-05,1.6949056e-05,2.0,40,0.019524034,1.102047e-05,0,2.7987163898885313e-08,2.0
113,113,4536288.0,260.2746,2039.6815,2056.2207,-82.72804,84.87550443134387,0.008154401,-2.7152048e-05,1.7201137e-05,1.6925536e-05,2.0,40,0.020369295,9.906182e-06,0,2.2923084503694783e-09,2.0
114,114,3925558.5,290.80154,2324.2751,2342.3962,-82.8685,85.29149730442441,0.008088016,-1.10955925e-05,1.74434e-05,1.7174554e-05,2.0,40,0.018979162,8.1024555e-06,0,-1.6781909234698923e-09,2.0
115,115,3397055.0,304.11078,2660.3618,2677.687,-83.47872,85.7074941508763,0.008109684,-3.645475e-05,1.761071e-05,1.7383556e-05,2.0,40,0.019879382,7.4240875e-06,0,-5.9197686277104745e-09,2.0
116,116,2939708.2,398.98917,3043.4,3069.4421,-82.53113,86.12349702397478,0.008082221,-3.604542e-05,1.7789218e-05,1.7488639e-05,2.0,40,0.021547519,7.0200113e-06,0,-6.723742841884731e-09,2.0
117,117,2543924.5,409.57266,3401.0403,3425.613,-83.13319,86.67549454348045,0.00811546,-6.276275e-05,1.8395183e-05,1.8132225e-05,2.0,40,0.020793378,6.069973e-06,0,-1.2224673338394412e-08,2.0
118,118,2201436.2,545.26483,3915.7585,3953.54,-82.0726,87.22749923638185,0.008000968,-1.3979432e-05,1.8462822e-05,1.8111634e-05,2.0,40,0.020678662,5.2304167e-06,0,-3.2450284875723176e-09,2.0
119,119,1905053.1,532.2629,4756.511,4786.199,-83.61505,87.77949688929948,0.008059137,-3.7496637e-05,1.7564043e-05,1.7346825e-05,2.0,40,0.020360302,4.2539605e-06,0,-6.04948329384531e-09,2.0
120,120,1648567.4,599.4709,5555.5327,5587.782,-83.84132,88.49849687007372,0.007968083,2.1035908e-06,1.7377519e-05,1.717751e-05,2.0,41,0.018921351,3.3862007e-06,0,-1.940901508662761e-08,2.0
121,121,1426616.2,634.48895,6262.3213,6294.382,-84.21462,88.91448800984654,0.007963891,4.1892454e-06,1.7814664e-05,1.7633647e-05,2.0,41,0.021791726,3.4620916e-06,0,-1.9458903998421602e-08,2.0
122,122,1234551.2,980.6714,7099.1616,7166.576,-82.134995,89.46649134272593,0.007991987,1.5021192e-06,1.8159502e-05,1.7819462e-05,2.0,41,0.021027563,2.9341156e-06,0,-1.961331640940273e-08,2.0
123,123,1068345.5,1062.4966,8206.956,8275.447,-82.62335,90.01848888894892,0.008118572,-6.0583275e-06,1.8152075e-05,1.7852852e-05,2.0,41,0.020643508,2.4945489e-06,0,-1.972374495719779e-08,2.0
124,124,924510.06,1362.1649,9517.763,9614.744,-81.85524,90.57048278182629,0.008125372,-7.639317e-06,1.8087296e-05,1.7724251e-05,2.0,41,0.020328026,2.1142555e-06,0,-1.865365536619359e-08,2.0
125,125,800039.0,1976.133,10948.916,11125.819,-79.76902,91.12250672807568,0.007983548,7.0886576e-06,1.8169285e-05,1.7596087e-05,2.0,41,0.020753123,1.8653119e-06,0,-1.8677043572367128e-08,2.0
126,126,692334.1,2648.7344,12530.883,12807.764,-78.064705,91.67448459428851,0.007997707,8.48343e-06,1.8345212e-05,1.7560604e-05,2.0,41,0.020309431,1.5857125e-06,0,-1.9821411118439354e-08,2.0
127,127,599122.25,2958.9731,14250.162,14554.128,-78.26952,92.22650627381518,0.008059453,-1.7417968e-06,1.8641673e-05,1.7871134e-05,2.0,41,0.020539615,1.411257e-06,0,-1.963746034016821e-08,2.0
128,128,518454.94,3723.0562,16147.159,16570.814,-77.016205,92.77848899338278,0.007994913,2.2637512e-06,1.9011351e-05,1.8051676e-05,2.0,41,0.020558745,1.2406599e-06,0,-2.0045277388340288e-08,2.0
129,129,448662.03,4776.1953,18631.016,19233.48,-75.62146,93.33050701962202,0.007979449,7.5579273e-06,1.9039882e-05,1.7865763e-05,2.0,41,0.020274643,1.0541328e-06,0,-1.937517375859442e-08,2.0
130,130,388258.97,6033.4624,20616.64,21481.354,-73.68788,93.88248376580304,0.008020662,3.9732313e-06,1.9882948e-05,1.8314424e-05,2.0,41,0.020884544,9.722173e-07,0,-1.9235262381142705e-08,2.0
131,131,335983.9,13756.645,24615.582,28198.797,-60.800957,94.43449253871222,0.00815468,-6.8087875e-06,1.9243831e-05,1.4663937e-05,2.0,41,0.02028905,7.195006e-07,0,-1.794593201486864e-08,2.0
132,132,290751.2,10473.992,25006.213,27111.164,-67.27335,94.98650181826088,0.008020531,7.702835e-07,2.1890248e-05,1.8623025e-05,2.0,41,0.020456046,7.545248e-07,0,-1.761690465913526e-08,2.0
133,133,251605.19,12456.7705,29327.797,31863.629,-66.98699,95.53848701782408,0.008022525,3.2674668e-06,2.1568558e-05,1.8272145e-05,2.0,41,0.02038298,6.3969424e-07,0,-1.699115443225511e-08,2.0
134,134,217729.38,15880.453,32089.285,35803.785,-63.669956,96.09050523067708,0.007974213,6.2990916e-06,2.277944e-05,1.829807e-05,2.0,41,0.020282704,5.664961e-07,0,-1.5510694351040676e-08,2.0
135,135,188418.58,19828.557,34986.406,40214.676,-60.457592,96.64250784358592,0.008038586,2.228041e-07,2.4143324e-05,1.8273704e-05,2.0,41,0.020756064,5.161316e-07,0,-1.5839215863837925e-08,2.0
136,136,163051.14,23879.664,36936.945,43983.816,-57.11741,97.19450725647039,0.008021165,1.46115e-06,2.6426238e-05,1.8636805e-05,2.0,41,0.020344049,4.6253487e-07,0,-1.6775535583236905e-08,2.0
137,137,141098.2,28462.68,39794.566,48925.777,-54.42612,97.74650061599095,0.0081098145,-5.8125233e-06,2.8344894e-05,1.8751973e-05,2.0,41,0.019967876,4.0812589e-07,0,-1.599243176743729e-08,2.0
138,138,122105.11,33688.027,45319.258,56468.74,-53.374767,98.32849560366594,0.008085836,-2.8242255e-07,2.876097e-05,1.8524775e-05,2.0,42,0.020493517,3.6291792e-07,0,-1.602069723717451e-08,2.0
139,139,105663.59,39369.016,44836.895,59667.97,-48.715263,98.7444945567695,0.0079362225,9.948877e-07,3.359381e-05,1.8969145e-05,2.0,42,0.021763593,3.64745e-07,0,-1.5900724821292813e-08,2.0
140,140,91439.65,45589.676,46480.32,65106.367,-45.554237,99.29648698298843,0.008057217,3.899442e-07,3.7446953e-05,1.9085686e-05,2.0,42,0.020316795,3.1205542e-07,0,-1.570074921343867e-08,2.0
141,141,79127.08,51743.973,46601.98,69636.08,-42.00703,99.71250065605273,0.008137409,-4.660661e-07,4.316091e-05,1.9329951e-05,2.0,42,0.021258386,3.0527832e-07,0,-1.5683407201542622e-08,2.0
142,142,68475.36,58063.043,44522.55,73168.125,-37.480873,100.26448326892569,0.0081241615,-2.4777975e-07,5.2204236e-05,1.9329562e-05,2.0,42,0.020230083,2.7648764e-07,0,-1.5729910118542337e-08,2.0
143,143,59252.523,64012.906,42952.82,77088.24,-33.86171,100.68050587535254,0.008004284,7.5872134e-07,6.2534775e-05,1.941461e-05,2.0,42,0.020890271,2.7099168e-07,0,-1.5676442044200872e-08,2.0
144,144,51282.285,70506.2,42581.176,82366.75,-31.129253,101.09650472181966,0.00813629,-3.8821298e-07,7.288449e-05,1.9478995e-05,2.0,42,0.021432823,2.6021206e-07,0,-1.5704970876993506e-08,2.0
145,145,44369.8,74203.125,36816.824,82834.67,-26.388893,101.51248431488057,0.00801196,6.456672e-07,9.742857e-05,1.9246629e-05,2.0,42,0.021784425,2.629868e-07,0,-1.5841716648235267e-08,2.0
146,146,38403.727,77266.62,34163.625,84482.445,-23.852736,101.92850734796957,0.008044957,4.1955863e-07,0.00012130615,1.983708e-05,2.0,42,0.021978049,2.601493e-07,0,-1.5725837598082118e-08,2.0
147,147,33226.32,81882.98,30440.553,87358.164,-20.39296,102.48049273420474,0.008140613,-2.2021415e-07,0.00015735674,1.9106601e-05,2.0,42,0.020241868,2.3171124e-07,0,-1.600803932507608e-08,2.0
148,148,28754.086,84791.21,26908.344,88958.46,-17.606745,102.89650691396673,0.008079091,1.8693096e-07,0.00020569967,1.882058e-05,2.0,42,0.020392762,2.2923915e-07,0,-1.5922181803237913e-08,2.0
149,149,24884.947,87952.91,24309.002,91250.43,-15.450085,103.31249581373413,0.008018705,5.180859e-07,0.00026309723,1.8671564e-05,2.0,42,0.020468347,2.2430959e-07,0,-1.591565672659397e-08,2.0
150,150,21553.963,89715.586,21324.668,92215.12,-13.3706255,103.72948927353718,0.007952283,1.1330874e-06,0.0003462667,1.8517017e-05,2.0,42,0.020474117,2.220256e-07,0,-1.590851532997818e-08,2.0
151,151,18631.234,90087.336,18788.559,92025.75,-11.7807,104.14550033331034,0.007950439,1.2480045e-06,0.00045465823,1.8951921e-05,2.0,42,0.020354815,2.2118608e-07,0,-1.5917686558443932e-08,2.0
152,152,16126.037,92098.24,16632.041,93587.984,-10.236726,104.56149235306657,0.008095692,-8.946472e-08,0.00059339916,1.8741219e-05,2.0,42,0.02028819,2.16782e-07,0,-1.580942570151282e-08,2.0
153,153,13954.87,89157.88,16675.457,90703.91,-10.5938,104.97748303945991,0.008047771,3.4617705e-07,0.0006839378,2.3116396e-05,2.0,42,0.019591434,2.1599328e-07,0,-1.5605429937624432e-08,2.0
154,154,12080.609,92427.73,12718.991,93298.75,-7.8352695,105.39349647253403,0.00808986,1.8637361e-07,0.0010358065,1.9250068e-05,2.0,42,0.019613532,2.1022288e-07,0,-1.5616374483684383e-08,2.0
155,155,10447.592,92542.7,9776.072,93057.63,-6.030275,105.80948342566262,0.008060105,1.7110101e-07,0.0015582585,1.719746e-05,2.0,42,0.019136457,2.0564092e-07,0,-1.5504658035219364e-08,2.0
156,156,9045.586,92182.836,8699.721,92592.445,-5.3912997,106.24125757950242,0.0080154445,5.620433e-07,0.0020224515,1.7854087e-05,2.0,42,0.021735504,2.3474382e-07,0,-1.547855241371406e-08,2.0
157,157,7827.7437,92535.92,7030.003,92802.57,-4.3444457,106.72195066901622,0.007998061,7.7343896e-07,0.002892198,1.6596596e-05,2.0,42,0.021882923,2.3580084e-07,0,-1.548262515847555e-08,2.0
158,158,6770.8345,92473.74,5982.4707,92667.055,-3.701519,107.43542627620627,0.007939949,1.188779e-06,0.0039291386,1.6376e-05,2.0,42,0.020084897,2.1674259e-07,0,-1.5265683198113205e-08,2.0
159,159,5860.798,92760.99,4800.8125,92885.14,-2.9626794,108.04196987839532,0.007923777,2.8797535e-06,0.0056565106,1.5110736e-05,2.0,42,0.020265253,2.181754e-07,0,-1.5144485563696286e-08,2.0
160,160,5071.625,92963.32,4051.2712,93051.555,-2.495328,108.72272015074122,0.008116373,4.0875955e-07,0.007746075,1.4683076e-05,2.0,42,0.020386992,2.1909352e-07,0,-1.5123344628317287e-08,2.0
161,161,4388.5933,92926.62,3623.5396,92997.234,-2.233035,109.40285252968897,0.008031077,6.3691743e-07,0.010008334,1.5194547e-05,2.0,42,0.020454725,2.1994983e-07,0,-1.485718361622289e-08,2.0
162,162,3798.7827,91849.43,2771.7021,91891.24,-1.7284665,110.08284882866428,0.008076259,7.279946e-07,0.0151157295,1.37522575e-05,2.0,42,0.020422209,2.2224326e-07,0,-1.4573917389773131e-08,2.0
163,163,3286.0488,91637.46,2198.4915,91663.83,-1.3743302,110.76267782096693,0.00802409,8.667518e-07,0.022030348,1.2672868e-05,2.0,42,0.020475024,2.2337082e-07,0,-1.4401024305276048e-08,2.0
164,164,2844.088,91690.484,2784.9524,91732.766,-1.7397332,111.44281353327096,0.008008905,7.790274e-07,0.020093672,1.852021e-05,2.0,42,0.020502822,2.2350599e-07,0,-1.4214071740943308e-08,2.0
165,165,2460.7852,91174.71,2186.9949,91200.94,-1.3740823,112.1227131922351,0.007989696,7.9653506e-07,0.029573223,1.7005743e-05,2.0,42,0.020486958,2.246354e-07,0,-1.3915554866335396e-08,2.0
166,166,2129.3164,91424.484,2482.8125,91458.19,-1.5555978,112.80281226453371,0.008086972,3.310935e-07,0.030104818,2.2185983e-05,2.0,42,0.020559454,2.2479621e-07,0,-1.3796077941907193e-08,2.0
167,167,1843.2289,92184.445,3442.9312,92248.72,-2.138905,113.48293565682252,0.008056919,6.210866e-07,0.025079133,3.4934015e-05,2.0,42,0.020698307,2.24375e-07,0,-1.3449584521724845e-08,2.0
168,168,1594.4913,91342.055,2736.757,91383.05,-1.7161616,114.1628178491228,0.007997596,8.8258344e-07,0.03647218,3.2711687e-05,2.0,42,0.020583399,2.2524307e-07,0,-1.3156248793171739e-08,2.0
169,169,1380.4436,91474.65,2966.7646,91522.74,-1.8576025,114.84271905475907,0.008030965,7.274362e-07,0.038861394,4.083443e-05,2.0,42,0.020588664,2.2495682e-07,0,-1.2863383396828354e-08,2.0
170,170,1194.6187,91476.91,2475.659,91510.4,-1.5502294,115.52283100705245,0.008031934,6.8888215e-07,0.05381459,3.93859e-05,2.0,42,0.020616578,2.252922e-07,0,-1.2743322008589667e-08,2.0
171,171,1033.3434,91521.695,3313.72,91581.664,-2.0735986,116.20310383933247,0.008024705,8.2130674e-07,0.04647931,6.085191e-05,2.0,42,0.020629732,2.2526051e-07,0,-1.262772294049282e-08,2.0
172,172,894.71045,91526.18,2661.46,91564.87,-1.665616,116.88281765831925,0.008031449,7.6412755e-07,0.06683712,5.6467667e-05,2.0,42,0.020626564,2.2526723e-07,0,-1.2599421046188337e-08,2.0
173,173,774.2569,88423.74,6637.7803,88672.53,-4.2930193,117.56294147728477,0.008080209,7.0322363e-07,0.03096793,0.00017353207,2.0,42,0.02027667,2.2866912e-07,0,-1.236088651643937e-08,2.0
174,174,669.7856,90946.43,3106.435,90999.47,-1.9562774,118.24284972291207,0.008099921,4.102506e-07,0.07649307,8.913924e-05,2.0,42,0.020515783,2.2544947e-07,0,-1.2138174589325127e-08,2.0
175,175,579.81464,91779.99,4044.1458,91869.05,-2.5230193,118.92283335521643,0.008051255,7.410323e-07,0.06787411,0.00013152834,2.0,42,0.020634163,2.2460408e-07,0,-1.218707540593241e-08,2.0
176,176,501.44418,92123.28,4769.0913,92246.64,-2.9634757,119.60016573403846,0.008018575,7.5798124e-07,0.06655212,0.00017788202,2.0,42,0.02066577,2.2402735e-07,0,-1.227354445708606e-08,2.0
177,177,434.02762,92010.57,3742.194,92086.64,-2.3290129,120.28022555299685,0.008060161,7.75675e-07,0.0979888,0.00016182134,2.0,42,0.02073692,2.2518924e-07,0,-1.1717298111314475e-08,2.0
178,178,375.6009,91982.49,6265.878,92195.664,-3.896987,120.95845475854003,0.008047715,7.637551e-07,0.06762567,0.0003123593,2.0,42,0.020586928,2.2329606e-07,0,-1.1391104648226778e-08,2.0
179,179,325.10385,92689.72,6417.863,92911.64,-3.9608545,121.63770103083516,0.008054739,6.0115775e-07,0.076279454,0.00036395542,2.0,42,0.020646485,2.2221634e-07,0,-1.1434468472791122e-08,2.0
180,180,281.3503,93002.195,7293.921,93287.78,-4.48438,122.31480799632845,0.008014178,8.6954566e-07,0.077555336,0.0004741156,2.0,42,0.020663774,2.2150569e-07,0,-1.1541360733708336e-08,2.0
181,181,243.36427,93351.71,7970.1934,93691.336,-4.879971,122.99811245538876,0.008031319,5.000234e-07,0.082053006,0.0005937906,2.0,42,0.020660345,2.2051499e-07,0,-1.117677722820017e-08,2.0
182,182,210.60631,93443.01,8948.914,93870.54,-5.470458,123.6751739809115,0.008029978,7.894576e-07,0.08444587,0.00076746836,2.0,42,0.020632232,2.1979453e-07,0,-1.0820395713050404e-08,2.0
183,183,182.27473,96837.82,9744.599,97326.875,-5.746218,124.34729198613786,0.008066999,6.058139e-07,0.089604475,0.00089823926,2.0,42,0.02100043,2.1577216e-07,0,-1.0889469814414138e-08,2.0
184,184,157.72879,93316.78,11296.066,93997.99,-6.9021153,125.03563105890134,0.008179236,4.2105304e-07,0.08932683,0.0012900283,2.0,42,0.020460136,2.1766567e-07,0,-1.0531085159184489e-08,2.0
185,185,136.52892,95117.164,13624.53,96087.99,-8.151567,125.7075448773976,0.007956886,9.736599e-07,0.08556063,0.0017201994,2.0,42,0.020637382,2.1477587e-07,0,-1.0683132268354908e-08,2.0
186,186,118.14758,96190.055,14026.499,97207.35,-8.296435,126.39592547016218,0.008019265,4.4731416e-07,0.09603864,0.001999615,2.0,42,0.020670991,2.1264843e-07,0,-1.0501441149686307e-08,2.0
187,187,102.25773,96985.66,16128.24,98317.53,-9.441607,127.06235864842893,0.00800026,8.1385656e-07,0.096502155,0.002596863,2.0,42,0.020711035,2.1065455e-07,0,-1.039214027565648e-08,2.0
188,188,88.4436,97421.79,17672.33,99011.695,-10.281662,127.75230009455117,0.008087698,5.203244e-07,0.10182627,0.0032439525,2.0,42,0.02063042,2.0836346e-07,0,-1.0228176946483222e-08,2.0
189,189,76.54279,99072.24,19544.082,100981.586,-11.159509,128.4197528996301,0.007983399,9.3752703e-07,0.10638993,0.003985169,2.0,42,0.020682551,2.0481507e-07,0,-1.0199149607360446e-08,2.0
190,190,66.250786,99298.555,21550.248,101610.12,-12.24472,129.08799882468884,0.008082668,2.9309788e-07,0.111474834,0.0050142673,2.0,42,0.020563316,2.0237468e-07,0,-1.0038487833596695e-08,2.0
191,191,57.329906,101307.49,24531.6,104235.34,-13.612148,129.74265024247143,0.008046839,6.4641625e-07,0.113165244,0.0062680836,2.0,42,0.0206687,1.9828879e-07,0,-9.867447623917632e-09,2.0
192,192,49.60321,102954.32,26232.27,106243.7,-14.294535,130.42837731496547,0.008061745,7.6282316e-07,0.12231353,0.007456582,2.0,42,0.020660967,1.9446769e-07,0,-9.695483178089819e-09,2.0
193,193,42.92585,104581.69,30682.387,108989.625,-16.35074,131.13641588194878,0.008042778,7.807031e-07,0.120840386,0.009576792,2.0,42,0.020745197,1.9034103e-07,0,-9.596896304620412e-09,2.0
194,194,37.1518,106015.305,32706.06,110945.625,-17.14516,131.78116841925657,0.008044585,6.8348e-07,0.13098213,0.011382775,2.0,42,0.020640217,1.8603903e-07,0,-9.565635107458448e-09,2.0
195,195,32.150223,107564.41,35904.32,113398.51,-18.458685,132.42039954292704,0.008035064,7.503439e-07,0.13787624,0.013821913,2.0,42,0.020580111,1.8148485e-07,0,-9.466325306788666e-09,2.0
196,196,27.835518,109500.39,39007.61,116240.82,-19.607557,133.1483382442093,0.008052075,6.693242e-07,0.14657891,0.016506417,2.0,42,0.020550435,1.767919e-07,0,-9.511526814376837e-09,2.0
197,197,24.082958,111947.78,43137.246,119971.36,-21.073353,133.8503891308501,0.008116093,2.770797e-07,0.15319969,0.019806491,2.0,42,0.020531135,1.7113364e-07,0,-9.47294758491641e-09,2.0
198,198,20.833313,115012.79,47246.145,124338.81,-22.332386,134.50475913532136,0.008016693,7.250132e-07,0.16169457,0.02334612,2.0,42,0.02055358,1.65303e-07,0,-8.767466777722691e-09,2.0
199,199,18.021912,118886.56,52256.53,129864.39,-23.727867,135.25074394408148,0.007964087,1.1491062e-06,0.16899689,0.027364008,2.0,42,0.020643577,1.5896256e-07,0,-9.190997858855305e-09,2.0
200,200,15.604198,122300.55,57186.582,135010.11,-25.060347,135.9070061352395,0.008115013,5.3056607e-07,0.17835468,0.031999283,2.0,42,0.020647742,1.5293479e-07,0,-8.615032159869893e-09,2.0
201,201,13.500899,125808.17,62394.96,140430.86,-26.379257,136.9270122636808,0.008108166,4.8840195e-07,0.18893304,0.03729768,2.0,43,0.02058771,1.466039e-07,0,-9.748506720930144e-09,2.0
202,202,11.686608,129407.67,68864.09,146589.94,-28.019608,137.5178642651008,0.008003018,4.9458464e-07,0.19776016,0.043643158,2.0,43,0.020575333,1.4035979e-07,0,-9.82929340244924e-09,2.0
203,203,10.113269,133728.9,75213.414,153429.06,-29.354794,138.19154099040315,0.0079282485,5.265595e-07,0.2092345,0.050281547,2.0,43,0.020549374,1.3393404e-07,0,-9.471850624062948e-09,2.0
204,204,8.748621,139404.11,82039.86,161753.03,-30.476976,138.95738241341314,0.008049346,5.2791853e-07,0.22174591,0.057042766,2.0,43,0.020627433,1.2752425e-07,0,-8.400389864206116e-09,2.0
205,205,7.570237,143886.45,89462.49,169430.95,-31.871595,139.83297104170197,0.008099353,5.4523736e-07,0.23500095,0.065518826,2.0,43,0.020566178,1.2138383e-07,0,-9.290653653577852e-09,2.0
206,206,6.554112,150089.75,97734.39,179105.95,-33.07109,140.36931373385596,0.0080662165,3.6768668e-07,0.24846138,0.0739833,2.0,43,0.020656556,1.1533149e-07,0,-8.677004055090729e-09,2.0
207,207,5.669445,156641.45,107096.15,189752.81,-34.36051,140.9791247227986,0.007994633,7.096592e-07,0.26212335,0.08349818,2.0,43,0.020739881,1.0929947e-07,0,-9.1197332210612e-09,2.0
208,208,4.907347,161725.4,116031.74,199043.89,-35.65798,141.6715293956513,0.008005514,5.4132676e-07,0.27950945,0.094984435,2.0,43,0.020604622,1.0351798e-07,0,-7.888274713783961e-09,2.0
209,209,4.245922,168154.23,126548.664,210452.88,-36.964203,142.459328073106,0.008131316,3.36037e-07,0.29620373,0.1071016,2.0,43,0.020588327,9.782868e-08,0,-9.476274598873137e-09,2.0
210,210,3.6747382,175108.77,139155.1,223667.66,-38.473396,143.35891419585096,0.008027304,6.775345e-07,0.31123942,0.12047209,2.0,43,0.020637674,9.2269374e-08,0,-8.369392855862628e-09,2.0
211,211,3.180988,182114.02,151909.02,237153.67,-39.83292,144.38821027139784,0.008022684,5.251618e-07,0.32936278,0.13513938,2.0,43,0.020628177,8.698232e-08,0,-7.143679012274726e-09,2.0
212,212,2.752818,189037.0,167510.05,252575.94,-41.54489,145.5671681406966,0.008076272,4.0198586e-07,0.34514514,0.15180969,2.0,43,0.020646695,8.17445e-08,0,-8.474178778358827e-09,2.0
213,213,2.3804083,197255.27,184301.22,269956.62,-43.055527,146.92198231176008,0.00803109,5.147592e-07,0.3627776,0.16908649,2.0,43,0.020666344,7.6554315e-08,0,-9.27300991932863e-09,2.0
214,214,2.060257,204225.77,204339.42,288899.22,-45.015938,148.47835763896,0.008059076,5.7746837e-07,0.3780477,0.18912902,2.0,43,0.020656286,7.149997e-08,0,-7.73572100108286e-09,2.0
