True,index,freq,Re(Z),Im(Z),Z,Phase(Z),time,Ewe_meas,I_meas,Cs,Cp,cycle_number,I_Range,Ewe,I,Ns,(QQo),cycle
0,0,7000018.5,137.35034,1113.0507,1121.4932,-82.96527,2.4664749971416313,-0.01767358,3.3222535e-05,2.0427067e-05,2.0120679e-05,1.0,40,0.009841163,8.775054e-06,0,7.768567442856996e-09,1.0
1,1,6057573.0,225.49722,1391.0962,1409.2543,-80.79242,3.0185024100064766,-0.017552102,-3.580357e-05,1.888706e-05,1.840348e-05,1.0,40,0.014079169,9.99051e-06,0,5.726834183911301e-09,1.0
2,2,5242039.0,226.2914,1578.8623,1594.9966,-81.8436,3.435485443129437,-0.01763764,1.8747443e-05,1.922984e-05,1.8842766e-05,1.0,40,0.019416243,1.2173219e-05,0,7.349387629511107e-09,1.0
3,3,4536288.0,251.18468,1782.6981,1800.3073,-81.979744,4.803488521458348,-0.017627448,1.4258297e-06,1.9680754e-05,1.9297633e-05,1.0,40,0.020905584,1.1612231e-05,0,-4.75453415250134e-09,1.0
4,4,3925558.5,267.12906,2055.3289,2072.6155,-82.59483,5.219501394574763,-0.017651651,-2.5557235e-06,1.9725923e-05,1.9398249e-05,1.0,40,0.01901329,9.173573e-06,0,-6.557143956216452e-09,1.0
5,5,3397055.0,318.55457,2333.3662,2355.0105,-82.22596,5.635501147626201,-0.017703112,1.2254175e-05,2.0078656e-05,1.9711277e-05,1.0,40,0.019849563,8.428651e-06,0,-7.076247326823351e-09,1.0
6,6,2939708.2,365.64935,2664.3357,2689.3093,-82.18563,6.051496820728062,-0.017696591,-1.5728338e-05,2.0320153e-05,1.9944508e-05,1.0,40,0.021579107,8.024033e-06,0,-7.706682172233236e-09,1.0
7,7,2543924.5,419.2825,2990.73,3019.9775,-82.019485,6.60348778028856,-0.017692268,7.0446563e-06,2.0918893e-05,2.051567e-05,1.0,40,0.020028852,6.6321195e-06,0,-5.443189258888499e-09,1.0
8,8,2201436.2,403.47314,3308.072,3332.5862,-83.046196,7.155499886517646,-0.017710248,-4.602318e-06,2.1854408e-05,2.1534073e-05,1.0,40,0.020826047,6.249215e-06,0,-2.9750034578784028e-09,1.0
9,9,1905053.1,487.46176,3945.269,3975.2693,-82.95646,7.707488659390947,-0.017698416,-1.7495839e-05,2.1175632e-05,2.0857226e-05,1.0,40,0.020653471,5.19549e-06,0,-6.002338083905872e-09,1.0
10,10,1648567.4,626.95557,4734.8657,4776.194,-82.4572,8.259498125611572,-0.017707434,1.0895983e-05,2.0389463e-05,2.0038131e-05,1.0,40,0.020009488,4.1894214e-06,0,-5.895944239240533e-09,1.0
11,11,1426616.2,651.259,5378.372,5417.6587,-83.09576,8.978486933076056,-0.017754236,3.362426e-06,2.074255e-05,2.0442807e-05,1.0,41,0.019394211,3.5798141e-06,0,-2.343511174568707e-08,1.0
12,12,1234551.2,780.45825,6210.0557,6258.9062,-82.83682,9.530494959297357,-0.01777559,7.811185e-06,2.0759433e-05,2.0436644e-05,1.0,41,0.02044354,3.266312e-06,0,-2.2673889452324007e-08,1.0
13,13,1068345.5,1071.7052,7093.7856,7174.2837,-81.40891,10.08247839883552,-0.01775189,5.0737804e-06,2.1000535e-05,2.0531912e-05,1.0,41,0.02021182,2.8172597e-06,0,-2.2081922538480587e-08,1.0
14,14,924510.06,1305.0955,8091.143,8195.723,-80.83715,10.634497171762632,-0.017729122,3.8448945e-08,2.1276423e-05,2.0736901e-05,1.0,41,0.020544205,2.5066984e-06,0,-2.0905359224154077e-08,1.0
15,15,800039.0,1493.6766,8624.623,8753.011,-80.17455,11.186496584647102,-0.017705292,3.865228e-06,2.3065817e-05,2.2394128e-05,1.0,41,0.02077352,2.3733e-06,0,-1.920597733190574e-08,1.0
16,16,692334.1,1418.1425,10672.097,10765.908,-82.430695,11.738485677546123,-0.017677102,-1.3321132e-06,2.1540445e-05,2.1166683e-05,1.0,41,0.020503588,1.9044923e-06,0,-1.9414189738828073e-08,1.0
17,17,599122.25,2407.1375,12238.308,12472.79,-78.872604,12.290498610382201,-0.01770749,-1.9618531e-07,2.1706177e-05,2.0897716e-05,1.0,41,0.020670772,1.6572693e-06,0,-1.9023684474386788e-08,1.0
18,18,518454.94,3210.0234,13951.488,14316.015,-77.042625,12.842503623309312,-0.017727872,5.919212e-06,2.2003338e-05,2.0897069e-05,1.0,41,0.02047335,1.4301012e-06,0,-1.8561491395903177e-08,1.0
19,19,448662.03,3924.0886,15823.007,16302.332,-76.07172,13.3944854894944,-0.017692883,4.7069316e-06,2.241877e-05,2.1119828e-05,1.0,41,0.020178922,1.2377935e-06,0,-1.9245261060951358e-08,1.0
20,20,388258.97,4904.3525,17855.006,18516.314,-74.640976,13.946504102408653,-0.017662251,-6.505556e-07,2.2958244e-05,2.1347623e-05,1.0,41,0.02094564,1.1311992e-06,0,-1.9507114142882643e-08,1.0
21,21,335983.9,5401.6416,19494.666,20229.18,-74.51285,14.498485888616415,-0.017681088,2.2060246e-06,2.4298857e-05,2.2566328e-05,1.0,41,0.020412818,1.0090779e-06,0,-1.8875126222481084e-08,1.0
22,22,290751.2,8251.163,22608.037,24066.68,-69.94964,15.050493968155934,-0.017616175,-3.7082548e-06,2.4212284e-05,2.136629e-05,1.0,41,0.02047198,8.5063584e-07,0,-1.871614099049326e-08,1.0
23,23,251605.19,9773.162,25114.723,26949.285,-68.73696,15.60248050102382,-0.017652862,4.0343505e-07,2.5186751e-05,2.1874313e-05,1.0,41,0.020322813,7.541132e-07,0,-1.82849419875279e-08,1.0
24,24,217729.38,13274.604,27765.691,30775.781,-64.44783,16.154484900616808,-0.017751554,7.909878e-06,2.632659e-05,2.1428581e-05,1.0,41,0.020114237,6.535736e-07,0,-1.7893003930604816e-08,1.0
25,25,188418.58,16086.203,30912.412,34847.426,-62.50843,16.706493540172232,-0.017734207,8.367976e-06,2.732521e-05,2.1502447e-05,1.0,41,0.020866618,5.987994e-07,0,-1.8701870145697008e-08,1.0
26,26,163051.14,18954.223,33038.977,38089.848,-60.157417,17.258494446374243,-0.017718371,1.3233504e-06,2.9544028e-05,2.2228207e-05,1.0,41,0.020213168,5.306708e-07,0,-1.7985389378736727e-08,1.0
27,27,141098.2,22997.045,35173.043,42023.887,-56.822304,17.810485485912068,-0.017792767,1.0330711e-05,3.206924e-05,2.2465503e-05,1.0,41,0.020143457,4.793335e-07,0,-1.6881010548439057e-08,1.0
28,28,122105.11,30632.64,38375.367,49102.215,-51.401836,18.226494732341962,-0.01771455,3.4965162e-06,3.3965167e-05,2.074611e-05,1.0,41,0.02214779,4.510548e-07,0,-1.6340950632683062e-08,1.0
29,29,105663.59,32729.75,40059.797,51730.3,-50.75041,18.77850297189434,-0.017658992,-1.9060298e-07,3.759984e-05,2.2548284e-05,1.0,41,0.020373955,3.9384955e-07,0,-1.6831720313760063e-08,1.0
30,30,91439.65,37798.035,44359.773,58279.336,-49.566376,19.360489879531087,-0.017656459,-3.215352e-07,3.9237042e-05,2.2732422e-05,1.0,42,0.019906487,3.4157026e-07,0,-1.687614038402469e-08,1.0
31,31,79127.08,43489.152,43363.1,61413.883,-44.916843,19.776485125970794,-0.017702889,-4.3834714e-08,4.6384688e-05,2.3125025e-05,1.0,42,0.020822711,3.3905545e-07,0,-1.684633073141479e-08,1.0
32,32,68475.36,49961.3,44989.004,67232.0,-42.002308,20.192486959072994,-0.017670358,-1.7961165e-07,5.1662977e-05,2.3133434e-05,1.0,42,0.021680484,3.224727e-07,0,-1.685655666012166e-08,1.0
33,33,59252.523,56596.562,43433.6,71341.77,-37.503525,20.74449855860439,-0.01768515,4.081968e-07,6.1842555e-05,2.2921937e-05,1.0,42,0.020303767,2.8459857e-07,0,-1.677007977791408e-08,1.0
34,34,51282.285,62385.77,44020.19,76352.875,-35.20728,21.160499005025486,-0.017684909,3.84573e-09,7.0501905e-05,2.3434404e-05,1.0,42,0.02084597,2.730214e-07,0,-1.6732164026723112e-08,1.0
35,35,44369.8,69566.23,41404.54,80955.516,-30.76033,21.576491024781717,-0.017668735,8.2816285e-08,8.663326e-05,2.266145e-05,1.0,42,0.021301545,2.6312654e-07,0,-1.6641630481387004e-08,1.0
36,36,38403.727,72915.766,38244.637,82336.875,-27.677208,21.99250109787681,-0.01769374,1.6197308e-07,0.000108361804,2.337914e-05,1.0,42,0.021533841,2.615334e-07,0,-1.6588223424931096e-08,1.0
37,37,33226.32,76442.016,34352.99,83806.38,-24.199116,22.408493171009468,-0.017753342,4.8158023e-07,0.0001394355,2.3428702e-05,1.0,42,0.021718517,2.591511e-07,0,-1.6509642449744672e-08,1.0
38,38,28754.086,79590.26,31751.523,85689.95,-21.748901,22.824487964069704,-0.017805567,8.505441e-07,0.00017432352,2.3934554e-05,1.0,42,0.02181493,2.545798e-07,0,-1.652537698307821e-08,1.0
39,39,24884.947,83802.72,27645.953,88245.08,-18.257376,23.24048686385504,-0.017619567,-4.1875708e-07,0.0002313406,2.2705653e-05,1.0,42,0.02196345,2.488915e-07,0,-1.655014284028411e-08,1.0
40,40,21553.963,85736.984,25735.305,89516.125,-16.707956,23.657503176975297,-0.017690405,2.6942416e-08,0.0002869219,2.3714816e-05,1.0,42,0.021909738,2.4475744e-07,0,-1.6525294207172773e-08,1.0
41,41,18631.234,87294.92,22474.592,90141.62,-14.437594,24.07348503675894,-0.017693553,6.4006336e-08,0.0003800902,2.3627601e-05,1.0,42,0.021807892,2.4192923e-07,0,-1.6486453432803748e-08,1.0
42,42,16126.037,88958.625,18847.312,90933.266,-11.962141,24.489490096486406,-0.017718837,6.158516e-08,0.0005236523,2.2495535e-05,1.0,42,0.021615872,2.3771138e-07,0,-1.6632303450367084e-08,1.0
43,43,13954.87,89860.9,17540.045,91556.73,-11.044755,24.906485982966842,-0.017728563,3.4338308e-07,0.000650225,2.3864071e-05,1.0,42,0.021400882,2.337445e-07,0,-1.6603279752287233e-08,1.0
44,44,12080.609,91234.984,14698.712,92411.445,-9.152181,25.322480776085285,-0.017781347,7.315308e-07,0.00089629705,2.2675613e-05,1.0,42,0.021127174,2.2862075e-07,0,-1.6700949481684002e-08,1.0
45,45,10447.592,91589.71,12306.153,92412.75,-7.65253,25.739483649173053,-0.017633783,-1.0194306e-07,0.0012378888,2.1951411e-05,1.0,42,0.020570504,2.2259378e-07,0,-1.6673656731843263e-08,1.0
46,46,9045.586,91845.7,10658.237,92462.055,-6.619283,26.312265329732327,-0.017711906,1.0591378e-07,0.0016508136,2.1935206e-05,1.0,42,0.020440275,2.2106663e-07,0,-1.6776934865665893e-08,1.0
47,47,7827.7437,92549.91,8925.752,92979.32,-5.5087156,26.79293287260225,-0.017720345,1.4670351e-07,0.0022779212,2.0992087e-05,1.0,42,0.020553498,2.210545e-07,0,-1.6717222321809424e-08,1.0
48,48,6770.8345,92197.29,7959.1357,92540.195,-4.9339533,27.3314193514816,-0.017634174,-9.8961394e-08,0.0029533303,2.184656e-05,1.0,42,0.02060675,2.2267892e-07,0,-1.681173468488496e-08,1.0
49,49,5860.798,92241.46,6451.687,92466.81,-4.0009494,27.937977700319607,-0.017845234,1.5929444e-06,0.004209108,2.0491081e-05,1.0,42,0.020707496,2.2394516e-07,0,-1.639418791416425e-08,1.0
50,50,5071.625,92290.29,6487.785,92518.05,-4.02114,28.6186947193346,-0.017633019,-4.5488696e-07,0.004837005,2.3785733e-05,1.0,42,0.020798648,2.2480639e-07,0,-1.6352878603861734e-08,1.0
51,51,4388.5933,91069.86,6378.3574,91292.95,-4.0063434,29.29882643163728,-0.017723141,4.7227155e-07,0.0056857266,2.7754228e-05,1.0,42,0.020722898,2.269934e-07,0,-1.629727688249854e-08,1.0
52,52,3798.7827,91874.47,4661.674,91992.66,-2.9046738,29.97883915726561,-0.017711459,1.6756482e-07,0.008987394,2.3078695e-05,1.0,42,0.020902641,2.2722075e-07,0,-1.6343724983125283e-08,1.0
53,53,3286.0488,90846.93,4235.936,90945.63,-2.669607,30.658700629566738,-0.017758336,7.365622e-07,0.011433962,2.4804576e-05,1.0,42,0.02079774,2.2868322e-07,0,-1.644089238682965e-08,1.0
54,54,2844.088,91925.914,4035.3257,92014.445,-2.5135326,31.33883351519762,-0.017641682,-2.5503866e-07,0.013867511,2.6671269e-05,1.0,42,0.021024436,2.2849059e-07,0,-1.651467902107642e-08,1.0
55,55,2460.7852,91987.23,4071.4138,92077.28,-2.5342941,32.018709067495365,-0.017627485,-3.1016904e-07,0.015885511,3.1058946e-05,1.0,42,0.021056773,2.2868586e-07,0,-1.6710239125000668e-08,1.0
56,56,2129.3164,91421.664,3386.6538,91484.37,-2.1215136,32.698816086456645,-0.017660817,9.865232e-08,0.022070346,3.0245235e-05,1.0,42,0.020986969,2.2940498e-07,0,-1.655325404361917e-08,1.0
57,57,1843.2289,91006.73,4230.976,91105.02,-2.6618104,33.37896238540998,-0.01760047,-2.9154378e-07,0.020407993,4.4014603e-05,1.0,42,0.020953467,2.2999244e-07,0,-1.674141814615362e-08,1.0
58,58,1594.4913,90991.57,3896.3284,91074.95,-2.451951,34.05881895105995,-0.017740747,4.549507e-07,0.025617834,4.688734e-05,1.0,42,0.020905793,2.2954491e-07,0,-1.6917926816276267e-08,1.0
59,59,1380.4436,92308.8,2744.6077,92349.59,-1.7030675,34.73870869001985,-0.017652247,-2.0512348e-07,0.042006955,3.7103233e-05,1.0,42,0.021160932,2.2913942e-07,0,-1.6989382218424608e-08,1.0
60,60,1194.6187,91547.734,3926.597,91631.91,-2.4559824,35.418805495646666,-0.0177738,5.611139e-07,0.033929273,6.230368e-05,1.0,42,0.021021575,2.2941326e-07,0,-1.699521636661889e-08,1.0
61,61,1033.3434,92043.53,4255.814,92141.87,-2.6472979,36.09908800793346,-0.017692808,1.4968514e-07,0.036190353,7.7204764e-05,1.0,42,0.021089464,2.2888037e-07,0,-1.7076703688996474e-08,1.0
62,62,894.71045,91610.734,4026.7263,91699.19,-2.5168014,36.778826920242864,-0.017695865,1.3478505e-07,0.04417591,8.518415e-05,1.0,42,0.021020181,2.2922974e-07,0,-1.694480877902037e-08,1.0
63,63,774.2569,93090.59,4679.9575,93208.16,-2.8780165,37.45894068587222,-0.017691225,1.2640378e-07,0.043923117,0.00011073098,1.0,42,0.02122478,2.2771376e-07,0,-1.6988323319387613e-08,1.0
64,64,669.7856,92121.62,4342.1914,92223.9,-2.6986632,38.13881954483804,-0.017780656,4.7171338e-07,0.05472369,0.000121312725,1.0,42,0.021035409,2.2809066e-07,0,-1.708994167573409e-08,1.0
65,65,579.81464,92143.92,5815.282,92327.24,-3.6111965,38.81881371047348,-0.017717458,2.8955978e-07,0.047201976,0.00018725872,1.0,42,0.02104619,2.279521e-07,0,-1.6876154968618768e-08,1.0
66,66,501.44418,92492.89,6472.3154,92719.07,-4.002825,39.496188862627605,-0.017710192,6.3244806e-07,0.049038578,0.00023895662,1.0,42,0.021073306,2.2728125e-07,0,-1.656686144278099e-08,1.0
67,67,434.02762,93458.734,7292.9272,93742.85,-4.4619575,40.17622220158228,-0.017732084,2.744734e-07,0.05028065,0.00030431847,1.0,42,0.02118174,2.2595579e-07,0,-1.664779897101513e-08,1.0
68,68,375.6009,93056.875,7377.9883,93348.9,-4.533197,40.855465780507075,-0.017602965,-7.117268e-07,0.057432216,0.0003587675,1.0,42,0.021050325,2.2550158e-07,0,-1.6853156950869617e-08,1.0
69,69,325.10385,94131.51,8805.09,94542.43,-5.343915,41.53468290614546,-0.017700037,5.499387e-07,0.055598646,0.00048225673,1.0,42,0.021170296,2.2392375e-07,0,-1.7006612439668462e-08,1.0
70,70,281.3503,94247.8,10068.303,94784.06,-6.097667,42.211804751641466,-0.017672202,1.1541481e-07,0.056184493,0.0006339549,1.0,42,0.021152562,2.231658e-07,0,-1.709410606231623e-08,1.0
71,71,243.36427,93658.37,11435.215,94353.875,-6.9610724,42.895126330753556,-0.017714346,5.451091e-08,0.057189856,0.00084001716,1.0,42,0.021003852,2.226072e-07,0,-1.7057173310181047e-08,1.0
72,72,210.60631,95218.72,12168.772,95993.14,-7.2828155,43.57219748289208,-0.017725209,5.678189e-07,0.062101483,0.0009979646,1.0,42,0.021117121,2.1998572e-07,0,-1.6750427786705264e-08,1.0
73,73,182.27473,97247.95,13628.994,98198.336,-7.9778624,44.2442630881269,-0.017684592,8.375205e-08,0.06406633,0.0012340967,1.0,42,0.021296619,2.1687352e-07,0,-1.692621984745853e-08,1.0
74,74,157.72879,96799.94,16395.123,98178.555,-9.613027,44.932634320877696,-0.017715503,-7.2699116e-08,0.061545238,0.0017162896,1.0,42,0.021135384,2.1527497e-07,0,-1.6759459175010525e-08,1.0
75,75,136.52892,98218.17,17874.744,99831.44,-10.314386,45.6044977393758,-0.017802121,2.1915652e-07,0.06521622,0.002090743,1.0,42,0.021203488,2.1239289e-07,0,-1.6778646791379773e-08,1.0
76,76,118.14758,98443.51,18725.488,100208.625,-10.769888,46.29292379881372,-0.017766384,4.530878e-07,0.07193863,0.002511992,1.0,42,0.021085024,2.1041127e-07,0,-1.6576304279788327e-08,1.0
77,77,102.25773,99748.445,21542.873,102048.26,-12.187101,46.959344550414244,-0.017700354,2.1338265e-07,0.07224709,0.0032197074,1.0,42,0.021108627,2.0684946e-07,0,-1.658801387301878e-08,1.0
78,78,88.4436,101333.95,23014.607,103914.59,-12.795752,47.64928231653175,-0.017685821,1.0815055e-07,0.078189805,0.0038353426,1.0,42,0.021103794,2.0308788e-07,0,-1.658210103350684e-08,1.0
79,79,76.54279,102857.016,25642.979,106005.32,-13.99887,48.316738214940415,-0.017714476,2.2101877e-07,0.08108628,0.004744921,1.0,42,0.021086304,1.989174e-07,0,-1.6554212598597574e-08,1.0
80,80,66.250786,104661.85,28522.08,108478.625,-15.243877,48.98497683333699,-0.017755765,7.527655e-07,0.08422633,0.005822667,1.0,42,0.021096023,1.944717e-07,0,-1.6582754682347476e-08,1.0
81,81,57.329906,107284.98,30055.504,111415.44,-15.650026,49.63963729111492,-0.017779203,8.352747e-07,0.09236659,0.0067215925,1.0,42,0.02110613,1.894363e-07,0,-1.6330607740315114e-08,1.0
82,82,49.60321,108992.45,33422.137,114001.73,-17.047966,50.32538604360889,-0.017710434,4.000056e-07,0.09600108,0.008251287,1.0,42,0.021030737,1.8447736e-07,0,-1.6178636998855664e-08,1.0
83,83,42.92585,111582.78,37488.125,117711.836,-18.570646,51.03344837061013,-0.01777177,2.4448576e-07,0.09890256,0.010031242,1.0,42,0.021111267,1.7934701e-07,0,-1.637454840565717e-08,1.0
84,84,37.1518,113770.586,40160.68,120650.84,-19.44288,51.67716298784944,-0.017678238,-2.4647314e-08,0.10666925,0.011818998,1.0,42,0.021022908,1.7424584e-07,0,-1.6435946983954786e-08,1.0
85,85,32.150223,117894.52,43584.324,125692.93,-20.288805,52.31538019151776,-0.017662494,1.5154605e-07,0.11358103,0.013656668,1.0,42,0.021106387,1.6792023e-07,0,-1.603319365400551e-08,1.0
86,86,27.835518,119937.73,46761.773,128731.2,-21.300003,53.04232675934327,-0.017725488,3.8324183e-07,0.12227279,0.016134078,1.0,42,0.020976918,1.6295131e-07,0,-1.603153638458337e-08,1.0
87,87,24.082958,124756.164,52176.555,135227.56,-22.69606,53.744400606054114,-0.01768394,1.133636e-07,0.12665866,0.018856248,1.0,42,0.021092728,1.559795e-07,0,-1.574989561336467e-08,1.0
88,88,20.833313,129419.5,56200.516,141095.38,-23.472933,54.39876837049087,-0.017725134,3.016633e-07,0.13593194,0.021566344,1.0,42,0.021131864,1.4977006e-07,0,-1.556391536580125e-08,1.0
89,89,18.021912,133677.83,59177.098,146190.6,-23.87823,55.41774959221948,-0.017520977,3.3124559e-09,0.14923325,0.02445311,1.0,43,0.021054933,1.4402386e-07,0,-1.594974874147987e-08,1.0
90,90,15.604198,138538.58,63892.047,152561.89,-24.758488,56.072996050002985,-0.017668605,8.581163e-08,0.1596364,0.02799841,1.0,43,0.021077475,1.3815688e-07,0,-1.6319379211396505e-08,1.0
91,91,13.500899,143949.53,68407.14,159376.92,-25.417822,56.82095957885031,-0.017645204,5.1135398e-08,0.17232805,0.03174739,1.0,43,0.021097608,1.3237555e-07,0,-1.634079822020033e-08,1.0
92,92,11.686608,149806.83,74036.695,167103.31,-26.299248,57.41187806025846,-0.017734878,4.2400615e-08,0.18394358,0.036108427,1.0,43,0.021182952,1.267656e-07,0,-1.6402868139025608e-08,1.0
93,93,10.113269,156071.86,78919.57,174890.61,-26.823978,58.085500598856015,-0.01776018,6.316473e-08,0.19940859,0.040605076,1.0,43,0.021201527,1.2122736e-07,0,-1.6008547704749354e-08,1.0
94,94,8.748621,161509.14,84345.414,182206.89,-27.575052,58.85236226199777,-0.017739788,1.2043976e-07,0.21568455,0.046218134,1.0,43,0.021115327,1.1588654e-07,0,-1.522218507633941e-08,1.0
95,95,7.570237,167734.38,89484.914,190111.47,-28.079557,59.728005023585865,-0.0176793,1.2163162e-07,0.23494208,0.052052766,1.0,43,0.021060497,1.1077972e-07,0,-1.6247263186555216e-08,1.0
96,96,6.554112,174147.52,96043.14,198875.95,-28.876934,60.26429523571278,-0.01774138,-1.2144699e-09,0.25283659,0.05896687,1.0,43,0.021068266,1.0593672e-07,0,-1.548485127740889e-08,1.0
97,97,5.669445,181481.8,103165.24,208755.14,-29.616524,60.874126011360204,-0.017741436,2.7418102e-07,0.27211106,0.066456676,1.0,43,0.021121597,1.0117881e-07,0,-1.6248762862758682e-08,1.0
98,98,4.907347,188644.89,109511.05,218127.4,-30.135775,61.56653455088963,-0.017692156,1.354217e-07,0.2961525,0.07464673,1.0,43,0.021078167,9.663237e-08,0,-1.493644554966315e-08,1.0
99,99,4.245922,196400.17,117370.44,228798.7,-30.862904,62.35432264165138,-0.017717235,-4.4179263e-10,0.3193665,0.084042646,1.0,43,0.0210995,9.221862e-08,0,-1.6488631477062083e-08,1.0
100,100,3.6747382,205042.98,124567.48,239915.98,-31.279469,63.253930897742976,-0.017677372,1.9078738e-07,0.34768748,0.0937303,1.0,43,0.021104215,8.796502e-08,0,-1.593321328278632e-08,1.0
101,101,3.180988,212380.78,133379.53,250790.14,-32.129673,64.28218043988454,-0.01774805,1.5128808e-07,0.37511885,0.106102675,1.0,43,0.02109354,8.410833e-08,0,-1.4544876558217111e-08,1.0
102,102,2.752818,220367.42,143903.31,263191.88,-33.145157,65.46117393588065,-0.017710054,5.097493e-08,0.40176472,0.12010703,1.0,43,0.021099634,8.016826e-08,0,-1.5612619636628683e-08,1.0
103,103,2.3804083,228392.56,154515.55,275750.28,-34.079723,66.81602138691233,-0.01766488,5.5313656e-08,0.43270957,0.13586542,1.0,43,0.021093212,7.649389e-08,0,-1.6972488853124386e-08,1.0
104,104,2.060257,236441.83,167466.4,289740.8,-35.30908,68.37127703407896,-0.01769106,1.3094703e-07,0.46128684,0.15410158,1.0,43,0.021074617,7.27361e-08,0,-1.613722221228543e-08,1.0
105,105,1.7836765,245520.84,181682.86,305432.72,-36.501053,70.158604505717,-0.01772255,1.6347268e-07,0.49112278,0.17377484,1.0,43,0.021149024,6.924282e-08,0,-1.4261403443944727e-08,1.0
