True,index,freq,Re(Z),Im(Z),Z,Phase(Z),time,Ewe_meas,I_meas,Cs,Cp,cycle_number,I_Range,Ewe,I,Ns,(QQo),cycle
0,0,7000018.5,196.48692,1291.8872,1306.7439,-81.35199,2.4684754505578894,-0.0031537584,-2.52542e-05,1.759934e-05,1.7201432e-05,1.0,40,0.009985067,7.641182e-06,0,3.235743086431992e-09,1.0
1,1,6057573.0,241.09395,1536.9636,1555.7582,-81.085014,3.020498756755842,-0.003229813,1.9785526e-07,1.7094559e-05,1.6684027e-05,1.0,40,0.014049125,9.030404e-06,0,6.531189392057336e-09,1.0
2,2,5242039.0,263.1476,1778.3668,1797.7306,-81.58293,3.437489043251844,-0.0031632418,-1.4109677e-05,1.7072556e-05,1.6706752e-05,1.0,40,0.019538518,1.0868435e-05,0,6.758120574836034e-09,1.0
3,3,4536288.0,305.92627,2013.0038,2036.1177,-81.3586,4.805479454895249,-0.0032574623,2.4105799e-05,1.7429098e-05,1.7035636e-05,1.0,40,0.01889553,9.280176e-06,0,2.8384500253650913e-09,1.0
4,4,3925558.5,342.23444,2291.5557,2316.9705,-81.50589,5.22248590135132,-0.003248072,-1.3216606e-05,1.7692462e-05,1.7306455e-05,1.0,40,0.018132636,7.826011e-06,0,2.605714764664905e-09,1.0
5,5,3397055.0,353.72342,2616.9688,2640.766,-82.302246,5.638487281132257,-0.0032638344,6.3376447e-06,1.790272e-05,1.7581511e-05,1.0,40,0.019111536,7.237118e-06,0,1.210421773083207e-09,1.0
6,6,2939708.2,460.58292,2994.9216,3030.1306,-81.257095,6.054486394190462,-0.0032791311,1.4803118e-05,1.807717e-05,1.765951e-05,1.0,40,0.020778626,6.8573368e-06,0,-5.317645680709878e-11,1.0
7,7,2543924.5,350.42017,3474.674,3492.2993,-84.2412,6.606503353774315,-0.003272405,-2.3375143e-05,1.8005361e-05,1.7824077e-05,1.0,40,0.020636467,5.909135e-06,0,3.7048273503993792e-09,1.0
8,8,2201436.2,783.43256,3886.9949,3965.1602,-78.604576,7.15850052665337,-0.0032209256,-8.900163e-06,1.8599447e-05,1.7873374e-05,1.0,40,0.020408185,5.1468755e-06,0,4.7244261315123975e-09,1.0
9,9,1905053.1,752.5293,4494.2856,4556.8525,-80.4945,7.71049545952701,-0.0033104883,6.9702455e-06,1.8588842e-05,1.8081888e-05,1.0,40,0.020695176,4.5415504e-06,0,5.1149779943671095e-09,1.0
10,10,1648567.4,665.3452,5573.883,5613.453,-83.19291,8.429477947036503,-0.0033106746,3.9527326e-06,1.7320308e-05,1.707698e-05,1.0,41,0.018852834,3.358509e-06,0,7.050338714959833e-09,1.0
11,11,1426616.2,776.44104,6107.486,6156.642,-82.75488,8.84549082009471,-0.0032918751,2.155747e-06,1.8266297e-05,1.7975775e-05,1.0,41,0.021665715,3.5190797e-06,0,7.724532643949702e-09,1.0
12,12,1234551.2,890.9832,6878.5684,6936.033,-82.61955,9.397486793022836,-0.0033246297,1.215346e-06,1.8741872e-05,1.8432605e-05,1.0,41,0.020910358,3.014743e-06,0,8.770574175973501e-09,1.0
13,13,1068345.5,1440.9244,8172.741,8298.793,-80.00102,9.949486552533926,-0.003277622,6.613802e-06,1.822807e-05,1.7678536e-05,1.0,41,0.020793132,2.505561e-06,0,9.274096843423902e-09,1.0
14,14,924510.06,1447.8314,9350.248,9461.678,-81.19798,10.501497805438703,-0.0033193012,6.6603566e-06,1.841134e-05,1.7980234e-05,1.0,41,0.020388113,2.1548096e-06,0,9.803098475442892e-09,1.0
15,15,800039.0,876.0606,8612.621,8657.0625,-84.19195,11.05448260504636,-0.0031776254,-3.8628173e-06,2.309796e-05,2.2861419e-05,1.0,41,0.019815298,2.2889171e-06,0,8.30545216754154e-09,1.0
16,16,692334.1,2741.921,12236.679,12540.113,-77.37013,11.606499777903082,-0.0031936113,-2.0583657e-06,1.8786282e-05,1.7888135e-05,1.0,41,0.020286206,1.6177052e-06,0,8.777385912389315e-09,1.0
17,17,599122.25,3395.775,13861.495,14271.382,-76.23483,12.15848657747847,-0.0032628283,3.99744e-06,1.9164374e-05,1.8079347e-05,1.0,41,0.020600617,1.4434914e-06,0,8.847571017949147e-09,1.0
18,18,518454.94,4747.0415,16087.311,16773.072,-73.55973,12.71048916366999,-0.003231527,-2.1477497e-06,1.9082077e-05,1.7553646e-05,1.0,41,0.020765217,1.2380092e-06,0,9.777777567054594e-09,1.0
19,19,448662.03,5408.268,17694.328,18502.395,-73.004234,13.262487563217292,-0.0031531246,-5.6728563e-06,2.00478e-05,1.833492e-05,1.0,41,0.020333437,1.0989625e-06,0,1.04036397044101e-08,1.0
20,20,388258.97,7108.622,19893.867,21125.777,-70.3368,13.814496896142373,-0.003257891,-9.708523e-07,2.0605323e-05,1.8272269e-05,1.0,41,0.020840427,9.864928e-07,0,1.0722035846384869e-08,1.0
21,21,335983.9,4136.6426,18431.729,18890.22,-77.35068,14.36650100236875,-0.0032580586,-2.095609e-06,2.5700147e-05,2.4467727e-05,1.0,41,0.020262353,1.0726371e-06,0,1.0794031507158605e-08,1.0
22,22,290751.2,10678.232,24500.053,26725.965,-66.45025,14.918488548573805,-0.0032203107,6.715884e-07,2.2342492e-05,1.8775818e-05,1.0,41,0.020577032,7.6992666e-07,0,1.0674292967684728e-08,1.0
23,23,251605.19,14014.658,28411.914,31680.396,-63.7444,15.470480041432893,-0.0032385138,-1.7157253e-06,2.226384e-05,1.7906876e-05,1.0,41,0.020427156,6.4478854e-07,0,9.441361207627273e-09,1.0
24,24,217729.38,17632.398,28989.166,33930.418,-58.69032,16.022497027675854,-0.003167266,-6.659812e-06,2.521549e-05,1.8406043e-05,1.0,41,0.02025291,5.968954e-07,0,9.120159299202316e-09,1.0
25,25,188418.58,20105.266,31460.895,37336.438,-57.419155,16.574479613889707,-0.0033623031,1.1455469e-05,2.6848827e-05,1.906346e-05,1.0,41,0.020770581,5.563086e-07,0,1.005461669770903e-08,1.0
26,26,163051.14,25638.965,32605.08,41478.28,-51.820305,17.126497666788055,-0.0032379737,-1.4475723e-06,2.993719e-05,1.8498651e-05,1.0,41,0.020302873,4.8948203e-07,0,1.0750852081865029e-08,1.0
27,27,141098.2,30368.879,33786.98,45429.383,-48.049725,17.67850011968403,-0.0032622693,2.3214773e-06,3.3384837e-05,1.8466064e-05,1.0,41,0.020316252,4.472051e-07,0,1.246198690209245e-08,1.0
28,28,122105.11,36080.746,32389.998,48486.414,-41.914597,18.23050089253229,-0.0032803793,1.1836861e-06,4.024161e-05,1.7957964e-05,1.0,41,0.02025954,4.1783952e-07,0,1.2559839215138406e-08,1.0
29,29,105663.59,38316.35,33965.266,51203.34,-41.55516,18.64649741895846,-0.0031498082,-6.3693124e-06,4.434654e-05,1.951341e-05,1.0,41,0.021705693,4.2391164e-07,0,1.2544322986526722e-08,1.0
30,30,91439.65,43438.344,35986.574,56408.54,-39.64011,19.365480733133154,-0.0033291574,6.819858e-07,4.8366546e-05,1.9685043e-05,1.0,42,0.018702703,3.31558e-07,0,1.3364044321128352e-08,1.0
31,31,79127.08,49032.707,34931.87,60203.34,-35.466824,19.781499312870437,-0.0033244062,7.108548e-07,5.7580197e-05,1.9385441e-05,1.0,42,0.019644659,3.2630513e-07,0,1.338971687601958e-08,1.0
32,32,68475.36,53386.723,33328.75,62936.06,-31.976084,20.197492585954024,-0.0032446438,-1.1889383e-07,6.9737565e-05,1.9557157e-05,1.0,42,0.020341828,3.232142e-07,0,1.3388779540371272e-08,1.0
33,33,59252.523,57193.996,32099.049,65585.836,-29.302496,20.613482899061637,-0.0031780351,-6.71501e-07,8.3679886e-05,2.0044043e-05,1.0,42,0.020925807,3.1905986e-07,0,1.3452153480190058e-08,1.0
34,34,51282.285,60510.477,31109.443,68039.07,-27.208452,21.029478785494575,-0.0033278717,5.8569435e-07,9.9760946e-05,2.0855869e-05,1.0,42,0.021441542,3.151357e-07,0,1.3436981134107936e-08,1.0
35,35,44369.8,64905.594,27045.877,70315.12,-22.621279,21.58148041172535,-0.003396716,1.3495102e-06,0.00013262688,1.9621684e-05,1.0,42,0.02007633,2.855194e-07,0,1.3547198738758463e-08,1.0
36,36,38403.727,67524.13,24551.29,71848.97,-19.980902,21.99748109813663,-0.003272908,5.8941976e-07,0.0001688,1.9709698e-05,1.0,42,0.020345032,2.8316387e-07,0,1.3547615344503723e-08,1.0
37,37,33226.32,69526.22,21617.729,72809.484,-17.271994,22.413491837884067,-0.0032810315,2.1375148e-07,0.00022157862,1.953314e-05,1.0,42,0.020562463,2.8241462e-07,0,1.3571810221435894e-08,1.0
38,38,28754.086,70796.484,19331.906,73388.45,-15.2730255,22.829487031005556,-0.0032322162,3.6606576e-09,0.00028631618,1.9867342e-05,1.0,42,0.02062992,2.811058e-07,0,1.3724421256047177e-08,1.0
39,39,24884.947,72266.54,17404.373,74332.8,-13.541007,23.245484250743175,-0.0032174974,1.4837799e-07,0.00036747265,2.014563e-05,1.0,42,0.020610506,2.772734e-07,0,1.3763497451334909e-08,1.0
40,40,21553.963,73169.39,14682.835,74628.05,-11.346789,23.662495337222936,-0.0032884097,1.8041344e-07,0.0005029017,1.9466988e-05,1.0,42,0.020655932,2.767851e-07,0,1.3746364542746371e-08,1.0
41,41,18631.234,74075.086,12915.767,75192.66,-9.890688,24.07848117031972,-0.0032872546,6.8534e-07,0.00066139107,1.951407e-05,1.0,42,0.020625327,2.7429974e-07,0,1.3755262629714653e-08,1.0
42,42,16126.037,74332.3,11657.694,75240.89,-8.913217,24.494500363391126,-0.0033391626,1.3891834e-06,0.000846603,2.0323443e-05,1.0,42,0.020383425,2.7090888e-07,0,1.3900281082875615e-08,1.0
43,43,13954.87,74389.195,9866.813,75040.695,-7.555481,24.910502729850123,-0.0032672253,5.907248e-07,0.0011558925,1.9983776e-05,1.0,42,0.020164786,2.68718e-07,0,1.4091954335979453e-08,1.0
44,44,12080.609,76084.69,8258.359,76531.56,-6.194729,25.32650248290156,-0.0033507887,1.3740978e-06,0.0015952821,1.8575643e-05,1.0,42,0.02006743,2.6221116e-07,0,1.4298180785096075e-08,1.0
45,45,10447.592,75347.195,6808.058,75654.14,-5.1629877,25.742485942697385,-0.0032134915,-5.482013e-08,0.0022375907,1.812015e-05,1.0,42,0.019470092,2.573566e-07,0,1.4379187362947792e-08,1.0
46,46,9045.586,75460.02,6100.6953,75706.234,-4.622123,26.31526532987482,-0.0033528195,9.038152e-07,0.0028840587,1.8728348e-05,1.0,42,0.02026395,2.6766554e-07,0,1.4188790458632638e-08,1.0
47,47,7827.7437,75585.586,5474.6626,75783.59,-4.142698,26.79593569939607,-0.0033242758,8.134837e-07,0.0037138655,1.938164e-05,1.0,42,0.020403683,2.6923615e-07,0,1.4320612923174201e-08,1.0
48,48,6770.8345,75425.9,4155.3887,75540.27,-3.1533706,27.334423431631876,-0.0032065231,4.595241e-09,0.005656741,1.711719e-05,1.0,42,0.020518444,2.7162258e-07,0,1.4134166029181236e-08,1.0
49,49,5860.798,74987.99,4242.1934,75107.89,-3.2378647,27.9409939404577,-0.0034799625,2.4219491e-06,0.00640137,2.0421268e-05,1.0,42,0.020568777,2.7385641e-07,0,1.4117479208937232e-08,1.0
50,50,5071.625,75383.35,3728.735,75475.516,-2.83175,28.621689172810875,-0.003163782,-3.9360085e-08,0.008416112,2.0541036e-05,1.0,42,0.020758022,2.7502986e-07,0,1.439235732169782e-08,1.0
51,51,4388.5933,74548.36,3535.3237,74632.14,-2.7151165,29.301805525115924,-0.0032651387,3.6033498e-07,0.010258069,2.3018245e-05,1.0,42,0.020712662,2.7753006e-07,0,1.4393773405655866e-08,1.0
52,52,3798.7827,74938.805,3118.8022,75003.67,-2.3831599,29.98183091741521,-0.0032025918,1.3999993e-07,0.013433458,2.3227287e-05,1.0,42,0.020875625,2.7832803e-07,0,1.4267270530010892e-08,1.0
53,53,3286.0488,75222.09,3024.916,75282.89,-2.3028018,30.66167353637138,-0.0032099513,-8.033463e-08,0.016011529,2.5850377e-05,1.0,42,0.020981783,2.7870587e-07,0,1.4130389603541084e-08,1.0
54,54,2844.088,74673.04,3188.8882,74741.1,-2.445312,31.34184082200227,-0.003225155,4.039182e-07,0.017548412,3.1944597e-05,1.0,42,0.020918094,2.7987403e-07,0,1.4028705781004902e-08,1.0
55,55,2460.7852,74490.984,3351.1248,74566.33,-2.5758274,32.021696134303056,-0.0032790753,8.7066365e-07,0.019299934,3.8980867e-05,1.0,42,0.02090686,2.8037937e-07,0,1.387364544341215e-08,1.0
56,56,2129.3164,75166.96,3619.649,75254.06,-2.7569363,32.70181312659406,-0.0031949715,2.2940137e-07,0.020649686,4.7773436e-05,1.0,42,0.021079967,2.8011732e-07,0,1.3975587839780307e-08,1.0
57,57,1843.2289,75522.16,4463.3403,75653.93,-3.382232,33.381956145574804,-0.0031765075,-1.7178395e-07,0.01934554,6.7334535e-05,1.0,42,0.021156527,2.7964876e-07,0,1.3799668758456187e-08,1.0
58,58,1594.4913,75239.016,4009.7156,75345.78,-3.0505805,34.06181031119195,-0.003247513,5.13993e-07,0.02489341,7.050074e-05,1.0,42,0.02106182,2.795355e-07,0,1.3425555621586464e-08,1.0
59,59,1380.4436,75559.055,4239.17,75677.875,-3.21116,34.74169981016166,-0.0033744697,8.1907245e-07,0.027196977,8.533839e-05,1.0,42,0.021119893,2.7907618e-07,0,1.3376070800036407e-08,1.0
60,60,1194.6187,75401.67,4815.3413,75555.27,-3.6540911,35.42182352245436,-0.0032111625,4.3522633e-08,0.027667109,0.00011237983,1.0,42,0.021055065,2.7867102e-07,0,1.3385429411589278e-08,1.0
61,61,1033.3434,76039.695,4822.178,76192.445,-3.6286438,36.10209094142192,-0.0032710636,2.0369848e-07,0.0319398,0.00012793663,1.0,42,0.021152519,2.7761962e-07,0,1.3411268169001684e-08,1.0
62,62,894.71045,76791.63,5455.3325,76985.164,-4.0635066,36.781834973720834,-0.003314457,9.440467e-07,0.032607418,0.00016373623,1.0,42,0.021222614,2.7567148e-07,0,1.35787394961208e-08,1.0
63,63,774.2569,77181.42,5367.9736,77367.87,-3.978519,37.4619436726789,-0.0034629703,2.0038158e-06,0.038293466,0.00018434196,1.0,42,0.021225916,2.7435055e-07,0,1.3574365092739447e-08,1.0
64,64,669.7856,76123.2,6361.827,76388.58,-4.7772655,38.141836104987306,-0.0031948225,-2.1853275e-07,0.037351023,0.00025906536,1.0,42,0.021002904,2.749482e-07,0,1.3486443703965358e-08,1.0
65,65,579.81464,76303.76,7207.1875,76643.375,-5.3958015,38.82184091061936,-0.0032377872,5.0523914e-07,0.038085982,0.00033678097,1.0,42,0.020987263,2.738301e-07,0,1.3805249435433511e-08,1.0
66,66,501.44418,77677.84,8033.328,78092.13,-5.9044547,39.49919691609102,-0.0033115875,7.633834e-07,0.039509546,0.00041809835,1.0,42,0.021154469,2.7089118e-07,0,1.4083420647438455e-08,1.0
67,67,434.02762,78172.96,8918.186,78680.02,-6.508322,40.17919004170108,-0.003328468,6.864613e-07,0.041117456,0.00052826316,1.0,42,0.021171696,2.6908606e-07,0,1.4001221366277387e-08,1.0
68,68,375.6009,78791.98,9261.814,79334.46,-6.704221,40.857464207248995,-0.0032119637,9.045785e-08,0.04575067,0.0006235422,1.0,42,0.021158623,2.6670153e-07,0,1.3787533508952047e-08,1.0
69,69,325.10385,79270.15,10107.046,79911.88,-7.266081,41.53668487957475,-0.0032388307,3.30349e-07,0.048436616,0.0007748177,1.0,42,0.021124637,2.6434913e-07,0,1.3978386933784196e-08,1.0
70,70,281.3503,79880.32,11126.938,80651.56,-7.9299955,42.21379323172732,-0.003273914,5.5236035e-07,0.050839007,0.00096766016,1.0,42,0.0211195,2.61861e-07,0,1.434342589028977e-08,1.0
71,71,243.36427,80863.76,12051.581,81756.88,-8.47672,42.8971113441803,-0.003235831,3.3183883e-07,0.054264937,0.0011791219,1.0,42,0.02116257,2.5884756e-07,0,1.4076061375646591e-08,1.0
72,72,210.60631,81766.29,13377.532,82853.39,-9.291666,43.57418478964246,-0.0032394826,2.5640668e-07,0.056490153,0.0014726658,1.0,42,0.021174207,2.5556236e-07,0,1.3890971916573255e-08,1.0
73,73,182.27473,81484.04,14506.734,82765.3,-10.094695,44.24524412819301,-0.003256512,4.2272927e-07,0.06018995,0.001849127,1.0,42,0.020977587,2.5345872e-07,0,1.4172957023994965e-08,1.0
74,74,157.72879,83876.31,15426.704,85283.17,-10.421489,44.93366664092173,-0.0031842396,-1.9748725e-07,0.06540877,0.002140206,1.0,42,0.021159554,2.4810936e-07,0,1.4113896057188195e-08,1.0
75,75,136.52892,84766.75,17704.172,86595.84,-11.797069,45.6054985660885,-0.0033975916,8.643305e-07,0.06584456,0.0027521811,1.0,42,0.021191875,2.447216e-07,0,1.4436517993787608e-08,1.0
76,76,118.14758,86098.95,19363.281,88249.45,-12.674693,46.293921158852754,-0.0032193419,3.4115106e-07,0.069569096,0.0033492704,1.0,42,0.021209173,2.4033207e-07,0,1.4356829985637315e-08,1.0
77,77,102.25773,87911.11,20231.219,90209.01,-12.959984,46.96035721714725,-0.0032236457,2.7074825e-07,0.0769311,0.003869423,1.0,42,0.021252058,2.3558688e-07,0,1.4553576595032621e-08,1.0
78,78,88.4436,88766.93,21664.389,91372.39,-13.71544,47.65027335655759,-0.0032675047,7.15516e-07,0.083062924,0.0046694973,1.0,42,0.021137496,2.3133352e-07,0,1.467956663506816e-08,1.0
79,79,76.54279,90642.62,23338.14,93598.89,-14.438582,48.31672290827555,-0.0032392591,2.0053157e-07,0.08909423,0.005539119,1.0,42,0.021151029,2.259752e-07,0,1.4724788780259168e-08,1.0
80,80,66.250786,92068.48,25762.18,95604.88,-15.63244,48.985000379994744,-0.0032461528,1.3535316e-08,0.09324949,0.0067709805,1.0,42,0.021138923,2.2110714e-07,0,1.49351915405806e-08,1.0
81,81,57.329906,93996.82,27291.465,97878.63,-16.190367,49.639633984450484,-0.0032600334,3.960953e-07,0.10172134,0.007908424,1.0,42,0.021143103,2.1601346e-07,0,1.4790220484073697e-08,1.0
82,82,49.60321,95997.32,30256.004,100652.43,-17.493574,50.32535247030319,-0.0033084387,7.8405606e-07,0.1060471,0.00958238,1.0,42,0.021166282,2.1029082e-07,0,1.4953367179050195e-08,1.0
83,83,42.92585,97064.98,32264.867,102287.01,-18.387054,51.03341799727059,-0.0033342438,9.650922e-07,0.11491358,0.0114337895,1.0,42,0.021040944,2.0570495e-07,0,1.5343727259339473e-08,1.0
84,84,37.1518,100266.945,34778.08,106127.164,-19.129353,51.67715560118086,-0.0032767835,3.1358545e-07,0.123178445,0.013227956,1.0,42,0.021094933,1.9877035e-07,0,1.546050277362617e-08,1.0
85,85,32.150223,102522.516,37585.094,109194.805,-20.133104,52.31536099148798,-0.0032841058,5.7061203e-07,0.13171053,0.015604427,1.0,42,0.02108975,1.9313876e-07,0,1.5110209344246043e-08,1.0
86,86,27.835518,104876.805,40281.758,112346.625,-21.011105,53.0433263060695,-0.0033065197,7.109518e-07,0.14194249,0.018247744,1.0,42,0.021052308,1.873871e-07,0,1.5319598032515912e-08,1.0
87,87,24.082958,107522.78,43794.637,116099.61,-22.161345,53.745403059438104,-0.0032689022,5.503101e-07,0.15090005,0.021471862,1.0,42,0.021021819,1.810671e-07,0,1.5162659823157317e-08,1.0
88,88,20.833313,111831.94,47671.17,121568.59,-23.087343,54.39976173052855,-0.0032814788,3.04831e-07,0.16025293,0.024641937,1.0,42,0.021162545,1.7407905e-07,0,1.5291868894801238e-08,1.0
89,89,18.021912,114357.94,51758.574,125525.65,-24.351578,55.145733659301186,-0.0036210234,3.8064452e-06,0.17062277,0.02900926,1.0,42,0.021137796,1.6839424e-07,0,1.573916790394462e-08,1.0
90,90,15.604198,117854.625,55512.65,130274.195,-25.221678,55.80002353034797,-0.003199555,1.5322203e-07,0.18373281,0.033362135,1.0,42,0.021099405,1.6196151e-07,0,1.6178779773103102e-08,1.0
91,91,13.500899,121814.73,60353.09,135946.03,-26.356108,56.82100483219256,-0.0032748643,3.0718272e-07,0.19532503,0.038496733,1.0,43,0.021158548,1.5563933e-07,0,1.4830898752189311e-08,1.0
92,92,11.686608,125291.734,65410.074,141338.23,-27.567358,57.41188856691588,-0.0031885994,2.4043814e-07,0.20820302,0.044592004,1.0,43,0.02112101,1.4943593e-07,0,1.4537910372698112e-08,1.0
93,93,10.113269,129423.75,71381.3,147803.23,-28.878128,58.08553539888817,-0.0033001662,2.5038216e-07,0.22046728,0.05142155,1.0,43,0.021178491,1.4328842e-07,0,1.4134019816512595e-08,1.0
94,94,8.748621,132867.38,77299.38,153717.06,-30.189924,58.85136906194384,-0.0032584218,2.6405152e-07,0.23534474,0.059513077,1.0,43,0.021078803,1.3712727e-07,0,1.508406138403383e-08,1.0
95,95,7.570237,136688.38,83972.2,160421.45,-31.563786,59.72701011688332,-0.0032317226,3.1280578e-07,0.25036585,0.06859955,1.0,43,0.021025116,1.3106174e-07,0,1.5303610558893413e-08,1.0
96,96,6.554112,141884.8,91495.086,168827.27,-32.81614,60.263314942334546,-0.0032564376,-1.2866967e-07,0.26540464,0.0779505,1.0,43,0.021107376,1.250235e-07,0,1.4357719306230088e-08,1.0
97,97,5.669445,146929.75,100919.516,178250.11,-34.483444,60.87311265131575,-0.0033416965,6.8097984e-07,0.27816626,0.08916515,1.0,43,0.0211822,1.1883415e-07,0,1.5536464114125692e-08,1.0
98,98,4.907347,151217.16,109681.945,186806.73,-35.954407,61.5655490308709,-0.003306091,1.0694738e-07,0.29569104,0.10193502,1.0,43,0.021093337,1.12915295e-07,0,1.5058940929418618e-08,1.0
99,99,4.245922,155866.83,120467.88,196994.88,-37.70007,62.35330026826705,-0.003232179,3.1837325e-07,0.31115505,0.11636156,1.0,43,0.021079281,1.0700421e-07,0,1.4307449317242e-08,1.0
100,100,3.6747382,161396.44,132594.08,208877.95,-39.404568,63.25291140435729,-0.0033003245,4.780367e-07,0.32664016,0.13162325,1.0,43,0.021106787,1.0104842e-07,0,1.6277364968260697e-08,1.0
101,101,3.180988,167015.38,146579.72,222215.55,-41.27155,64.28123270653305,-0.003241672,1.9433524e-07,0.34133765,0.14851937,1.0,43,0.021093393,9.492312e-08,0,1.565531206962086e-08,1.0
102,102,2.752818,172558.81,162512.28,237037.52,-43.282597,65.46013668252272,-0.0032386375,2.636056e-07,0.3557594,0.16722247,1.0,43,0.021122856,8.911187e-08,0,1.4067747793113976e-08,1.0
103,103,2.3804083,178467.42,181851.34,254795.08,-45.53808,66.8150218668743,-0.0032792797,4.2334023e-07,0.36766487,0.18728505,1.0,43,0.02113589,8.295251e-08,0,1.5056964272468105e-08,1.0
104,104,2.060257,185207.97,201502.86,273688.5,-47.412853,68.37037447406328,-0.0032700202,3.8302687e-07,0.38336948,0.20781021,1.0,43,0.021126037,7.719008e-08,0,1.703871794192866e-08,1.0
105,105,1.7836765,192416.27,225938.38,296769.56,-49.581234,70.15867258571234,-0.0032023268,2.529483e-07,0.39492446,0.22890504,1.0,43,0.021125486,7.1184814e-08,0,1.713404398422163e-08,1.0
