True,index,freq,Re(Z),Im(Z),Z,Phase(Z),time,Ewe_meas,I_meas,Cs,Cp,cycle_number,I_Range,Ewe,I,Ns,(QQo),cycle
0,0,7000018.5,149.94998,1331.7246,1340.1401,-83.57565,2.4674907571461517,0.020385686,5.763279e-05,1.7072869e-05,1.6859121e-05,1.0,40,0.010010129,7.469464e-06,0,4.987750625837093e-09,1.0
1,1,6057573.0,195.02275,1357.0674,1371.009,-81.822075,3.0194867034151684,0.020436719,2.6803555e-05,1.9360657e-05,1.8968905e-05,1.0,40,0.0140362745,1.0237915e-05,0,2.7295861132693565e-10,1.0
2,2,5242039.0,226.58344,1584.6122,1600.7297,-81.86245,3.4355014965112787,0.020623336,-4.527369e-05,1.9160061e-05,1.8776163e-05,1.0,40,0.019371433,1.2101626e-05,0,-1.557290816271638e-09,1.0
3,3,4536288.0,209.31403,1826.4312,1838.386,-83.462265,4.803492761478992,0.020456618,4.4218225e-05,1.9209507e-05,1.8960483e-05,1.0,40,0.020725979,1.1274008e-05,0,3.49423558347755e-09,1.0
4,4,3925558.5,278.8017,2039.8523,2058.8171,-82.217186,5.219497474579839,0.02051095,-3.332903e-05,1.9875586e-05,1.9511104e-05,1.0,40,0.018915227,9.187424e-06,0,5.634926871936032e-10,1.0
5,5,3397055.0,350.79373,2304.2737,2330.8225,-81.34397,5.635488614294445,0.020421702,2.3863928e-05,2.033216e-05,1.9871617e-05,1.0,40,0.019710667,8.456529e-06,0,-3.3325735872090768e-09,1.0
6,6,2939708.2,388.16806,2628.5422,2657.0488,-81.5996,6.051483860734152,0.020493956,-3.314298e-05,2.0596857e-05,2.0157273e-05,1.0,40,0.021418251,8.060917e-06,0,-3.133508711079634e-09,1.0
7,7,2543924.5,458.76523,3025.2898,3059.8765,-81.37717,6.6034908469591755,0.020458445,-2.947771e-05,2.0679923e-05,2.0215064e-05,1.0,40,0.020795228,6.7961005e-06,0,-2.514599368819543e-09,1.0
8,8,2201436.2,518.07904,3642.485,3679.1445,-81.90498,7.155489619850414,0.020525668,-6.218598e-05,1.9847977e-05,1.9454412e-05,1.0,40,0.020477599,5.565859e-06,0,-1.4681707833662788e-08,1.0
9,9,1905053.1,542.11743,3906.2998,3943.738,-82.098946,7.707491966051748,0.020542976,-6.9163005e-05,2.138688e-05,2.0982754e-05,1.0,40,0.020613957,5.2270098e-06,0,-3.0087152168941124e-08,1.0
10,10,1648567.4,698.9565,4518.002,4571.748,-81.20579,8.259477592277108,0.020417174,1.9714935e-05,2.1368154e-05,2.0868694e-05,1.0,40,0.020045342,4.384612e-06,0,-4.7453738664475826e-08,1.0
11,11,1426616.2,820.8747,5233.1675,5297.157,-81.08523,8.81148545848555,0.02033961,4.4664754e-05,2.1318092e-05,2.0806157e-05,1.0,40,0.020401051,3.851321e-06,0,-4.282932074379333e-08,1.0
12,12,1234551.2,970.147,6082.7305,6159.61,-80.9381,9.530478799337288,0.020551957,-1.34828515e-05,2.1193975e-05,2.0668223e-05,1.0,41,0.019766364,3.2090286e-06,0,-4.7337987220847326e-08,1.0
13,13,1068345.5,1233.6875,7235.1704,7339.596,-80.32342,10.082504132209579,0.0204634,-6.20544e-06,2.0590158e-05,2.0008423e-05,1.0,41,0.020420058,2.7821773e-06,0,-4.809050535073014e-08,1.0
14,14,924510.06,1311.2347,8159.966,8264.646,-80.87112,10.634493598394329,0.020396326,3.753497e-06,2.1096974e-05,2.0565925e-05,1.0,41,0.020086518,2.4304145e-06,0,-4.75536223842236e-08,1.0
15,15,800039.0,1917.4747,9574.887,9764.997,-78.6757,11.186478957970394,0.020378178,4.8056277e-06,2.077664e-05,1.9975532e-05,1.0,41,0.020847755,2.1349474e-06,0,-4.73274059417545e-08,1.0
16,16,692334.1,2021.2915,10908.52,11094.206,-79.50245,11.738480050844373,0.020412313,5.6659533e-06,2.1073593e-05,2.037407e-05,1.0,41,0.02052156,1.8497548e-06,0,-4.697204492211742e-08,1.0
17,17,599122.25,2866.7427,11968.611,12307.147,-76.53018,12.29048349041841,0.020303912,1.0086767e-05,2.2195294e-05,2.0991025e-05,1.0,41,0.020522272,1.6675084e-06,0,-4.595560617831159e-08,1.0
18,18,518454.94,3697.706,13652.447,14144.34,-74.845276,12.842491836607223,0.020426324,-1.9075285e-06,2.2485296e-05,2.0948564e-05,1.0,41,0.020594243,1.456006e-06,0,-4.737503878756873e-08,1.0
19,19,448662.03,4743.203,15513.713,16222.616,-72.999374,13.394488662859658,0.02037013,3.1315278e-06,2.286573e-05,2.0910999e-05,1.0,41,0.020198587,1.2450881e-06,0,-4.814767278734659e-08,1.0
20,20,388258.97,5936.192,17428.447,18411.658,-71.19097,13.946486075728899,0.020525817,-3.1198076e-06,2.3520142e-05,2.1075191e-05,1.0,41,0.020848908,1.1323754e-06,0,-4.794724435258028e-08,1.0
21,21,335983.9,5867.889,16753.365,17751.264,-70.69712,14.498501141933957,0.020481044,-3.0751132e-06,2.8274802e-05,2.5185185e-05,1.0,41,0.021209968,1.1948428e-06,0,-4.832069426949362e-08,1.0
22,22,290751.2,10140.527,21757.068,24004.174,-65.010735,15.050499488163041,0.02036398,6.747882e-06,2.5159283e-05,2.0669286e-05,1.0,41,0.020864306,8.6919493e-07,0,-4.6780178961859695e-08,1.0
23,23,251605.19,11465.799,23910.625,26517.59,-64.381004,15.602488074364373,0.020560564,-1.1974471e-05,2.6455114e-05,2.1509157e-05,1.0,41,0.020153578,7.6000794e-07,0,-4.637001748328847e-08,1.0
24,24,217729.38,14464.513,25918.508,29681.496,-60.835136,16.154491913941456,0.020484827,3.0474166e-07,2.820286e-05,2.1505102e-05,1.0,41,0.020472592,6.897426e-07,0,-4.694718417559961e-08,1.0
25,25,188418.58,17635.758,27288.004,32490.846,-57.126125,16.706489860167494,0.020446688,1.5803317e-06,3.095456e-05,2.1834645e-05,1.0,41,0.020611426,6.343764e-07,0,-4.736800029091784e-08,1.0
26,26,163051.14,20705.72,29344.066,35913.8,-54.792492,17.258489006344462,0.02036905,7.151973e-06,3.3264118e-05,2.2207203e-05,1.0,41,0.020230401,5.6330435e-07,0,-4.6356819728635577e-08,1.0
27,27,141098.2,24737.506,30476.254,39252.34,-50.93384,17.810498285951326,0.020272108,1.620775e-05,3.701153e-05,2.2311518e-05,1.0,41,0.020039786,5.1053735e-07,0,-4.687921129177318e-08,1.0
28,28,122105.11,29970.582,32889.24,44496.492,-47.6584,18.226481745688943,0.020466512,-1.7883511e-06,3.963077e-05,2.165153e-05,1.0,41,0.021999694,4.944141e-07,0,-4.771601562456832e-08,1.0
29,29,105663.59,33408.27,32054.902,46299.344,-43.815655,18.778492625249783,0.020536324,-7.466135e-06,4.6989444e-05,2.252369e-05,1.0,41,0.02051365,4.4306566e-07,0,-4.670161464835587e-08,1.0
30,30,91439.65,37760.38,31852.846,49400.91,-40.149376,19.194483284984017,0.020483,-3.8590947e-06,5.4643355e-05,2.2717677e-05,1.0,41,0.021790355,4.410922e-07,0,-4.648122296041003e-08,1.0
31,31,79127.08,42562.746,34218.75,54612.363,-38.797897,19.913489132450195,0.020418348,8.1143037e-07,5.8780173e-05,2.3076886e-05,1.0,42,0.018641008,3.413331e-07,0,-4.628233560999817e-08,1.0
32,32,68475.36,47042.535,32052.836,56924.375,-34.268898,20.32950120556052,0.020536156,-2.943423e-07,7.2513576e-05,2.2990887e-05,1.0,42,0.019369196,3.402619e-07,0,-4.620670656479136e-08,1.0
33,33,59252.523,50990.78,31077.258,59714.785,-31.360977,20.74548919868539,0.020388966,1.114275e-06,8.64312e-05,2.3409504e-05,1.0,42,0.019984912,3.3467276e-07,0,-4.616525547035898e-08,1.0
34,34,51282.285,55598.105,29028.15,62719.875,-27.569368,21.161486818426056,0.020332959,1.3433641e-06,0.000106913714,2.2901386e-05,1.0,42,0.020517632,3.2713126e-07,0,-4.6072416305652234e-08,1.0
35,35,44369.8,58921.2,26866.824,64757.5,-24.511986,21.577478704828536,0.020426435,2.7987028e-07,0.00013351078,2.2980996e-05,1.0,42,0.020889828,3.2258546e-07,0,-4.59670723789303e-08,1.0
36,36,38403.727,60911.273,24128.604,65516.203,-21.609858,21.99350059128483,0.020470591,5.2553577e-07,0.00017175706,2.3296008e-05,1.0,42,0.021061637,3.2147219e-07,0,-4.584975811092325e-08,1.0
37,37,33226.32,63356.81,22133.25,67111.59,-19.256498,22.409483597701183,0.020463996,1.612291e-07,0.00021641767,2.3538998e-05,1.0,42,0.021318011,3.176502e-07,0,-4.576310809437227e-08,1.0
38,38,28754.086,65422.523,20089.074,68437.4,-17.069975,22.82549228411517,0.020522779,-4.0702304e-07,0.00027552477,2.3740698e-05,1.0,42,0.021431081,3.131487e-07,0,-4.5574794276200394e-08,1.0
39,39,24884.947,66929.56,17580.742,69200.06,-14.7177,23.241482650541002,0.020367857,1.2977339e-06,0.00036378618,2.3480516e-05,1.0,42,0.02148235,3.104383e-07,0,-4.554273066653675e-08,1.0
40,40,21553.963,68242.555,15291.541,69934.81,-12.630001,23.65849893700215,0.020368602,1.4627525e-06,0.00048288278,2.3086464e-05,1.0,42,0.021539772,3.0799785e-07,0,-4.5355395396014904e-08,1.0
41,41,18631.234,68860.13,13173.888,70108.984,-10.830597,24.074486236757366,0.020389264,1.1643784e-06,0.0006484322,2.2895234e-05,1.0,42,0.021420179,3.0552687e-07,0,-4.5206195787993726e-08,1.0
42,42,16126.037,70124.664,11568.307,71072.46,-9.367585,24.490481749846367,0.02057221,-3.8541683e-07,0.0008531447,2.260266e-05,1.0,42,0.021351395,3.0041727e-07,0,-4.528418119520536e-08,1.0
43,43,13954.87,71489.016,9875.523,72167.9,-7.8650866,24.9065018229594,0.020367913,1.1397941e-06,0.001154873,2.162551e-05,1.0,42,0.021264696,2.9465588e-07,0,-4.5320051682905515e-08,1.0
44,44,12080.609,70913.055,8475.432,71417.74,-6.8155837,25.322495629399782,0.020402437,7.1402485e-07,0.0015544238,2.1891768e-05,1.0,42,0.020826755,2.916188e-07,0,-4.5432916079702876e-08,1.0
45,45,10447.592,70814.05,7039.796,71163.11,-5.677259,25.738490475836443,0.020542677,-1.3472135e-07,0.0021639334,2.11765e-05,1.0,42,0.020301592,2.852825e-07,0,-4.5444256712233115e-08,1.0
46,46,9045.586,70730.41,5827.348,70970.055,-4.7098565,26.311263916344615,0.020452427,6.5219e-07,0.0030193431,2.0356547e-05,1.0,42,0.020395704,2.8738464e-07,0,-4.545589195245271e-08,1.0
47,47,7827.7437,70500.0,5139.5327,70687.09,-4.1695533,26.790930099174147,0.020480057,6.764032e-07,0.003956033,2.0913509e-05,1.0,42,0.020461772,2.894697e-07,0,-4.546025490801892e-08,1.0
48,48,6770.8345,70288.37,4109.98,70408.43,-3.3464522,27.329402551375097,0.02038986,7.3674863e-07,0.005719239,1.9488049e-05,1.0,42,0.020498015,2.9113014e-07,0,-4.547966919043874e-08,1.0
49,49,5860.798,70657.62,3476.8716,70743.11,-2.817099,27.93599332688609,0.020378495,5.849541e-07,0.0078104255,1.8866169e-05,1.0,42,0.020781325,2.9375758e-07,0,-4.569428947238969e-08,1.0
50,50,5071.625,70369.46,2687.39,70420.76,-2.1870468,28.61667757257237,0.020539697,4.296207e-07,0.011677298,1.7006005e-05,1.0,42,0.020847118,2.9603655e-07,0,-4.582572065985355e-08,1.0
51,51,4388.5933,69693.63,2545.36,69740.1,-2.0916343,29.296837631540257,0.020367391,1.2267757e-06,0.014247727,1.8979243e-05,1.0,42,0.020811243,2.984114e-07,0,-4.553360382608348e-08,1.0
52,52,3798.7827,70234.93,2424.0596,70276.75,-1.9766984,29.97680491716892,0.020429173,6.0898105e-07,0.017283527,2.0563433e-05,1.0,42,0.02104018,2.9939036e-07,0,-4.5228399134922764e-08,1.0
53,53,3286.0488,70145.11,1746.912,70166.86,-1.426614,30.656677882805525,0.02041438,7.1682064e-07,0.027725225,1.718514e-05,1.0,42,0.02108974,3.0056555e-07,0,-4.498275026135041e-08,1.0
54,54,2844.088,69990.29,1686.9923,70010.62,-1.3807462,31.336849808430998,0.020436272,7.7157847e-07,0.033171415,1.9260271e-05,1.0,42,0.021127595,3.01777e-07,0,-4.460918505407572e-08,1.0
55,55,2460.7852,69880.58,2034.8429,69910.195,-1.6679167,32.016715734069294,0.020510258,3.9984265e-08,0.031784512,2.6927515e-05,1.0,42,0.021148622,3.0251127e-07,0,-4.43921109406472e-08,1.0
56,56,2129.3164,69815.61,1357.5579,69828.805,-1.1139706,32.69681331302854,0.02045945,6.4045776e-07,0.055058144,2.0809855e-05,1.0,42,0.021185933,3.033982e-07,0,-4.4239832614937036e-08,1.0
57,57,1843.2289,69691.13,1833.4865,69715.25,-1.5070326,33.376956011983566,0.020519966,6.080502e-07,0.047093738,3.2573393e-05,1.0,42,0.021198811,3.040771e-07,0,-4.401203805259484e-08,1.0
58,58,1594.4913,69539.88,2350.6204,69579.6,-1.9360021,34.056840417630156,0.020469157,5.354124e-07,0.04246347,4.8463702e-05,1.0,42,0.021149114,3.0395566e-07,0,-4.377064592103736e-08,1.0
59,59,1380.4436,69923.0,1350.2437,69936.04,-1.106269,34.736719729924516,0.020387122,1.0539356e-06,0.08538652,3.182816e-05,1.0,42,0.02128192,3.043055e-07,0,-4.334287819386222e-08,1.0
60,60,1194.6187,69927.375,1998.5985,69955.93,-1.6371285,35.41681949555641,0.020335922,1.109811e-06,0.066659994,5.4408574e-05,1.0,42,0.021287337,3.042964e-07,0,-4.3230945846962065e-08,1.0
61,61,1033.3434,70190.42,1874.4843,70215.445,-1.5297602,36.09709350115736,0.020391537,1.2820931e-06,0.082166284,5.855877e-05,1.0,42,0.021344563,3.0398672e-07,0,-4.315078220300824e-08,1.0
62,62,894.71045,70185.49,1995.678,70213.86,-1.6287287,36.77684526682424,0.020426584,5.2833485e-07,0.089134775,7.2008275e-05,1.0,42,0.021324249,3.0370427e-07,0,-4.295101087360958e-08,1.0
63,63,774.2569,70479.695,5929.5044,70728.68,-4.809008,37.45695287245326,0.020410653,1.1245247e-06,0.034667034,0.00024364772,1.0,42,0.021482242,3.0372746e-07,0,-4.2541962173563575e-08,1.0
64,64,669.7856,70274.96,2846.6401,70332.59,-2.3196218,38.136835571422125,0.020377284,9.844642e-07,0.083474115,0.00013674254,1.0,42,0.021327997,3.0324483e-07,0,-4.2488858865010055e-08,1.0
65,65,579.81464,69724.43,2687.5342,69776.2,-2.2073781,38.81683331038221,0.020401152,8.162791e-07,0.102135554,0.00015152011,1.0,42,0.021197086,3.0378675e-07,0,-4.2607270687683715e-08,1.0
66,66,501.44418,70097.22,3235.9277,70171.87,-2.643093,39.49419555583154,0.020433478,4.353958e-07,0.09808413,0.00020857886,1.0,42,0.021265425,3.0304773e-07,0,-4.256510756329431e-08,1.0
67,67,434.02762,70841.516,3708.7607,70938.53,-2.996866,40.17422988146427,0.020533344,4.217993e-07,0.09887215,0.00027025092,1.0,42,0.021372877,3.012873e-07,0,-4.221222352634651e-08,1.0
68,68,375.6009,70943.625,3641.191,71037.01,-2.9381351,40.853442927094875,0.020423751,7.9076284e-07,0.11637242,0.00030575084,1.0,42,0.021373086,3.0087256e-07,0,-4.179337155260971e-08,1.0
69,69,325.10385,70810.414,4115.2827,70929.9,-3.3261125,41.532692799388315,0.02047266,2.1114904e-07,0.118959285,0.00040044144,1.0,42,0.021316795,3.0053326e-07,0,-4.169800906215274e-08,1.0
70,70,281.3503,71046.05,4940.6665,71217.63,-3.9780443,42.20978843154444,0.020458594,6.749143e-07,0.11449517,0.0005510401,1.0,42,0.02132737,2.9946756e-07,0,-4.1295979525963015e-08,1.0
71,71,243.36427,71011.516,5373.845,71214.56,-4.3276486,42.893121130618965,0.020497944,8.3006165e-07,0.12169652,0.0006929643,1.0,42,0.021294633,2.9902077e-07,0,-4.143982739895079e-08,1.0
72,72,210.60631,71653.52,6326.707,71932.29,-5.0458927,43.57017382947379,0.020384718,8.6246934e-07,0.119445845,0.00092401437,1.0,42,0.02136471,2.9701138e-07,0,-4.160073050611758e-08,1.0
73,73,182.27473,71279.81,6509.7295,71576.45,-5.2181425,44.24224274136941,0.020424701,6.611319e-07,0.13413148,0.0011094717,1.0,42,0.02123584,2.9668752e-07,0,-4.123381145400688e-08,1.0
74,74,157.72879,71904.96,7907.366,72338.44,-6.275583,44.93065594744985,0.020377135,9.554086e-07,0.12760782,0.0015247645,1.0,42,0.02127593,2.9411652e-07,0,-4.13838835802031e-08,1.0
75,75,136.52892,72527.52,8638.348,73040.14,-6.792183,45.60254352595075,0.020435732,8.3825637e-07,0.1349475,0.0018875696,1.0,42,0.021330846,2.9204278e-07,0,-4.087018357241057e-08,1.0
76,76,118.14758,72700.07,9480.671,73315.64,-7.429899,46.290892972028814,0.020560471,1.9252366e-07,0.14208762,0.0023759708,1.0,42,0.021277795,2.9022178e-07,0,-4.084451891548212e-08,1.0
77,77,102.25773,73185.32,10692.298,73962.266,-8.312046,46.957329563651,0.020430738,7.4215075e-07,0.14556365,0.003042108,1.0,42,0.0212695,2.875723e-07,0,-4.061847233442231e-08,1.0
78,78,88.4436,74212.125,11981.228,75173.06,-9.171023,47.64726770311245,0.020469641,6.1847976e-07,0.15019391,0.003815316,1.0,42,0.0213608,2.8415496e-07,0,-4.056180105227705e-08,1.0
79,79,76.54279,75137.305,13005.61,76254.58,-9.820098,48.31371786813543,0.02040987,7.2706416e-07,0.15987667,0.0046506613,1.0,42,0.021403058,2.80679e-07,0,-4.044366513786358e-08,1.0
80,80,66.250786,75588.06,14815.705,77026.36,-11.089721,48.98197181985597,0.020379072,1.291405e-06,0.16214621,0.0059989146,1.0,42,0.021349298,2.7716874e-07,0,-4.015392231582678e-08,1.0
81,81,57.329906,76796.84,16116.616,78469.74,-11.8521185,49.63664774430799,0.020412909,7.922519e-07,0.1722523,0.0072662164,1.0,42,0.021401687,2.7273808e-07,0,-4.0244587527631975e-08,1.0
82,82,49.60321,77417.95,17973.762,79477.016,-13.070538,50.32234441683977,0.020436086,6.374771e-07,0.17851363,0.009129904,1.0,42,0.021347344,2.6859772e-07,0,-4.019164001443818e-08,1.0
83,83,42.92585,78715.37,19509.822,81097.12,-13.920395,51.0304347704805,0.020398766,5.933358e-07,0.19004127,0.01099876,1.0,42,0.021350168,2.6326666e-07,0,-3.9801569495068437e-08,1.0
84,84,37.1518,79250.83,21947.703,82233.79,-15.479524,51.67416056102957,0.020486895,2.9700976e-07,0.19518715,0.013903649,1.0,42,0.02123525,2.5823022e-07,0,-3.953282484472946e-08,1.0
85,85,32.150223,80798.78,24292.908,84371.73,-16.733896,52.313367951399414,0.020409442,7.356313e-07,0.20377769,0.016893582,1.0,42,0.021284202,2.52267e-07,0,-3.9871772190356065e-08,1.0
86,86,27.835518,82678.32,26742.975,86895.87,-17.924221,53.04034177257563,0.020369394,1.1640083e-06,0.21380168,0.020250339,1.0,42,0.021340085,2.4558227e-07,0,-3.936133125550908e-08,1.0
87,87,24.082958,84256.48,29138.043,89152.56,-19.076693,53.74238105924451,0.02044095,5.683774e-07,0.22680359,0.024227189,1.0,42,0.021295516,2.38866e-07,0,-3.952276688872283e-08,1.0
88,88,20.833313,85885.94,31726.365,91558.484,-20.27429,54.39677474372729,0.020422354,7.8144893e-07,0.24079168,0.028912451,1.0,42,0.021244673,2.3203391e-07,0,-4.0002372359927205e-08,1.0
89,89,18.021912,88636.06,34924.297,95268.35,-21.505384,55.14273237915768,0.020393671,1.3591066e-06,0.2528667,0.033982057,1.0,42,0.02137228,2.2433765e-07,0,-3.89158558762749e-08,1.0
90,90,15.604198,90661.31,38285.984,98413.875,-22.89418,55.79799585026922,0.0204852,8.9431717e-07,0.26640284,0.040318634,1.0,42,0.02136644,2.17108e-07,0,-3.8812525071973523e-08,1.0
91,91,13.500899,92940.195,41767.293,101894.0,-24.199135,56.54597823246149,0.020449622,5.9184475e-07,0.28224164,0.04742382,1.0,42,0.021330552,2.0934061e-07,0,-3.8783131144236075e-08,1.0
92,92,11.686608,95875.47,45411.723,106086.43,-25.344723,57.136895727191586,0.020451047,7.2054416e-07,0.29989117,0.054951552,1.0,42,0.02133838,2.0114148e-07,0,-3.826632716916814e-08,1.0
93,93,10.113269,98238.81,49830.29,110154.086,-26.895775,57.81052093251492,0.02054538,6.212723e-07,0.31581676,0.064628005,1.0,42,0.021317018,1.9352e-07,0,-3.763960309190632e-08,1.0
94,94,8.748621,101271.516,54110.203,114820.875,-28.115957,58.85637772883638,0.020414902,5.539274e-07,0.33620283,0.07466516,1.0,43,0.021319872,1.8567941e-07,0,-3.7652643479050556e-08,1.0
95,95,7.570237,104143.516,58957.613,119674.02,-29.51502,59.73200137045933,0.02047362,5.848228e-07,0.3565913,0.08654675,1.0,43,0.021288069,1.7788379e-07,0,-3.8108667692148834e-08,1.0
96,96,6.554112,107227.35,64716.574,125243.52,-31.112888,60.26832726257271,0.020480728,5.0764026e-08,0.37522414,0.100186974,1.0,43,0.021312423,1.7016787e-07,0,-3.8531199242040714e-08,1.0
97,97,5.669445,110335.734,71941.06,131717.47,-33.105137,60.87812187822419,0.020453786,9.090937e-07,0.3902139,0.116404474,1.0,43,0.02135632,1.6213734e-07,0,-3.7802156577391066e-08,1.0
98,98,4.907347,113875.67,77970.3,138011.0,-34.39931,61.57056527110399,0.02044896,3.534976e-07,0.41595292,0.1327624,1.0,43,0.02129689,1.54313e-07,0,-3.737941767196793e-08,1.0
99,99,4.245922,117267.35,86089.5,145475.2,-36.283516,62.35828952185693,0.020368593,5.308063e-07,0.43540955,0.15248261,1.0,43,0.021311946,1.4649882e-07,0,-3.921896327510311e-08,1.0
100,100,3.6747382,120754.88,95079.36,153693.94,-38.216007,63.25792388460832,0.020412639,7.56348e-07,0.45552003,0.17432773,1.0,43,0.02128383,1.3848191e-07,0,-3.663811420955889e-08,1.0
101,101,3.180988,124989.516,105474.55,163545.89,-40.15992,64.28723654677742,0.020417072,4.2187074e-07,0.47436258,0.19729972,1.0,43,0.02132789,1.304092e-07,0,-3.640964141124334e-08,1.0
102,102,2.752818,128610.22,116596.664,173595.42,-42.195118,65.46609721615096,0.020451998,3.820669e-07,0.49585703,0.2236929,1.0,43,0.02128871,1.2263405e-07,0,-3.8862177145831784e-08,1.0
103,103,2.3804083,133612.84,130482.49,186756.72,-44.3209,66.82095352048054,0.020396277,6.2598974e-07,0.5124086,0.25013152,1.0,43,0.021334196,1.1423523e-07,0,-3.8493046113153776e-08,1.0
104,104,2.060257,138224.53,144889.03,200246.98,-46.348495,68.37634490101482,0.020429691,6.178995e-07,0.533167,0.2791273,1.0,43,0.021320844,1.0647273e-07,0,-3.561522481145967e-08,1.0
105,105,1.7836765,143837.94,162652.97,217129.78,-48.512897,70.1636058126212,0.020397166,5.183042e-07,0.5485826,0.30784157,1.0,43,0.021346273,9.8311126e-08,0,-3.437983689871989e-08,1.0
106,106,1.5427545,149032.64,182453.31,235584.25,-50.75715,72.2242870304326,0.021530448,-1.7459132e-07,0.5654205,0.33914274,1.0,43,0.02133741,9.0572314e-08,0,-3.633580075357321e-08,1.0
