True,index,freq,Re(Z),Im(Z),Z,Phase(Z),time,Ewe_meas,I_meas,Cs,Cp,cycle_number,I_Range,Ewe,I,Ns,(QQo),cycle
0,0,7000018.5,251.0491,1783.9801,1801.5579,-81.9897,2.4654929170792457,0.006134376,2.9110724e-05,1.2744739e-05,1.2497252e-05,1.0,40,0.010023076,5.5635605e-06,0,1.4268242366344767e-08,1.0
1,1,6057573.0,385.84662,1964.883,2002.4093,-78.89012,3.0174820899555925,0.0061783097,4.0863665e-06,1.3371643e-05,1.2875156e-05,1.0,40,0.014236562,7.109716e-06,0,1.3385635182316946e-08,1.0
2,2,5242039.0,356.01297,2283.6467,2311.2307,-81.1391,3.4334804830432404,0.0062188897,2.6468659e-05,1.3295081e-05,1.2979627e-05,1.0,40,0.019691058,8.519728e-06,0,1.4149570131583762e-08,1.0
3,3,4536288.0,279.73492,2609.1155,2624.0684,-83.88044,4.801480121357599,0.006208773,5.221312e-06,1.3447025e-05,1.329421e-05,1.0,40,0.019410206,7.3969895e-06,0,7.012678097112257e-09,1.0
4,4,3925558.5,416.09302,2947.2173,2976.4448,-81.964,5.217478727776324,0.0061782356,2.5235236e-06,1.3756455e-05,1.34876145e-05,1.0,40,0.018531855,6.226171e-06,0,7.503686319245793e-09,1.0
5,5,3397055.0,496.29373,3333.5718,3370.3127,-81.53214,5.633492880879203,0.0061574797,2.321272e-05,1.40542525e-05,1.3749502e-05,1.0,40,0.019504178,5.787053e-06,0,9.216188672223464e-09,1.0
6,6,2939708.2,453.30984,3873.353,3899.7888,-83.324875,6.049489700613776,0.0061509586,-8.751331e-06,1.3977478e-05,1.378862e-05,1.0,40,0.021341318,5.472429e-06,0,1.1811272997540023e-08,1.0
7,7,2543924.5,587.5587,4397.623,4436.7007,-82.38988,6.601482153550023,0.0061406926,8.644705e-06,1.4226495e-05,1.397699e-05,1.0,40,0.02085191,4.6998684e-06,0,1.5541820051112155e-08,1.0
8,8,2201436.2,713.68854,5026.1426,5076.56,-81.9183,7.153494713100372,0.0061568837,1.5044962e-05,1.4383984e-05,1.4099696e-05,1.0,40,0.020730374,4.0835475e-06,0,1.4009089643220957e-08,1.0
9,9,1905053.1,537.17084,5831.947,5856.6333,-84.73743,7.872490480571287,0.0061292714,2.2283523e-06,1.432516e-05,1.4204649e-05,1.0,41,0.019569878,3.3414892e-06,0,1.2856371055774061e-08,1.0
10,10,1648567.4,842.31506,6972.533,7023.2266,-83.11178,8.424486426782096,0.0060774935,6.70877e-06,1.3845953e-05,1.3646795e-05,1.0,41,0.019722808,2.808226e-06,0,1.3579751311172887e-08,1.0
11,11,1426616.2,933.5588,7824.675,7880.1694,-83.19623,8.976491759676719,0.0061513684,1.3233469e-06,1.4257608e-05,1.4057502e-05,1.0,41,0.020282082,2.573813e-06,0,1.3544980967604876e-08,1.0
12,12,1234551.2,1084.111,8992.036,9057.152,-83.125404,9.528478532534791,0.0061750123,-3.097466e-06,1.4336824e-05,1.4131417e-05,1.0,41,0.020826185,2.2994186e-06,0,1.2746526794523384e-08,1.0
13,13,1068345.5,1385.7249,10472.424,10563.706,-82.46233,10.080494212073972,0.006076823,5.6678123e-06,1.4225293e-05,1.398051e-05,1.0,41,0.020579973,1.9481774e-06,0,1.3123740698427848e-08,1.0
14,14,924510.06,1896.8633,11881.243,12031.709,-80.92917,10.632492825010559,0.0061430214,2.0738055e-06,1.4489274e-05,1.412914e-05,1.0,41,0.020421352,1.6972945e-06,0,1.2765114825223614e-08,1.0
15,15,800039.0,2372.829,14549.907,14742.12,-80.737625,11.184496664529433,0.0061513497,-1.3395694e-06,1.3672525e-05,1.3318315e-05,1.0,41,0.021043941,1.4274705e-06,0,1.2449103816152274e-08,1.0
16,16,692334.1,2808.708,15792.623,16040.442,-79.91543,11.736486264067935,0.006113546,5.1631614e-06,1.4556271e-05,1.4109966e-05,1.0,41,0.02030173,1.265659e-06,0,1.337456554622602e-08,1.0
17,17,599122.25,3705.763,17793.023,18174.828,-78.23516,12.288492850289913,0.0061239055,1.565431e-06,1.4929833e-05,1.4309149e-05,1.0,41,0.02087074,1.1483321e-06,0,1.30922935063514e-08,1.0
18,18,518454.94,4305.5293,20721.152,21163.736,-78.26186,12.84049095652881,0.006170224,2.9620646e-06,1.481478e-05,1.4201634e-05,1.0,41,0.020330671,9.606372e-07,0,1.3316033042719432e-08,1.0
19,19,448662.03,1148.3698,25722.266,25747.887,-87.443726,13.392492689396022,0.0061393697,3.8223916e-06,1.3790867e-05,1.3763435e-05,1.0,41,0.020273045,7.873673e-07,0,1.3422324450889139e-08,1.0
20,20,388258.97,4500.729,29084.02,29430.201,-81.2033,13.944489568966674,0.0061811977,-1.6822104e-06,1.4094322e-05,1.3764696e-05,1.0,41,0.02075249,7.051426e-07,0,1.4273466802623918e-08,1.0
21,21,335983.9,11204.889,28037.596,30193.646,-68.21648,14.49649815520388,0.0061068013,5.5002156e-06,1.6895103e-05,1.4568381e-05,1.0,41,0.020018432,6.6300146e-07,0,1.50469900242898e-08,1.0
22,22,290751.2,12074.036,32925.957,35069.945,-69.86188,15.048481994745089,0.0061075096,5.034671e-06,1.6624945e-05,1.465436e-05,1.0,41,0.020437751,5.827711e-07,0,1.4428301594253727e-08,1.0
23,23,251605.19,15994.714,37396.18,40673.15,-66.843124,15.600500527623808,0.0061309854,8.3134985e-08,1.691505e-05,1.4299215e-05,1.0,41,0.020566365,5.0564967e-07,0,1.5502217801366352e-08,1.0
24,24,217729.38,19180.71,40356.902,44683.098,-64.57933,16.15249540717923,0.0060564023,6.950853e-06,1.8112787e-05,1.4775234e-05,1.0,41,0.020205375,4.521928e-07,0,1.6085842038961572e-08,1.0
25,25,188418.58,24172.88,44448.945,50596.81,-61.461117,16.704488900053548,0.006085859,4.9434243e-06,1.9003559e-05,1.4665998e-05,1.0,41,0.020707645,4.092678e-07,0,1.6020138130307438e-08,1.0
26,26,163051.14,27430.383,48267.125,55517.035,-60.39027,17.423492400877876,0.0060264613,3.292258e-07,2.0222968e-05,1.5286047e-05,1.0,42,0.01936824,3.4887023e-07,0,1.716671712692788e-08,1.0
27,27,141098.2,34537.18,51344.234,61879.297,-56.072884,17.83950263398583,0.0061898804,-7.5624587e-07,2.1968832e-05,1.5125146e-05,1.0,42,0.021039588,3.4001013e-07,0,1.7145528771461077e-08,1.0
28,28,122105.11,38277.332,55032.992,67035.695,-55.180065,18.391482393519254,0.006103876,-1.6769228e-07,2.3684443e-05,1.5962363e-05,1.0,42,0.020040035,2.9894574e-07,0,1.7202899598755847e-08,1.0
29,29,105663.59,49906.008,57167.05,75885.98,-48.879513,18.807497506641084,0.006076525,1.6942246e-07,2.634808e-05,1.4952627e-05,1.0,42,0.021502605,2.8335413e-07,0,1.7151120477374783e-08,1.0
30,30,91439.65,57089.08,58241.527,81555.125,-45.572514,19.359493719501188,0.006145872,-3.2768193e-07,2.988497e-05,1.5241083e-05,1.0,42,0.020404857,2.501971e-07,0,1.713440369361388e-08,1.0
31,31,79127.08,65330.168,58614.633,87770.76,-41.89865,19.7754925659101,0.006106317,7.443439e-08,3.431539e-05,1.5303873e-05,1.0,42,0.02140146,2.438336e-07,0,1.712455505427673e-08,1.0
32,32,68475.36,73114.15,57677.016,93125.27,-38.268585,20.327485578804044,0.0060789655,-1.6340836e-07,4.0297957e-05,1.5458007e-05,1.0,42,0.02022849,2.1721804e-07,0,1.7019658345578196e-08,1.0
33,33,59252.523,80111.164,55988.004,97736.664,-34.948887,20.743485225219047,0.0061596036,-4.5396015e-07,4.7975365e-05,1.5743208e-05,1.0,42,0.020848086,2.1330875e-07,0,1.700621016550959e-08,1.0
34,34,51282.285,87551.34,54193.004,102966.59,-31.756903,21.159501004993217,0.006135103,-1.1479671e-07,5.7267676e-05,1.5863658e-05,1.0,42,0.021393409,2.0777038e-07,0,1.693035442237721e-08,1.0
35,35,44369.8,94449.14,48474.035,106162.01,-27.168207,21.575490091432584,0.0061044726,2.172893e-07,7.399859e-05,1.5427784e-05,1.0,42,0.021752497,2.0489908e-07,0,1.693895529306783e-08,1.0
36,36,38403.727,99552.73,45493.258,109454.93,-24.559288,22.127504090982256,0.006178273,-7.569907e-07,9.109609e-05,1.5737043e-05,1.0,42,0.020225162,1.8478073e-07,0,1.6959947446815072e-08,1.0
37,37,33226.32,104347.27,41299.83,112223.125,-21.59327,22.54348877738812,0.0061146454,-5.793069e-07,0.000115981755,1.570802e-05,1.0,42,0.020397045,1.8175439e-07,0,1.6921288988738484e-08,1.0
38,38,28754.086,108017.484,37090.332,114208.01,-18.951109,22.959501650504535,0.006139612,-4.2825712e-07,0.00014923127,1.57394e-05,1.0,42,0.020515487,1.7963265e-07,0,1.6900066762265927e-08,1.0
39,39,24884.947,112029.39,33133.527,116826.43,-16.475975,23.375494416890433,0.006195004,-7.372477e-07,0.00019302598,1.5526331e-05,1.0,42,0.020607859,1.7639724e-07,0,1.6925925754924895e-08,1.0
40,40,21553.963,114082.76,28277.652,117535.11,-13.921306,23.792487476748647,0.0061730742,-9.4733866e-07,0.0002611257,1.5114755e-05,1.0,42,0.02057818,1.7508113e-07,0,1.682214209872236e-08,1.0
41,41,18631.234,115580.64,25848.965,118435.86,-12.606436,24.208499709813623,0.0060816486,1.8227479e-07,0.0003304725,1.574183e-05,1.0,42,0.020487867,1.7298703e-07,0,1.6871120174447856e-08,1.0
42,42,16126.037,116685.15,22268.482,118791.03,-10.804548,24.624484049592866,0.006125657,-8.59266e-08,0.00044320212,1.557456e-05,1.0,42,0.020265149,1.7059494e-07,0,1.677067956714367e-08,1.0
43,43,13954.87,116926.85,16403.943,118071.92,-7.986038,25.040479402669007,0.0060698176,3.4114754e-07,0.00069525815,1.3419902e-05,1.0,42,0.02013585,1.7053885e-07,0,1.6814836513928654e-08,1.0
44,44,12080.609,119244.45,17070.488,120460.125,-8.146849,25.456478942447575,0.0061686775,-6.6609863e-07,0.0007717654,1.5498534e-05,1.0,42,0.01976922,1.6411423e-07,0,1.6843079369496176e-08,1.0
45,45,10447.592,118896.805,13491.815,119659.85,-6.473946,25.87249053551932,0.0061149807,-3.5265792e-08,0.001129103,1.4354147e-05,1.0,42,0.019239334,1.6078354e-07,0,1.6865582679432043e-08,1.0
46,46,9045.586,119755.21,12543.915,120410.38,-5.979715,26.304264076024992,0.006125228,-2.66962e-07,0.0014026533,1.5222594e-05,1.0,42,0.02190712,1.8193712e-07,0,1.675103288603373e-08,1.0
47,47,7827.7437,120300.234,10323.562,120742.38,-4.904819,26.784937512216857,0.00609266,-1.1052711e-08,0.001969491,1.4397716e-05,1.0,42,0.021988427,1.8211027e-07,0,1.6748727089388954e-08,1.0
48,48,6770.8345,119699.59,9030.713,120039.77,-4.3144956,27.4984155727725,0.006118353,-2.2207531e-07,0.0026028906,1.4731591e-05,1.0,42,0.020159237,1.6793798e-07,0,1.6496650460237244e-08,1.0
49,49,5860.798,119899.51,7779.948,120151.66,-3.7125604,28.10396082821535,0.0060915793,-1.4850593e-07,0.003490492,1.463459e-05,1.0,42,0.020265339,1.6866467e-07,0,1.635430598617028e-08,1.0
50,50,5071.625,119353.4,6485.686,119529.484,-3.1104043,28.784687580555328,0.0061082733,-7.9406824e-08,0.0048385705,1.4245537e-05,1.0,42,0.020277556,1.696448e-07,0,1.6246317973490755e-08,1.0
51,51,4388.5933,118971.06,5253.34,119086.99,-2.5283358,29.464830812852597,0.006121632,-5.109638e-08,0.006903341,1.3433886e-05,1.0,42,0.020284373,1.703324e-07,0,1.6261905678122997e-08,1.0
52,52,3798.7827,119562.3,5243.9746,119677.24,-2.51137,30.144838338484988,0.0061072297,-2.9918266e-07,0.007989418,1.5339569e-05,1.0,42,0.020384355,1.7032774e-07,0,1.6136476939055436e-08,1.0
53,53,3286.0488,119311.555,5089.6523,119420.06,-2.4426713,30.824683677448775,0.0060890266,-3.332664e-07,0.009516078,1.7285409e-05,1.0,42,0.020420993,1.7100136e-07,0,1.595779044514245e-08,1.0
54,54,2844.088,119901.75,4773.616,119996.734,-2.2798975,31.50483080308186,0.006125284,-1.5092624e-07,0.011722754,1.8551787e-05,1.0,42,0.020503689,1.7086872e-07,0,1.6024001950970953e-08,1.0
55,55,2460.7852,119525.484,4487.6816,119609.7,-2.1502068,32.18469536871271,0.006093815,8.8773575e-09,0.014412004,2.0287833e-05,1.0,42,0.02048074,1.7122976e-07,0,1.5923648597374533e-08,1.0
56,56,2129.3164,119464.65,4051.2783,119533.32,-1.942267,32.86482566768245,0.0061371527,-3.0607336e-07,0.018449638,2.1193078e-05,1.0,42,0.020510096,1.7158476e-07,0,1.602024639421431e-08,1.0
57,57,1843.2289,119417.25,3438.3599,119466.74,-1.6492516,33.544973673298955,0.0061382703,-8.8904436e-08,0.025112476,2.0801668e-05,1.0,42,0.020508906,1.7167042e-07,0,1.5951403428017684e-08,1.0
58,58,1594.4913,119493.63,3993.5166,119560.34,-1.9141315,34.22484266560059,0.006073991,-1.7662855e-07,0.024994386,2.7885546e-05,1.0,42,0.020527702,1.7169323e-07,0,1.5789804377509616e-08,1.0
59,59,1380.4436,119833.64,3805.1682,119894.04,-1.8187451,34.904714404576225,0.006083456,2.7688927e-08,0.03029895,3.051969e-05,1.0,42,0.020577986,1.7163477e-07,0,1.575511379017374e-08,1.0
60,60,1194.6187,119702.94,4194.4844,119776.41,-2.0068676,35.5848047035397,0.006088859,-1.2541364e-08,0.031762324,3.895174e-05,1.0,42,0.020539736,1.7148399e-07,0,1.557684753819662e-08,1.0
61,61,1033.3434,119912.64,4342.708,119991.25,-2.0740945,36.26509540245752,0.0061042304,-1.993512e-07,0.035466213,4.645548e-05,1.0,42,0.020570615,1.714343e-07,0,1.5423073937675725e-08,1.0
62,62,894.71045,119758.625,4549.0884,119844.99,-2.1753616,36.94483068813861,0.006094169,-7.679794e-08,0.03910329,5.6340697e-05,1.0,42,0.02054431,1.71424e-07,0,1.5529505937189627e-08,1.0
63,63,774.2569,120213.58,5246.8164,120328.02,-2.4991333,37.62496354710311,0.0061218184,-2.949015e-08,0.039177723,7.448989e-05,1.0,42,0.02056892,1.709404e-07,0,1.5550037015119735e-08,1.0
64,64,669.7856,120266.414,5572.452,120395.445,-2.6528587,38.30480157939019,0.006118558,-7.847427e-08,0.042642042,9.135043e-05,1.0,42,0.020562142,1.7078837e-07,0,1.5337633957571485e-08,1.0
65,65,579.81464,120412.22,5607.3076,120542.71,-2.6662006,38.98483155836584,0.006123253,-2.6453927e-07,0.048952695,0.000105926214,1.0,42,0.020552706,1.7050144e-07,0,1.533460759555933e-08,1.0
66,66,501.44418,120760.55,6087.358,120913.875,-2.8857517,39.66220852386323,0.0061135087,-1.4645603e-07,0.05213972,0.00013215211,1.0,42,0.020573843,1.7015287e-07,0,1.546781015253313e-08,1.0
67,67,434.02762,121263.13,7199.5938,121476.67,-3.397757,40.342202956118854,0.006169702,-1.1237197e-07,0.050932474,0.00017890603,1.0,42,0.020586476,1.6946855e-07,0,1.5465935082877833e-08,1.0
68,68,375.6009,121591.81,8102.4336,121861.47,-3.8123453,41.021434828377096,0.00617028,-2.1127138e-07,0.052297153,0.0002311938,1.0,42,0.02060958,1.6912303e-07,0,1.533549317408599e-08,1.0
69,69,325.10385,121801.88,8284.8955,122083.33,-3.8912327,41.700693260696426,0.006138028,-1.520437e-07,0.05908959,0.00027212745,1.0,42,0.020578854,1.68564e-07,0,1.523269391765029e-08,1.0
70,70,281.3503,121869.78,10358.765,122309.23,-4.858385,42.37680875946535,0.0061416985,-3.0178947e-07,0.054609068,0.00039170784,1.0,42,0.020550119,1.6801773e-07,0,1.538558833314833e-08,1.0
71,71,243.36427,121865.125,10301.647,122299.766,-4.8319073,43.060107591882115,0.0060797483,4.7799666e-09,0.06348288,0.00045042112,1.0,42,0.020511778,1.6771723e-07,0,1.528853532855676e-08,1.0
72,72,210.60631,122755.29,12166.912,123356.78,-5.6603937,43.73718346407986,0.006093107,2.903029e-07,0.062110983,0.0006042311,1.0,42,0.020539708,1.6650652e-07,0,1.51034591477206e-08,1.0
73,73,182.27473,123132.29,13750.96,123897.734,-6.372179,44.40825981591479,0.0061211293,-1.2317477e-07,0.06349809,0.0007821678,1.0,42,0.020530099,1.6570198e-07,0,1.5247496839644252e-08,1.0
74,74,157.72879,123912.14,14414.735,124747.76,-6.6354103,45.09666024866965,0.006168081,-3.0123095e-07,0.070000716,0.0009346528,1.0,42,0.02053827,1.646384e-07,0,1.523345778235324e-08,1.0
75,75,136.52892,124733.16,16520.496,125822.445,-7.544725,45.769515800551744,0.006137879,-2.0550678e-08,0.07056224,0.0012164726,1.0,42,0.020530025,1.6316663e-07,0,1.541329808398473e-08,1.0
76,76,118.14758,125772.24,18330.76,127101.04,-8.292227,46.45791188662406,0.0062021585,-1.6564026e-07,0.07348773,0.0015285426,1.0,42,0.020563383,1.6178768e-07,0,1.532869934722293e-08,1.0
77,77,102.25773,126788.65,20337.166,128409.35,-9.11274,47.124362451577326,0.0061648763,-2.4107212e-07,0.07653032,0.0019196458,1.0,42,0.0205445,1.5999224e-07,0,1.5376020723094383e-08,1.0
78,78,88.4436,127828.836,23073.418,129894.55,-10.231856,47.814298884390155,0.006185204,-3.4965663e-07,0.07799051,0.0024608423,1.0,42,0.020571806,1.5837313e-07,0,1.532641459505197e-08,1.0
79,79,76.54279,128424.55,24794.945,130796.23,-10.927649,48.481710676111106,0.006117347,-4.4018584e-08,0.08385958,0.0030136204,1.0,42,0.020455873,1.5639498e-07,0,1.534821159930841e-08,1.0
80,80,66.250786,130788.7,27994.168,133751.11,-12.08136,49.15000321451225,0.0061027957,-3.7313583e-08,0.08581467,0.0037592559,1.0,42,0.0206127,1.5411237e-07,0,1.537901223072365e-08,1.0
81,81,57.329906,131926.19,31139.215,135551.36,-13.280743,49.804625938953905,0.006149878,1.6885302e-08,0.08915203,0.0047047744,1.0,42,0.020565493,1.5171736e-07,0,1.5233424070394285e-08,1.0
82,82,49.60321,133520.61,33822.438,137737.83,-14.214731,50.48936397142825,0.006149878,-1.6973848e-07,0.094864875,0.005720168,1.0,42,0.020547694,1.4917974e-07,0,1.5108453632578685e-08,1.0
83,83,42.92585,135482.7,37538.3,140586.94,-15.4865,51.197425738413585,0.0061374134,-5.351796e-08,0.098770365,0.007041836,1.0,42,0.020544697,1.4613518e-07,0,1.525914711034678e-08,1.0
84,84,37.1518,137005.84,42171.3,143349.3,-17.108711,51.84218614237034,0.0060897907,-6.3761696e-08,0.10158353,0.008791565,1.0,42,0.020549722,1.4335419e-07,0,1.5317671601918202e-08,1.0
85,85,32.150223,139552.64,46123.793,146977.36,-18.28933,52.48038459933014,0.006159082,-3.0365337e-07,0.10732753,0.010569641,1.0,42,0.020534886,1.3971461e-07,0,1.501087978268287e-08,1.0
86,86,27.835518,141918.88,51425.1,150948.69,-19.91827,53.20833479388966,0.006115651,-1.10510975e-07,0.111184865,0.012904384,1.0,42,0.020559464,1.3620168e-07,0,1.5210971947404062e-08,1.0
87,87,24.082958,144900.36,56520.84,155533.66,-21.309113,53.91038850726909,0.0062361616,-5.256645e-07,0.116923474,0.015440812,1.0,42,0.02059123,1.3239082e-07,0,1.5019871459441467e-08,1.0
88,88,20.833313,147718.53,62335.977,160332.6,-22.879333,54.80876206996618,0.0061539025,-3.9493952e-07,0.122552745,0.018524945,1.0,43,0.020530984,1.2805246e-07,0,1.446931917055642e-08,1.0
89,89,18.021912,150754.89,68842.96,165729.88,-24.544043,55.55473111872561,0.0062036025,-3.146193e-07,0.12828024,0.022134883,1.0,43,0.020526502,1.2385517e-07,0,1.4913624755513254e-08,1.0
90,90,15.604198,153955.11,76312.055,171830.45,-26.366573,56.20902981644031,0.006168193,-3.331865e-07,0.1336551,0.026361587,1.0,43,0.020540334,1.1953838e-07,0,1.4739649973778215e-08,1.0
91,91,13.500899,157541.17,84532.43,178787.45,-28.21683,56.9569828119711,0.0061059073,-3.4528193e-07,0.13945499,0.031175017,1.0,43,0.020556292,1.1497614e-07,0,1.4548412419162876e-08,1.0
92,92,11.686608,160745.38,93528.3,185974.78,-30.192612,57.547868413385004,0.0060586757,-2.8778373e-07,0.14560914,0.03682702,1.0,43,0.02051745,1.1032383e-07,0,1.4735968554186721e-08,1.0
93,93,10.113269,164453.77,103951.87,194553.42,-32.297142,58.22150732533191,0.0061279857,-2.9480458e-07,0.15138969,0.04321984,1.0,43,0.020544795,1.0559976e-07,0,1.508754185463701e-08,1.0
94,94,8.748621,168324.42,115578.72,204185.1,-34.47515,58.988384161755675,0.0061130617,-3.2123057e-07,0.15739925,0.05043248,1.0,43,0.020561036,1.00698024e-07,0,1.4520560392581514e-08,1.0
95,95,7.570237,171779.22,128656.766,214617.48,-36.831955,59.86399175005499,0.006134162,-3.540908e-07,0.16340975,0.05872365,1.0,43,0.020540971,9.570968e-08,0,1.4053068340441005e-08,1.0
96,96,6.554112,176221.53,142757.31,226789.94,-39.010983,60.40029492214671,0.0062175486,-7.697262e-08,0.17010142,0.06739956,1.0,43,0.020529594,9.052251e-08,0,1.4954903078139934e-08,1.0
97,97,5.669445,180069.22,160909.48,241488.69,-41.78391,61.01014303116244,0.006162026,-5.7917674e-07,0.17446083,0.07745825,1.0,43,0.020569168,8.517653e-08,0,1.3819379382691386e-08,1.0
98,98,4.907347,184189.19,180202.69,257679.39,-44.373203,61.70253093066276,0.0061511076,-1.6144647e-07,0.17997496,0.08801876,1.0,43,0.020571405,7.9833335e-08,0,1.4543966498884231e-08,1.0
99,99,4.245922,187877.16,202490.0,276224.6,-47.143787,62.49032568812254,0.0061390717,-4.176698e-07,0.18511625,0.09947799,1.0,43,0.020529168,7.432057e-08,0,1.4578058301765396e-08,1.0
100,100,3.6747382,192723.77,228766.97,299126.7,-49.88768,63.38994727752288,0.0061094193,-3.924266e-07,0.1893217,0.110732906,1.0,43,0.020585347,6.881815e-08,0,1.332863899813989e-08,1.0
101,101,3.180988,196546.84,259524.36,325551.16,-52.862083,64.41817719300161,0.0061502415,-2.1938298e-07,0.19278798,0.122517385,1.0,43,0.020549145,6.312109e-08,0,1.4149885588366038e-08,1.0
102,102,2.752818,202290.86,294251.44,357079.12,-55.492405,65.59714591570082,0.0061360416,-3.2820142e-07,0.19648255,0.13342348,1.0,43,0.020554641,5.756327e-08,0,1.4803384855491597e-08,1.0
103,103,2.3804083,207781.9,335369.78,394520.22,-58.219276,66.95195219339803,0.0061456305,-4.001854e-07,0.19936307,0.14406353,1.0,43,0.02056754,5.2133043e-08,0,1.369928609565897e-08,1.0
104,104,2.060257,214800.88,382002.66,438252.72,-60.650864,68.50833290730952,0.006143888,-3.4800246e-07,0.20222385,0.1536441,1.0,43,0.02055853,4.6910216e-08,0,1.2680320965984581e-08,1.0
