True,index,freq,Re(Z),Im(Z),Z,Phase(Z),time,Ewe_meas,I_meas,Cs,Cp,cycle_number,I_Range,Ewe,I,Ns,(QQo),cycle
0,0,7000018.5,247.3303,1566.0946,1585.5045,-81.02551,2.4654758770775516,-0.061281536,1.7352118e-05,1.4517872e-05,1.416459e-05,1.0,40,0.009965296,6.2852523e-06,0,5.392796242940929e-09,1.0
1,1,6057573.0,363.8359,1699.5509,1738.0592,-77.91664,3.017490169935627,-0.06123879,-6.4442856e-06,1.545921e-05,1.4781774e-05,1.0,40,0.014086202,8.104558e-06,0,1.8284719893004978e-09,1.0
2,2,5242039.0,385.25586,2006.6539,2043.3018,-79.13207,3.433481576415943,-0.06119365,-1.4891111e-05,1.5130296e-05,1.4592421e-05,1.0,40,0.0195033,9.544992e-06,0,1.7607116396650073e-10,1.0
3,3,4536288.0,345.55457,2303.97,2329.7395,-81.47023,4.801490174693754,-0.06123922,-1.1932854e-05,1.5227994e-05,1.489298e-05,1.0,40,0.01879573,8.067739e-06,0,6.154077403051714e-09,1.0
4,4,3925558.5,476.53802,2657.2053,2699.598,-79.83276,5.21748611444491,-0.061249897,-2.0286683e-05,1.5257858e-05,1.4782423e-05,1.0,40,0.01809007,6.7010237e-06,0,5.208854011167811e-09,1.0
5,5,3397055.0,597.8903,2980.7227,3040.0955,-78.65781,5.633502427575877,-0.06127343,-1.1300277e-05,1.5717953e-05,1.5110008e-05,1.0,40,0.019022342,6.257153e-06,0,3.182845545438795e-09,1.0
6,6,2939708.2,648.06006,3392.9617,3454.2974,-79.186676,6.049493647326017,-0.061288055,-3.932529e-06,1.5956475e-05,1.5394848e-05,1.0,40,0.020792952,6.0194448e-06,0,9.198673509318825e-10,1.0
7,7,2543924.5,779.8487,3912.5527,3989.5154,-78.727554,6.601495620183414,-0.061289843,-7.2814987e-06,1.5990267e-05,1.5379273e-05,1.0,40,0.020623265,5.169366e-06,0,-2.9518103152036525e-09,1.0
8,8,2201436.2,902.83057,4439.9023,4530.7656,-78.50592,7.153497033083113,-0.06129001,-9.104829e-06,1.6283231e-05,1.563667e-05,1.0,40,0.020774517,4.585211e-06,0,1.5439239609425688e-09,1.0
9,9,1905053.1,1061.6439,4862.007,4976.565,-77.68251,7.705496792652411,-0.061283473,-2.8720244e-06,1.718294e-05,1.640096e-05,1.0,40,0.02018711,4.0564346e-06,0,1.0304767828744035e-09,1.0
10,10,1648567.4,1128.0054,5986.932,6092.27,-79.32992,8.42448221342056,-0.061285056,-2.0621083e-06,1.6125348e-05,1.5572541e-05,1.0,41,0.01894467,3.109624e-06,0,2.900969701619892e-09,1.0
11,11,1426616.2,1512.3967,6798.136,6964.338,-77.45754,8.840479646547465,-0.061276168,2.2749236e-06,1.641055e-05,1.5636631e-05,1.0,41,0.021850148,3.1374336e-06,0,3.1084382286634435e-09,1.0
12,12,1234551.2,1888.9957,7754.5093,7981.273,-76.30942,9.392482526105596,-0.061233986,-1.5779266e-06,1.6624808e-05,1.5693542e-05,1.0,41,0.020998077,2.6309183e-06,0,2.987587987541297e-09,1.0
13,13,1068345.5,2488.6262,8725.165,9073.134,-74.08058,9.944485325628193,-0.06132165,2.0644957e-06,1.707398e-05,1.5789466e-05,1.0,41,0.020755146,2.2875388e-06,0,3.1195661364462364e-09,1.0
14,14,924510.06,2991.5608,10021.049,10458.052,-73.378174,10.49650305850082,-0.061295733,1.1520275e-06,1.7178898e-05,1.577321e-05,1.0,41,0.020357678,1.9466033e-06,0,3.5660433795957006e-09,1.0
15,15,800039.0,3730.0354,10798.912,11424.958,-70.94466,11.048502604739042,-0.061251238,-8.6321464e-08,1.8421668e-05,1.6458102e-05,1.0,41,0.02062991,1.805688e-06,0,3.740954021635742e-09,1.0
16,16,692334.1,4694.045,12587.162,13433.938,-69.54835,11.600492924306309,-0.061325505,3.0309668e-06,1.8263188e-05,1.6033397e-05,1.0,41,0.020487066,1.5250231e-06,0,3.049977744581156e-09,1.0
17,17,599122.25,5881.571,14214.808,15383.551,-67.52201,12.152487857179949,-0.061221726,-2.3637672e-06,1.8688039e-05,1.5956311e-05,1.0,41,0.020526946,1.3343438e-06,0,3.2617877462478697e-09,1.0
18,18,518454.94,7098.4946,15443.355,16996.643,-65.314255,12.70450217675534,-0.061228827,-2.862831e-06,1.987776e-05,1.64106e-05,1.0,41,0.020485487,1.2052667e-06,0,3.7138325362680766e-09,1.0
19,19,448662.03,8788.528,16940.72,19084.713,-62.580563,13.25748993633897,-0.061258655,-1.2632183e-06,2.0939626e-05,1.6499145e-05,1.0,41,0.020183124,1.0575545e-06,0,3.3087128818560054e-09,1.0
20,20,388258.97,11118.998,18908.848,21935.738,-59.54313,13.809497695910977,-0.06130788,4.2302113e-06,2.1678718e-05,1.6108652e-05,1.0,41,0.020816311,9.489679e-07,0,4.564313123043778e-09,1.0
21,21,335983.9,12921.648,18448.504,22523.684,-54.991943,14.36149073546403,-0.061308756,3.021656e-06,2.5676776e-05,1.722598e-05,1.0,41,0.02004033,8.8974474e-07,0,4.766920236793087e-09,1.0
22,22,290751.2,15846.051,20473.104,25889.096,-52.26036,14.913491775019793,-0.061209895,-4.065799e-06,2.6737138e-05,1.6720473e-05,1.0,41,0.020418055,7.8867396e-07,0,4.431439565144678e-09,1.0
23,23,251605.19,18869.926,21234.754,28407.549,-48.37462,15.465496974560665,-0.061293326,8.7456385e-07,2.978882e-05,1.6644864e-05,1.0,41,0.020496594,7.2151926e-07,0,4.957214008235332e-09,1.0
24,24,217729.38,21895.459,21596.568,30754.234,-44.60625,16.0174866807356,-0.061262883,-1.6453268e-07,3.3846856e-05,1.6690834e-05,1.0,41,0.020216947,6.573712e-07,0,6.051753489547056e-09,1.0
25,25,188418.58,24754.373,21373.172,32704.61,-40.80765,16.569494813651545,-0.061324146,5.7404386e-06,3.9520954e-05,1.6879028e-05,1.0,41,0.020766668,6.349768e-07,0,7.110081466334369e-09,1.0
26,26,163051.14,27670.13,21305.96,34922.49,-37.59622,17.121504573180573,-0.061290365,3.5765863e-06,4.5813682e-05,1.7052462e-05,1.0,41,0.020157143,5.7719666e-07,0,7.0929107323441565e-09,1.0
27,27,141098.2,30518.697,20483.266,36755.34,-33.868366,17.537482939631445,-0.061299644,1.865245e-06,5.5068016e-05,1.7102395e-05,1.0,41,0.021974845,5.978681e-07,0,7.502768307290353e-09,1.0
28,28,122105.11,33390.7,19047.63,38441.527,-29.702475,18.089502779155737,-0.061245818,-2.4159074e-06,6.8429814e-05,1.6800646e-05,1.0,41,0.020534229,5.3416784e-07,0,7.572003666290862e-09,1.0
29,29,105663.59,34993.61,17981.283,39343.098,-27.196127,18.50548829228501,-0.061272703,2.5914946e-06,8.376721e-05,1.7497594e-05,1.0,41,0.021963293,5.5825024e-07,0,7.647311971937822e-09,1.0
30,30,91439.65,37365.164,16782.34,40960.99,-24.186947,19.057479811803205,-0.061300743,2.6380483e-06,0.00010371298,1.7409939e-05,1.0,41,0.020464538,4.9961045e-07,0,6.779515303249076e-09,1.0
31,31,79127.08,39129.1,15389.574,42046.707,-21.46984,19.473485511582112,-0.061322134,3.902469e-06,0.00013069784,1.750885e-05,1.0,41,0.021526523,5.119669e-07,0,6.6004791109527515e-09,1.0
32,32,68475.36,40201.03,13900.151,42536.305,-19.073647,20.02549441778683,-0.061245408,-9.578205e-07,0.00016721155,1.7856068e-05,1.0,41,0.02025203,4.7611164e-07,0,7.567415956696965e-09,1.0
33,33,59252.523,41542.164,12555.404,43398.035,-16.816538,20.441503477544757,-0.06121573,-4.4158883e-06,0.00021393536,1.7906217e-05,1.0,41,0.02096048,4.829822e-07,0,7.347885484418794e-09,1.0
34,34,51282.285,42612.676,11412.898,44114.56,-14.99356,20.857494377327384,-0.061274715,1.198584e-06,0.0002719298,1.8200564e-05,1.0,41,0.021517152,4.8775627e-07,0,7.2253521488853484e-09,1.0
35,35,44369.8,43205.83,10037.9,44356.543,-13.079354,21.273493197077187,-0.06124893,-3.8240518e-07,0.0003573467,1.8300381e-05,1.0,41,0.021936486,4.9454906e-07,0,7.38692664968241e-09,1.0
36,36,38403.727,43876.246,8767.183,44743.586,-11.299804,21.825499916652916,-0.061319765,2.729295e-06,0.0004727012,1.8148688e-05,1.0,41,0.02025165,4.5261572e-07,0,6.9329623013424996e-09,1.0
37,37,33226.32,44361.723,7777.0376,45038.258,-9.943459,22.24149508305709,-0.061282467,9.546379e-07,0.0006159191,1.8364915e-05,1.0,41,0.020456485,4.5420242e-07,0,6.631044588017578e-09,1.0
38,38,28754.086,44796.91,6968.3335,45335.645,-8.841722,22.657488542812644,-0.06128103,1.7106834e-06,0.0007943129,1.8765923e-05,1.0,41,0.020568192,4.53687e-07,0,6.372990566973207e-09,1.0
39,39,24884.947,44950.062,5930.968,45339.656,-7.516513,23.073492669238476,-0.061270524,1.4090092e-06,0.0010783453,1.8452385e-05,1.0,41,0.020596564,4.5427262e-07,0,6.219122378456997e-09,1.0
40,40,21553.963,45107.094,5408.0815,45430.137,-6.8368006,23.490504822373623,-0.06125575,-1.0788624e-06,0.0013653681,1.9348538e-05,1.0,41,0.020524465,4.517808e-07,0,5.87711675758213e-09,1.0
41,41,18631.234,47355.754,5220.3394,47642.62,-6.2906947,24.07249671666068,-0.06132517,3.012918e-07,0.0016363633,1.9646533e-05,1.0,42,0.018416591,3.8655705e-07,0,5.896898117469333e-09,1.0
42,42,16126.037,47600.145,4452.0005,47807.887,-5.343281,24.488480069761863,-0.06130926,1.802293e-07,0.0022168548,1.9224213e-05,1.0,42,0.018324882,3.8330248e-07,0,6.040127051569014e-09,1.0
43,43,13954.87,47464.56,4119.79,47643.016,-4.9606795,24.904501902899938,-0.06124168,-2.4032542e-07,0.002768339,2.0700028e-05,1.0,42,0.018100346,3.7991603e-07,0,6.186458326125324e-09,1.0
44,44,12080.609,47542.676,2621.0652,47614.87,-3.155567,25.4564957957773,-0.061269835,2.2548913e-07,0.005026358,1.523084e-05,1.0,42,0.019895526,4.1784267e-07,0,6.626290738912201e-09,1.0
45,45,10447.592,47816.945,2590.5046,47887.066,-3.1009932,25.8725009355403,-0.061268475,1.0256365e-07,0.0058805714,1.720885e-05,1.0,42,0.019533573,4.0790914e-07,0,6.827178261901404e-09,1.0
46,46,9045.586,47673.15,2263.857,47726.87,-2.718765,26.445243282738375,-0.06124138,9.287948e-08,0.00777203,1.7486644e-05,1.0,42,0.020252535,4.243424e-07,0,6.929921758010524e-09,1.0
47,47,7827.7437,47694.6,1858.0078,47730.777,-2.2309067,26.924933572212467,-0.061249226,6.68054e-08,0.01094299,1.6581891e-05,1.0,42,0.020456862,4.285885e-07,0,7.039760003932323e-09,1.0
48,48,6770.8345,47582.78,1560.3743,47608.36,-1.8782179,27.463407997769536,-0.061326176,4.0839146e-07,0.015064308,1.6182303e-05,1.0,42,0.020656636,4.3388675e-07,0,7.351933789073654e-09,1.0
49,49,5860.798,47456.91,1359.5913,47476.383,-1.6410158,28.06899434654042,-0.06129508,3.854834e-07,0.019973539,1.6380098e-05,1.0,42,0.020840341,4.3896227e-07,0,7.622533717142597e-09,1.0
50,50,5071.625,47221.895,1247.2799,47238.363,-1.5130113,28.74968829889258,-0.06123924,1.15419915e-07,0.02515991,1.7540713e-05,1.0,42,0.020967858,4.4387352e-07,0,7.3407033808953315e-09,1.0
51,51,4388.5933,46619.18,1195.6284,46634.508,-1.469126,29.4298296111956,-0.061258227,1.4875933e-07,0.030331828,1.9937755e-05,1.0,42,0.020951247,4.492649e-07,0,7.2710991072206055e-09,1.0
52,52,3798.7827,47052.875,1182.106,47067.723,-1.439135,30.10981729681953,-0.06127518,2.0035095e-07,0.035442088,2.2355569e-05,1.0,42,0.021255597,4.5159604e-07,0,7.478627102544729e-09,1.0
53,53,3286.0488,46999.98,1350.108,47019.367,-1.6454097,30.78968228911981,-0.06126838,7.2955345e-08,0.03587382,2.9577473e-05,1.0,42,0.021370558,4.5450543e-07,0,7.873807296363161e-09,1.0
54,54,2844.088,46982.938,1374.582,47003.043,-1.6758273,31.469822561412002,-0.061262436,1.5807231e-07,0.0407105,3.481736e-05,1.0,42,0.02146068,4.5658066e-07,0,7.601217924831113e-09,1.0
55,55,2460.7852,46977.49,1588.1838,47004.33,-1.9362803,32.149678700385266,-0.061290048,2.3369044e-07,0.04072355,4.649128e-05,1.0,42,0.021555407,4.5858346e-07,0,7.912426728214339e-09,1.0
56,56,2129.3164,46984.953,1757.8915,47017.83,-2.1426604,32.829827212684904,-0.061286155,1.5919038e-07,0.042519473,5.9435628e-05,1.0,42,0.021612296,4.5966172e-07,0,7.654581277607726e-09,1.0
57,57,1843.2289,46881.285,2046.9088,46925.95,-2.5000339,33.5099548449798,-0.061277658,2.8919328e-07,0.042183477,8.02626e-05,1.0,42,0.021611901,4.605533e-07,0,8.11538836630479e-09,1.0
58,58,1594.4913,46923.945,2244.8232,46977.61,-2.7389195,34.18984167727467,-0.061246414,1.442901e-07,0.044464745,0.00010153092,1.0,42,0.021651387,4.6088738e-07,0,8.47164632204553e-09,1.0
59,59,1380.4436,47071.438,2557.845,47140.883,-3.110373,34.86971909624117,-0.06130363,1.3497794e-07,0.04507412,0.00013270286,1.0,42,0.021708088,4.6049388e-07,0,8.323190703657118e-09,1.0
60,60,1194.6187,47134.324,2957.4226,47227.016,-3.590292,35.54983886187256,-0.061265063,1.5863161e-07,0.045048203,0.0001766539,1.0,42,0.02172338,4.5997783e-07,0,8.654515648676932e-09,1.0
61,61,1033.3434,47216.023,3379.6765,47336.824,-4.094193,36.23005926751648,-0.061275758,-4.531398e-08,0.045572232,0.00023230168,1.0,42,0.021733964,4.5913438e-07,0,8.955189331096107e-09,1.0
62,62,894.71045,47318.69,3754.5437,47467.41,-4.5366797,36.909809833130566,-0.06126657,1.5602389e-07,0.04737841,0.00029641742,1.0,42,0.021728434,4.577548e-07,0,8.638203442356218e-09,1.0
63,63,774.2569,47499.816,4208.521,47685.89,-5.0632296,37.58997554544476,-0.06126769,1.5118104e-07,0.048843365,0.00038043878,1.0,42,0.021744497,4.5599435e-07,0,8.468003430885446e-09,1.0
64,64,669.7856,47716.164,4848.1763,47961.83,-5.801599,38.26981011107273,-0.061268624,1.0722658e-07,0.0490124,0.00050080806,1.0,42,0.0217544,4.5357737e-07,0,8.960853962318272e-09,1.0
65,65,579.81464,47957.574,5683.0806,48293.13,-6.7581625,38.9498331300274,-0.061276577,2.8714453e-07,0.0483,0.00066887366,1.0,42,0.0217644,4.5067281e-07,0,8.851941800528322e-09,1.0
66,66,501.44418,48282.965,6094.711,48666.11,-7.1943398,39.627202948817285,-0.061315443,3.8660266e-07,0.052076813,0.00081676553,1.0,42,0.021774352,4.474233e-07,0,8.548132362613487e-09,1.0
67,67,434.02762,48548.992,6768.4663,49018.535,-7.9367437,40.30719052781933,-0.061289974,1.1188238e-07,0.054176692,0.0010329336,1.0,42,0.021733984,4.43383e-07,0,8.579830359764223e-09,1.0
68,68,375.6009,48917.344,7759.5483,49528.953,-9.013485,40.98642600004678,-0.061243396,1.2007744e-07,0.0546081,0.0013403298,1.0,42,0.021740178,4.3893877e-07,0,8.895530361919738e-09,1.0
69,69,325.10385,49487.332,8643.882,50236.566,-9.90782,41.66568819237,-0.06130361,1.6645352e-07,0.05663556,0.0016767447,1.0,42,0.021782659,4.3360168e-07,0,9.162225346934733e-09,1.0
70,70,281.3503,50041.93,9619.353,50958.086,-10.881005,42.34282497118693,-0.061291855,3.7915214e-07,0.05880671,0.0020955226,1.0,42,0.02177912,4.2739282e-07,0,9.16474920746508e-09,1.0
71,71,243.36427,50504.66,10662.689,51617.957,-11.921385,43.02611761694425,-0.061265733,-1.9052727e-08,0.061333332,0.0026171491,1.0,42,0.02172684,4.209163e-07,0,9.511761224035385e-09,1.0
72,72,210.60631,51294.824,11733.688,52619.754,-12.884722,43.70319447576185,-0.061264504,2.6392406e-08,0.064404204,0.0032024747,1.0,42,0.021751555,4.1337242e-07,0,9.327351199761235e-09,1.0
73,73,182.27473,52178.445,12963.559,53764.71,-13.952446,44.3752681343758,-0.061263274,5.1722182e-08,0.06735493,0.0039158245,1.0,42,0.021786667,4.0522244e-07,0,9.56620176126445e-09,1.0
74,74,157.72879,52988.953,14318.414,54889.4,-15.12106,45.0636338471013,-0.06135388,1.6645285e-07,0.070471615,0.004795425,1.0,42,0.021750398,3.9625863e-07,0,9.650099072362225e-09,1.0
75,75,136.52892,54085.176,15627.02,56297.51,-16.115778,45.735512252285844,-0.061246898,-2.8738745e-08,0.07459665,0.005747689,1.0,42,0.021776728,3.8681512e-07,0,9.774786766931924e-09,1.0
76,76,118.14758,55119.77,17249.965,57755.953,-17.377731,46.42391287168721,-0.06125448,6.755337e-08,0.0780921,0.0069661047,1.0,42,0.02178572,3.77203e-07,0,9.542625095483684e-09,1.0
77,77,102.25773,56148.79,18751.541,59197.188,-18.46734,47.090345303324284,-0.0612447,1.4391549e-07,0.08300171,0.008328347,1.0,42,0.021729702,3.6707323e-07,0,9.654364464585353e-09,1.0
78,78,88.4436,57463.074,20512.797,61014.586,-19.64522,47.780292376090074,-0.061247103,2.6218504e-07,0.087726094,0.009915423,1.0,42,0.021751791,3.565015e-07,0,9.754822070121399e-09,1.0
79,79,76.54279,58839.69,22306.506,62926.062,-20.762041,48.44772611449298,-0.061267987,2.4784288e-07,0.09321467,0.011713488,1.0,42,0.021745505,3.4557232e-07,0,9.73702361501462e-09,1.0
80,80,66.250786,60362.09,24333.6,65082.3,-21.955704,49.11596113289124,-0.06129383,3.188039e-07,0.098724,0.013800971,1.0,42,0.021763967,3.3440685e-07,0,1.0104122885444995e-08,1.0
81,81,57.329906,61785.12,26435.723,67203.04,-23.164412,49.770628390671845,-0.061281085,1.6589145e-07,0.10501412,0.016249958,1.0,42,0.021724775,3.232707e-07,0,9.722244886295595e-09,1.0
82,82,49.60321,63513.508,28769.691,69725.61,-24.369083,50.45634716984932,-0.061302233,5.7880936e-07,0.111525744,0.0189872,1.0,42,0.021746526,3.1188722e-07,0,9.648356025544825e-09,1.0
83,83,42.92585,65165.96,31362.543,72320.2,-25.700203,51.164424190152204,-0.0612556,-2.4272731e-08,0.118219726,0.022232752,1.0,42,0.021735676,3.0054775e-07,0,1.008909993234244e-08,1.0
84,84,37.1518,67148.53,34098.305,75310.16,-26.921652,51.80819248742773,-0.061267354,8.412533e-08,0.12563409,0.025755264,1.0,42,0.021769874,2.8906956e-07,0,1.0133265254748114e-08,1.0
85,85,32.150223,68859.37,37088.145,78212.164,-28.30722,52.44636950435233,-0.061275292,3.2383042e-07,0.13347533,0.030013913,1.0,42,0.021733345,2.778768e-07,0,9.560829613586039e-09,1.0
86,86,27.835518,70893.375,40246.18,81520.7,-29.583584,53.17332588558202,-0.061273895,2.7801235e-07,0.14206797,0.034626585,1.0,42,0.021720877,2.6644614e-07,0,9.67933744908267e-09,1.0
87,87,24.082958,73022.195,44052.652,85281.164,-31.101639,53.875364345585695,-0.061246153,8.337948e-08,0.15001623,0.040029127,1.0,42,0.021750404,2.5504346e-07,0,9.407993909492725e-09,1.0
88,88,20.833313,74929.88,48406.492,89205.805,-32.863426,54.5297347233718,-0.061275143,3.5586476e-07,0.15781859,0.046470694,1.0,42,0.021745985,2.437732e-07,0,9.776479557549136e-09,1.0
89,89,18.021912,76929.555,53182.047,93522.65,-34.65643,55.27571689214528,-0.061190985,-3.93889e-07,0.16605587,0.053697087,1.0,42,0.021752575,2.3259152e-07,0,9.636996058145276e-09,1.0
90,90,15.604198,79007.22,58536.56,98329.39,-36.534798,55.93101497658063,-0.061297596,2.8881465e-07,0.17424145,0.061750315,1.0,42,0.021764956,2.2134742e-07,0,1.0304445530845296e-08,1.0
91,91,13.500899,81025.125,64365.652,103479.51,-38.46332,56.678992985456716,-0.061238866,2.736346e-07,0.18314846,0.07086029,1.0,42,0.021742271,2.1011185e-07,0,1.0412554019461013e-08,1.0
92,92,11.686608,83050.2,70814.445,109142.21,-40.453243,57.26988434683881,-0.061275218,2.71679e-07,0.19231352,0.080959536,1.0,42,0.021693567,1.9876423e-07,0,1.0686269786242726e-08,1.0
93,93,10.113269,85046.91,79552.24,116454.01,-43.08806,57.94349963215063,-0.061312072,4.080144e-07,0.1978227,0.09231497,1.0,42,0.021767845,1.8692225e-07,0,1.0208651774189282e-08,1.0
94,94,8.748621,86907.375,88343.055,123924.92,-45.469364,58.99036962856189,-0.061301414,1.2940897e-07,0.20592454,0.104649134,1.0,43,0.021714704,1.7522467e-07,0,1.1867381991451382e-08,1.0
95,95,7.570237,88848.08,99296.36,133243.19,-48.17856,59.866009563498665,-0.061265707,8.193889e-08,0.21172751,0.11758554,1.0,43,0.021735499,1.6312653e-07,0,1.0214065047743335e-08,1.0
96,96,6.554112,90605.2,111656.21,143792.95,-50.94185,60.402326868934324,-0.06128433,8.614702e-08,0.21748205,0.1311336,1.0,43,0.021724917,1.5108472e-07,0,1.1599523648370506e-08,1.0
97,97,5.669445,92908.53,125165.38,155879.34,-53.414013,61.0121297245787,-0.06131075,1.1342964e-07,0.22428249,0.14460613,1.0,43,0.02166383,1.389782e-07,0,1.0248096924163866e-08,1.0
98,98,4.907347,94751.234,142676.14,171272.53,-56.41186,61.70455741076148,-0.06123395,2.0531373e-07,0.22731179,0.1577427,1.0,43,0.021735819,1.2690779e-07,0,1.2132938180835347e-08,1.0
99,99,4.245922,96980.46,162259.23,189032.45,-59.133728,62.49228499489254,-0.06127263,-1.2891171e-07,0.2310142,0.17020988,1.0,43,0.021760024,1.15112634e-07,0,1.0160461343886644e-08,1.0
100,100,3.6747382,99514.69,184588.42,209704.69,-61.670155,63.391958637628704,-0.061276168,2.4065048e-07,0.23463309,0.18179499,1.0,43,0.021735413,1.0364772e-07,0,1.0771164449572317e-08,1.0
101,101,3.180988,102296.68,210378.47,233931.0,-64.06863,64.42020079310169,-0.061274063,1.5353244e-07,0.23782462,0.19234629,1.0,43,0.021740714,9.293644e-08,0,1.2351227521572127e-08,1.0
102,102,2.752818,105319.125,240784.9,262810.75,-66.37547,65.59913810246508,-0.061304916,4.8586206e-09,0.24011171,0.2015513,1.0,43,0.02177305,8.2846874e-08,0,1.1153021562057466e-08,1.0
103,103,2.3804083,109349.17,275381.97,296297.94,-68.34287,66.95395787348389,-0.061266787,5.239592e-08,0.24279131,0.20972341,1.0,43,0.02176222,7.344708e-08,0,9.858339158397684e-09,1.0
104,104,2.060257,113492.27,314822.03,334654.16,-70.17594,68.51029858735274,-0.061265726,1.4672948e-07,0.24537687,0.2171558,1.0,43,0.021743916,6.497429e-08,0,1.0778538222772453e-08,1.0
105,105,1.7836765,119106.14,360104.53,379290.84,-71.69814,70.29867360569915,-0.061266698,1.2245684e-07,0.24778527,0.22335102,1.0,43,0.021745915,5.7333086e-08,0,1.2342546153100376e-08,1.0
106,106,1.5427545,125776.25,413472.5,432179.56,-73.080505,72.35830082345637,-0.061289035,7.2274695e-08,0.2495035,0.22837128,1.0,43,0.02176194,5.0353933e-08,0,1.2516492091679401e-08,1.0
