True,index,freq,Re(Z),Im(Z),Z,Phase(Z),time,Ewe_meas,I_meas,Cs,Cp,cycle_number,I_Range,Ewe,I,Ns,(QQo),cycle
180,180,281.3503,25563.604,8505.764,26941.525,-18.403803,122.75578721727652,-0.07950289,-2.0101008e-07,0.06650578,0.0066289036,2.0,42,0.020396756,7.5707504e-07,0,-2.142675728719941e-08,2.0
189,189,76.54279,32303.885,18652.281,37302.125,-30.002163,128.8597229205334,-0.079502754,-8.237592e-08,0.11147664,0.027872803,2.0,42,0.020421475,5.4746147e-07,0,-2.0785842099227145e-08,2.0
188,188,88.4436,31302.488,17040.236,35640.082,-28.56269,128.19229323547916,-0.07949694,-1.00441845e-07,0.105603434,0.024140814,2.0,42,0.02035736,5.711928e-07,0,-2.06160690693393e-08,2.0
187,187,102.25773,30472.707,15626.882,34245.953,-27.149462,127.50232928266632,-0.079495504,-9.2991556e-08,0.09959824,0.020738522,2.0,42,0.020379059,5.950793e-07,0,-2.0723728217228812e-08,2.0
186,186,118.14758,29610.924,14412.535,32932.17,-25.953594,126.83590618439484,-0.079493605,-1.5873762e-07,0.093466274,0.017901728,2.0,42,0.020382836,6.189339e-07,0,-2.0626277630416862e-08,2.0
185,185,136.52892,28866.488,13127.613,31711.328,-24.454618,126.14754473834182,-0.07950695,-8.6470855e-08,0.088799335,0.015217818,2.0,42,0.020380951,6.4270256e-07,0,-2.0625934939583917e-08,2.0
184,184,157.72879,28129.953,12025.663,30592.66,-23.146893,125.47565281313291,-0.079423554,-1.1142686e-07,0.08390737,0.012965334,2.0,42,0.020384518,6.6632055e-07,0,-1.9888087189132856e-08,2.0
183,183,182.27473,27354.885,11147.668,29539.13,-22.171886,124.7872467537236,-0.079504155,-1.2315914e-07,0.07832666,0.011155325,2.0,42,0.020377647,6.8985264e-07,0,-2.056011385168293e-08,2.0
182,182,210.60631,26793.205,10187.153,28664.506,-20.817509,124.1161872818775,-0.07954257,1.1710499e-07,0.07418156,0.00936942,2.0,42,0.020426217,7.125962e-07,0,-2.105905314735818e-08,2.0
181,181,243.36427,26101.834,9382.8955,27737.059,-19.772123,123.43911820967332,-0.07954227,3.1058466e-08,0.06969898,0.007975894,2.0,42,0.020392673,7.35214e-07,0,-2.079254578715152e-08,2.0
179,179,325.10385,24937.828,7766.581,26119.246,-17.298561,121.82870119990548,-0.07953465,2.4090068e-06,0.06303302,0.0055732257,2.0,41,0.020329462,7.7833266e-07,0,-2.0466083335571898e-08,2.0
166,166,2129.3164,21423.361,2257.962,21542.023,-6.016601,112.99384331359761,-0.07953204,2.0905807e-06,0.033102695,0.00036368347,2.0,41,0.020371277,9.4565286e-07,0,-2.3472455856323886e-08,2.0
177,177,434.02762,24069.486,6594.9507,24956.633,-15.322775,120.47119014870259,-0.07951058,-4.47574e-07,0.0556021,0.003882776,2.0,41,0.020361712,8.158838e-07,0,-2.075749676407115e-08,2.0
176,176,501.44418,23617.316,6020.392,24372.582,-14.300942,119.79117918308475,-0.07950147,1.3494296e-06,0.052719682,0.0032167642,2.0,41,0.020355329,8.351733e-07,0,-2.082223992743811e-08,2.0
175,175,579.81464,23367.389,5680.753,24047.99,-13.663883,119.11384597761207,-0.079519674,9.863049e-07,0.04831979,0.0026963688,2.0,41,0.020396609,8.4816276e-07,0,-2.015933056058117e-08,2.0
174,174,669.7856,22935.22,5014.144,23476.924,-12.332089,118.43385210531414,-0.07951224,1.995608e-06,0.047390092,0.0021617168,2.0,41,0.020354977,8.670206e-07,0,-1.9765482946200544e-08,2.0
173,173,774.2569,22933.602,4588.515,23388.129,-11.314243,117.75393460635678,-0.07948332,9.583742e-07,0.04479844,0.0017243137,2.0,41,0.020443235,8.7408597e-07,0,-2.083781768285162e-08,2.0
172,172,894.71045,22471.516,3755.4246,22783.156,-9.4875555,117.07381662739499,-0.07952124,1.7349041e-06,0.047367297,0.0012869714,2.0,41,0.0203482,8.9312476e-07,0,-2.064359277087233e-08,2.0
171,171,1033.3434,22270.85,3729.9343,22581.035,-9.5076885,116.39410288838553,-0.07949594,1.9301899e-07,0.041292794,0.0011266498,2.0,41,0.020386484,9.028144e-07,0,-2.01132646033552e-08,2.0
170,170,1194.6187,22081.746,3359.1902,22335.793,-8.649815,115.71382776279643,-0.07951684,1.9974707e-06,0.039660323,0.0008970625,2.0,41,0.02038414,9.126222e-07,0,-2.0502066534988552e-08,2.0
169,169,1380.4436,21881.277,3054.9714,22093.51,-7.948018,115.0337147704995,-0.07949225,7.311887e-07,0.03773934,0.0007215712,2.0,41,0.02037745,9.2232744e-07,0,-2.1150211802264273e-08,2.0
168,168,1594.4913,21722.383,2740.2676,21894.543,-7.189855,114.35380889820226,-0.07951518,1.4087777e-07,0.036425456,0.00057058345,2.0,41,0.020370256,9.303805e-07,0,-2.1410900294146667e-08,2.0
167,167,1843.2289,21277.604,2376.712,21409.932,-6.3735285,113.67394043921377,-0.07953989,1.6157246e-06,0.03632991,0.00044769974,2.0,41,0.020276263,9.470494e-07,0,-2.2289024558371613e-08,2.0
178,178,375.6009,24644.023,7156.527,25662.107,-16.193089,121.14943090095767,-0.07951338,-1.0062295e-06,0.059209473,0.0046048043,2.0,41,0.020420287,7.957369e-07,0,-2.007799784377795e-08,2.0
190,190,66.250786,33149.47,20311.459,38877.277,-31.496782,129.52799983226578,-0.0794755,6.010576e-08,0.11827364,0.032283347,2.0,42,0.020371575,5.2399696e-07,0,-2.0599820225625997e-08,2.0
217,217,1.3354719,97648.055,574486.7,582726.44,-80.35338,155.17488555709133,-0.079520084,-2.1438555e-07,0.20744617,0.20162107,2.0,43,0.020367073,3.4951345e-08,0,-2.1951091024644862e-08,2.0
192,192,49.60321,35036.242,24314.865,42646.816,-34.76033,130.8673801891564,-0.07946834,-2.954491e-07,0.13195884,0.042895228,2.0,42,0.020359986,4.774093e-07,0,-2.0500541796805927e-08,2.0
165,165,2460.7852,21252.434,1979.9547,21344.465,-5.322521,112.31367845463683,-0.07955306,2.954399e-07,0.03266564,0.00028108078,2.0,41,0.020348404,9.5333394e-07,0,-2.300424326453686e-08,2.0
216,216,1.5427545,87144.32,499668.5,507210.75,-80.10688,152.80331832441152,-0.07949493,-1.9226432e-07,0.20646256,0.200368,2.0,43,0.020336928,4.0095617e-08,0,-2.2484686313146362e-08,2.0
215,215,1.7836765,78622.164,436064.12,443095.22,-79.7794,150.7446650000129,-0.07950395,-1.8913462e-07,0.20462266,0.19818021,2.0,43,0.020360459,4.5950525e-08,0,-2.3538658073546355e-08,2.0
214,214,2.060257,72401.33,379962.03,386798.53,-79.211685,148.95627742170473,-0.079509966,-2.216971e-07,0.20330992,0.19618659,2.0,43,0.020366348,5.2653636e-08,0,-2.3734090310958955e-08,2.0
213,213,2.3804083,66447.75,330817.06,337424.4,-78.64272,147.4000104944571,-0.079479784,-2.745365e-07,0.20210673,0.19426903,2.0,43,0.020358037,6.0333626e-08,0,-2.248425432353724e-08,2.0
212,212,2.752818,62415.152,288061.2,294745.47,-77.77452,146.04614061678876,-0.07950569,-1.6530615e-07,0.20070484,0.19170484,2.0,43,0.02035629,6.9063965e-08,0,-2.1478540791976394e-08,2.0
211,211,3.180988,58272.152,250713.84,257396.73,-76.915344,144.86718258747715,-0.07948484,-7.376042e-08,0.19956288,0.18933475,2.0,43,0.020358765,7.909489e-08,0,-2.250910860370049e-08,2.0
210,210,3.6747382,55609.105,218573.64,225536.72,-75.72575,143.8389465919754,-0.07948758,-2.8944146e-07,0.19815084,0.18610455,2.0,43,0.020365864,9.029955e-08,0,-2.346408038183867e-08,2.0
209,209,4.245922,52860.195,190394.6,197596.31,-74.48348,142.9393176958838,-0.07950419,-2.7399358e-07,0.19687632,0.1827869,2.0,43,0.02034754,1.029753e-07,0,-2.178783278493768e-08,2.0
208,208,4.907347,51024.203,165851.8,173523.16,-72.89952,142.151522298489,-0.0795019,6.3686464e-08,0.1955479,0.17863996,2.0,43,0.02037292,1.17407495e-07,0,-2.204176673493821e-08,2.0
207,207,5.669445,49009.39,144369.98,152461.84,-71.24915,141.459150425595,-0.079473294,-5.9988406e-07,0.19444764,0.1743549,2.0,43,0.020338722,1.3340204e-07,0,-2.309801776235787e-08,2.0
206,206,6.554112,47723.117,126051.16,134782.75,-69.263275,140.8493252232729,-0.0794836,2.2391966e-07,0.19264576,0.16849402,2.0,43,0.02036624,1.511042e-07,0,-2.1388511849183246e-08,2.0
205,205,7.570237,46346.844,110463.68,119792.55,-67.238716,140.31297541118693,-0.079480976,-2.1404426e-07,0.19032294,0.16183428,2.0,43,0.02036127,1.699711e-07,0,-2.2943177088141593e-08,2.0
204,204,8.748621,45301.504,96455.3,106563.836,-64.842285,139.12339111467008,-0.079491265,-2.6668022e-07,0.18860555,0.1545208,2.0,42,0.020346094,1.9092869e-07,0,-2.186447431552649e-08,2.0
203,203,10.113269,44295.95,84746.234,95624.555,-62.40441,138.3565296115412,-0.07946141,-2.8092774e-07,0.1856984,0.14585124,2.0,42,0.020370748,2.1302843e-07,0,-2.176585637856871e-08,2.0
202,202,11.686608,43415.098,74079.4,85864.01,-59.627068,137.6828907262534,-0.07952834,1.1280706e-07,0.18383755,0.13683802,2.0,42,0.020332335,2.3679694e-07,0,-2.0626878950010684e-08,2.0
201,201,13.500899,42661.473,65399.438,78083.85,-56.882717,137.09200576486182,-0.07950492,-1.1106645e-07,0.18025339,0.12644714,2.0,42,0.020361012,2.607583e-07,0,-2.0289310231438958e-08,2.0
200,200,15.604198,41886.473,57845.965,71418.71,-54.091568,136.3440119693405,-0.07949098,4.464011e-08,0.17632164,0.115671866,2.0,42,0.020388428,2.854774e-07,0,-2.053258364286216e-08,2.0
199,199,18.021912,41111.758,51098.18,65583.54,-51.1811,135.6887407915492,-0.07961891,4.15001e-07,0.1728279,0.10491438,2.0,42,0.02036225,3.1047807e-07,0,-2.127743259085414e-08,2.0
198,198,20.833313,40264.297,45467.047,60732.742,-48.47283,134.94276880945836,-0.07947919,-8.573351e-08,0.16802157,0.09417004,2.0,42,0.02036402,3.3530546e-07,0,-2.002396365406314e-08,2.0
197,197,24.082958,39528.9,40480.203,56578.977,-45.68121,134.2883886983327,-0.07943998,1.3912692e-08,0.16325542,0.083568536,2.0,42,0.02035912,3.598354e-07,0,-2.1228462887771273e-08,2.0
196,196,27.835518,38568.457,36364.523,53008.53,-43.315296,133.58630757164792,-0.079507016,1.950081e-08,0.15723272,0.07399582,2.0,42,0.020354448,3.8398437e-07,0,-2.1201249589414e-08,2.0
195,195,32.150223,37790.164,32726.736,49991.355,-40.892956,132.85838303042692,-0.079489045,7.0161406e-08,0.15126325,0.06482597,2.0,42,0.020376466,4.075998e-07,0,-2.0722492662970004e-08,2.0
194,194,37.1518,36979.145,29463.951,47281.938,-38.54686,132.21918497336446,-0.07949245,-3.9663672e-09,0.14539495,0.056459986,2.0,42,0.020364812,4.3071017e-07,0,-2.088150580175115e-08,2.0
193,193,42.92585,36086.773,26731.049,44908.844,-36.52896,131.57546102281776,-0.07953897,2.1655532e-07,0.13870281,0.049142078,2.0,42,0.020378407,4.5377269e-07,0,-2.0511213691221206e-08,2.0
191,191,57.329906,34147.98,22154.14,40704.92,-32.974243,130.1826487433682,-0.07951116,-1.7401328e-07,0.1253095,0.037119318,2.0,42,0.02037143,5.00466e-07,0,-2.0643269109725457e-08,2.0
164,164,2844.088,21170.365,1907.2828,21256.107,-5.1479993,111.63382671566796,-0.07948226,-9.820149e-07,0.029340127,0.0002362244,2.0,41,0.020350352,9.573885e-07,0,-2.3718843012429228e-08,2.0
137,137,141098.2,19005.312,5822.184,19877.115,-17.032188,98.00148542810348,-0.0795422,9.714012e-07,0.00019373705,1.6621792e-05,2.0,41,0.020278692,1.020203e-06,0,-2.80652156811093e-08,2.0
162,162,3798.7827,21075.535,1591.3597,21135.53,-4.3180637,110.2738524110755,-0.07950156,-5.6674907e-07,0.02632736,0.0001492512,2.0,41,0.020368174,9.636935e-07,0,-2.4752722815726713e-08,2.0
132,132,290751.2,14807.885,9170.257,17417.436,-31.769188,95.24150772372377,-0.07953523,4.291664e-06,5.9692138e-05,1.6546712e-05,2.0,41,0.02064744,1.1854466e-06,0,-2.881677833103977e-08,2.0
131,131,335983.9,13281.814,9507.298,16333.87,-35.595585,94.68949807083118,-0.07954365,-1.3473615e-07,4.9824685e-05,1.6880314e-05,2.0,41,0.020401817,1.2490498e-06,0,-2.840825403599704e-08,2.0
130,130,388258.97,12046.643,9640.027,15428.925,-38.667675,94.13749649791862,-0.07951719,2.2842348e-06,4.2522657e-05,1.6599904e-05,2.0,41,0.020730224,1.3435948e-06,0,-2.9381064537916125e-08,2.0
129,129,448662.03,10719.461,9976.69,14643.811,-42.944576,93.58549980501994,-0.079500616,-4.9972346e-07,3.5556117e-05,1.6503616e-05,2.0,41,0.020286316,1.3853168e-06,0,-3.010423974078375e-08,2.0
128,128,518454.94,9334.005,9914.625,13617.027,-46.72776,93.03348516547703,-0.07954237,4.5184981e-07,3.0962274e-05,1.641424e-05,2.0,41,0.020472659,1.5034602e-06,0,-3.0227937330548587e-08,2.0
127,127,599122.25,8050.6616,9904.697,12763.862,-50.89536,92.4814971126325,-0.079548664,1.6135027e-07,2.6820291e-05,1.6150341e-05,2.0,41,0.020698702,1.6216645e-06,0,-3.035086457820629e-08,2.0
126,126,692334.1,6562.3896,9221.77,11318.392,-54.56361,91.929482766398,-0.07956282,2.2972695e-06,2.4928157e-05,1.6548142e-05,2.0,41,0.020254422,1.7895142e-06,0,-3.007281903144824e-08,2.0
125,125,800039.0,5320.174,8712.057,10208.045,-58.588924,91.37748772682971,-0.07949461,-3.2780958e-06,2.2834329e-05,1.6632e-05,2.0,41,0.020796746,2.0372897e-06,0,-2.938508757018078e-08,2.0
124,124,924510.06,4516.582,8168.567,9334.077,-61.060818,90.8254862872709,-0.0795264,-2.4754966e-06,2.107476e-05,1.61403e-05,2.0,41,0.020356283,2.1808564e-06,0,-2.9547589786404495e-08,2.0
123,123,1068345.5,3566.8684,7458.5938,8267.598,-64.44182,90.27348410108243,-0.07951213,-1.5406822e-06,1.9973377e-05,1.6255739e-05,2.0,41,0.020952446,2.5342847e-06,0,-2.915501131684787e-08,2.0
122,122,1234551.2,2941.0376,6784.281,7394.3335,-66.5629,89.72148140819627,-0.07947494,-1.7082793e-06,1.9002344e-05,1.5996196e-05,2.0,41,0.021005554,2.8407637e-06,0,-2.9413784047389887e-08,2.0
133,133,251605.19,15942.173,8561.061,18095.432,-28.236115,95.7934839099471,-0.07954341,1.8801431e-06,7.3887844e-05,1.6538275e-05,2.0,41,0.020181894,1.1153032e-06,0,-2.8721748523234995e-08,2.0
121,121,1426616.2,2404.116,6052.5186,6512.5073,-68.33657,89.16948511530063,-0.07947961,-1.7511085e-06,1.8432185e-05,1.5920352e-05,2.0,41,0.021938605,3.368688e-06,0,-3.0291705423287854e-08,2.0
119,119,1905053.1,1499.8567,4714.3184,4947.1577,-72.35157,88.03449898140389,-0.079543166,-2.244489e-05,1.772124e-05,1.6092386e-05,2.0,40,0.020486902,4.141146e-06,0,-2.407354526579692e-08,2.0
118,118,2201436.2,1354.8458,4118.8823,4335.989,-71.79214,87.48249908848084,-0.07950438,-1.35143055e-05,1.7552324e-05,1.5838612e-05,2.0,40,0.020749029,4.785305e-06,0,-2.2310130912786342e-08,2.0
117,117,2543924.5,1083.3647,3685.0754,3841.0232,-73.61734,86.93050138230319,-0.07952262,-2.145881e-05,1.6977336e-05,1.5626742e-05,2.0,40,0.020747662,5.4015977e-06,0,-1.4465235551503339e-08,2.0
116,116,2939708.2,921.8273,3253.4504,3381.5242,-74.18054,86.37849212941364,-0.079488486,-3.5505873e-05,1.6640704e-05,1.5404055e-05,2.0,40,0.021746516,6.4309806e-06,0,-9.865513413479397e-09,2.0
115,115,3397055.0,804.2766,2858.9802,2969.9543,-74.287865,85.96248968297732,-0.079515874,-2.0993675e-05,1.6387261e-05,1.5185502e-05,2.0,40,0.01996902,6.7236792e-06,0,-8.4716015101165e-09,2.0
114,114,3925558.5,645.2042,2581.6494,2661.0527,-75.9681,85.54650131656672,-0.0794721,-2.14216e-05,1.5704401e-05,1.4781175e-05,2.0,40,0.019152533,7.1973523e-06,0,-4.596844365406601e-09,2.0
113,113,4536288.0,503.62036,2230.1472,2286.305,-77.2747,85.1305043634784,-0.07943206,-1.5207392e-05,1.5732074e-05,1.4968723e-05,2.0,40,0.021023996,9.195622e-06,0,-1.4085993432667958e-09,2.0
112,112,5242039.0,481.28784,1954.9365,2013.3094,-76.16934,83.76249120515422,-0.079407655,-4.8845945e-05,1.5530564e-05,1.4643048e-05,2.0,40,0.019438732,9.655114e-06,0,8.460850104135886e-09,2.0
111,111,6057573.0,480.54416,1724.0315,1789.7506,-74.4251,83.346492918703,-0.079448834,-2.8193985e-05,1.5239695e-05,1.414105e-05,2.0,40,0.014039401,7.844334e-06,0,9.972548230727795e-09,2.0
110,110,7000018.5,319.0504,1519.2947,1552.4333,-78.140274,82.79448118581786,-0.07946931,2.3003643e-06,1.4965077e-05,1.4332998e-05,2.0,40,0.009932514,6.3980297e-06,0,1.2251866772764686e-08,2.0
218,218,1.1556969,110143.12,658531.8,667679.3,-80.50485,157.90640776677174,-0.07949307,-2.3856785e-07,0.20912185,0.203431,2.0,43,0.02036608,3.0502786e-08,0,-2.2548760068534185e-08,2.0
120,120,1648567.4,2026.3867,5260.5063,5637.302,-68.93294,88.75348834888428,-0.07951537,-5.084425e-06,1.8352106e-05,1.5980797e-05,2.0,41,0.01900373,3.3710685e-06,0,-3.010453555638135e-08,2.0
163,163,3286.0488,21071.535,1698.7917,21139.902,-4.6092296,110.95369871004368,-0.079542495,2.7013755e-06,0.028510576,0.00018411124,2.0,41,0.020332703,9.618163e-07,0,-2.3817911813240124e-08,2.0
134,134,217729.38,16982.078,7931.179,18742.854,-25.034094,96.34549102946767,-0.07953778,2.943448e-06,9.216485e-05,1.6503249e-05,2.0,41,0.020341394,1.085288e-06,0,-2.7826450363747313e-08,2.0
136,136,163051.14,18477.072,6554.3306,19605.139,-19.531008,97.44950766858528,-0.07951846,9.844363e-07,0.00014892513,1.6645039e-05,2.0,41,0.020555517,1.048476e-06,0,-2.7448052081867993e-08,2.0
161,161,4388.5933,21125.049,2038.5765,21223.184,-5.512,109.59381464544276,-0.079512514,5.0772803e-07,0.017789666,0.00016413484,2.0,41,0.020474114,9.647051e-07,0,-2.5517087052960286e-08,2.0
160,160,5071.625,20929.887,1437.9419,20979.225,-3.9302049,108.91371407981205,-0.07951435,2.526086e-07,0.021823866,0.00010252635,2.0,41,0.020342536,9.696515e-07,0,-2.5871752780448768e-08,2.0
159,159,5860.798,20917.209,1184.1713,20950.701,-3.2401872,108.23298778079334,-0.07948325,2.0605505e-07,0.022932366,7.326234e-05,2.0,41,0.020325394,9.701535e-07,0,-2.512191338213575e-08,2.0
158,158,6770.8345,20933.541,1143.0736,20964.727,-3.1255255,107.62739748533932,-0.07953163,6.4529765e-08,0.020563819,6.113273e-05,2.0,41,0.020340087,9.702052e-07,0,-2.4905801754743587e-08,2.0
157,157,7827.7437,20896.17,1054.4813,20922.76,-2.8888605,107.08892212645151,-0.079528354,2.327078e-06,0.01928167,4.8976133e-05,2.0,41,0.020315604,9.709811e-07,0,-2.5565909980183538e-08,2.0
156,156,9045.586,20772.936,1127.2402,20803.498,-3.1061006,106.60825933024171,-0.0795065,-5.96543e-07,0.015608707,4.5827604e-05,2.0,41,0.020244889,9.731483e-07,0,-2.474606240555409e-08,2.0
155,155,10447.592,20780.994,1099.0334,20810.035,-3.0273511,106.03549319636659,-0.07949635,-8.0324656e-07,0.01386095,3.8660655e-05,2.0,41,0.019836193,9.5320325e-07,0,-2.3969062731674896e-08,2.0
154,154,12080.609,20709.775,1323.0421,20751.994,-3.6553683,105.619491656631,-0.07951209,1.9229847e-06,0.0099576665,4.0474853e-05,2.0,41,0.020333529,9.798349e-07,0,-2.478216722437073e-08,2.0
153,153,13954.87,20489.715,1281.9126,20529.775,-3.5799706,105.2034881701984,-0.07952221,-4.6619027e-07,0.008896843,3.4688408e-05,2.0,41,0.020601053,1.0034719e-06,0,-2.538900308602305e-08,2.0
152,152,16126.037,20692.143,1152.7985,20724.23,-3.18876,104.78650391040719,-0.079547845,3.552393e-06,0.008561287,2.649043e-05,2.0,41,0.02096328,1.0115348e-06,0,-2.561934036823664e-08,2.0
151,151,18631.234,20681.713,1191.4213,20716.002,-3.2970214,104.3704955173016,-0.07955578,1.8149799e-06,0.007169901,2.3715482e-05,2.0,41,0.021090457,1.0180756e-06,0,-2.5771342493793586e-08,2.0
135,135,188418.58,17808.352,7248.084,19226.86,-22.146557,96.89749745567678,-0.07950983,1.1665979e-07,0.00011653951,1.6561624e-05,2.0,41,0.02015724,1.0483897e-06,0,-2.6814719885020428e-08,2.0
150,150,21553.963,20666.225,1306.915,20707.508,-3.6185193,103.95449712421396,-0.07953562,-5.81646e-07,0.0056499634,2.2505294e-05,2.0,41,0.02111273,1.0195689e-06,0,-2.5944100526974662e-08,2.0
148,148,28754.086,20638.121,1507.5133,20693.105,-4.177756,103.12149567130837,-0.07954617,1.8336009e-06,0.0036716342,1.9486344e-05,2.0,41,0.020880098,1.0090364e-06,0,-2.5167816757223548e-08,2.0
147,147,33226.32,20636.242,1567.2753,20695.672,-4.3431454,102.70550143820583,-0.07951368,8.764391e-07,0.0030562761,1.7527667e-05,2.0,41,0.020628855,9.967714e-07,0,-2.5837920628893426e-08,2.0
146,146,38403.727,20505.555,1808.9235,20585.188,-5.0413694,102.28950168515439,-0.079541154,2.384804e-06,0.0022910077,1.76912e-05,2.0,41,0.02018555,9.805862e-07,0,-2.6646433850595642e-08,2.0
145,145,44369.8,20559.719,2041.2036,20660.797,-5.669842,101.73748469891143,-0.07948079,-5.388163e-07,0.0017573016,1.7152397e-05,2.0,41,0.0215905,1.0449984e-06,0,-2.7058395295080276e-08,2.0
144,144,51282.285,20488.543,2309.7527,20618.326,-6.4320188,101.32148630582378,-0.0794977,-2.0527705e-06,0.0013436535,1.6862092e-05,2.0,41,0.0209421,1.0157032e-06,0,-2.7530360336793397e-08,2.0
143,143,59252.523,20400.77,2630.29,20569.633,-7.3466682,100.90550585938036,-0.07950777,-7.641435e-07,0.0010211973,1.6697975e-05,2.0,41,0.02021124,9.825766e-07,0,-2.6820288154138914e-08,2.0
142,142,68475.36,20298.291,3058.58,20527.434,-8.568958,100.35350601983373,-0.07950752,9.192677e-07,0.0007599166,1.6870827e-05,2.0,41,0.021361494,1.0406316e-06,0,-2.558756471089336e-08,2.0
141,141,79127.08,20155.23,3493.8098,20455.807,-9.834216,99.93748576010694,-0.07952804,2.4145943e-06,0.0005756994,1.6794267e-05,2.0,41,0.020360932,9.953619e-07,0,-2.6377543192692107e-08,2.0
