True,index,freq,Re(Z),Im(Z),Z,Phase(Z),time,Ewe_meas,I_meas,Cs,Cp,cycle_number,I_Range,Ewe,I,Ns,(QQo),cycle
0,0,7000018.5,532.4068,1348.4512,1449.7509,-68.45448,2.465480917104287,-0.30504966,-8.57031e-05,1.6861093e-05,1.4587116e-05,1.0,40,0.009738746,6.717531e-06,0,-4.748802569500121e-08,1.0
1,1,6057573.0,792.22906,1386.5062,1596.8802,-60.256996,3.0174776633211877,-0.30499956,-9.7071104e-05,1.8949584e-05,1.4285604e-05,1.0,40,0.013763548,8.619023e-06,0,-5.905172674286518e-08,1.0
2,2,5242039.0,654.0847,1850.2086,1962.4216,-70.53051,3.433491683070315,-0.30498332,-0.000114597366,1.6409645e-05,1.45866625e-05,1.0,40,0.019509343,9.941464e-06,0,-6.921493272091083e-08,1.0
3,3,4536288.0,787.27075,2093.1506,2236.3083,-69.38784,4.801493268023478,-0.3050568,-8.851261e-05,1.6761736e-05,1.4684414e-05,1.0,40,0.018716507,8.369377e-06,0,-9.510001712125889e-08,1.0
4,4,3925558.5,1012.08966,2274.407,2489.4282,-66.01139,5.217485447792569,-0.3049593,-0.00010157359,1.782586e-05,1.4879476e-05,1.0,40,0.018222326,7.319884e-06,0,-1.0318949314068328e-07,1.0
5,5,3397055.0,1204.531,2498.4148,2773.6206,-64.260445,5.633499254210619,-0.3051427,-2.6631085e-05,1.8752233e-05,1.5215562e-05,1.0,40,0.019391403,6.991368e-06,0,-1.0847367478810257e-07,1.0
6,6,2939708.2,1517.965,2675.7676,3076.3533,-60.433727,6.049491167330416,-0.30509862,-7.511674e-05,2.0233336e-05,1.5307063e-05,1.0,40,0.02122195,6.8984114e-06,0,-1.1183998812483903e-07,1.0
7,7,2543924.5,1895.09,2844.74,3418.1738,-56.329506,6.601503033511108,-0.3051731,-5.2380943e-05,2.1992435e-05,1.5232466e-05,1.0,40,0.02064761,6.040538e-06,0,-1.1578874029287868e-07,1.0
8,8,2201436.2,2050.033,3170.1294,3775.2292,-57.110394,7.153500606393209,-0.30517936,-1.993315e-05,2.2805365e-05,1.6080678e-05,1.0,40,0.020776246,5.503307e-06,0,-1.168432339934087e-07,1.0
9,9,1905053.1,2690.4722,3353.0952,4299.0566,-51.256977,7.705499299307121,-0.30516487,-5.9916136e-05,2.4915358e-05,1.5156977e-05,1.0,40,0.0203909,4.7431104e-06,0,-1.2775669006455499e-07,1.0
10,10,1648567.4,3118.7349,3695.156,4835.358,-49.835423,8.257502418855438,-0.3050984,-9.92293e-05,2.6126467e-05,1.5257697e-05,1.0,40,0.020105446,4.1580056e-06,0,-1.3761365160577396e-07,1.0
11,11,1426616.2,3570.2463,3391.989,4924.657,-43.53335,8.80949116506963,-0.30519474,-6.490236e-05,3.2889595e-05,1.5603262e-05,1.0,40,0.020669628,4.1971707e-06,0,-1.5478388306127676e-07,1.0
12,12,1234551.2,4033.715,3894.6802,5607.084,-43.995346,9.528483119240263,-0.30517042,-6.904284e-05,3.3100852e-05,1.5970138e-05,1.0,41,0.019589452,3.4936968e-06,0,-1.6970736161044265e-07,1.0
13,13,1068345.5,4606.153,3916.435,6046.082,-40.373238,10.080478905438213,-0.3049622,-8.8325694e-05,3.8037982e-05,1.5960675e-05,1.0,41,0.0203326,3.3629383e-06,0,-1.8034583748679485e-07,1.0
14,14,924510.06,5139.871,3545.637,6244.1826,-34.599075,10.632492425007513,-0.30526957,-5.1333496e-05,4.8552796e-05,1.5654945e-05,1.0,41,0.02068071,3.3119966e-06,0,-1.9018322385889677e-07,1.0
15,15,800039.0,5578.385,4219.83,6994.665,-37.106083,11.184501011186512,-0.30506346,-7.679694e-05,4.714265e-05,1.7158134e-05,1.0,41,0.01994767,2.8518407e-06,0,-1.994559795737069e-07,1.0
16,16,692334.1,6132.378,3188.209,6911.6377,-27.469816,11.737483357457677,-0.30516937,-7.086404e-05,7.2103714e-05,1.5342257e-05,1.0,41,0.020292211,2.9359483e-06,0,-2.0949718446530597e-07,1.0
17,17,599122.25,6261.3906,2964.5933,6927.758,-25.336245,12.289496050361777,-0.3052076,-5.926079e-05,8.960651e-05,1.6409087e-05,1.0,41,0.020587442,2.9717323e-06,0,-2.2079006586954444e-07,1.0
18,18,518454.94,6654.697,2787.959,7215.1025,-22.731056,12.84150319659966,-0.3052095,-5.712673e-05,0.00011010898,1.6440328e-05,1.0,41,0.020171866,2.7957838e-06,0,-2.2919612206209985e-07,1.0
19,19,448662.03,6911.358,2341.9321,7297.3633,-18.719088,13.39348122276715,-0.3050282,-7.741145e-05,0.00015146995,1.5600668e-05,1.0,41,0.020352956,2.7890835e-06,0,-2.4159798681465675e-07,1.0
20,20,388258.97,7181.8457,2174.733,7503.8906,-16.846825,13.945483942370629,-0.30511758,-6.600188e-05,0.0001884919,1.5831847e-05,1.0,41,0.020078888,2.675797e-06,0,-2.517052793046367e-07,1.0
21,21,335983.9,6982.2935,977.8892,7050.439,-7.9725733,14.497500821918948,-0.30522582,-5.394613e-05,0.00048440875,9.318778e-06,1.0,41,0.020452676,2.9009082e-06,0,-2.6163579069234147e-07,1.0
22,22,290751.2,7547.3145,1753.1049,7748.247,-13.076879,14.913494068343425,-0.30504575,-6.626444e-05,0.00031224158,1.598452e-05,1.0,41,0.021995654,2.838791e-06,0,-2.687179862008209e-07,1.0
23,23,251605.19,7537.636,1560.4609,7697.467,-11.696294,15.46549425451667,-0.30509973,-6.7867775e-05,0.0004053663,1.665934e-05,1.0,41,0.020346938,2.643329e-06,0,-2.7764748308617647e-07,1.0
24,24,217729.38,7688.9937,1284.1296,7795.487,-9.481395,16.017494414089015,-0.30521932,-5.0959185e-05,0.00056923844,1.5446336e-05,1.0,41,0.020325674,2.6073642e-06,0,-2.8579163966944226e-07,1.0
25,25,188418.58,7698.3774,1128.2402,7780.6133,-8.337662,16.433492567186477,-0.30522352,-4.959048e-05,0.0007486776,1.5742378e-05,1.0,41,0.02179549,2.8012562e-06,0,-2.934158685437609e-07,1.0
26,26,163051.14,7806.1396,1014.10895,7871.7363,-7.4019375,16.98550304674427,-0.30505604,-6.440225e-05,0.00096252427,1.5974962e-05,1.0,41,0.020465605,2.5998845e-06,0,-3.01769159826176e-07,1.0
27,27,141098.2,7846.498,831.86664,7890.471,-6.0517535,17.401493839832256,-0.3049422,-7.908926e-05,0.0013559539,1.5071152e-05,1.0,41,0.021878056,2.7727185e-06,0,-3.1009046651498157e-07,1.0
28,28,122105.11,7804.4863,851.39386,7850.7886,-6.2257953,17.953497226029867,-0.30525512,-4.8307425e-05,0.0015309317,1.8004881e-05,1.0,41,0.020558443,2.618647e-06,0,-3.161101976295144e-07,1.0
29,29,105663.59,7819.4404,519.93744,7836.7075,-3.804164,18.36949055248988,-0.3050757,-6.1441366e-05,0.0028969678,1.2752008e-05,1.0,41,0.022003194,2.807709e-06,0,-3.228132881826503e-07,1.0
30,30,91439.65,7807.121,523.5086,7824.6533,-3.836241,18.92150340534863,-0.30495733,-6.936122e-05,0.003324771,1.4882614e-05,1.0,41,0.020470545,2.61616e-06,0,-3.310662977405422e-07,1.0
31,31,79127.08,7807.263,407.0396,7817.8667,-2.9844716,19.337499798479257,-0.3052372,-4.995916e-05,0.0049414947,1.3395384e-05,1.0,41,0.021741057,2.780945e-06,0,-3.3807267485649104e-07,1.0
32,32,68475.36,7819.371,390.38876,7829.1104,-2.8581674,19.889480304700555,-0.30526337,-4.6800906e-05,0.0059537217,1.4803291e-05,1.0,41,0.020244066,2.5857428e-06,0,-3.4431522261648697e-07,1.0
33,33,59252.523,7803.073,383.65912,7812.4995,-2.8148346,20.305504751071567,-0.3051186,-5.8610847e-05,0.007001124,1.6884134e-05,1.0,41,0.021446431,2.7451433e-06,0,-3.526036195866453e-07,1.0
34,34,51282.285,7796.6953,311.14938,7802.9014,-2.285339,20.857502723956713,-0.30516666,-5.540231e-05,0.0099743325,1.586023e-05,1.0,41,0.020314693,2.6034795e-06,0,-3.5941151052696004e-07,1.0
35,35,44369.8,7775.505,283.02335,7780.6543,-2.084609,21.273490370396757,-0.30508232,-5.8953483e-05,0.012673903,1.6769598e-05,1.0,41,0.021401422,2.7505941e-06,0,-3.68647003522115e-07,1.0
36,36,38403.727,7787.4326,209.82521,7790.259,-1.5434086,21.82550052998704,-0.3050508,-6.411544e-05,0.019751,1.4328498e-05,1.0,41,0.020305153,2.60648e-06,0,-3.719334628860512e-07,1.0
37,37,33226.32,7755.999,234.97174,7759.5576,-1.7352725,22.241492443048628,-0.30500036,-6.200187e-05,0.020385541,1.8693025e-05,1.0,41,0.021106994,2.7201286e-06,0,-3.802013525509851e-07,1.0
38,38,28754.086,7791.0083,202.79976,7793.6475,-1.4910711,22.65749323615455,-0.30510977,-5.552707e-05,0.027293116,1.8480192e-05,1.0,41,0.021921089,2.8126867e-06,0,-3.8425355333448546e-07,1.0
39,39,24884.947,7735.6885,243.32324,7739.514,-1.8016237,23.209484062361298,-0.30526486,-3.6503046e-05,0.026284507,2.5980027e-05,1.0,41,0.020221181,2.6127198e-06,0,-3.906692769378471e-07,1.0
40,40,21553.963,7749.771,248.47462,7753.7534,-1.8363991,23.626484615524532,-0.30530623,-3.8529095e-05,0.029717408,3.0517647e-05,1.0,41,0.02064147,2.6621262e-06,0,-3.937388581198178e-07,1.0
41,41,18631.234,7750.226,274.85605,7755.098,-2.0311012,24.04249679527129,-0.30510077,-5.71211e-05,0.031079443,3.9039944e-05,1.0,41,0.02088377,2.6929085e-06,0,-3.97496225682856e-07,1.0
42,42,16126.037,7731.8184,297.90277,7737.555,-2.2064838,24.458497721672757,-0.3050617,-6.6331435e-05,0.03312973,4.9108818e-05,1.0,41,0.020901924,2.7013602e-06,0,-4.0283418204517496e-07,1.0
43,43,13954.87,7702.0337,365.4201,7710.6973,-2.71634,24.874478888086742,-0.30490473,-6.808747e-05,0.031210585,7.0097005e-05,1.0,41,0.020820739,2.7002407e-06,0,-4.1200421713214374e-07,1.0
44,44,12080.609,7324.116,241.55186,7328.098,-1.8889499,25.29049850787851,-0.3050887,-5.5521483e-05,0.05454072,5.9259655e-05,1.0,41,0.019846251,2.7082403e-06,0,-4.1596976336619206e-07,1.0
45,45,10447.592,7722.385,319.55652,7728.9937,-2.369579,25.70648538097157,-0.3049812,-5.7286827e-05,0.047671217,8.149026e-05,1.0,41,0.020194568,2.6128328e-06,0,-4.211568057586782e-07,1.0
46,46,9045.586,7823.739,447.21625,7836.5103,-3.2715497,26.27926348816254,-0.30507684,-5.501311e-05,0.03934285,0.0001281314,1.0,41,0.020413347,2.6049026e-06,0,-4.2766116631350336e-07,1.0
47,47,7827.7437,7841.1016,466.27945,7854.953,-3.403147,26.75994111102773,-0.30498454,-5.9702077e-05,0.0436051,0.00015365356,1.0,41,0.020513054,2.61148e-06,0,-4.335728186709184e-07,1.0
48,48,6770.8345,7933.902,480.99667,7948.4688,-3.4693382,27.298424149892526,-0.3050697,-6.2586594e-05,0.048869275,0.00017895881,1.0,41,0.020716604,2.6063642e-06,0,-4.4133009270506484e-07,1.0
49,49,5860.798,7838.7314,628.8548,7863.9155,-4.5866766,27.903973245382076,-0.3052705,-4.0370796e-05,0.043183018,0.0002761443,1.0,41,0.020550363,2.6132482e-06,0,-4.490753321826999e-07,1.0
50,50,5071.625,7917.64,740.2115,7952.1655,-5.3409953,28.58468042439199,-0.30524278,-4.390335e-05,0.04239525,0.00036733135,1.0,41,0.02067998,2.600547e-06,0,-4.565996642633697e-07,1.0
51,51,4388.5933,8076.7817,506.19037,8092.6284,-3.5861669,29.264808110019658,-0.30518293,-4.786793e-05,0.07164418,0.0002803041,1.0,41,0.020837234,2.5748413e-06,0,-4.677334928497743e-07,1.0
52,52,3798.7827,7993.956,831.6165,8037.0967,-5.9391537,29.94481294231082,-0.3050355,-5.38269e-05,0.050379355,0.00053938694,1.0,41,0.020707332,2.5764691e-06,0,-4.798096816438683e-07,1.0
53,53,3286.0488,7940.143,1121.3755,8018.9375,-8.03864,30.624696121281886,-0.30513996,-4.852714e-05,0.04319118,0.0008446242,1.0,41,0.020576961,2.5660459e-06,0,-4.95068667681516e-07,1.0
54,54,2844.088,8101.065,974.1665,8159.4272,-6.8569875,31.304811673573568,-0.30518663,-4.8078353e-05,0.0574439,0.00081882474,1.0,41,0.020714577,2.5387294e-06,0,-5.044740953186925e-07,1.0
55,55,2460.7852,8204.1,1102.164,8277.803,-7.6514792,31.98467397254717,-0.30511323,-4.7787857e-05,0.05868137,0.0010403093,1.0,41,0.020769035,2.5090035e-06,0,-5.156989986251214e-07,1.0
56,56,2129.3164,8255.583,1302.4117,8357.687,-8.965169,32.664821071506594,-0.30522397,-4.0668747e-05,0.05738939,0.0013936575,1.0,41,0.02077436,2.4856593e-06,0,-5.268433288635271e-07,1.0
57,57,1843.2289,8268.576,1359.3965,8379.577,-9.336203,33.34493915713392,-0.30508196,-5.0288763e-05,0.0635177,0.0016716402,1.0,41,0.02064315,2.4635074e-06,0,-5.357116043912779e-07,1.0
58,58,1594.4913,8444.472,1534.5629,8582.772,-10.299622,34.024801482766634,-0.30509114,-5.105226e-05,0.06504491,0.0020793492,1.0,41,0.020785037,2.421716e-06,0,-5.46788391836783e-07,1.0
59,59,1380.4436,8506.9375,1683.6722,8671.951,-11.19516,34.70468556840933,-0.3050659,-5.5476798e-05,0.06847687,0.002581222,1.0,41,0.020721951,2.3895373e-06,0,-5.578684605175333e-07,1.0
60,60,1194.6187,8606.193,1780.0247,8788.348,-11.685748,35.384803547363845,-0.30517194,-4.9758044e-05,0.07484535,0.0030704527,1.0,41,0.02068691,2.3539021e-06,0,-5.681276024910523e-07,1.0
61,61,1033.3434,8744.708,1994.992,8969.388,-12.851347,36.06507739299559,-0.30516803,-4.1557007e-05,0.07720303,0.0038193637,1.0,41,0.020727117,2.310873e-06,0,-5.764394816684539e-07,1.0
62,62,894.71045,8832.986,2214.048,9106.243,-14.071655,36.7448351586354,-0.30510148,-5.1177023e-05,0.08034347,0.0047494816,1.0,41,0.020687323,2.2717736e-06,0,-5.845856475986421e-07,1.0
63,63,774.2569,8985.725,2293.8125,9273.879,-14.320234,37.42494748425088,-0.3051991,-4.5290675e-05,0.089614265,0.005482393,1.0,41,0.020635482,2.2251188e-06,0,-5.945181013086369e-07,1.0
64,64,669.7856,9175.607,2528.4402,9517.604,-15.406134,38.104827943228884,-0.30520576,-4.4227367e-05,0.09397918,0.0066325697,1.0,41,0.020688254,2.1736832e-06,0,-6.041677649404436e-07,1.0
65,65,579.81464,9303.1875,2661.2578,9676.342,-15.963639,38.78481997552444,-0.3051836,-4.7642607e-05,0.103144005,0.0078018126,1.0,41,0.020634385,2.1324572e-06,0,-6.11560632354323e-07,1.0
66,66,501.44418,9492.859,3142.883,9999.6045,-18.318605,39.46219120765454,-0.305074,-5.257552e-05,0.1009879,0.009976084,1.0,41,0.020757109,2.075793e-06,0,-6.186965880517966e-07,1.0
67,67,434.02762,9677.131,3365.7764,10245.746,-19.178045,40.142205719981575,-0.30502895,-5.0832525e-05,0.10894756,0.011757118,1.0,41,0.020743195,2.0245666e-06,0,-6.293286005840899e-07,1.0
68,68,375.6009,9902.329,3679.3447,10563.792,-20.38323,40.821420072199544,-0.30512565,-4.5065357e-05,0.11516567,0.0139708975,1.0,41,0.020767957,1.9659567e-06,0,-6.395566107453148e-07,1.0
69,69,325.10385,10083.043,3957.3901,10831.837,-21.429,41.500713757865014,-0.30514202,-4.6387508e-05,0.123705536,0.016512113,1.0,41,0.020747058,1.9153777e-06,0,-6.5031199284572e-07,1.0
70,70,281.3503,10183.642,4285.3516,11048.565,-22.821718,42.176803016642225,-0.30531162,-3.939316e-05,0.13200375,0.019858545,1.0,41,0.020603685,1.864829e-06,0,-6.574322901944704e-07,1.0
71,71,243.36427,10625.563,4819.071,11667.307,-24.395983,42.86012048905832,-0.3051733,-3.9642695e-05,0.1357063,0.023151834,1.0,41,0.02084221,1.7863771e-06,0,-6.678091090041644e-07,1.0
72,72,210.60631,10789.194,5299.3784,12020.404,-26.159098,43.53719113455736,-0.3050513,-5.0854876e-05,0.14260142,0.027716318,1.0,41,0.020793708,1.7298676e-06,0,-6.764484075059569e-07,1.0
73,73,182.27473,10883.354,5875.7607,12368.183,-28.363953,44.20927871312597,-0.30506507,-4.893684e-05,0.14860366,0.03353868,1.0,41,0.02072071,1.6753237e-06,0,-6.846278545136752e-07,1.0
74,74,157.72879,11181.47,6392.575,12879.84,-29.757103,44.89765735921537,-0.30515867,-3.354779e-05,0.1578459,0.038883384,1.0,41,0.020686558,1.6061191e-06,0,-6.936644924036999e-07,1.0
75,75,136.52892,11467.894,7122.443,13499.695,-31.843458,45.56953381773201,-0.30519104,-3.788667e-05,0.16366903,0.045559246,1.0,41,0.02068398,1.5321813e-06,0,-7.015406611157478e-07,1.0
76,76,118.14758,11778.813,7822.1377,14139.529,-33.587555,46.25791281048441,-0.30515385,-4.735027e-05,0.17221455,0.052704882,1.0,41,0.020642936,1.4599451e-06,0,-7.093243462118374e-07,1.0
77,77,102.25773,11991.304,8815.007,14882.731,-36.320225,46.924348308792105,-0.3051785,-4.2882904e-05,0.17656367,0.061941445,1.0,41,0.020654015,1.3877839e-06,0,-7.178743150397541e-07,1.0
78,78,88.4436,12454.08,9906.408,15913.549,-38.499958,47.61427967486088,-0.3051578,-4.1733943e-05,0.18165086,0.070394024,1.0,41,0.020743836,1.3035329e-06,0,-7.263947878390348e-07,1.0
79,79,76.54279,12998.426,11286.4,17214.584,-40.96745,48.28072261323541,-0.3051266,-4.4955515e-05,0.18423,0.07919143,1.0,41,0.020914355,1.2149208e-06,0,-7.337286982137085e-07,1.0
80,80,66.250786,13278.114,12365.037,18143.938,-42.960728,48.94898243161151,-0.30507684,-5.0880968e-05,0.1942825,0.09023218,1.0,41,0.020715997,1.1417586e-06,0,-7.445369746615995e-07,1.0
81,81,57.329906,13860.076,14304.965,19918.176,-45.904957,49.84663780761548,-0.30502948,-4.6966252e-05,0.1940672,0.100098275,1.0,42,0.020899149,1.0492502e-06,0,-7.561123429761128e-07,1.0
82,82,49.60321,14563.076,15824.945,21506.094,-47.377853,50.532341280108085,-0.30506763,-4.6236706e-05,0.20275338,0.109781586,1.0,42,0.020819185,9.680598e-07,0,-7.650793412631963e-07,1.0
83,83,42.92585,15337.307,17573.482,23325.1,-48.887077,51.2404153670941,-0.30516145,-4.5902758e-05,0.21098103,0.11976007,1.0,42,0.02073574,8.889883e-07,0,-7.740472107087947e-07,1.0
84,84,37.1518,16124.777,19885.088,25601.273,-50.961475,51.885181211080635,-0.3051333,-4.565933e-05,0.21543327,0.12997046,1.0,42,0.020839214,8.1399133e-07,0,-7.815390312471682e-07,1.0
85,85,32.150223,16821.941,22297.205,27931.041,-52.967575,52.52436257476802,-0.30507278,-4.6388133e-05,0.22201672,0.14148563,1.0,42,0.020758763,7.432148e-07,0,-7.894982580657073e-07,1.0
86,86,27.835518,17838.285,24499.812,30305.861,-53.941677,53.25130007593543,-0.30514705,-4.540538e-05,0.233377,0.15252124,1.0,42,0.020504091,6.765718e-07,0,-7.981081436249361e-07,1.0
87,87,24.082958,18770.73,27947.174,33665.78,-56.112698,53.95338936263579,-0.30508077,-4.5005225e-05,0.236468,0.16295616,1.0,42,0.020679105,6.14247e-07,0,-8.068064306535455e-07,1.0
88,88,20.833313,19947.861,31393.943,37195.387,-57.56793,54.60774827374553,-0.3051661,-4.579456e-05,0.24334134,0.17335226,1.0,42,0.020686695,5.5616295e-07,0,-8.170940872294921e-07,1.0
89,89,18.021912,21620.127,34999.55,41138.77,-58.295303,55.35370814918133,-0.30525583,-4.337143e-05,0.252323,0.18263295,1.0,42,0.020697579,5.0311615e-07,0,-8.242519344126214e-07,1.0
90,90,15.604198,23163.207,38955.09,45321.44,-59.26373,56.009001326950965,-0.3051175,-4.570348e-05,0.26182702,0.19343518,1.0,42,0.020606935,4.54684e-07,0,-8.336649610839339e-07,1.0
91,91,13.500899,24886.875,44041.934,50587.04,-60.530415,56.75696632248582,-0.3051362,-4.519995e-05,0.26766467,0.20288283,1.0,42,0.02076661,4.1051246e-07,0,-8.433899318019908e-07,1.0
92,92,11.686608,26956.121,48978.67,55906.555,-61.173176,57.34788371055038,-0.30522785,-4.4634216e-05,0.27805114,0.21340923,1.0,42,0.020719463,3.7060883e-07,0,-8.501489329589573e-07,1.0
93,93,10.113269,29208.58,54361.098,61711.184,-61.750565,58.021502782503376,-0.30523965,-4.4525634e-05,0.28949454,0.22464101,1.0,42,0.020642016,3.3449393e-07,0,-8.567502514880311e-07,1.0
94,94,8.748621,31232.041,61012.68,68541.87,-62.892353,58.78839345896267,-0.30509317,-4.4972265e-05,0.2981676,0.23625922,1.0,42,0.020684026,3.0177213e-07,0,-8.665645482074006e-07,1.0
95,95,7.570237,34210.867,68247.1,76341.67,-63.376335,59.66396934055956,-0.30507016,-4.5427838e-05,0.30805367,0.24619062,1.0,42,0.020701332,2.7116687e-07,0,-8.798011489399314e-07,1.0
96,96,6.554112,36682.605,75615.47,84043.516,-64.12103,60.1992956592876,-0.30516908,-4.413786e-05,0.32114092,0.2599612,1.0,42,0.020591045,2.4500457e-07,0,-8.83307542070224e-07,1.0
97,97,5.669445,34780.758,78514.56,85873.38,-66.10738,60.80912494161748,-0.30506846,-4.6283105e-05,0.35754392,0.2988909,1.0,42,0.019638492,2.2869126e-07,0,-8.944605752786682e-07,1.0
98,98,4.907347,48355.883,104620.71,115255.305,-65.193535,61.75653919993783,-0.30511552,-4.129833e-05,0.30999568,0.25542837,1.0,43,0.02071107,1.7969732e-07,0,-9.038006740317807e-07,1.0
99,99,4.245922,52352.727,117809.12,128917.79,-66.040306,62.54431670400663,-0.30522692,-4.1261443e-05,0.3181773,0.26570597,1.0,43,0.020764705,1.6106935e-07,0,-9.154906340213592e-07,1.0
100,100,3.6747382,57148.88,131702.88,143567.55,-66.54288,63.443921120109735,-0.30517328,-4.091292e-05,0.32885048,0.27674285,1.0,43,0.020693239,1.4413591e-07,0,-9.236627279868231e-07,1.0
101,101,3.180988,62369.18,148441.17,161011.48,-67.209755,64.47323167565628,-0.3051557,-4.1049094e-05,0.33705726,0.28648293,1.0,43,0.020722905,1.2870451e-07,0,-9.342516418659683e-07,1.0
102,102,2.752818,67825.125,166942.78,180194.73,-67.88919,65.65210221163579,-0.3052535,-4.087532e-05,0.34631792,0.29725286,1.0,43,0.020707749,1.1491872e-07,0,-9.499898061420803e-07,1.0
103,103,2.3804083,73962.93,189463.52,203388.64,-68.67528,67.00704368934385,-0.30510622,-4.0752395e-05,0.35289302,0.30622515,1.0,43,0.020784538,1.02191244e-07,0,-9.661865756940214e-07,1.0
104,104,2.060257,81665.84,212793.56,227926.33,-69.00421,68.56335706988466,-0.3051388,-4.0477767e-05,0.36302814,0.31642315,1.0,43,0.020737197,9.098202e-08,0,-9.81759734580316e-07,1.0
105,105,1.7836765,90641.25,239744.77,256307.22,-69.2897,70.35165502154996,-0.3051344,-4.0380277e-05,0.37218162,0.3256353,1.0,43,0.02072001,8.084053e-08,0,-1.0001293799246234e-06,1.0
106,106,1.5427545,101116.71,268017.2,286457.34,-69.329666,72.41017645262764,-0.30513006,-4.0241368e-05,0.3849113,0.33695042,1.0,43,0.020522403,7.164209e-08,0,-1.023729751854222e-06,1.0
