True,index,freq,Re(Z),Im(Z),Z,Phase(Z),time,Ewe_meas,I_meas,Cs,Cp,cycle_number,I_Range,Ewe,I,Ns,(QQo),cycle
0,0,7000018.5,702.7385,1035.7468,1251.644,-55.8437,2.468492917221738,-0.12209024,-1.6881799e-05,2.1951659e-05,1.5031866e-05,1.0,40,0.009756619,7.795043e-06,0,-1.1072839252468233e-08,1.0
1,1,6057573.0,844.3659,1119.5204,1402.241,-52.97563,3.02048198346165,-0.12205307,-4.0343308e-05,2.3468725e-05,1.4959194e-05,1.0,40,0.013885268,9.902198e-06,0,-1.3975928274476246e-08,1.0
2,2,5242039.0,1000.8175,1242.5868,1595.5117,-51.150967,3.4364810165425297,-0.12203522,-2.0286676e-05,2.443392e-05,1.4819946e-05,1.0,40,0.01923659,1.205669e-05,0,-1.8822947030369303e-08,1.0
3,3,4536288.0,1138.128,1367.7386,1779.3383,-50.235348,4.8044943881977815,-0.12207893,-2.964518e-05,2.5651714e-05,1.5156733e-05,1.0,40,0.019641992,1.1038931e-05,0,-3.8779023738679067e-08,1.0
4,4,3925558.5,1337.1251,1401.3381,1936.9182,-46.343258,5.220485874597216,-0.12210781,-2.4193805e-05,2.8931818e-05,1.5143945e-05,1.0,40,0.018498566,9.550515e-06,0,-4.441807534892127e-08,1.0
5,5,3397055.0,1519.4038,1413.6603,2075.337,-42.935253,5.6364988810091745,-0.12210848,-3.9375802e-05,3.314153e-05,1.5377487e-05,1.0,40,0.019476261,9.384626e-06,0,-4.634539691081348e-08,1.0
6,6,2939708.2,1713.5814,1428.5063,2230.9172,-39.81587,6.0525017274485435,-0.12209676,-3.734781e-05,3.789952e-05,1.553929e-05,1.0,40,0.021311814,9.552938e-06,0,-5.19765285184227e-08,1.0
7,7,2543924.5,1920.564,1411.7623,2383.619,-36.31875,6.604503273643786,-0.12211379,-3.5468667e-05,4.4315366e-05,1.554547e-05,1.0,40,0.020569174,8.6293885e-06,0,-5.4376093506625186e-08,1.0
8,8,2201436.2,2106.6807,1367.2744,2511.4822,-32.98431,7.156490286550252,-0.12214116,-3.5357036e-05,5.2875967e-05,1.5671461e-05,1.0,40,0.02104582,8.37984e-06,0,-6.40574909618105e-08,1.0
9,9,1905053.1,2276.7861,1326.9637,2635.2585,-30.234625,7.708493646088755,-0.12211876,-3.3868604e-05,6.295845e-05,1.596341e-05,1.0,40,0.020311013,7.707408e-06,0,-6.975540738635446e-08,1.0
10,10,1648567.4,2472.505,1237.716,2764.9993,-26.592176,8.260482899000635,-0.12210917,-3.718036e-05,7.799961e-05,1.5629475e-05,1.0,40,0.020238534,7.319544e-06,0,-7.491156850219088e-08,1.0
11,11,1426616.2,2581.416,1119.7177,2813.801,-23.44932,8.812490205193171,-0.122124575,-3.6250087e-05,9.963328e-05,1.5777374e-05,1.0,40,0.020215832,7.184528e-06,0,-8.046115187958156e-08,1.0
12,12,1234551.2,2698.2866,1017.07434,2883.6072,-20.653103,9.364494391455082,-0.1221245,-3.8910654e-05,0.00012675302,1.576854e-05,1.0,40,0.02066807,7.1674363e-06,0,-7.780242593953011e-08,1.0
13,13,1068345.5,2813.143,939.42035,2965.853,-18.466215,9.916494817618513,-0.122141086,-3.2845302e-05,0.00015858002,1.5909962e-05,1.0,40,0.020127688,6.786475e-06,0,-8.780032971238446e-08,1.0
14,14,924510.06,2872.8706,817.3135,2986.8691,-15.880715,10.468495537206763,-0.1221191,-4.2073563e-05,0.0002106298,1.57712e-05,1.0,40,0.020745903,6.9457024e-06,0,-9.326354732898936e-08,1.0
15,15,800039.0,2918.1445,747.9154,3012.4648,-14.375375,11.020496443408774,-0.12212887,-3.2194093e-05,0.0002659846,1.6395228e-05,1.0,40,0.02059308,6.8359573e-06,0,-9.957397244013717e-08,1.0
16,16,692334.1,2975.9448,631.92615,3042.298,-11.988386,11.572496629640227,-0.122146994,-3.878038e-05,0.00036377937,1.5695212e-05,1.0,40,0.020335933,6.6843986e-06,0,-9.831009676627724e-08,1.0
17,17,599122.25,3006.3406,549.00745,3056.0583,-10.349118,12.124485242500668,-0.12215791,-2.9459066e-05,0.0004838675,1.5615635e-05,1.0,40,0.020093651,6.5750223e-06,0,-9.86640174953411e-08,1.0
18,18,518454.94,3032.1628,484.96967,3070.7014,-9.087028,12.676492842059815,-0.12214722,-3.399876e-05,0.0006329866,1.5788777e-05,1.0,40,0.02061787,6.7143847e-06,0,-1.0110178904061387e-07,1.0
19,19,448662.03,3051.6516,410.5764,3079.1477,-7.6626945,13.228497534961207,-0.122108184,-3.943153e-05,0.00086398626,1.5361504e-05,1.0,40,0.020467363,6.647087e-06,0,-1.1285122426920679e-07,1.0
20,20,388258.97,3058.3157,345.42593,3077.7612,-6.444046,13.780500467837555,-0.12215345,-4.0324587e-05,0.0011867075,1.4948022e-05,1.0,40,0.020134035,6.5417794e-06,0,-1.1436287149139287e-07,1.0
21,21,335983.9,3083.691,305.67087,3098.8037,-5.6609516,14.333481934125302,-0.12213252,-4.337586e-05,0.0015496998,1.5078826e-05,1.0,40,0.020748964,6.6957978e-06,0,-1.2230329945802825e-07,1.0
22,22,290751.2,3081.2578,272.76593,3093.3074,-5.058877,14.88548670700402,-0.122138776,-3.6268604e-05,0.0020068204,1.5604239e-05,1.0,40,0.02034721,6.5778167e-06,0,-1.2630017209580223e-07,1.0
23,23,251605.19,3082.825,243.61081,3092.4353,-4.5182347,15.437493026518496,-0.122150905,-3.7868664e-05,0.0025965937,1.6113721e-05,1.0,40,0.020340873,6.5776226e-06,0,-1.2925888938174367e-07,1.0
24,24,217729.38,3092.925,203.24052,3099.5955,-3.7595825,15.98950433274149,-0.12215817,-3.7701215e-05,0.0035966055,1.5463344e-05,1.0,40,0.02036127,6.569009e-06,0,-1.2947938183805895e-07,1.0
25,25,188418.58,3093.6157,179.74855,3098.8333,-3.3253217,16.541490172297927,-0.122120164,-3.8259375e-05,0.0046992763,1.581122e-05,1.0,40,0.020270951,6.5414783e-06,0,-1.2740281173384777e-07,1.0
26,26,163051.14,3093.213,161.97592,3097.451,-2.9975526,17.093500865186797,-0.12211386,-4.034317e-05,0.0060262317,1.6479267e-05,1.0,40,0.020254286,6.5390177e-06,0,-1.226415760733946e-07,1.0
27,27,141098.2,3093.083,140.41661,3096.2686,-2.5992706,17.645490278111538,-0.122137934,-3.8705897e-05,0.008033044,1.6521135e-05,1.0,40,0.02047651,6.6132866e-06,0,-1.3116712325379214e-07,1.0
28,28,122105.11,3114.7312,131.91222,3117.5232,-2.4250886,18.197489637619583,-0.122131154,-4.5645706e-05,0.009881009,1.7690982e-05,1.0,40,0.020429704,6.5531844e-06,0,-1.2805153147038101e-07,1.0
29,29,105663.59,3094.024,121.62992,3096.4138,-2.251209,18.749482650513528,-0.12212765,-3.5654615e-05,0.012383812,1.9108085e-05,1.0,40,0.020180183,6.517276e-06,0,-1.382370618102363e-07,1.0
30,30,91439.65,3098.7803,108.703735,3100.6863,-2.0090847,19.165497203619452,-0.12213577,-3.3068463e-05,0.016011836,1.9679515e-05,1.0,40,0.02176247,7.018598e-06,0,-1.4451507265845167e-07,1.0
31,31,79127.08,3106.192,98.18963,3107.7434,-1.8105702,19.7175048031786,-0.12213341,-2.8268274e-05,0.02048469,2.0448917e-05,1.0,40,0.020521974,6.603497e-06,0,-1.6196878023260473e-07,1.0
32,32,68475.36,3099.9302,101.478806,3101.5908,-1.8749557,20.13348538291757,-0.122123405,-4.5273588e-05,0.022903955,2.4518402e-05,1.0,40,0.021625472,6.9723806e-06,0,-1.609870583967121e-07,1.0
33,33,59252.523,3164.4956,96.13907,3165.9556,-1.7401412,20.685492155811517,-0.12213894,-3.381269e-05,0.02793916,2.5763422e-05,1.0,40,0.020361254,6.431314e-06,0,-1.5433931064572133e-07,1.0
34,34,51282.285,3336.5632,103.65094,3338.1729,-1.7793316,21.101497402210953,-0.12213844,-5.0985458e-05,0.02994191,2.8867447e-05,1.0,40,0.021215288,6.3553593e-06,0,-1.5873019298346158e-07,1.0
35,35,44369.8,3190.0967,97.71944,3191.593,-1.7545428,21.517481101996964,-0.122111216,-4.912491e-05,0.036707237,3.4411103e-05,1.0,40,0.021770483,6.821196e-06,0,-1.576905536453776e-07,1.0
36,36,38403.727,3554.4214,119.41226,3556.4268,-1.9241518,22.069485181564232,-0.122127354,-3.8538463e-05,0.034705464,3.9126226e-05,1.0,40,0.020290025,5.7051716e-06,0,-1.7426592827716073e-07,1.0
37,37,33226.32,3552.8435,128.6165,3555.1707,-2.0732594,22.485478854650864,-0.12214047,-4.1236242e-05,0.037242703,4.874316e-05,1.0,40,0.020570878,5.7861857e-06,0,-1.7326981227736522e-07,1.0
38,38,28754.086,3418.0352,121.53185,3420.195,-2.036354,22.901501461077714,-0.122125305,-5.466932e-05,0.045543924,5.750544e-05,1.0,40,0.020763254,6.0707807e-06,0,-1.834228537424628e-07,1.0
39,39,24884.947,3396.311,133.77452,3398.9446,-2.2556107,23.318486814183416,-0.12213881,-4.484568e-05,0.04780904,7.405743e-05,1.0,40,0.020843176,6.1322494e-06,0,-1.8393233122163919e-07,1.0
40,40,21553.963,3561.114,147.43367,3564.1646,-2.3707485,23.735493900690926,-0.12213827,-3.6082547e-05,0.050083693,8.569869e-05,1.0,40,0.02087486,5.856873e-06,0,-1.8458037330525358e-07,1.0
41,41,18631.234,3561.0278,162.5213,3564.7346,-2.6131015,24.151483787078178,-0.12212353,-4.5478268e-05,0.052561555,0.000109253255,1.0,40,0.020783698,5.8303635e-06,0,-1.8486915573958464e-07,1.0
42,42,16126.037,3576.333,179.31963,3580.8257,-2.8704433,24.56750500688213,-0.12212987,-3.651047e-05,0.05503825,0.00013802378,1.0,40,0.020642443,5.7647158e-06,0,-1.9452537993073645e-07,1.0
43,43,13954.87,3557.8896,199.20178,3563.462,-3.204573,24.983488786645466,-0.12213792,-4.3413074e-05,0.057253383,0.00017891359,1.0,40,0.02033491,5.7065045e-06,0,-2.040175866616715e-07,1.0
44,44,12080.609,3569.8367,225.41765,3576.9465,-3.6131501,25.39948723305133,-0.12215428,-2.9663692e-05,0.05844446,0.00023211024,1.0,40,0.019968398,5.5825262e-06,0,-2.1212990795899915e-07,1.0
45,45,10447.592,3584.165,250.33441,3592.8967,-3.9953098,25.81549957281095,-0.122127764,-4.369216e-05,0.060853194,0.00029541668,1.0,40,0.019442262,5.4113057e-06,0,-2.221965401753702e-07,1.0
46,46,9045.586,3559.2913,278.32898,3570.157,-4.4713087,26.38826370667084,-0.122119285,-0.00013863546,0.06321571,0.00038420872,1.0,40,0.020177092,5.6515983e-06,0,-2.3423675915379742e-07,1.0
47,47,7827.7437,3608.1611,300.1917,3620.6272,-4.7559395,26.868946849543136,-0.1221265,-3.1431202e-05,0.06773058,0.00046560177,1.0,40,0.020231329,5.5877967e-06,0,-2.3455018036351148e-07,1.0
48,48,6770.8345,3626.8704,343.57455,3643.1074,-5.411498,27.407422075077193,-0.122132406,-5.347859e-05,0.06841589,0.0006084922,1.0,40,0.02025373,5.559465e-06,0,-2.438229839106043e-07,1.0
49,49,5860.798,3633.997,389.3119,3654.7913,-6.114803,28.013964503916213,-0.12211683,-3.4966222e-05,0.06975345,0.0007914726,1.0,40,0.020241905,5.538457e-06,0,-2.47892326784899e-07,1.0
50,50,5071.625,3658.3042,441.8426,3684.8901,-6.8867116,28.694717496284284,-0.12211541,-3.7366328e-05,0.07102405,0.0010211546,1.0,40,0.020273695,5.501845e-06,0,-2.5020529012047315e-07,1.0
51,51,4388.5933,3642.917,520.90576,3679.971,-8.13764,29.37481139524607,-0.12212657,-4.2761887e-05,0.06962027,0.001394971,1.0,40,0.02026554,5.5069836e-06,0,-2.546453596540535e-07,1.0
52,52,3798.7827,3699.6777,557.3844,3741.4292,-8.567608,30.054824680875754,-0.12213565,-3.2342872e-05,0.075165905,0.0016682281,1.0,40,0.020280147,5.420428e-06,0,-2.624996085053479e-07,1.0
53,53,3286.0488,3735.1877,617.91876,3785.9543,-9.393467,30.985687951761065,-0.12212728,-2.9283321e-05,0.07838171,0.0020879821,1.0,41,0.020351194,5.375446e-06,0,-2.708241604030314e-07,1.0
54,54,2844.088,3765.736,696.78546,3829.6577,-10.483047,31.665810304053593,-0.122134045,-2.7173457e-05,0.08031155,0.00265862,1.0,41,0.02035923,5.3162007e-06,0,-2.732613240972089e-07,1.0
55,55,2460.7852,3807.2478,778.675,3886.061,-11.558971,32.34570740303025,-0.12210684,-2.878983e-05,0.08305967,0.0033349046,1.0,41,0.02037778,5.2438136e-06,0,-2.752683147332138e-07,1.0
56,56,2129.3164,3851.3164,870.7903,3948.5332,-12.740465,33.0258126353292,-0.12210293,-2.7179045e-05,0.08583538,0.004174668,1.0,41,0.02038353,5.162304e-06,0,-2.792751673269846e-07,1.0
57,57,1843.2289,3903.8357,973.1197,4023.294,-13.997018,33.705939040955855,-0.12212826,-2.659805e-05,0.08873084,0.0051909112,1.0,41,0.020390041,5.067997e-06,0,-2.830673609082055e-07,1.0
58,58,1594.4913,3963.0112,1076.736,4106.6797,-15.20013,34.385823179924046,-0.122109376,-2.6840133e-05,0.09270193,0.0063727302,1.0,41,0.020378068,4.9621763e-06,0,-2.853877068330348e-07,1.0
59,59,1380.4436,4030.5352,1194.7144,4203.874,-16.510656,35.06569409221993,-0.12214671,-2.6130647e-05,0.09650224,0.007794103,1.0,41,0.020371724,4.8459406e-06,0,-2.8639260205997944e-07,1.0
60,60,1194.6187,4105.588,1323.2008,4313.55,-17.86375,35.74583559118037,-0.12209192,-2.6838272e-05,0.10068507,0.009474296,1.0,41,0.020371383,4.7226495e-06,0,-2.9344627211860875e-07,1.0
61,61,1033.3434,4187.164,1458.9031,4434.0435,-19.209497,36.426099783479,-0.12214075,-2.5355985e-05,0.10557207,0.011428837,1.0,41,0.020354532,4.5905126e-06,0,-2.999778175730796e-07,1.0
62,62,894.71045,4272.4375,1608.0833,4565.047,-20.625607,37.10580210911576,-0.12214323,-2.5573856e-05,0.11061884,0.0137263695,1.0,41,0.020319171,4.4510325e-06,0,-3.045143839697933e-07,1.0
63,63,774.2569,4377.834,1774.2882,4723.7197,-22.062176,37.785940168076195,-0.122139595,-2.5944435e-05,0.11585396,0.016345229,1.0,41,0.020327408,4.303263e-06,0,-3.062530023598795e-07,1.0
64,64,669.7856,4492.4766,1940.5356,4893.672,-23.362041,38.46581009370857,-0.12213218,-2.6948155e-05,0.122451104,0.019254679,1.0,41,0.020313684,4.1510107e-06,0,-3.114709014276337e-07,1.0
65,65,579.81464,4615.68,2136.9197,5086.347,-24.842703,39.145847512671025,-0.12212085,-2.6274054e-05,0.12845257,0.022672905,1.0,41,0.020327665,3.9965153e-06,0,-3.1968935065593644e-07,1.0
66,66,501.44418,4746.0645,2337.1243,5290.3003,-26.21721,39.82317247815081,-0.12215102,-2.611205e-05,0.135805,0.026504444,1.0,41,0.02030458,3.8380767e-06,0,-3.2617491290304516e-07,1.0
67,67,434.02762,4884.661,2559.726,5514.718,-27.656046,40.503215710428776,-0.1221205,-2.5838304e-05,0.14325483,0.03086382,1.0,41,0.020287283,3.6787526e-06,0,-3.274730385135677e-07,1.0
68,68,375.6009,5038.389,2804.0461,5766.1113,-29.097525,41.18245566272526,-0.12213304,-2.6527317e-05,0.15111528,0.03573655,1.0,41,0.020289455,3.5187413e-06,0,-3.298336514796271e-07,1.0
69,69,325.10385,5208.986,3062.1528,6042.3765,-30.449554,41.861674655010574,-0.12211047,-2.6769407e-05,0.15987153,0.04105909,1.0,41,0.020305797,3.3605647e-06,0,-3.320446806667153e-07,1.0
70,70,281.3503,5367.124,3352.3267,6328.042,-31.989061,42.53878170049575,-0.12209054,-2.676011e-05,0.16874324,0.047356583,1.0,41,0.020275516,3.2040743e-06,0,-3.333548821872354e-07,1.0
71,71,243.36427,5542.81,3670.786,6648.1133,-33.51495,43.22208730626153,-0.12209691,-2.5115816e-05,0.17815757,0.05431572,1.0,41,0.02027094,3.0491267e-06,0,-3.412232576472434e-07,1.0
72,72,210.60631,5730.207,4021.6658,7000.648,-35.06256,43.899206005065935,-0.12213298,-2.4102792e-05,0.18790694,0.06201236,1.0,41,0.020286143,2.8977522e-06,0,-3.4848679816043037e-07,1.0
73,73,182.27473,5900.2974,4413.2974,7368.2227,-36.79571,44.570260036940454,-0.12213248,-2.4493853e-05,0.19784744,0.07097924,1.0,41,0.020265575,2.7504022e-06,0,-3.510348253221941e-07,1.0
74,74,157.72879,6093.73,4845.9673,7785.6885,-38.493065,45.258655669695145,-0.12212148,-2.4221972e-05,0.20822299,0.08066694,1.0,41,0.020282462,2.6050955e-06,0,-3.565956238529522e-07,1.0
75,75,136.52892,6259.163,5320.6963,8215.043,-40.366703,45.93052898158203,-0.12214138,-2.4786217e-05,0.21909226,0.091906086,1.0,41,0.020244671,2.4643416e-06,0,-3.591211808549638e-07,1.0
76,76,118.14758,6429.538,5901.4253,8727.301,-42.547626,46.61890704094549,-0.12213041,-2.4631656e-05,0.2282645,0.104374,1.0,41,0.020272505,2.3228836e-06,0,-3.6547563478191274e-07,1.0
77,77,102.25773,6570.7285,6541.8193,9271.994,-44.87368,47.285322059266036,-0.12212636,-2.4825327e-05,0.23791698,0.11843395,1.0,41,0.020237366,2.1826336e-06,0,-3.692356792479927e-07,1.0
78,78,88.4436,6753.4644,7276.3076,9927.434,-47.13424,47.97528635870549,-0.12212087,-2.5400741e-05,0.24731053,0.13285893,1.0,41,0.020250518,2.0398543e-06,0,-3.7379728566468785e-07,1.0
79,79,76.54279,6888.0796,8155.429,10675.049,-49.815548,48.642725857091136,-0.12214539,-2.4058114e-05,0.2549582,0.14880684,1.0,41,0.020258965,1.8977867e-06,0,-3.7825314533188245e-07,1.0
80,80,66.250786,7022.0137,9160.881,11542.548,-52.529053,49.3109678888286,-0.122141816,-2.3212688e-05,0.26223573,0.1651821,1.0,41,0.02024552,1.7539905e-06,0,-3.818665822597672e-07,1.0
81,81,57.329906,7173.2705,10370.274,12609.457,-55.327824,49.96563357326522,-0.122126736,-2.5721052e-05,0.2677002,0.18106578,1.0,41,0.020280167,1.60833e-06,0,-3.8828597202191554e-07,1.0
82,82,49.60321,7321.741,11719.495,13818.627,-58.004967,50.650379632395925,-0.1221099,-2.4767625e-05,0.2737798,0.19691983,1.0,41,0.020262193,1.4662957e-06,0,-3.938847131676953e-07,1.0
83,83,42.92585,7435.3755,13313.056,15248.681,-60.816532,51.358417612704216,-0.12211584,-2.6253647e-05,0.2784989,0.21228263,1.0,41,0.020254914,1.328306e-06,0,-3.970641068635719e-07,1.0
84,84,37.1518,7601.6396,15146.452,16946.975,-63.34903,52.00217804327258,-0.12214518,-2.4600033e-05,0.28283253,0.22592634,1.0,41,0.02023645,1.1941039e-06,0,-4.0111046929130604e-07,1.0
85,85,32.150223,7833.0283,17449.932,19127.375,-65.82536,52.879397978278575,-0.12212456,-2.7542304e-05,0.28368893,0.23611258,1.0,42,0.020266201,1.059539e-06,0,-4.08193517702595e-07,1.0
86,86,27.835518,8009.8037,19931.629,21480.848,-68.10658,53.60630801282241,-0.12213027,-2.749658e-05,0.2868653,0.24697943,1.0,42,0.020254955,9.429309e-07,0,-4.149752801706844e-07,1.0
87,87,24.082958,8230.811,22826.568,24265.17,-70.1717,54.30838879282237,-0.122206464,-2.7456445e-05,0.28951406,0.25620303,1.0,42,0.020259662,8.349277e-07,0,-4.1972219348170686e-07,1.0
88,88,20.833313,8497.831,26158.934,27504.598,-72.00341,54.96273999726691,-0.12212913,-2.7389957e-05,0.2920396,0.26416254,1.0,42,0.020266864,7.368537e-07,0,-4.2205494958658265e-07,1.0
89,89,18.021912,8790.786,29987.129,31249.094,-73.6614,55.7087468860409,-0.12216513,-2.7547156e-05,0.2944994,0.27119353,1.0,42,0.020253943,6.48145e-07,0,-4.3053547158691154e-07,1.0
90,90,15.604198,9080.191,34361.953,35541.438,-75.19786,56.36401606380241,-0.1221651,-2.7383445e-05,0.29682526,0.27745116,1.0,42,0.020235404,5.693468e-07,0,-4.346514735860067e-07,1.0
91,91,13.500899,9496.002,39448.8,40575.633,-76.46542,57.11199425935047,-0.12214094,-2.740533e-05,0.29882962,0.2824624,1.0,42,0.020238603,4.9878713e-07,0,-4.3976113134109656e-07,1.0
92,92,11.686608,9934.035,45258.1,46335.523,-77.620056,57.70287524739979,-0.12212635,-2.724953e-05,0.3009091,0.28707796,1.0,42,0.020242877,4.3687598e-07,0,-4.452334215734545e-07,1.0
93,93,10.113269,10557.631,51976.164,53037.582,-78.518036,58.37651647938765,-0.122135386,-2.7283617e-05,0.30277804,0.29078057,1.0,42,0.020250302,3.8181042e-07,0,-4.5191568658755283e-07,1.0
94,94,8.748621,11235.12,59670.477,60718.973,-79.33684,59.14340510245529,-0.1221175,-2.7386057e-05,0.30487445,0.2944362,1.0,42,0.020242251,3.3337605e-07,0,-4.5600667035843084e-07,1.0
95,95,7.570237,12047.535,68482.05,69533.69,-80.02248,60.01900093074073,-0.12213,-2.716889e-05,0.30699682,0.2977809,1.0,42,0.0202431,2.9112653e-07,0,-4.6134226813152505e-07,1.0
96,96,6.554112,12933.858,78605.305,79662.28,-80.65617,60.55431684947689,-0.12214707,-2.7488684e-05,0.308926,0.30078256,1.0,42,0.020260382,2.5432843e-07,0,-4.6808711919482783e-07,1.0
97,97,5.669445,14197.117,90179.75,91290.445,-81.05328,61.16414754514699,-0.122121334,-2.68694e-05,0.31129387,0.30376515,1.0,42,0.020249955,2.2181901e-07,0,-4.6993445751103027e-07,1.0
98,98,4.907347,16906.752,113073.11,114330.08,-81.4961,62.11154585678014,-0.12216188,-2.5024312e-05,0.28682303,0.2805509,1.0,43,0.020254191,1.771554e-07,0,-4.779074455140607e-07,1.0
99,99,4.245922,18637.252,129757.336,131088.95,-81.826416,62.899279707547976,-0.12212085,-2.4673316e-05,0.28887916,0.28304002,1.0,43,0.020248273,1.5446209e-07,0,-4.805974150256213e-07,1.0
100,100,3.6747382,20851.604,148949.81,150402.25,-82.03091,63.798946470284136,-0.12212546,-2.4868272e-05,0.29077277,0.2851839,1.0,43,0.020242497,1.3458906e-07,0,-4.875225949944435e-07,1.0
101,101,3.180988,23461.682,171008.25,172610.17,-82.18801,64.82716899909428,-0.12212922,-2.4727127e-05,0.29257756,0.28717217,1.0,43,0.020253733,1.17338004e-07,0,-4.965899037160505e-07,1.0
102,102,2.752818,26548.984,195972.44,197762.6,-82.284935,66.00611062845564,-0.12214039,-2.4604471e-05,0.2950174,0.28970054,1.0,43,0.020245241,1.0237144e-07,0,-5.032642710096837e-07,1.0
103,103,2.3804083,30601.354,225051.61,227122.6,-82.25671,67.361046079488,-0.122116625,-2.4730369e-05,0.29708898,0.29169574,1.0,43,0.020246927,8.914537e-08,0,-5.107855876636312e-07,1.0
104,104,2.060257,35277.605,258041.62,260441.9,-82.215195,68.9173087933741,-0.12213063,-2.465936e-05,0.2993705,0.2938778,1.0,43,0.020249538,7.775069e-08,0,-5.221986656919195e-07,1.0
105,105,1.7836765,41154.83,295520.7,298372.6,-82.07186,70.70461565165078,-0.12212295,-2.46091e-05,0.3019369,0.29619253,1.0,43,0.020255234,6.788571e-08,0,-5.362379205585207e-07,1.0
