True,index,freq,Re(Z),Im(Z),Z,Phase(Z),time,Ewe_meas,I_meas,Cs,Cp,cycle_number,I_Range,Ewe,I,Ns,(QQo),cycle
180,180,281.3503,37204.36,10883.966,38763.707,-16.306597,123.40480234143615,-0.037415475,5.5627874e-07,0.051973928,0.0040974086,2.0,42,0.020376824,5.256676e-07,0,-1.641237156046e-08,2.0
189,189,76.54279,47647.82,23867.45,53291.367,-26.60692,129.50870796469098,-0.03740154,6.752909e-07,0.08711839,0.017474635,2.0,42,0.020500358,3.846844e-07,0,-1.6092430913627393e-08,2.0
188,188,88.4436,45887.777,21753.71,50782.99,-25.363914,128.842271559668,-0.037419073,4.7712e-07,0.08272187,0.015179258,2.0,42,0.020369746,4.0111357e-07,0,-1.6253740374554896e-08,2.0
187,187,102.25773,44530.87,20099.107,48856.652,-24.292141,128.15235064688022,-0.037424102,6.4437324e-07,0.07743677,0.013105492,2.0,42,0.020395158,4.1744894e-07,0,-1.6253864405707455e-08,2.0
186,186,118.14758,43245.977,18529.576,47048.48,-23.193651,127.48591874859994,-0.03742727,6.842319e-07,0.072699234,0.011276377,2.0,42,0.020401057,4.3361777e-07,0,-1.6326198809743967e-08,2.0
185,185,136.52892,41905.773,17099.783,45260.316,-22.19807,126.79752170250867,-0.037438337,6.2016153e-07,0.06817182,0.009730853,2.0,42,0.020371884,4.5010475e-07,0,-1.6635791298851485e-08,2.0
184,184,157.72879,40818.133,15559.511,43683.16,-20.866402,126.12566820400389,-0.03740607,4.5179038e-07,0.06485048,0.008227672,2.0,42,0.020362286,4.6613582e-07,0,-1.6966960466354585e-08,2.0
183,183,182.27473,39734.777,14230.008,42205.992,-19.703703,125.43728921128786,-0.037397552,4.57564e-07,0.061360445,0.006975102,2.0,42,0.020346995,4.8208784e-07,0,-1.6796037833189973e-08,2.0
182,182,210.60631,38892.965,13152.563,41056.7,-18.684166,124.76519531264785,-0.037401985,4.5700537e-07,0.057456397,0.0058964565,2.0,42,0.020404357,4.9697996e-07,0,-1.6947976545280437e-08,2.0
181,181,243.36427,38055.19,11914.858,39876.83,-17.385035,124.08808904053876,-0.03738656,3.4711832e-07,0.054887623,0.004900168,2.0,42,0.020399248,5.1155644e-07,0,-1.694144457413908e-08,2.0
179,179,325.10385,36548.168,9942.8545,37876.496,-15.218885,122.72771886927512,-0.037360344,4.3819583e-07,0.049236473,0.0033928878,2.0,42,0.020402694,5.386637e-07,0,-1.6874188955245334e-08,2.0
166,166,2129.3164,32586.834,2471.6963,32680.438,-4.337553,113.64184851771279,-0.037382815,1.7218591e-06,0.030240213,0.00017298137,2.0,41,0.020364884,6.231521e-07,0,-1.9529594374799016e-08,2.0
177,177,434.02762,35324.082,8092.8174,36239.266,-12.903888,121.37023451141431,-0.037420787,6.259374e-07,0.045310937,0.0022596633,2.0,42,0.02038057,5.623891e-07,0,-1.6680218861390964e-08,2.0
176,176,501.44418,34920.43,7329.5605,35681.35,-11.853918,120.69020887909574,-0.03741067,5.629843e-07,0.04330316,0.0018272286,2.0,42,0.020410256,5.720147e-07,0,-1.629111744378204e-08,2.0
175,175,579.81464,34322.438,6574.759,34946.49,-10.844134,120.01284132698493,-0.037402414,5.9092156e-07,0.041749485,0.0014777593,2.0,42,0.020323373,5.8155695e-07,0,-1.6606859453876016e-08,2.0
174,174,669.7856,34115.26,5848.227,34612.9,-9.72741,119.33284332134645,-0.037424587,5.7695337e-07,0.040631246,0.0011599323,2.0,42,0.020390395,5.8909814e-07,0,-1.7127085018418912e-08,2.0
173,173,774.2569,34004.81,5126.297,34389.04,-8.572906,118.6529382757144,-0.037412588,5.108338e-07,0.040098794,0.00089104316,2.0,42,0.020463338,5.950541e-07,0,-1.7406123433145144e-08,2.0
172,172,894.71045,33575.168,4699.256,33902.434,-7.9674883,117.97282165676006,-0.03739498,5.389577e-07,0.037853718,0.0007272856,2.0,42,0.020381687,6.0118657e-07,0,-1.7029793329198936e-08,2.0
171,171,1033.3434,33298.473,4049.0137,33543.746,-6.932991,117.29306447779527,-0.03740769,5.493881e-07,0.03803875,0.00055424473,2.0,42,0.020326493,6.059697e-07,0,-1.6936244732234862e-08,2.0
170,170,1194.6187,33238.254,3624.7605,33435.316,-6.2237325,116.61284444549528,-0.037422575,4.4210765e-07,0.036754586,0.00043197567,2.0,42,0.020372383,6.0930734e-07,0,-1.7347266525462145e-08,2.0
169,169,1380.4436,32869.637,3370.848,33042.027,-5.855329,115.68171034794068,-0.037388347,1.427307e-07,0.03420285,0.00035596496,2.0,41,0.020358903,6.161518e-07,0,-1.7841000762748157e-08,2.0
168,168,1594.4913,32780.457,3141.812,32930.676,-5.4747367,115.00182495564513,-0.037413817,1.1687916e-06,0.031770043,0.00028918576,2.0,41,0.020368231,6.1851847e-07,0,-1.8082717804058667e-08,2.0
167,167,1843.2289,32723.256,2539.1497,32821.62,-4.4369555,114.32195700332522,-0.037441354,1.0756835e-06,0.034005765,0.00020352095,2.0,41,0.02037241,6.207009e-07,0,-1.8808893429416507e-08,2.0
178,178,375.6009,35874.324,8975.935,36980.19,-14.047297,122.04844782364671,-0.037420433,7.883477e-07,0.04720781,0.0027812172,2.0,42,0.020377733,5.5104454e-07,0,-1.7024482576552992e-08,2.0
190,190,66.250786,48944.527,25582.875,55227.26,-27.595673,130.17698922308045,-0.037438057,8.283888e-07,0.093903065,0.020149833,2.0,42,0.020380473,3.690292e-07,0,-1.6124964408360952e-08,2.0
217,217,1.3354719,115321.26,511150.97,523998.38,-77.2863,155.79094521299703,-0.037392594,4.8767964e-07,0.23315044,0.2218578,2.0,43,0.02036555,3.886567e-08,0,-1.3636342351683527e-08,2.0
192,192,49.60321,52320.074,29884.307,60253.316,-29.73425,131.51534893995267,-0.03737521,5.16603e-07,0.10736609,0.026411412,2.0,42,0.020364746,3.3798548e-07,0,-1.6053025262732173e-08,2.0
165,165,2460.7852,32559.764,2282.3523,32639.658,-4.0097218,112.96170325874846,-0.037452348,3.55052e-06,0.028337643,0.00013856,2.0,41,0.020360742,6.2380377e-07,0,-1.9389966192966943e-08,2.0
216,216,1.5427545,106718.09,443100.03,455770.1,-76.458534,153.41919459364726,-0.037436724,4.8124275e-07,0.23282064,0.2200561,2.0,43,0.02029506,4.452916e-08,0,-1.3417798534886473e-08,2.0
215,215,1.7836765,101223.23,387918.12,400907.25,-75.37537,151.3596179171327,-0.037405465,4.6069707e-07,0.23001915,0.21535566,2.0,43,0.020374246,5.0820347e-08,0,-1.2359009479797104e-08,2.0
214,214,2.060257,96676.086,337853.34,351413.06,-74.03163,149.57133819759474,-0.03741337,5.226559e-07,0.22864966,0.21134461,2.0,43,0.02036253,5.7944714e-08,0,-1.206065350275962e-08,2.0
213,213,2.3804083,92011.64,294496.53,308535.8,-72.64926,148.01496103033423,-0.037398513,5.6164504e-07,0.22703274,0.2068415,2.0,43,0.020365946,6.600837e-08,0,-1.3439855728959868e-08,2.0
212,212,2.752818,88904.69,256503.95,271474.34,-70.8836,146.66011549931136,-0.03743424,5.066272e-07,0.22539721,0.20122367,2.0,43,0.0203459,7.4945945e-08,0,-1.4801953770946557e-08,2.0
211,211,3.180988,85706.67,223812.1,239661.19,-69.04614,145.4812387766142,-0.03740751,3.9440093e-07,0.22354992,0.19496031,2.0,43,0.020347195,8.489983e-08,0,-1.390100908236115e-08,2.0
210,210,3.6747382,83559.32,195518.03,212625.16,-66.8594,144.4519451544329,-0.0374335,6.0357365e-07,0.2215169,0.18730581,2.0,43,0.020342818,9.567456e-08,0,-1.2853818576401307e-08,2.0
209,209,4.245922,81697.305,171272.06,189759.23,-64.49871,143.55229815168423,-0.037448797,6.258467e-07,0.21885759,0.17829074,2.0,43,0.020352967,1.07256795e-07,0,-1.4675027733589887e-08,2.0
208,208,4.907347,79932.96,150149.53,170100.44,-61.971138,142.76454054089845,-0.037385404,2.0650535e-07,0.21599782,0.16830091,2.0,43,0.020373523,1.1977349e-07,0,-1.4532637691365677e-08,2.0
207,207,5.669445,77290.25,132695.14,153563.61,-59.780704,142.07211989469943,-0.037415456,9.0626196e-07,0.21155563,0.15796395,2.0,43,0.020400325,1.3284608e-07,0,-1.351455095383061e-08,2.0
206,206,6.554112,76671.92,116193.72,139210.5,-56.58066,141.46229911906994,-0.037406925,4.534411e-08,0.20898911,0.1455945,2.0,43,0.02037276,1.4634499e-07,0,-1.524060482087306e-08,2.0
205,205,7.570237,75052.81,103017.54,127457.984,-53.925014,140.92597301362548,-0.03739022,5.299778e-07,0.20407954,0.13331766,2.0,43,0.020371767,1.5983123e-07,0,-1.3822260501695401e-08,2.0
204,204,8.748621,73725.92,91111.13,117203.88,-51.02067,140.05041454537422,-0.03745352,5.0155984e-07,0.19966827,0.12066129,2.0,43,0.02034479,1.7358461e-07,0,-1.4477097439459562e-08,2.0
203,203,10.113269,72132.66,81427.266,108781.984,-48.46375,139.00450961568276,-0.037481524,8.8276875e-07,0.19326746,0.10828903,2.0,42,0.020360567,1.8716855e-07,0,-1.3345524211746668e-08,2.0
202,202,11.686608,70639.57,72899.72,101510.19,-45.9021,138.33090121037094,-0.037396044,8.5092e-07,0.18681245,0.09634701,2.0,42,0.020360392,2.0057486e-07,0,-1.4376773243044897e-08,2.0
201,201,13.500899,69036.37,65734.35,95325.89,-43.596478,137.73997160897125,-0.03741744,7.277151e-07,0.179335,0.085276246,2.0,42,0.020379309,2.1378567e-07,0,-1.4915981720610223e-08,2.0
200,200,15.604198,67285.445,59273.875,89670.08,-41.377846,136.99200866676983,-0.037416033,8.6917316e-07,0.17207403,0.07518772,2.0,42,0.020373084,2.2720047e-07,0,-1.4804077256712844e-08,2.0
199,199,18.021912,65529.336,53972.8,84894.98,-39.47635,136.3357497556135,-0.03742234,2.8890722e-07,0.16362299,0.06613483,2.0,42,0.020380268,2.4006448e-07,0,-1.4518753164840033e-08,2.0
198,198,20.833313,63676.824,49163.13,80447.195,-37.670742,135.58976126684865,-0.037410278,5.802976e-07,0.15538971,0.058033597,2.0,42,0.020365834,2.531578e-07,0,-1.592458406777612e-08,2.0
197,197,24.082958,61565.65,44851.375,76170.695,-36.073826,134.9354055823933,-0.037441857,6.845987e-07,0.14734471,0.05108698,2.0,42,0.020319179,2.667585e-07,0,-1.515975432509246e-08,2.0
196,196,27.835518,59650.184,41420.22,72620.79,-34.77555,134.233337122394,-0.03742291,7.0862535e-07,0.13804111,0.044906713,2.0,42,0.020353854,2.8027586e-07,0,-1.515734755493112e-08,2.0
195,195,32.150223,57817.27,38030.02,69203.46,-33.33541,133.50538434114424,-0.03740795,5.8216114e-07,0.1301696,0.039310362,2.0,42,0.020350594,2.9406903e-07,0,-1.570419887495373e-08,2.0
194,194,37.1518,56081.773,34930.47,66070.44,-31.916668,132.86718999085133,-0.03741995,7.9579183e-07,0.12264106,0.034279175,2.0,42,0.020364739,3.082277e-07,0,-1.5475388750854476e-08,2.0
193,193,42.92585,54015.45,32342.156,62957.793,-30.911385,132.2234486535599,-0.037361667,3.1004944e-07,0.11463898,0.030253194,2.0,42,0.020335417,3.230008e-07,0,-1.585344103800897e-08,2.0
191,191,57.329906,50816.457,27778.764,57913.49,-28.663176,130.83163378752943,-0.037415046,8.652659e-07,0.099936925,0.022992827,2.0,42,0.020438531,3.5291487e-07,0,-1.5944780354268398e-08,2.0
164,164,2844.088,32430.057,2045.0004,32494.47,-3.6082253,112.28184061311185,-0.03741993,3.323334e-06,0.02736426,0.000108380606,2.0,41,0.020347519,6.2618403e-07,0,-1.99868830375149e-08,2.0
137,137,141098.2,26591.729,11762.373,29077.025,-23.861341,98.78648407876608,-0.037416127,2.3047191e-06,9.589671e-05,1.5692554e-05,2.0,41,0.020188604,6.943146e-07,0,-2.7683837195610294e-08,2.0
162,162,3798.7827,32428.213,1744.6853,32475.111,-3.0796278,110.92180646851193,-0.037417524,2.1371252e-06,0.024013672,6.9309295e-05,2.0,41,0.020366166,6.271315e-07,0,-2.0400200146634497e-08,2.0
132,132,290751.2,17343.713,15624.595,23343.785,-42.01504,96.02549016094417,-0.037444748,4.170621e-06,3.5034012e-05,1.5695126e-05,2.0,41,0.020626739,8.836073e-07,0,-2.905063226844757e-08,2.0
131,131,335983.9,14002.431,15131.596,20616.334,-47.219536,95.47350245472626,-0.037415735,8.7270155e-07,3.130523e-05,1.6864113e-05,2.0,41,0.019955914,9.679662e-07,0,-2.9702443147925807e-08,2.0
130,130,388258.97,12956.524,15505.002,20205.855,-50.116684,94.92148661517422,-0.03743908,5.165025e-06,2.643789e-05,1.5567397e-05,2.0,41,0.020694578,1.0241872e-06,0,-2.9051974064997192e-08,2.0
129,129,448662.03,10960.523,14587.04,18245.953,-53.079247,94.3694958956039,-0.0373972,1.2339636e-06,2.4318322e-05,1.5543e-05,2.0,41,0.02023758,1.1091545e-06,0,-2.8296797141439673e-08,2.0
128,128,518454.94,9031.762,13791.517,16485.71,-56.78009,93.81748877608334,-0.03744471,3.3233289e-06,2.225856e-05,1.5577787e-05,2.0,41,0.020573718,1.2479727e-06,0,-2.8825164803459793e-08,2.0
127,127,599122.25,7378.2227,12997.239,14945.447,-60.417458,93.2654960564978,-0.03741078,1.625022e-06,2.0438716e-05,1.5457454e-05,2.0,41,0.020528493,1.3735616e-06,0,-2.8167260166040047e-08,2.0
126,126,692334.1,6064.98,11952.423,13403.148,-63.09554,92.71350229697418,-0.037401948,-1.4404911e-07,1.9233064e-05,1.5294901e-05,2.0,41,0.02041201,1.5229265e-06,0,-2.7842406535878834e-08,2.0
125,125,800039.0,4389.6416,10194.099,11099.036,-66.702995,92.16150035071769,-0.03737281,-2.9838723e-06,1.951462e-05,1.6462176e-05,2.0,41,0.020604357,1.8564095e-06,0,-2.88983611942789e-08,2.0
124,124,924510.06,3748.797,9736.449,10433.213,-68.94194,91.60950221787789,-0.03747085,5.029085e-06,1.7681043e-05,1.5398306e-05,2.0,41,0.020369455,1.9523666e-06,0,-2.8528787677218917e-08,2.0
123,123,1068345.5,3137.5288,8940.664,9475.208,-70.662605,91.05749824494706,-0.037438933,2.943444e-06,1.6662441e-05,1.4835449e-05,2.0,41,0.02065594,2.1799985e-06,0,-2.8348437612903707e-08,2.0
122,122,1234551.2,2422.3323,7704.4053,8076.234,-72.546394,90.50549984539975,-0.037375305,-4.069524e-06,1.6732925e-05,1.5227631e-05,2.0,41,0.020760585,2.5705774e-06,0,-2.9311213203745486e-08,2.0
133,133,251605.19,19526.479,15397.944,24867.248,-38.25816,96.57750245384523,-0.03743353,4.148276e-06,4.1080693e-05,1.575099e-05,2.0,41,0.020193664,8.1205866e-07,0,-2.970346129046043e-08,2.0
121,121,1426616.2,1852.7664,6811.2915,7058.784,-74.78293,89.95348963254946,-0.03747385,3.7367322e-06,1.6378854e-05,1.5250449e-05,2.0,41,0.020272609,2.871969e-06,0,-2.97769713594565e-08,2.0
119,119,1905053.1,1309.3685,5361.626,5519.192,-76.27635,88.84949088675785,-0.037372865,-3.7920738e-06,1.558176e-05,1.4704781e-05,2.0,41,0.019345352,3.505106e-06,0,-3.024818162144369e-08,2.0
118,118,2201436.2,1106.389,4537.472,4670.412,-76.29675,88.13149597265874,-0.037417714,-1.675165e-05,1.593309e-05,1.5038952e-05,2.0,40,0.02085542,4.4654344e-06,0,-3.6043785562880104e-08,2.0
117,117,2543924.5,902.3904,3992.3735,4093.0862,-77.263535,87.57950365313445,-0.037406627,-1.8407527e-05,1.5670568e-05,1.490889e-05,2.0,40,0.020670518,5.0501058e-06,0,-2.5882876857053815e-08,2.0
116,116,2939708.2,766.31396,3459.79,3543.64,-77.5111,87.02750213354011,-0.03740316,-2.9650566e-06,1.5648264e-05,1.4916484e-05,2.0,40,0.020323442,5.7351886e-06,0,-1.849379642689857e-08,2.0
115,115,3397055.0,682.57477,3062.5781,3137.721,-77.43551,86.47549360067933,-0.037371114,-1.8370316e-05,1.529785e-05,1.457391e-05,2.0,40,0.021344617,6.802586e-06,0,-1.699692097522782e-08,2.0
114,114,3925558.5,556.80597,2728.1428,2784.3843,-78.46453,86.05850678085699,-0.037338827,-2.1328571e-05,1.4861122e-05,1.4266828e-05,2.0,40,0.020566586,7.3864035e-06,0,-1.6449479814614026e-08,2.0
113,113,4536288.0,407.27612,2370.5044,2405.237,-80.2512,85.50649571462418,-0.03735565,4.6073305e-06,1.4800581e-05,1.4376214e-05,2.0,40,0.018193224,7.564005e-06,0,-1.2663745869007118e-08,2.0
112,112,5242039.0,432.51877,2061.756,2106.635,-78.1522,84.1384844496788,-0.03729463,-3.0408008e-05,1.4725926e-05,1.4105179e-05,2.0,40,0.019505685,9.259167e-06,0,2.2751500320370926e-09,2.0
111,111,6057573.0,414.857,1755.936,1804.2776,-76.70707,83.72250493659521,-0.037337594,-6.1465994e-06,1.4962798e-05,1.417175e-05,2.0,40,0.014073525,7.8000885e-06,0,4.215318902090025e-09,2.0
110,110,7000018.5,278.10245,1614.7694,1638.5424,-80.22814,83.17048832369619,-0.037350897,1.5007843e-05,1.4080252e-05,1.3674647e-05,2.0,40,0.009960588,6.078932e-06,0,5.419397755594623e-09,2.0
218,218,1.1556969,124048.72,586669.25,599640.6,-78.060905,158.522542382736,-0.037406974,5.0450274e-07,0.23473772,0.22469191,2.0,43,0.020365484,3.3962817e-08,0,-1.256097830072574e-08,2.0
120,120,1648567.4,1476.9476,6082.2173,6258.9727,-76.35102,89.40148488632985,-0.037398633,7.7586674e-07,1.5872725e-05,1.4988883e-05,2.0,41,0.0200313,3.2004134e-06,0,-2.969082579014426e-08,2.0
163,163,3286.0488,32478.791,1748.349,32525.814,-3.0812855,111.60171695415193,-0.037396304,8.24289e-07,0.02770244,8.0041995e-05,2.0,41,0.02038892,6.268535e-07,0,-1.9610705658910395e-08,2.0
134,134,217729.38,21671.836,14908.935,26304.844,-34.52566,97.1295079200354,-0.03741689,4.349391e-06,4.902939e-05,1.5749916e-05,2.0,41,0.02035654,7.738704e-07,0,-2.9012910077431306e-08,2.0
136,136,163051.14,25065.309,12973.088,28223.584,-27.364792,98.23450250583119,-0.037413146,4.1520016e-06,7.524072e-05,1.5897007e-05,2.0,41,0.020623714,7.3072624e-07,0,-2.7716840463985668e-08,2.0
161,161,4388.5933,32534.5,1325.6838,32561.498,-2.3333414,110.24183854289004,-0.037401464,1.625026e-06,0.027356142,4.534465e-05,2.0,41,0.020364907,6.2542904e-07,0,-2.115646744665393e-08,2.0
160,160,5071.625,32290.39,1498.9158,32325.162,-2.657755,109.56172453725594,-0.037467383,3.5300357e-06,0.0209361,4.5016197e-05,2.0,41,0.020362105,6.29915e-07,0,-2.132912373876492e-08,2.0
159,159,5860.798,32289.162,1549.0149,32326.297,-2.746557,108.88096711822436,-0.037426207,2.4853532e-06,0.017531045,4.0253817e-05,2.0,41,0.02037573,6.303144e-07,0,-2.1149433797751507e-08,2.0
158,158,6770.8345,32029.506,1640.6506,32071.498,-2.9323049,108.27541586276493,-0.03735228,-2.214788e-06,0.014327217,3.7493464e-05,2.0,41,0.020311128,6.3330776e-07,0,-2.172788478808722e-08,2.0
157,157,7827.7437,32314.488,1544.0831,32351.357,-2.7356832,107.73693738388829,-0.037447933,5.0048816e-06,0.013167789,2.9996405e-05,2.0,41,0.020352371,6.291041e-07,0,-2.2417037031021616e-08,2.0
156,156,9045.586,32074.695,1692.4508,32119.316,-3.0204632,107.25725192108075,-0.037444543,3.2674682e-06,0.010396026,2.886469e-05,2.0,41,0.020293683,6.3182176e-07,0,-2.2603504858219972e-08,2.0
155,155,10447.592,31899.535,1530.7703,31936.242,-2.7473583,106.68449405385763,-0.037376776,3.8295317e-07,0.009951623,2.2863689e-05,2.0,41,0.020087112,6.2897544e-07,0,-2.3033450784424758e-08,2.0
154,154,12080.609,32553.674,1549.1542,32590.514,-2.7245185,106.26848904744838,-0.037382014,-3.172271e-07,0.008504262,1.9215138e-05,2.0,41,0.020747941,6.3662515e-07,0,-2.3783224578210138e-08,2.0
153,153,13954.87,32555.836,1842.6674,32607.941,-3.2394972,105.85248486770433,-0.037447598,5.5840187e-06,0.006189384,1.9764895e-05,2.0,41,0.021149343,6.4859483e-07,0,-2.422336342023199e-08,2.0
152,152,16126.037,31861.22,2154.3416,31933.973,-3.8682473,105.436492821289,-0.03741941,2.8503403e-06,0.0045811855,2.0849762e-05,2.0,41,0.021332083,6.6800595e-07,0,-2.4888227568603662e-08,2.0
151,151,18631.234,31845.16,2111.4963,31915.084,-3.7934494,105.02050184152904,-0.037441336,4.4350554e-06,0.0040456485,1.7708298e-05,2.0,41,0.02149757,6.735865e-07,0,-2.4773594889716655e-08,2.0
135,135,188418.58,23392.074,14111.056,27318.693,-31.100098,97.68249002631637,-0.037437238,4.299113e-06,5.9860027e-05,1.5971145e-05,2.0,41,0.020220932,7.4018664e-07,0,-2.8445258103759998e-08,2.0
150,150,21553.963,31661.121,2655.1665,31772.26,-4.7937245,104.60450323511031,-0.037421215,2.280514e-06,0.0027810016,1.9421757e-05,2.0,41,0.02158505,6.7936776e-07,0,-2.569673805629059e-08,2.0
148,148,28754.086,31727.195,3068.681,31875.252,-5.5245113,103.77150012887432,-0.037471354,4.334497e-06,0.0018037187,1.6717258e-05,2.0,41,0.02153057,6.754635e-07,0,-2.6626783530048215e-08,2.0
147,147,33226.32,31572.26,3628.0674,31780.033,-6.5552845,103.35549352245289,-0.037367854,-2.1496114e-06,0.0013202693,1.7206976e-05,2.0,41,0.021328824,6.711391e-07,0,-2.6345303858672903e-08,2.0
146,146,38403.727,31454.477,3987.5093,31706.219,-7.224893,102.93949566266383,-0.037412494,1.5021226e-06,0.0010393099,1.64384e-05,2.0,41,0.021075882,6.647239e-07,0,-2.571105908398547e-08,2.0
145,145,44369.8,31401.477,4613.7188,31738.605,-8.358482,102.52350129626575,-0.037446443,4.6063756e-06,0.0007774662,1.6428885e-05,2.0,41,0.020720776,6.528572e-07,0,-2.6109095100868746e-08,2.0
144,144,51282.285,31253.21,5239.055,31689.287,-9.516158,102.10748756982503,-0.037444487,5.336349e-06,0.0005923792,1.6191267e-05,2.0,41,0.020237172,6.386124e-07,0,-2.6263150813532675e-08,2.0
143,143,59252.523,30799.104,5866.9546,31352.926,-10.785121,101.55448535687174,-0.037420955,8.987762e-07,0.00045782607,1.6031341e-05,2.0,41,0.022000922,7.017183e-07,0,-2.6628487931705853e-08,2.0
142,142,68475.36,30432.68,6720.536,31165.904,-12.452929,101.13848491045064,-0.03742984,8.820159e-07,0.00034584533,1.6081638e-05,2.0,41,0.021204503,6.80375e-07,0,-2.6397539743754807e-08,2.0
141,141,79127.08,30021.746,7732.8994,31001.66,-14.444081,100.72248718401534,-0.037390042,-7.026991e-07,0.00026010736,1.6183314e-05,2.0,41,0.020268688,6.537936e-07,0,-2.679676037905665e-08,2.0
