True,index,freq,Re(Z),Im(Z),Z,Phase(Z),time,Ewe_meas,I_meas,Cs,Cp,cycle_number,I_Range,Ewe,I,Ns,(QQo),cycle
0,0,7000018.5,273.49033,1708.4767,1730.2281,-80.90534,2.4674917704833206,-0.08394931,3.1548032e-05,1.3307973e-05,1.2975475e-05,1.0,40,0.009973823,5.7644556e-06,0,2.783757363494664e-09,1.0
1,1,6057573.0,339.4651,1918.1383,1947.9453,-79.96392,3.019486463366775,-0.08390946,-1.4835312e-05,1.3697509e-05,1.3281523e-05,1.0,40,0.014162343,7.2704006e-06,0,6.363472314458502e-11,1.0
2,2,5242039.0,314.8381,2217.088,2239.3306,-81.91774,3.435478349827463,-0.083898015,3.0630833e-06,1.369421e-05,1.3423519e-05,1.0,40,0.019596566,8.751082e-06,0,1.3126965170613402e-09,1.0
3,3,4536288.0,306.49448,2538.3135,2556.7507,-83.11502,4.803502254799241,-0.083914265,-1.745866e-05,1.3822108e-05,1.3623478e-05,1.0,40,0.01846115,7.220551e-06,0,-9.989355574046183e-09,1.0
4,4,3925558.5,427.7059,2902.724,2934.0654,-81.61799,5.219484007888241,-0.08395413,-1.5281834e-05,1.3967314e-05,1.3670514e-05,1.0,40,0.01802336,6.1427945e-06,0,-1.0826858034053859e-08,1.0
5,5,3397055.0,456.82944,3314.4062,3345.741,-82.15228,5.635498720948817,-0.08397962,4.6445402e-06,1.4135521e-05,1.3871987e-05,1.0,40,0.019093504,5.7068087e-06,0,-1.4152301013833974e-08,1.0
6,6,2939708.2,496.8028,3756.4155,3789.1252,-82.4661,6.051499967376003,-0.08393869,-2.4342644e-05,1.4412598e-05,1.4164838e-05,1.0,40,0.020907307,5.5177134e-06,0,-1.6702599487940816e-08,1.0
7,7,2543924.5,604.35394,4312.653,4354.7925,-82.0228,6.603486873646034,-0.083969176,-1.3198016e-05,1.45067925e-05,1.4227398e-05,1.0,40,0.020949336,4.8106394e-06,0,-2.1313870949951606e-08,1.0
8,8,2201436.2,561.7898,4846.1357,4878.59,-83.38748,7.155503033165587,-0.08398775,-1.1114215e-05,1.4918269e-05,1.4720446e-05,1.0,40,0.020506052,4.2032743e-06,0,-2.162812854915804e-08,1.0
9,9,1905053.1,836.4088,5802.799,5862.7686,-81.79794,7.87448104066425,-0.08398706,-9.203567e-06,1.43971165e-05,1.4104089e-05,1.0,41,0.019599155,3.3429862e-06,0,-2.114907587803019e-08,1.0
10,10,1648567.4,734.00574,6965.357,7003.925,-83.984406,8.426502773567336,-0.083960004,-7.9354095e-06,1.3860218e-05,1.3707993e-05,1.0,41,0.019975169,2.8519964e-06,0,-2.2343566702469767e-08,1.0
11,11,1426616.2,978.9884,7660.188,7722.493,-82.71696,8.978499893069966,-0.08395404,-9.533159e-06,1.4563762e-05,1.4329708e-05,1.0,41,0.020190137,2.6144583e-06,0,-2.3365609835335495e-08,1.0
12,12,1234551.2,971.65454,8792.517,8846.042,-83.69387,9.530484692630125,-0.0839838,-4.9186774e-06,1.4662155e-05,1.44852565e-05,1.0,41,0.020780345,2.3491123e-06,0,-2.4113040986787522e-08,1.0
13,13,1068345.5,1445.8817,10644.4,10742.152,-82.26457,10.082487278879853,-0.0839244,-9.598334e-06,1.3995462e-05,1.3741907e-05,1.0,41,0.020876886,1.9434547e-06,0,-2.523119272975944e-08,1.0
14,14,924510.06,1610.2242,11729.043,11839.057,-82.183,10.634498131723376,-0.08398713,-4.3916816e-06,1.4677292e-05,1.4405783e-05,1.0,41,0.020283664,1.7132838e-06,0,-2.680021631131208e-08,1.0
15,15,800039.0,4292.4644,12878.047,13574.584,-71.565926,11.18648002462578,-0.08396487,-8.698902e-06,1.5447527e-05,1.3902916e-05,1.0,41,0.020976355,1.5452669e-06,0,-2.7384823405651245e-08,1.0
16,16,692334.1,2570.953,15577.14,15787.878,-80.62802,11.738487037509913,-0.08392302,-9.037818e-06,1.4757632e-05,1.4366289e-05,1.0,41,0.020330444,1.2877249e-06,0,-2.8174543257225396e-08,1.0
17,17,599122.25,3547.1414,17496.842,17852.777,-78.53973,12.290487357095117,-0.08402788,-2.7492385e-06,1.5182562e-05,1.4583198e-05,1.0,41,0.020834146,1.1669974e-06,0,-2.8132159548722748e-08,1.0
18,18,518454.94,4385.7476,19804.857,20284.652,-77.513466,12.84248042330728,-0.08399863,-5.0471685e-06,1.5500204e-05,1.4775619e-05,1.0,41,0.020328559,1.0021645e-06,0,-2.8440152402345753e-08,1.0
19,19,448662.03,5559.8784,22936.275,23600.53,-76.37402,13.394487729499815,-0.084001794,-4.9261266e-06,1.5465997e-05,1.4607645e-05,1.0,41,0.020224735,8.569611e-07,0,-2.88484717578541e-08,1.0
20,20,388258.97,8098.3955,25876.752,27114.393,-72.621956,13.946491142414743,-0.08396543,-7.60394e-06,1.584123e-05,1.4428084e-05,1.0,41,0.020884002,7.702183e-07,0,-3.044542801748662e-08,1.0
21,21,335983.9,10500.51,24045.256,26238.045,-66.40921,14.498501995258266,-0.08399669,-5.4419497e-06,1.9700272e-05,1.6545051e-05,1.0,41,0.020584662,7.845349e-07,0,-3.032222986989473e-08,1.0
22,22,290751.2,11915.202,32387.523,34509.76,-69.80169,15.050487461470766,-0.084001034,-4.6486625e-06,1.690133e-05,1.4886495e-05,1.0,41,0.020448806,5.925514e-07,0,-3.030410906350214e-08,1.0
23,23,251605.19,15229.542,36347.387,39409.027,-67.266335,15.603482527745655,-0.083967626,-7.2668863e-06,1.740313e-05,1.480411e-05,1.0,41,0.020568889,5.2193343e-07,0,-3.13162163310357e-08,1.0
24,24,217729.38,18827.188,39867.08,44089.08,-64.72102,16.155482100642985,-0.08393726,-8.088107e-06,1.8335328e-05,1.4991859e-05,1.0,41,0.020223826,4.5870377e-07,0,-3.241222272390271e-08,1.0
25,25,188418.58,22612.713,43221.938,48779.816,-62.38248,16.707489513530163,-0.08397346,-5.4233287e-06,1.9543042e-05,1.5343354e-05,1.0,41,0.020764058,4.2566907e-07,0,-3.325236667738017e-08,1.0
26,26,163051.14,26692.648,47892.086,54828.363,-60.866898,17.42648024103255,-0.08396688,-8.298301e-06,2.0381332e-05,1.5550684e-05,1.0,42,0.019339044,3.527197e-07,0,-3.4786664396650916e-08,1.0
27,27,141098.2,32894.08,51631.684,61219.695,-57.499157,17.842503114108695,-0.08397428,-8.210018e-06,2.1846525e-05,1.553934e-05,1.0,42,0.021007001,3.4314124e-07,0,-3.5756348692701206e-08,1.0
28,28,122105.11,38985.848,54200.85,66765.48,-54.27311,18.394492207007715,-0.08401102,-7.933621e-06,2.4048068e-05,1.5848513e-05,1.0,42,0.020218829,3.0283357e-07,0,-3.706353848667746e-08,1.0
29,29,105663.59,45948.81,56657.074,72947.36,-50.957996,18.81049777343287,-0.08398631,-8.114471e-06,2.6585241e-05,1.6037244e-05,1.0,42,0.021576123,2.9577663e-07,0,-3.801308403078322e-08,1.0
30,30,91439.65,54400.863,58438.7,79840.69,-47.04939,19.362502306321403,-0.0839849,-7.915927e-06,2.9784138e-05,1.5956499e-05,1.0,42,0.0203997,2.5550509e-07,0,-3.932786155912263e-08,1.0
31,31,79127.08,63043.582,58696.867,86138.35,-42.955135,19.778489526041085,-0.083998404,-8.009239e-06,3.4267316e-05,1.5911708e-05,1.0,42,0.021369703,2.4808583e-07,0,-4.022103303143057e-08,1.0
32,32,68475.36,71246.13,58316.97,92069.98,-39.301292,20.330490112275584,-0.08398296,-8.212439e-06,3.985574e-05,1.5989861e-05,1.0,42,0.02025431,2.1998822e-07,0,-4.142956642947314e-08,1.0
33,33,59252.523,77808.36,56988.664,96446.09,-36.21992,20.746481145353755,-0.08401273,-7.858002e-06,4.7132966e-05,1.645631e-05,1.0,42,0.0208423,2.161031e-07,0,-4.2389283788242e-08,1.0
34,34,51282.285,86300.55,54418.605,102025.336,-32.234333,21.16250196515466,-0.08399207,-8.030844e-06,5.703026e-05,1.6224978e-05,1.0,42,0.021395912,2.0971176e-07,0,-4.330619134513953e-08,1.0
35,35,44369.8,92934.81,50064.36,105561.92,-28.311527,21.578504411590984,-0.083916746,-8.538192e-06,7.1647984e-05,1.611561e-05,1.0,42,0.021744043,2.0598377e-07,0,-4.420883083748923e-08,1.0
36,36,38403.727,98677.62,46202.973,108958.65,-25.09,22.130495557765244,-0.08395658,-8.550484e-06,8.9696776e-05,1.6128473e-05,1.0,42,0.020209756,1.8548097e-07,0,-4.5596647662136313e-08,1.0
37,37,33226.32,103639.45,42017.53,111832.95,-22.06863,22.54649728423101,-0.08398333,-7.929337e-06,0.000114000664,1.6092697e-05,1.0,42,0.020429889,1.8268219e-07,0,-4.6558369970568257e-08,1.0
38,38,28754.086,107723.04,38367.09,114351.59,-19.604078,22.962502050650073,-0.08397454,-7.993407e-06,0.00014426524,1.6240336e-05,1.0,42,0.020533862,1.7956778e-07,0,-4.7488392033814224e-08,1.0
39,39,24884.947,111775.01,34023.984,116838.71,-16.930094,23.378485243738396,-0.08394899,-8.39869e-06,0.0001879742,1.5940248e-05,1.0,42,0.020610671,1.7640276e-07,0,-4.847411035370946e-08,1.0
40,40,21553.963,113539.87,30261.281,117503.39,-14.923871,23.795494916877942,-0.083954915,-8.3653495e-06,0.00024400892,1.6183763e-05,1.0,42,0.020563263,1.7500145e-07,0,-4.945880846263432e-08,1.0
41,41,18631.234,115135.91,26625.105,118174.336,-13.020733,24.211487949971342,-0.08401858,-7.857071e-06,0.000320839,1.628634e-05,1.0,42,0.020429166,1.7287311e-07,0,-5.032070008612176e-08,1.0
42,42,16126.037,117554.1,23238.95,119829.11,-11.182463,24.627488609723514,-0.08402289,-7.74681e-06,0.00042469386,1.5972919e-05,1.0,42,0.020323858,1.6960702e-07,0,-5.143016020660577e-08,1.0
43,43,13954.87,117648.1,18316.443,119065.39,-8.849246,25.043494282785105,-0.08397525,-7.905495e-06,0.0006226632,1.4735484e-05,1.0,42,0.020082057,1.686641e-07,0,-5.243461210525445e-08,1.0
44,44,12080.609,119093.2,17618.355,120389.36,-8.415161,25.45948590253829,-0.083940536,-8.263656e-06,0.00074776635,1.601476e-05,1.0,42,0.019708958,1.6371013e-07,0,-5.3399456293290016e-08,1.0
45,45,10447.592,120247.48,14766.29,121150.73,-7.0008245,25.875499575660797,-0.08396077,-8.25155e-06,0.0010316503,1.5325804e-05,1.0,42,0.019254671,1.5893154e-07,0,-5.434969590277324e-08,1.0
46,46,9045.586,119912.49,13256.871,120643.07,-6.3086896,26.30724538283539,-0.083959706,-8.032332e-06,0.0013272184,1.6025799e-05,1.0,42,0.021857915,1.8117838e-07,0,-5.540238286464729e-08,1.0
47,47,7827.7437,120367.35,10957.563,120865.08,-5.2015467,26.787933379033348,-0.083963655,-8.008492e-06,0.0018555367,1.5250914e-05,1.0,42,0.021945054,1.8156653e-07,0,-5.640220760776415e-08,1.0
48,48,6770.8345,120773.984,9626.989,121157.06,-4.5574555,27.501406292867614,-0.0839238,-8.46667e-06,0.0024416726,1.5415973e-05,1.0,42,0.020196287,1.6669509e-07,0,-5.8116301380466715e-08,1.0
49,49,5860.798,120783.734,8359.121,121072.65,-3.9589758,28.10698090834194,-0.083799995,-8.902311e-06,0.0032486487,1.5485737e-05,1.0,42,0.020259164,1.6733064e-07,0,-5.954423913830335e-08,1.0
50,50,5071.625,120829.53,7443.465,121058.586,-3.5251389,28.78769238069799,-0.08394471,-7.956341e-06,0.0042159734,1.593885e-05,1.0,42,0.020321626,1.6786605e-07,0,-6.117155269052551e-08,1.0
51,51,4388.5933,118683.89,3276.7744,118729.12,-1.5814923,29.467827826330904,-0.0839682,-7.995267e-06,0.011067468,8.429986e-06,1.0,42,0.020193078,1.7007687e-07,0,-6.256143300081578e-08,1.0
52,52,3798.7827,120585.086,5439.034,120707.69,-2.5825965,30.14782457862748,-0.08398002,-7.945351e-06,0.007702893,1.563967e-05,1.0,42,0.020400438,1.6900695e-07,0,-6.396799895691371e-08,1.0
53,53,3286.0488,120134.07,5017.536,120238.805,-2.3916335,30.82770562425867,-0.083941355,-8.065297e-06,0.009652851,1.6809212e-05,1.0,42,0.020397346,1.696403e-07,0,-6.556559629996922e-08,1.0
54,54,2844.088,120545.625,4562.1206,120631.92,-2.1673584,31.507847069879062,-0.08394933,-7.971986e-06,0.012266209,1.7543627e-05,1.0,42,0.020475253,1.697333e-07,0,-6.694151483288104e-08,1.0
55,55,2460.7852,120689.66,3738.7524,120747.555,-1.7743547,32.18767830218712,-0.08397273,-7.893014e-06,0.01729895,1.6585038e-05,1.0,42,0.02050466,1.698143e-07,0,-6.846834430262423e-08,1.0
56,56,2129.3164,120644.12,3873.9028,120706.3,-1.8391452,32.86684537443216,-0.08394184,-7.848314e-06,0.019294398,1.9873245e-05,1.0,42,0.020529974,1.7008205e-07,0,-6.992281712372626e-08,1.0
57,57,1843.2289,120212.08,4137.066,120283.24,-1.9710408,33.54696108674398,-0.08396235,-7.880164e-06,0.020871248,2.469011e-05,1.0,42,0.020492746,1.7037074e-07,0,-7.133061825892758e-08,1.0
58,58,1594.4913,120578.625,3558.8274,120631.13,-1.69057,34.22680170570675,-0.0839307,-8.063994e-06,0.028047299,2.4411029e-05,1.0,42,0.020534065,1.7022194e-07,0,-7.273344822678299e-08,1.0
59,59,1380.4436,120566.305,3449.1296,120615.63,-1.6386559,34.90672216466919,-0.08395069,-8.115957e-06,0.03342658,2.7334037e-05,1.0,42,0.02054045,1.7029674e-07,0,-7.410689074938916e-08,1.0
60,60,1194.6187,120501.21,3862.7373,120563.11,-1.8360212,35.58682995697018,-0.08397748,-7.918903e-06,0.034490198,3.540439e-05,1.0,42,0.020541284,1.7037786e-07,0,-7.564159170074377e-08,1.0
61,61,1033.3434,120662.84,4058.8445,120731.09,-1.9265832,36.26707524259109,-0.083954245,-8.099568e-06,0.03794662,4.2888376e-05,1.0,42,0.02054853,1.702008e-07,0,-7.723182035231406e-08,1.0
62,62,894.71045,121132.33,3761.1626,121190.7,-1.7784644,36.94682754155656,-0.08398626,-7.668955e-06,0.047295034,4.5553435e-05,1.0,42,0.020578071,1.697991e-07,0,-7.872329551123237e-08,1.0
63,63,774.2569,120670.04,3564.9795,120722.69,-1.6922086,37.62696536051226,-0.083941035,-8.221562e-06,0.057660453,5.0282204e-05,1.0,42,0.020528862,1.7004974e-07,0,-8.011031879089951e-08,1.0
64,64,669.7856,120866.87,4707.9634,120958.52,-2.2306373,38.30682419282675,-0.08397234,-7.831552e-06,0.05047209,7.6461794e-05,1.0,42,0.020544814,1.6985007e-07,0,-8.155745845667263e-08,1.0
65,65,579.81464,120894.65,5105.3135,121002.4,-2.418132,38.986833291783114,-0.08391341,-8.177979e-06,0.0537661,9.571179e-05,1.0,42,0.020527888,1.696486e-07,0,-8.322264737279836e-08,1.0
66,66,501.44418,121317.51,5386.069,121437.01,-2.542061,39.664199697290314,-0.08395762,-7.907542e-06,0.058928534,0.00011592239,1.0,42,0.020553915,1.6925577e-07,0,-8.476889631774358e-08,1.0
67,67,434.02762,122004.266,6228.4707,122163.15,-2.9224842,40.34419450288988,-0.083935805,-8.01296e-06,0.058873706,0.00015303958,1.0,42,0.02055758,1.6827973e-07,0,-8.609455741150719e-08,1.0
68,68,375.6009,121761.16,6871.5825,121954.9,-3.2300572,41.022441788431024,-0.083963245,-8.025253e-06,0.06166472,0.00019577255,1.0,42,0.020563226,1.6861337e-07,0,-8.74281726569603e-08,1.0
69,69,325.10385,121809.63,7311.3833,122028.86,-3.4349453,41.70168731408194,-0.083982326,-8.040525e-06,0.066957384,0.00024036568,1.0,42,0.02054669,1.6837566e-07,0,-8.899158047476322e-08,1.0
70,70,281.3503,122449.28,8221.293,122724.96,-3.8410964,42.378808679568465,-0.083987616,-7.660573e-06,0.068807,0.00030877852,1.0,42,0.020582205,1.6771001e-07,0,-9.05913231085841e-08,1.0
71,71,243.36427,122335.555,8832.13,122653.96,-4.129358,43.06210436535184,-0.08400167,-7.484938e-06,0.07404536,0.00038394198,1.0,42,0.02054,1.67463e-07,0,-9.186077350004733e-08,1.0
72,72,210.60631,123402.18,10421.884,123841.484,-4.827438,43.739165784121724,-0.08394605,-7.8207495e-06,0.07251078,0.0005135263,1.0,42,0.020603389,1.6636903e-07,0,-9.327815452370913e-08,1.0
73,73,182.27473,123210.664,11583.897,123754.01,-5.37099,44.41126266939682,-0.08395697,-7.8699195e-06,0.07537702,0.00066043454,1.0,42,0.02055032,1.6605782e-07,0,-9.480123710291286e-08,1.0
74,74,157.72879,123687.66,12611.298,124328.92,-5.8218074,45.09965547547836,-0.083967105,-7.937157e-06,0.080010936,0.0008232365,1.0,42,0.020536676,1.651802e-07,0,-9.617367430664498e-08,1.0
75,75,136.52892,124118.11,14558.856,124969.055,-6.6901326,45.771506573975785,-0.083928965,-8.01296e-06,0.0800697,0.0010867203,1.0,42,0.020524094,1.6423341e-07,0,-9.777305541044572e-08,1.0
76,76,118.14758,125135.836,16501.848,126219.21,-7.512332,46.45987671340117,-0.08389295,-8.066787e-06,0.08163243,0.0013953301,1.0,42,0.020555884,1.628586e-07,0,-9.931140073181036e-08,1.0
77,77,102.25773,125678.15,18198.94,126988.97,-8.239495,47.126351065031486,-0.083947055,-7.960997e-06,0.08552201,0.0017564592,1.0,42,0.020535514,1.61711e-07,0,-1.0081494686412482e-07,1.0
78,78,88.4436,127106.766,19815.812,128642.125,-8.861025,47.81628973779152,-0.0839388,-7.871597e-06,0.0908117,0.0021547612,1.0,42,0.020585025,1.6001776e-07,0,-1.0228348579363377e-07,1.0
79,79,76.54279,127600.586,22841.102,129628.8,-10.148726,48.48372232953989,-0.08394892,-8.047604e-06,0.09103298,0.0028263757,1.0,42,0.020549048,1.5852224e-07,0,-1.0381387087265163e-07,1.0
80,80,66.250786,128864.125,25384.959,131340.62,-11.144015,49.15196892127278,-0.08395216,-8.054309e-06,0.09463518,0.0035351464,1.0,42,0.02056087,1.5654615e-07,0,-1.0521439143705654e-07,1.0
81,81,57.329906,130108.484,28501.682,133193.7,-12.356087,49.80663879238273,-0.08397186,-8.144827e-06,0.09740212,0.0044600735,1.0,42,0.020559765,1.543599e-07,0,-1.0669029432528118e-07,1.0
82,82,49.60321,131398.64,31341.822,135084.83,-13.415782,50.49137250488275,-0.08394314,-8.069582e-06,0.10237316,0.005510886,1.0,42,0.020553863,1.5215522e-07,0,-1.081412521354892e-07,1.0
83,83,42.92585,133236.7,35032.664,137765.4,-14.7316475,51.19941149847,-0.08393105,-8.261793e-06,0.1058347,0.0068437485,1.0,42,0.020570546,1.4931577e-07,0,-1.0972896743005438e-07,1.0
84,84,37.1518,135000.12,38669.43,140429.19,-15.9838295,51.843148302374175,-0.08395515,-7.824103e-06,0.110782854,0.008400272,1.0,42,0.02057301,1.4650097e-07,0,-1.1122784829315514e-07,1.0
85,85,32.150223,136903.98,42951.35,143483.52,-17.418383,52.482363452756545,-0.08395758,-7.807898e-06,0.11525487,0.010327827,1.0,42,0.02057179,1.433739e-07,0,-1.1259914252653482e-07,1.0
86,86,27.835518,138973.61,48207.46,147097.33,-19.130745,53.210326340660686,-0.08395542,-7.94377e-06,0.11860598,0.012738711,1.0,42,0.020576406,1.3988294e-07,0,-1.1435291174208551e-07,1.0
87,87,24.082958,141196.61,53132.715,150862.75,-20.621471,53.91237221399206,-0.0839721,-7.792999e-06,0.12437935,0.015427952,1.0,42,0.020575132,1.3638312e-07,0,-1.159317790335991e-07,1.0
88,88,20.833313,154388.64,63156.668,166807.12,-22.248285,54.810754176724004,-0.08395006,-7.5405496e-06,0.12096022,0.017340109,1.0,43,0.020544164,1.2316119e-07,0,-1.1775681733705233e-07,1.0
89,89,18.021912,157266.55,70120.805,172190.86,-24.030773,55.55674778549292,-0.08395137,-7.650314e-06,0.12594253,0.020885553,1.0,43,0.020550648,1.1934807e-07,0,-1.1959875022372578e-07,1.0
90,90,15.604198,160278.77,77878.11,178197.31,-25.91473,56.21201752327033,-0.08393808,-7.636961e-06,0.13096742,0.025014497,1.0,43,0.020567432,1.1541943e-07,0,-1.20627020493467e-07,1.0
91,91,13.500899,163399.64,86600.58,184930.0,-27.92325,56.960009718779474,-0.08394605,-7.6491315e-06,0.13612461,0.029851317,1.0,43,0.020571593,1.1123989e-07,0,-1.221217039418519e-07,1.0
92,92,11.686608,165558.58,96703.27,191732.02,-30.289331,57.550899666850455,-0.08399028,-7.6209635e-06,0.14082848,0.035824783,1.0,43,0.020507835,1.0696093e-07,0,-1.2340494398662116e-07,1.0
93,93,10.113269,169806.92,107357.234,200897.9,-32.302353,58.22454044545884,-0.0839369,-7.665939e-06,0.14658761,0.04186095,1.0,43,0.020565303,1.0236693e-07,0,-1.2528681210075693e-07,1.0
94,94,8.748621,173063.66,119317.32,210208.6,-34.584003,58.99138413523906,-0.08393874,-7.690949e-06,0.15246741,0.049122795,1.0,43,0.020552691,9.777284e-08,0,-1.273419293015772e-07,1.0
95,95,7.570237,176327.31,133553.19,221196.23,-37.140884,59.86701145686675,-0.08396424,-7.670026e-06,0.15741871,0.057386458,1.0,43,0.020547323,9.289183e-08,0,-1.2823663475633238e-07,1.0
96,96,6.554112,179768.31,149653.2,233907.52,-39.776646,60.40332190899062,-0.084030375,-7.657074e-06,0.16226329,0.06642078,1.0,43,0.02055642,8.788268e-08,0,-1.3026177459127e-07,1.0
97,97,5.669445,183291.42,167471.72,248279.12,-42.417664,61.01313785792445,-0.08396278,-7.657111e-06,0.16762473,0.0762677,1.0,43,0.020547047,8.275785e-08,0,-1.3064269730651923e-07,1.0
98,98,4.907347,186249.02,189368.84,265611.1,-45.47588,61.70552943748771,-0.083935186,-7.770506e-06,0.1712635,0.08705414,1.0,43,0.020562526,7.741592e-08,0,-1.3329739671996105e-07,1.0
99,99,4.245922,189586.62,213728.56,285697.38,-48.425568,62.49330640825792,-0.08395934,-7.5043386e-06,0.1753822,0.09815178,1.0,43,0.020532006,7.1866275e-08,0,-1.3378458603031577e-07,1.0
100,100,3.6747382,193373.86,242595.86,310235.72,-51.441547,63.39293183767586,-0.08391796,-7.776783e-06,0.17852964,0.10916753,1.0,43,0.020546082,6.622733e-08,0,-1.3592152362116828e-07,1.0
101,101,3.180988,196812.95,275242.9,338369.62,-54.43327,64.42220281987102,-0.083965845,-7.713697e-06,0.18177827,0.12027946,1.0,43,0.020551492,6.073681e-08,0,-1.3919226157840903e-07,1.0
102,102,2.752818,200384.73,314307.6,372751.0,-57.48072,65.60114058255567,-0.08396115,-7.5814833e-06,0.1839449,0.13078557,1.0,43,0.020559177,5.5155255e-08,0,-1.4095256329801367e-07,1.0
103,103,2.3804083,205510.94,358143.22,412918.03,-60.15179,66.95502734018373,-0.08398402,-7.629972e-06,0.18668607,0.14044222,1.0,43,0.02055138,4.977109e-08,0,-1.4287730432372292e-07,1.0
104,104,2.060257,209763.14,409758.03,460328.38,-62.89121,68.51130224074586,-0.083973385,-7.6929655e-06,0.188526,0.1493794,1.0,43,0.020541603,4.4623803e-08,0,-1.4671819256035373e-07,1.0
105,105,1.7836765,216123.06,468242.53,515713.34,-65.22374,70.29862008569944,-0.08397287,-7.678345e-06,0.19056064,0.15709348,1.0,43,0.020555602,3.985858e-08,0,-1.515871859874704e-07,1.0
