True,index,freq,Re(Z),Im(Z),Z,Phase(Z),time,Ewe_meas,I_meas,Cs,Cp,cycle_number,I_Range,Ewe,I,Ns,(QQo),cycle
0,0,7000018.5,266.56427,1681.4078,1702.4067,-80.99151,2.467479690531036,-0.009134889,1.7575385e-05,1.3522216e-05,1.3190685e-05,1.0,40,0.009986455,5.8660803e-06,0,3.934802690999106e-09,1.0
1,1,6057573.0,370.601,1895.8821,1931.7645,-78.939476,3.0195009700546507,-0.009098445,-7.988533e-06,1.3858306e-05,1.3348254e-05,1.0,40,0.014147834,7.323788e-06,0,2.1262833780358253e-09,1.0
2,2,5242039.0,378.83734,2162.7915,2195.7197,-80.06479,3.435481976455776,-0.009064722,-7.3187193e-06,1.4038e-05,1.3620114e-05,1.0,40,0.019607147,8.929713e-06,0,3.069627874418125e-09,1.0
3,3,4536288.0,340.85468,2459.0066,2482.5178,-82.108246,4.803481694805669,-0.009071951,-2.9552159e-05,1.4267892e-05,1.3998918e-05,1.0,40,0.019394994,7.81263e-06,0,6.59382909134365e-10,1.0
4,4,3925558.5,440.82352,2870.6575,2904.3071,-81.26975,5.219479661231162,-0.009109513,-3.2603446e-05,1.4123335e-05,1.3797962e-05,1.0,40,0.01857078,6.3942207e-06,0,-3.671663839516744e-09,1.0
5,5,3397055.0,525.3725,3150.5137,3194.0183,-80.5326,5.635502560966415,-0.0091202445,-2.3840308e-05,1.4870863e-05,1.446852e-05,1.0,40,0.019514928,6.109836e-06,0,-6.650966101801714e-09,1.0
6,6,2939708.2,656.4798,3637.8694,3696.6282,-79.77065,6.051488927419996,-0.009148341,5.760874e-06,1.4882257e-05,1.4412903e-05,1.0,40,0.021337928,5.7722677e-06,0,-6.779874107034326e-09,1.0
7,7,2543924.5,724.2138,4096.197,4159.725,-79.97363,6.603494046925334,-0.009123747,-3.087314e-05,1.527338e-05,1.4810423e-05,1.0,40,0.02087372,5.0180524e-06,0,-1.5981243893065767e-08,1.0
8,8,2201436.2,957.1474,4685.987,4782.74,-78.45571,7.155496233172016,-0.009124567,-2.3468192e-05,1.5428119e-05,1.4810219e-05,1.0,40,0.020516679,4.289733e-06,0,-1.72452863810943e-08,1.0
9,9,1905053.1,844.5855,5557.148,5620.9624,-81.358215,7.87449765400379,-0.009117897,-4.968971e-06,1.5033534e-05,1.4694122e-05,1.0,41,0.019599123,3.4867915e-06,0,-1.86235013710719e-08,1.0
10,10,1648567.4,977.69257,6321.5312,6396.69,-81.20825,8.42648226689198,-0.009171407,7.125529e-07,1.5271833e-05,1.4915065e-05,1.0,41,0.019757388,3.0886893e-06,0,-1.809954466169946e-08,1.0
11,11,1426616.2,1343.0481,7259.653,7382.841,-79.518684,8.978482639737194,-0.0091169095,-2.3749403e-06,1.5367285e-05,1.4858734e-05,1.0,41,0.020251913,2.7431058e-06,0,-1.7430998252077897e-08,1.0
12,12,1234551.2,1715.0393,8464.29,8636.294,-78.54577,9.530483999318676,-0.009086354,-4.274363e-06,1.5230721e-05,1.463008e-05,1.0,41,0.020862145,2.4156363e-06,0,-1.80640101723824e-08,1.0
13,13,1068345.5,2293.3857,9837.186,10100.982,-76.87679,10.082497838855488,-0.009192983,4.8484535e-06,1.5143894e-05,1.4363228e-05,1.0,41,0.020650018,2.0443574e-06,0,-1.735607677461104e-08,1.0
14,14,924510.06,2413.1223,10976.026,11238.163,-77.60056,10.634504211746389,-0.009241705,8.0532645e-06,1.5684234e-05,1.49610805e-05,1.0,41,0.020411564,1.8162723e-06,0,-1.7984191119508195e-08,1.0
15,15,800039.0,4736.0166,12052.028,12949.179,-68.54694,11.18648002462578,-0.009155645,7.274501e-07,1.6506265e-05,1.4298308e-05,1.0,41,0.02076853,1.6038492e-06,0,-1.8141446663869904e-08,1.0
16,16,692334.1,4068.62,13826.329,14412.531,-73.60263,11.738479384192033,-0.009087527,-4.8981933e-06,1.6626373e-05,1.5301386e-05,1.0,41,0.02033031,1.4105996e-06,0,-1.824508998626584e-08,1.0
17,17,599122.25,5010.3145,15877.874,16649.629,-72.48674,12.290499703754904,-0.009213626,2.3047173e-06,1.6730632e-05,1.521556e-05,1.0,41,0.020590555,1.2366976e-06,0,-1.8377199154147976e-08,1.0
18,18,518454.94,6212.014,17433.658,18507.338,-70.38785,12.842482849984663,-0.009170699,5.7661515e-07,1.7608427e-05,1.562463e-05,1.0,41,0.020520054,1.1087524e-06,0,-1.9500969866925288e-08,1.0
19,19,448662.03,7904.0513,19656.201,21185.852,-68.09421,13.394490876147756,-0.009158868,-3.7905384e-08,1.8046843e-05,1.5534903e-05,1.0,41,0.020208593,9.538721e-07,0,-1.7591884785569314e-08,1.0
20,20,388258.97,9728.876,21610.443,23699.416,-65.76305,13.946501489059301,-0.009160247,2.540985e-08,1.8968585e-05,1.577201e-05,1.0,41,0.020810636,8.781075e-07,0,-1.7514692542308787e-08,1.0
21,21,335983.9,10995.925,24871.803,27194.06,-66.14958,14.498497515305644,-0.0091488445,-4.028918e-07,1.9045587e-05,1.5931651e-05,1.0,41,0.02032289,7.473282e-07,0,-1.7448204869967616e-08,1.0
22,22,290751.2,14767.199,26146.361,30028.36,-60.54268,15.050490501482273,-0.009165445,-1.8833242e-06,2.0935695e-05,1.5872549e-05,1.0,41,0.020499313,6.8266513e-07,0,-1.742425192692639e-08,1.0
23,23,251605.19,18115.86,28433.014,33713.805,-57.497086,15.602487301075598,-0.00917206,1.755374e-06,2.2247317e-05,1.5823694e-05,1.0,41,0.020459408,6.068555e-07,0,-1.7936485754826018e-08,1.0
24,24,217729.38,21624.79,29788.04,36809.766,-54.022022,16.15450130062527,-0.009118008,-4.346988e-06,2.4539244e-05,1.6070113e-05,1.0,41,0.02012622,5.4676303e-07,0,-1.811482875333089e-08,1.0
25,25,188418.58,25721.963,30987.244,40271.934,-50.304535,16.707487966894405,-0.009215546,6.2581234e-06,2.7259222e-05,1.6138916e-05,1.0,41,0.02086472,5.180958e-07,0,-1.690167017494875e-08,1.0
26,26,163051.14,30081.01,31996.844,43916.57,-46.76769,17.259490926429862,-0.009158607,-2.1481164e-07,3.0506275e-05,1.6193719e-05,1.0,41,0.020421403,4.650045e-07,0,-1.673471893001969e-08,1.0
27,27,141098.2,33960.99,32388.932,46929.645,-43.642723,17.811479725962272,-0.009197417,3.515133e-06,3.4825873e-05,1.6588256e-05,1.0,41,0.020134024,4.290257e-07,0,-1.7243744420135776e-08,1.0
28,28,122105.11,38932.0,31925.201,50347.98,-39.3526,18.227481479087146,-0.009093303,-3.4252091e-06,4.082749e-05,1.6415564e-05,1.0,41,0.021800311,4.3299278e-07,0,-1.7552668474176394e-08,1.0
29,29,105663.59,42631.09,32769.637,53770.43,-37.548737,18.946503433195176,-0.009147782,-1.5502707e-07,4.5964563e-05,1.7071801e-05,1.0,42,0.01899182,3.5320195e-07,0,-1.7647786550156308e-08,1.0
30,30,91439.65,47209.152,32080.844,57077.883,-34.197956,19.36248227962642,-0.009123356,-5.748371e-07,5.4255008e-05,1.7139402e-05,1.0,42,0.020059424,3.5143952e-07,0,-1.7681950511396512e-08,1.0
31,31,79127.08,50725.035,30776.762,59331.598,-31.246742,19.778503499372164,-0.009123654,-4.3980484e-07,6.535399e-05,1.758514e-05,1.0,42,0.020925986,3.5269548e-07,0,-1.768798971451297e-08,1.0
32,32,68475.36,54572.9,28982.777,61791.605,-27.972044,20.19449711914058,-0.009140963,6.6391976e-09,8.019473e-05,1.7642773e-05,1.0,42,0.02173034,3.516714e-07,0,-1.7728859744040174e-08,1.0
33,33,59252.523,58388.273,24948.906,63495.184,-23.136684,20.747487172106048,-0.009176661,-1.7849445e-07,0.000107661836,1.6621998e-05,1.0,42,0.02033661,3.2028586e-07,0,-1.777503949826562e-08,1.0
34,34,51282.285,60894.074,25020.027,65833.805,-22.336676,21.163499378511915,-0.0091217905,-4.20062e-07,0.00012404092,1.7916065e-05,1.0,42,0.020780196,3.156463e-07,0,-1.7829639701329015e-08,1.0
35,35,44369.8,63556.863,21918.629,67230.21,-19.027596,21.579496944934363,-0.009124194,-4.517246e-07,0.00016365123,1.7394705e-05,1.0,42,0.021152476,3.1462753e-07,0,-1.7816144967535833e-08,1.0
36,36,38403.727,65294.336,19827.154,68238.305,-16.891338,21.995495924697025,-0.009207608,2.2418119e-07,0.00020901929,1.764618e-05,1.0,42,0.021414736,3.138228e-07,0,-1.779456917118432e-08,1.0
37,37,33226.32,66586.52,17883.043,68946.125,-15.033103,22.41148506445461,-0.009192908,-8.073649e-09,0.00026785297,1.8020199e-05,1.0,42,0.021587977,3.1311373e-07,0,-1.7735395872303093e-08,1.0
38,38,28754.086,67998.11,15709.622,69789.22,-13.008817,22.827481324231485,-0.009197026,3.1935622e-07,0.00035233423,1.7852935e-05,1.0,42,0.02172084,3.1123488e-07,0,-1.773251788196115e-08,1.0
39,39,24884.947,69350.61,13788.72,70708.1,-11.245253,23.243490357330302,-0.00911512,-4.4706707e-07,0.00046383066,1.7638798e-05,1.0,42,0.021798505,3.0828863e-07,0,-1.7821204637541222e-08,1.0
40,40,21553.963,69871.445,12096.438,70910.805,-9.821932,23.66050216378062,-0.009145621,-7.344709e-08,0.00061042944,1.7763383e-05,1.0,42,0.021769213,3.069943e-07,0,-1.7862451457452405e-08,1.0
41,41,18631.234,70270.38,10588.36,71063.63,-8.568881,24.076493783533806,-0.009201963,8.970921e-08,0.0008067701,1.7910694e-05,1.0,42,0.02167234,3.049709e-07,0,-1.783657643294006e-08,1.0
42,42,16126.037,71052.48,8911.537,71609.15,-7.148816,24.492492096644128,-0.009184002,3.275523e-07,0.00110749,1.7151735e-05,1.0,42,0.021587586,3.0146407e-07,0,-1.796626394223259e-08,1.0
43,43,13954.87,69262.734,8693.812,69806.23,-7.1543117,24.908496809744975,-0.009197491,-2.2356433e-07,0.0013118499,2.0347743e-05,1.0,42,0.021012798,3.010161e-07,0,-1.8178895309682395e-08,1.0
44,44,12080.609,70561.445,6817.56,70890.03,-5.518718,25.324491656181635,-0.009112065,-4.086973e-07,0.0019324234,1.787269e-05,1.0,42,0.020885048,2.9461194e-07,0,-1.8377585161306954e-08,1.0
45,45,10447.592,71526.9,5304.0835,71723.29,-4.241011,25.740502822591225,-0.009180704,1.9401176e-07,0.0028720603,1.5707023e-05,1.0,42,0.020572023,2.8682487e-07,0,-1.8496657768308603e-08,1.0
46,46,9045.586,71432.69,4477.625,71572.88,-3.5867867,26.313247543148464,-0.00916142,1.5583073e-07,0.0039294856,1.5379213e-05,1.0,42,0.020350989,2.843394e-07,0,-1.8573385470642714e-08,1.0
47,47,7827.7437,71499.76,3541.2217,71587.4,-2.835414,26.793936659320025,-0.009181953,1.3627472e-07,0.005741567,1.4049585e-05,1.0,42,0.020474296,2.860042e-07,0,-1.8594227484552997e-08,1.0
48,48,6770.8345,71213.15,3047.1936,71278.31,-2.450178,27.332406071509467,-0.00909757,-8.378186e-07,0.0077139693,1.4098184e-05,1.0,42,0.020585235,2.8880083e-07,0,-1.8474177639547248e-08,1.0
49,49,5860.798,71225.945,2439.9607,71267.73,-1.961993,27.93798610032536,-0.009150949,-2.114563e-07,0.011129625,1.304549e-05,1.0,42,0.02073946,2.9100775e-07,0,-1.8540914397871667e-08,1.0
50,50,5071.625,70913.14,2163.551,70946.14,-1.7475449,28.618673892669904,-0.0091646435,1.692415e-07,0.014504604,1.3489088e-05,1.0,42,0.020800557,2.93188e-07,0,-1.859661695825358e-08,1.0
51,51,4388.5933,71033.7,1812.3318,71056.82,-1.4615096,29.29883427164168,-0.009146515,6.736235e-08,0.020010462,1.3017302e-05,1.0,42,0.020940699,2.9470357e-07,0,-1.838618249969305e-08,1.0
52,52,3798.7827,70680.45,1716.9125,70701.305,-1.391509,29.978846943937242,-0.009149832,5.264873e-08,0.024402117,1.4390272e-05,1.0,42,0.020980624,2.9675016e-07,0,-1.825446473552509e-08,1.0
53,53,3286.0488,70712.29,1356.2456,70725.3,-1.0987853,30.658674522899673,-0.009163433,7.1646525e-08,0.035711475,1.3132122e-05,1.0,42,0.021075591,2.9799227e-07,0,-1.8264314752320193e-08,1.0
54,54,2844.088,70550.305,1631.6879,70569.17,-1.3249009,31.33784930180991,-0.00914182,4.3150223e-08,0.03429573,1.8335137e-05,1.0,42,0.021129876,2.9942078e-07,0,-1.8001781950261217e-08,1.0
55,55,2460.7852,70075.336,1309.2115,70087.56,-1.0703276,32.01769650744973,-0.009152869,-1.3842677e-08,0.049401097,1.7237502e-05,1.0,42,0.021061132,3.0049742e-07,0,-1.8075022868901156e-08,1.0
56,56,2129.3164,70333.336,1615.8025,70351.89,-1.3160528,32.69681083303294,-0.00913897,1.8954363e-07,0.046258513,2.4401508e-05,1.0,42,0.021188803,3.0118312e-07,0,-1.7955181609347726e-08,1.0
57,57,1843.2289,70142.46,1628.621,70161.37,-1.3300979,33.37695843866095,-0.009213403,5.7899473e-07,0.053017695,2.856701e-05,1.0,42,0.021177372,3.0183807e-07,0,-1.777553541559455e-08,1.0
58,58,1594.4913,70193.74,1851.2893,70218.15,-1.5107684,34.05682369762508,-0.009179754,6.792172e-08,0.053916745,3.7477752e-05,1.0,42,0.021217704,3.0216836e-07,0,-1.758178757397418e-08,1.0
59,59,1380.4436,70453.27,1991.7719,70481.42,-1.6193674,34.736700876594114,-0.0091399755,1.6330265e-08,0.057884444,4.6226578e-05,1.0,42,0.021292249,3.0209733e-07,0,-1.729906396213258e-08,1.0
60,60,1194.6187,70245.3,2193.3647,70279.53,-1.7884433,35.41683594889764,-0.009164327,1.2901211e-07,0.060740724,5.9162157e-05,1.0,42,0.021259455,3.0249853e-07,0,-1.733113189434506e-08,1.0
61,61,1033.3434,70256.984,2426.7197,70298.88,-1.9782451,36.09709803448641,-0.009198479,2.2809763e-07,0.06346815,7.563072e-05,1.0,42,0.021259824,3.0242052e-07,0,-1.7385482631568668e-08,1.0
62,62,894.71045,70325.65,2793.067,70381.09,-2.2743747,36.77682185349113,-0.009192964,3.0036333e-07,0.06368781,0.00010030139,1.0,42,0.02127546,3.0228944e-07,0,-1.7303109837370774e-08,1.0
63,63,774.2569,70319.625,3286.6125,70396.39,-2.6759539,37.456944259116426,-0.009110835,-1.3807211e-07,0.06254413,0.00013632729,1.0,42,0.021269998,3.0214613e-07,0,-1.7061821666590167e-08,1.0
64,64,669.7856,70372.695,3574.692,70463.43,-2.90793,38.136843304746435,-0.009193243,2.0146376e-07,0.066473074,0.0001710785,1.0,42,0.02126862,3.0183912e-07,0,-1.7068303558747112e-08,1.0
65,65,579.81464,70671.375,3822.887,70774.695,-3.0963318,38.8168330170447,-0.009193374,2.3331269e-07,0.07180249,0.0002094915,1.0,42,0.021303743,3.010079e-07,0,-1.7284000277879033e-08,1.0
66,66,501.44418,70650.24,4623.3965,70801.36,-3.7441335,39.494203902519075,-0.009214801,4.031741e-07,0.068649344,0.00029273555,1.0,42,0.021274524,3.0048184e-07,0,-1.7434756044012208e-08,1.0
67,67,434.02762,71147.4,5097.487,71329.77,-4.098059,40.174226281495066,-0.009177164,3.9053262e-08,0.07193606,0.00036738144,1.0,42,0.021324381,2.9895483e-07,0,-1.7134833625015865e-08,1.0
68,68,375.6009,70828.87,5779.5747,71064.28,-4.664951,40.85343908707728,-0.009218378,4.9669318e-08,0.073315814,0.0004849385,1.0,42,0.02125091,2.9903785e-07,0,-1.687958345850355e-08,1.0
69,69,325.10385,71164.39,6581.2734,71468.06,-5.283677,41.53270471938595,-0.009163749,3.923897e-08,0.074385464,0.00063078874,1.0,42,0.021295056,2.9796604e-07,0,-1.6590491872870416e-08,1.0
70,70,281.3503,71328.54,7378.985,71709.2,-5.9062767,42.2097829648701,-0.009157061,6.959764e-08,0.07666129,0.0008117449,1.0,42,0.02126681,2.9657016e-07,0,-1.6245870287140444e-08,1.0
71,71,243.36427,71723.195,8542.171,72230.086,-6.7918854,42.89311238398659,-0.0091605075,2.666517e-07,0.07655879,0.0010707679,1.0,42,0.021282358,2.9464672e-07,0,-1.648582810765347e-08,1.0
72,72,210.60631,72175.03,9443.025,72790.15,-7.453958,43.5701620427717,-0.0091514895,3.8045079e-07,0.08002719,0.001346836,1.0,42,0.021303073,2.9266423e-07,0,-1.677145281321134e-08,1.0
73,73,182.27473,72661.04,10929.807,73478.484,-8.554401,44.2422405280231,-0.009134218,1.8917113e-07,0.07988793,0.001767607,1.0,42,0.02131102,2.9003075e-07,0,-1.647743147454259e-08,1.0
74,74,157.72879,73051.2,12090.721,74045.016,-9.3978405,44.93062933411784,-0.009144559,1.735257e-07,0.08345588,0.0022252032,1.0,42,0.021292524,2.8756187e-07,0,-1.6757001500769914e-08,1.0
75,75,136.52892,73696.06,13507.406,74923.695,-10.386196,45.60252829929232,-0.009182754,3.3183932e-07,0.086302534,0.0028049755,1.0,42,0.021287559,2.841232e-07,0,-1.6344299540877028e-08,1.0
76,76,118.14758,74507.16,15293.005,76060.45,-11.5991745,46.29092297202442,-0.009109288,1.273352e-07,0.08808511,0.0035609864,1.0,42,0.02131269,2.8020725e-07,0,-1.6443242922748546e-08,1.0
77,77,102.25773,75332.164,16948.705,77215.24,-12.679637,46.95734401702066,-0.009184933,1.4800924e-07,0.09183061,0.0044244006,1.0,42,0.021316627,2.760676e-07,0,-1.632029264974033e-08,1.0
78,78,88.4436,76152.21,19154.967,78524.34,-14.119003,47.64728508974076,-0.009156614,1.8246558e-07,0.0939447,0.0055901883,1.0,42,0.021299655,2.7124906e-07,0,-1.6279038513339413e-08,1.0
79,79,76.54279,77210.164,21359.979,80110.29,-15.463958,48.314733334846096,-0.009133976,5.097231e-08,0.09734531,0.0069205407,1.0,42,0.02129653,2.6584013e-07,0,-1.619785848509942e-08,1.0
80,80,66.250786,78524.48,23658.018,82010.945,-16.766613,48.98299925989704,-0.009149292,9.213334e-08,0.10154318,0.008450138,1.0,42,0.021309806,2.59841e-07,0,-1.6141359747889932e-08,1.0
81,81,57.329906,79691.12,26346.02,83933.23,-18.293976,49.6366069709743,-0.00922788,2.925398e-07,0.10537168,0.0103821205,1.0,42,0.02128987,2.5365247e-07,0,-1.627771716008524e-08,1.0
82,82,49.60321,81279.93,29120.83,86339.16,-19.711498,50.322381856822176,-0.009158104,-2.2970184e-08,0.110180974,0.012534254,1.0,42,0.021285184,2.465299e-07,0,-1.642395773209129e-08,1.0
83,83,42.92585,82763.66,32447.498,88896.92,-21.407667,51.03040730379871,-0.009182847,3.4897363e-07,0.1142668,0.015223308,1.0,42,0.021286024,2.3944614e-07,0,-1.6234081917418683e-08,1.0
84,84,37.1518,84854.68,35589.234,92015.81,-22.753855,51.67419133437215,-0.009195182,5.6930884e-07,0.12037095,0.018006695,1.0,42,0.021315636,2.3165188e-07,0,-1.6019380304262852e-08,1.0
85,85,32.150223,86435.41,39017.938,94833.95,-24.294966,52.31236139134853,-0.009187765,2.0649158e-07,0.12687376,0.021476956,1.0,42,0.02123976,2.2396789e-07,0,-1.6426932898236933e-08,1.0
86,86,27.835518,88949.76,43379.977,98964.04,-25.998064,53.040339532570215,-0.009159902,1.4921902e-07,0.13180488,0.025325341,1.0,42,0.02130831,2.1531366e-07,0,-1.60781208051533e-08,1.0
87,87,24.082958,90807.28,47469.28,102466.07,-27.598206,53.74238303260063,-0.009152496,3.6257514e-08,0.13921872,0.029878777,1.0,42,0.021218108,2.0707448e-07,0,-1.6237471574237814e-08,1.0
88,88,20.833313,93554.055,52558.85,107307.01,-29.327364,54.3967533037212,-0.009167718,2.0965729e-07,0.14535029,0.03486996,1.0,42,0.021292152,1.9842275e-07,0,-1.6778367226390047e-08,1.0
89,89,18.021912,96003.234,58285.06,112311.04,-31.262589,55.14270869916072,-0.009118074,-3.163142e-08,0.15151723,0.040806714,1.0,42,0.021294655,1.896043e-07,0,-1.6213795563716814e-08,1.0
90,90,15.604198,98665.25,64212.61,117720.39,-33.056595,55.797025583538925,-0.009151843,1.3497007e-07,0.15883945,0.047260206,1.0,42,0.021292904,1.8087694e-07,0,-1.621358259679114e-08,1.0
91,91,13.500899,101534.586,70951.305,123868.32,-34.945446,56.54498932574643,-0.009165483,2.1431258e-07,0.16614874,0.054512653,1.0,42,0.021302564,1.719775e-07,0,-1.6342655070016556e-08,1.0
92,92,11.686608,104343.61,78520.38,130587.29,-36.962097,57.359874164452776,-0.009182624,-6.622517e-08,0.17344,0.062706456,1.0,43,0.021302162,1.6312585e-07,0,-1.6896752780910617e-08,1.0
93,93,10.113269,107448.21,86792.04,138123.05,-38.929783,58.03352499639732,-0.009168836,-8.8237584e-08,0.18132125,0.071593925,1.0,43,0.021301473,1.5422098e-07,0,-1.7689102409490905e-08,1.0
94,94,8.748621,110102.734,96253.98,146244.45,-41.16059,58.80040833950625,-0.009167979,-9.386194e-08,0.18900003,0.08187294,1.0,43,0.021276161,1.4548354e-07,0,-1.7447425566570787e-08,1.0
95,95,7.570237,113189.516,107406.14,156038.28,-43.49822,59.67600920778932,-0.00915245,-5.3031606e-08,0.19574086,0.092742205,1.0,43,0.021302281,1.3651959e-07,0,-1.6395681435047412e-08,1.0
96,96,6.554112,116404.836,119696.71,166965.23,-45.7988,60.21231269990676,-0.0091449125,-4.2374936e-07,0.20287293,0.10426448,1.0,43,0.021301141,1.275783e-07,0,-1.802606545570557e-08,1.0
97,97,5.669445,118716.836,134152.38,179138.34,-48.49309,60.82213819553726,-0.009123058,2.4220557e-07,0.2092576,0.117354795,1.0,43,0.021259502,1.1867645e-07,0,-1.6286566592525414e-08,1.0
98,98,4.907347,121618.6,150982.61,193873.23,-51.14807,61.51456564172986,-0.009212099,-2.9435765e-07,0.21480599,0.13027604,1.0,43,0.021294774,1.0983865e-07,0,-1.7910136722701153e-08,1.0
99,99,4.245922,124435.07,170223.0,210855.3,-53.832745,62.302289492537966,-0.009147791,1.3342905e-07,0.22020636,0.143515,1.0,43,0.021284616,1.00944185e-07,0,-1.7273300817370143e-08,1.0
100,100,3.6747382,127525.01,192367.84,230798.64,-56.4587,63.20192796192714,-0.009176196,-3.909376e-08,0.22514443,0.15640827,1.0,43,0.021285212,9.222416e-08,0,-1.6221623942975033e-08,1.0
101,101,3.180988,130290.695,218277.72,254206.27,-59.16688,64.23024038408767,-0.009176978,-1.9438086e-07,0.22921798,0.16900322,1.0,43,0.021289049,8.3747146e-08,0,-1.7861007910113654e-08,1.0
102,102,2.752818,134043.38,248431.69,282286.97,-61.65055,65.40909025343717,-0.009171202,-1.4416777e-08,0.23272102,0.18024695,1.0,43,0.02128671,7.5408046e-08,0,-1.821188125535272e-08,1.0
103,103,2.3804083,136977.34,283305.4,314681.97,-64.196365,66.76304042441188,-0.00915647,2.2369239e-08,0.23600098,0.19128451,1.0,43,0.021298714,6.76833e-08,0,-1.667699754148513e-08,1.0
104,104,2.060257,142632.39,323323.34,353386.44,-66.19558,68.31932385827531,-0.009194342,-5.903071e-08,0.23892505,0.20000279,1.0,43,0.021291533,6.025e-08,0,-1.6120692416144088e-08,1.0
105,105,1.7836765,146514.92,369360.5,397358.53,-68.36317,70.10767980996025,-0.009157962,-1.02549016e-07,0.2415759,0.20873219,1.0,43,0.021295816,5.3593453e-08,0,-1.7333728986704697e-08,1.0
