True,index,freq,Re(Z),Im(Z),Z,Phase(Z),time,Ewe_meas,I_meas,Cs,Cp,cycle_number,I_Range,Ewe,I,Ns,(QQo),cycle
110,110,7000018.5,230.14616,1727.0112,1742.2787,-82.40933,82.82948838747689,0.0060524526,-1.1355991e-05,1.31651495e-05,1.293543e-05,2.0,40,0.010047806,5.767049e-06,0,-2.0592358758023848e-08,2.0
111,111,6057573.0,221.24133,1972.5359,1984.9044,-83.6004,83.38150665370631,0.006050571,-2.1384416e-05,1.33197655e-05,1.3154284e-05,2.0,40,0.014295797,7.2022594e-06,0,-2.027370663169142e-08,2.0
112,112,5242039.0,277.9292,2301.3555,2318.0771,-83.11388,83.79748558011488,0.006068569,-1.7067949e-05,1.3192775e-05,1.3003128e-05,2.0,40,0.019752258,8.520967e-06,0,-2.213525781102282e-08,2.0
113,113,4536288.0,220.4714,2627.98,2637.212,-85.20447,85.16549828511779,0.0060497695,-3.150573e-05,1.3350498e-05,1.325719e-05,2.0,40,0.018046118,6.8428776e-06,0,-2.1563382778257977e-08,2.0
114,114,3925558.5,294.94144,3048.168,3062.404,-84.47325,85.71748660466983,0.0060433974,-3.0891748e-05,1.3300862e-05,1.3177487e-05,2.0,40,0.01949643,6.3663806e-06,0,-2.9790322226805887e-08,2.0
115,115,3397055.0,356.43814,3448.8528,3467.2227,-84.09944,86.13348750441219,0.0060070097,-1.9840145e-05,1.3584477e-05,1.3440912e-05,2.0,40,0.020495813,5.911306e-06,0,-3.263615208200029e-08,2.0
116,116,2939708.2,332.22058,3976.1802,3990.035,-85.22388,86.68549289062503,0.0060023894,-2.3579832e-05,1.3616009e-05,1.3521615e-05,2.0,40,0.02013982,5.04753e-06,0,-3.7695593733945573e-08,2.0
117,117,2543924.5,346.7638,4530.8315,4544.082,-85.62344,87.23748638355755,0.005975783,-2.4677549e-05,1.380823e-05,1.37278175e-05,2.0,40,0.020791763,4.5755696e-06,0,-3.8567294458425955e-08,2.0
118,118,2201436.2,273.2219,5248.3613,5255.4683,-87.01996,87.78950702308794,0.006016456,-3.252902e-05,1.37749585e-05,1.3737727e-05,2.0,40,0.020653753,3.929955e-06,0,-4.540900654862496e-08,2.0
119,119,1905053.1,263.1969,6293.5415,6299.0425,-87.60528,88.50948975063511,0.0059921974,-3.0118201e-06,1.3274493e-05,1.3251318e-05,2.0,41,0.019658744,3.12091e-06,0,-4.310242379071309e-08,2.0
120,120,1648567.4,110.15829,7127.0737,7127.925,-89.11449,89.06148188348743,0.0060014017,-2.1719627e-06,1.3545723e-05,1.3542489e-05,2.0,41,0.01988537,2.789784e-06,0,-4.3928521549949394e-08,2.0
121,121,1426616.2,210.71121,8208.067,8210.771,-88.52947,89.61348462969181,0.005911932,3.6194153e-06,1.3591647e-05,1.3582695e-05,2.0,41,0.02026891,2.4685755e-06,0,-4.366086693939132e-08,2.0
122,122,1234551.2,371.09348,9397.021,9404.346,-87.73853,90.16548588257865,0.0059765284,-1.1701101e-06,1.3718947e-05,1.3697586e-05,2.0,41,0.020891791,2.221504e-06,0,-4.368008754769272e-08,2.0
123,123,1068345.5,495.03842,10829.837,10841.1455,-87.3828,90.71749033548986,0.005980385,-2.1853711e-07,1.3755821e-05,1.3727138e-05,2.0,41,0.02048451,1.8895154e-06,0,-4.43412549559628e-08,2.0
124,124,924510.06,387.00656,12454.98,12460.991,-88.22025,91.26949732171488,0.0059947874,2.9132686e-08,1.38218265e-05,1.3808495e-05,2.0,41,0.020369131,1.6346316e-06,0,-4.4379271659873924e-08,2.0
125,125,800039.0,1360.9064,14433.561,14497.577,-84.61364,91.82150638793246,0.005968051,1.0328478e-06,1.37827365e-05,1.3661286e-05,2.0,41,0.020469973,1.4119582e-06,0,-4.3450575592273485e-08,2.0
126,126,692334.1,732.05475,16633.959,16650.06,-87.48006,92.37349110745708,0.006024207,-2.0174018e-06,1.3820023e-05,1.3793307e-05,2.0,41,0.020341467,1.2217054e-06,0,-4.3626084259821755e-08,2.0
127,127,599122.25,668.7474,19373.098,19384.637,-88.02297,92.92550689369091,0.0059801987,-1.9060428e-07,1.3712153e-05,1.3695832e-05,2.0,41,0.02079318,1.0726629e-06,0,-4.392158636367169e-08,2.0
128,128,518454.94,860.60376,22017.248,22034.06,-87.76158,93.47750678655575,0.0059993896,-1.4848189e-06,1.3942675e-05,1.3921405e-05,2.0,41,0.020314638,9.2196524e-07,0,-4.397573966124963e-08,2.0
129,129,448662.03,1231.3002,25570.531,25600.16,-87.243164,94.03049017282319,0.005999371,-1.8944984e-06,1.3872703e-05,1.38406085e-05,2.0,41,0.0203046,7.9314344e-07,0,-4.395829712634007e-08,2.0
130,130,388258.97,1080.5276,29076.93,29097.0,-87.87181,94.58249393242295,0.0059847822,-1.1663857e-06,1.4097759e-05,1.4078318e-05,2.0,41,0.020780012,7.141634e-07,0,-4.369236671319025e-08,2.0
131,131,335983.9,-3058.6035,35594.94,35726.11,-94.91125,95.13450419859146,0.0059817825,-2.52373e-09,1.33080175e-05,1.3210476e-05,2.0,41,0.020324588,5.6890013e-07,0,-4.31728072004955e-08,2.0
132,132,290751.2,1516.832,39112.164,39141.566,-87.77909,95.68650222485303,0.0059718518,-6.803569e-07,1.3995448e-05,1.3974429e-05,2.0,41,0.020543529,5.24852e-07,0,-4.269539600119524e-08,2.0
133,133,251605.19,2159.211,45411.61,45462.914,-87.27778,96.23848571770941,0.0059842416,-5.797998e-07,1.392944e-05,1.3898019e-05,2.0,41,0.02041746,4.491014e-07,0,-4.267737618769808e-08,2.0
134,134,217729.38,3056.928,51638.133,51728.54,-86.6121,96.79049257058068,0.005994154,-2.3414218e-06,1.415574e-05,1.4106303e-05,2.0,41,0.020334959,3.931091e-07,0,-4.276889332134775e-08,2.0
135,135,188418.58,2537.2505,57891.74,57947.312,-87.49048,97.50950188477873,0.005972243,-2.0531505e-07,1.4590823e-05,1.456285e-05,2.0,42,0.01974634,3.407637e-07,0,-4.367365582579355e-08,2.0
136,136,163051.14,2127.9023,67454.63,67488.19,-88.19316,97.92549459784641,0.005988434,-4.6811533e-07,1.4470534e-05,1.4456147e-05,2.0,42,0.021704474,3.2160406e-07,0,-4.371626223487171e-08,2.0
137,137,141098.2,3503.6082,77086.97,77166.55,-87.39769,98.47750097073731,0.005968442,-1.6173219e-07,1.4632471e-05,1.4602307e-05,2.0,42,0.02038292,2.6414193e-07,0,-4.372760339391209e-08,2.0
138,138,122105.11,2116.3467,86152.125,86178.12,-88.5928,98.89348643049016,0.0059562945,-1.807297e-07,1.5129352e-05,1.5120227e-05,2.0,42,0.021997886,2.552607e-07,0,-4.3741061324841063e-08,2.0
139,139,105663.59,4699.4,102902.305,103009.555,-87.3852,99.44549032338546,0.00599285,-4.3365884e-07,1.4637593e-05,1.4607128e-05,2.0,42,0.020548658,1.9948304e-07,0,-4.3688277695270305e-08,2.0
140,140,91439.65,4989.2773,118834.54,118939.234,-87.59584,99.86149319648393,0.0059797144,-3.0458676e-07,1.46468055e-05,1.4621031e-05,2.0,42,0.021743083,1.8280834e-07,0,-4.3658061558514066e-08,2.0
141,141,79127.08,6385.43,135099.2,135250.02,-87.293945,100.41348335603834,0.0059839995,-7.9036695e-08,1.4888201e-05,1.4855017e-05,2.0,42,0.020311035,1.50174e-07,0,-4.366163658004593e-08,2.0
142,142,68475.36,6556.0654,156138.06,156275.64,-87.59563,100.8294894824212,0.005998402,-3.6083463e-07,1.4885966e-05,1.4859767e-05,2.0,42,0.021138845,1.352664e-07,0,-4.373536386154184e-08,2.0
143,143,59252.523,7825.584,181000.19,181169.28,-87.524345,101.24550115552847,0.005996371,-3.3028945e-07,1.4840012e-05,1.4812323e-05,2.0,42,0.021860085,1.206611e-07,0,-4.371669861159481e-08,2.0
144,144,51282.285,7624.46,209008.05,209147.06,-87.91082,101.79750459510251,0.0060065067,-4.0162362e-07,1.4848745e-05,1.4829013e-05,2.0,42,0.020242928,9.678801e-08,0,-4.367857448418544e-08,2.0
145,145,44369.8,13612.975,243437.27,243817.6,-86.79936,102.2134832815209,0.0059703984,-2.2785127e-07,1.47348455e-05,1.46889115e-05,2.0,42,0.020635037,8.463309e-08,0,-4.372829246557932e-08,2.0
146,146,38403.727,18459.57,280576.94,281183.53,-86.23585,102.62950127458316,0.005973566,-9.077051e-08,1.4770486e-05,1.4706827e-05,2.0,42,0.020920778,7.440257e-08,0,-4.3724866835999324e-08,2.0
147,147,33226.32,27716.678,320233.84,321431.06,-85.0533,103.0454976943729,0.005998141,-3.964086e-07,1.4957902e-05,1.48466825e-05,2.0,42,0.021098502,6.563928e-08,0,-4.3763261291831054e-08,2.0
148,148,28754.086,33811.99,372407.34,373939.12,-84.812164,103.46248982087127,0.005976603,-1.6657462e-07,1.4862858e-05,1.4741341e-05,2.0,42,0.021234972,5.6787243e-08,0,-4.374312586058002e-08,2.0
149,149,24884.947,39977.082,431577.6,433425.2,-84.70779,103.87849309391459,0.0059560146,-1.5204715e-07,1.4819192e-05,1.469312e-05,2.0,42,0.021289041,4.9118146e-08,0,-4.37332205131451e-08,2.0
150,150,21553.963,76462.5,524684.25,530226.44,-81.708626,104.46249978835112,0.005999874,-1.8837733e-07,1.4073267e-05,1.3780605e-05,2.0,43,0.02100687,3.9618676e-08,0,-4.374306374207975e-08,2.0
151,151,18631.234,72611.914,572845.4,577429.06,-82.77591,104.87850866143708,0.00599393,-1.7251061e-07,1.4912179e-05,1.467637e-05,2.0,43,0.020868078,3.613964e-08,0,-4.3763692358479704e-08,2.0
152,152,16126.037,91300.2,665946.94,672176.4,-82.19351,105.29450033450848,0.005984354,-1.9828471e-07,1.4820158e-05,1.45467375e-05,2.0,43,0.02069864,3.0793466e-08,0,-4.378549779926851e-08,2.0
153,153,13954.87,64741.72,741364.7,744186.2,-85.00915,105.71048998096376,0.0059875394,-2.0223278e-07,1.538376e-05,1.5267327e-05,2.0,43,0.020297106,2.727423e-08,0,-4.3807516565404924e-08,2.0
154,154,12080.609,156226.94,884280.06,897974.44,-79.980865,106.12650536073488,0.0059949923,-1.98024e-07,1.4898462e-05,1.4447515e-05,2.0,43,0.020008938,2.2282302e-08,0,-4.382906736574209e-08,2.0
155,155,10447.592,179572.16,998173.3,1014197.25,-79.80154,106.54249444711604,0.00596684,-1.6735207e-07,1.5261527e-05,1.4783083e-05,2.0,43,0.019438975,1.9166858e-08,0,-4.385127647219029e-08,2.0
156,156,9045.586,209676.33,1082980.2,1103091.2,-79.04251,106.97425446767011,0.0059668585,-1.5683011e-07,1.6246615e-05,1.5659614e-05,2.0,43,0.022032136,1.9973086e-08,0,-4.387024468777619e-08,2.0
157,157,7827.7437,283682.5,1276860.5,1307994.1,-77.47394,107.61094359125127,0.0059980666,-1.8878704e-07,1.5923557e-05,1.5174535e-05,2.0,43,0.020228421,1.5465224e-08,0,-4.390128476129599e-08,2.0
158,158,6770.8345,376285.88,1472428.6,1519749.0,-75.66462,108.14942681681714,0.0059909867,-1.5182056e-07,1.5964073e-05,1.4985404e-05,2.0,43,0.02023713,1.33161e-08,0,-4.391274182205995e-08,2.0
159,159,5860.798,492205.84,1656818.9,1728385.2,-73.45443,108.75699673901545,0.0057856278,-1.0919634e-08,1.6390353e-05,1.5061121e-05,2.0,43,0.020220008,1.1698785e-08,0,-4.394041965600169e-08,2.0
160,160,5071.625,617060.75,1900223.9,1997902.6,-72.0098,109.4376813846975,0.0059573376,-1.6066645e-07,1.6514607e-05,1.4939262e-05,2.0,43,0.020248722,1.013499e-08,0,-4.397148431750549e-08,2.0
161,161,4388.5933,718510.8,2041974.1,2164697.8,-70.614525,110.11781565699494,0.0060169403,-1.6154172e-07,1.7760065e-05,1.58034e-05,2.0,43,0.020181775,9.323138e-09,0,-4.400133390052454e-08,2.0
162,162,3798.7827,925896.6,2327710.0,2505098.5,-68.30875,110.7978379559645,0.0059633185,-1.5638318e-07,1.7998937e-05,1.5540141e-05,2.0,43,0.02021721,8.070425e-09,0,-4.403502896243615e-08,2.0
163,163,3286.0488,1086656.9,2621426.5,2837728.0,-67.48458,111.47770726826275,0.00599652,-1.5848757e-07,1.8476021e-05,1.5766753e-05,2.0,43,0.020231865,7.1296e-09,0,-4.4064231702921495e-08,2.0
164,164,2844.088,1490584.0,2859964.2,3225094.8,-62.471935,112.15782586055866,0.005999073,-1.6893502e-07,1.956665e-05,1.5386957e-05,2.0,43,0.020250399,6.279009e-09,0,-4.409574152442117e-08,2.0
165,165,2460.7852,1794188.6,3074246.2,3559508.8,-59.73135,112.83772573286114,0.0060051093,-1.6029398e-07,2.103816e-05,1.5692964e-05,2.0,43,0.020251513,5.689412e-09,0,-4.412694009630109e-08,2.0
166,166,2129.3164,2182814.0,3325294.8,3977720.8,-56.718014,113.5178244318231,0.0059840367,-1.6435378e-07,2.2477592e-05,1.5708745e-05,2.0,43,0.020265978,5.094872e-09,0,-4.4158652091932125e-08,2.0
167,167,1843.2289,2542208.8,3492460.5,4319734.5,-53.948624,114.19795785078895,0.00598672,-1.7133736e-07,2.4723466e-05,1.616063e-05,2.0,43,0.020249845,4.6877524e-09,0,-4.418941074709205e-08,2.0
168,168,1594.4913,3005382.0,3685118.0,4755251.5,-50.801186,114.87781414974597,0.006024412,-1.6835772e-07,2.7086106e-05,1.626681e-05,2.0,43,0.020258412,4.260219e-09,0,-4.4217375479047585e-08,2.0
169,169,1380.4436,3463095.8,3684430.0,5056486.5,-46.773685,115.55770143538393,0.0060182447,-1.6442827e-07,3.1291846e-05,1.6613994e-05,2.0,43,0.020263111,4.00735e-09,0,-4.4249101684169585e-08,2.0
170,170,1194.6187,3984254.0,3747147.8,5469497.0,-43.24341,116.23784917434386,0.0060326285,-1.6241701e-07,3.5554127e-05,1.6687716e-05,2.0,43,0.02025388,3.703061e-09,0,-4.427610336127537e-08,2.0
171,171,1033.3434,4464533.5,3756735.0,5834819.5,-40.079334,116.91809101996478,0.0059927753,-1.5664389e-07,4.099821e-05,1.6995391e-05,2.0,43,0.020270541,3.4740648e-09,0,-4.430219703108524e-08,2.0
172,172,894.71045,4939178.5,3716089.8,6181003.5,-36.956707,117.59783833227993,0.0060000415,-1.5383185e-07,4.7868678e-05,1.730238e-05,2.0,43,0.020267,3.2789174e-09,0,-4.4335211086925754e-08,2.0
173,173,774.2569,4488789.0,3888214.5,5938639.5,-40.899296,118.27797921790625,0.0059826206,-1.6142998e-07,5.2867024e-05,2.2662685e-05,2.0,43,0.020069707,3.3795127e-09,0,-4.436772934896618e-08,2.0
174,174,669.7856,5709484.5,3466260.8,6679309.5,-31.262178,118.95783074354404,0.006028287,-1.6683065e-07,6.855248e-05,1.8462157e-05,2.0,43,0.020231357,3.0289593e-09,0,-4.4397708157112824e-08,2.0
175,175,579.81464,6050919.5,3344776.2,6913838.0,-28.93257,119.63784506917,0.0059872414,-1.617652e-07,8.2066115e-05,1.9207004e-05,2.0,43,0.02022932,2.9259175e-09,0,-4.442754682340884e-08,2.0
176,176,501.44418,6438215.0,3211131.2,7194579.5,-26.508238,120.31521171462373,0.0060347896,-1.5139226e-07,9.8841534e-05,1.9689956e-05,2.0,43,0.020273315,2.8178595e-09,0,-4.445909537654913e-08,2.0
177,177,434.02762,6632042.5,3048492.0,7299129.5,-24.686401,120.99520476025646,0.0059932224,-1.5617834e-07,0.000120286735,2.0981943e-05,2.0,43,0.020252898,2.7747005e-09,0,-4.4491821686468037e-08,2.0
178,178,375.6009,6941084.5,2907932.5,7525604.5,-22.731003,121.67344375248649,0.0060036,-1.8128202e-07,0.00014571667,2.1756801e-05,2.0,43,0.020222574,2.6871694e-09,0,-4.452085777256176e-08,2.0
179,179,325.10385,7190270.5,2738635.8,7694161.0,-20.850876,122.35272327812709,0.0059915828,-1.4506047e-07,0.00017875728,2.2646951e-05,2.0,43,0.020229686,2.6292257e-09,0,-4.455030759921029e-08,2.0
180,180,281.3503,7405610.5,2682664.8,7876532.0,-19.912798,123.02881237689871,0.0059966506,-1.478539e-07,0.0002108659,2.4460709e-05,2.0,43,0.020234413,2.5689495e-09,0,-4.457812842694686e-08,2.0
181,181,243.36427,7642210.0,2581755.8,8066525.5,-18.666431,123.71210011598305,0.006003414,-1.611693e-07,0.00025330757,2.5948093e-05,2.0,43,0.020258833,2.5114695e-09,0,-4.461001609024937e-08,2.0
182,182,210.60631,7784430.5,2484766.5,8171378.5,-17.702925,124.3891911614628,0.0060517075,-1.5656943e-07,0.00030413276,2.8121838e-05,2.0,43,0.020252105,2.4784197e-09,0,-4.4645758812079885e-08,2.0
183,183,182.27473,8318023.0,2184044.2,8599974.0,-14.711934,125.06127591340919,0.0060034697,-1.6699828e-07,0.00039979027,2.5784624e-05,2.0,43,0.020371135,2.3687439e-09,0,-4.4673247241296534e-08,2.0
184,184,157.72879,8110227.0,2382968.5,8453066.0,-16.373983,125.74964682614518,0.0060079414,-1.6781767e-07,0.000423439,3.3651075e-05,2.0,43,0.020253893,2.3960411e-09,0,-4.470233616343735e-08,2.0
185,185,136.52892,8363963.5,2425212.0,8708475.0,-16.170027,126.42151675131754,0.005994471,-1.5912077e-07,0.00048066865,3.7278718e-05,2.0,43,0.020287137,2.3295856e-09,0,-4.473166694473907e-08,2.0
186,186,118.14758,8434675.0,2382759.8,8764775.0,-15.774761,127.10988403740339,0.005997657,-1.5530307e-07,0.00056534697,4.178246e-05,2.0,43,0.020244647,2.3097737e-09,0,-4.47613253043917e-08,2.0
187,187,102.25773,8592478.0,2416538.5,8925824.0,-15.708045,127.77632446904317,0.006019903,-1.6563878e-07,0.0006440658,4.7208592e-05,2.0,43,0.020263724,2.2702356e-09,0,-4.47934733564084e-08,2.0
188,188,88.4436,8688155.0,2571338.0,9060674.0,-16.486597,128.46629463511636,0.0060133818,-1.6370201e-07,0.00069983315,5.6362707e-05,2.0,43,0.020224007,2.2320643e-09,0,-4.4824003485330095e-08,2.0
189,189,76.54279,8966591.0,2518953.2,9313693.0,-15.691462,129.13271330683347,0.0060061715,-1.5943736e-07,0.00082545937,6.0379858e-05,2.0,43,0.0202497,2.174186e-09,0,-4.485544157311081e-08,2.0
190,190,66.250786,9056347.0,2631872.8,9431022.0,-16.204437,129.80098987187375,0.005980441,-1.4593576e-07,0.000912776,7.108475e-05,2.0,43,0.020233857,2.1454574e-09,0,-4.488274896398221e-08,2.0
191,191,57.329906,9897054.0,2783718.0,10281088.0,-15.7095585,130.45564152966836,0.0059991474,-1.4524672e-07,0.0009972721,7.311155e-05,2.0,43,0.020251703,1.9698014e-09,0,-4.4912360810525425e-08,2.0
192,192,49.60321,9627161.0,2819944.5,10031666.0,-16.326124,131.14138092219946,0.005997601,-1.5252827e-07,0.0011378101,8.9909336e-05,2.0,43,0.020238921,2.0175035e-09,0,-4.494143429545093e-08,2.0
193,193,42.92585,10080965.0,2942817.5,10501716.0,-16.273487,131.84941924913437,0.0059919367,-1.5502374e-07,0.0012599053,9.893365e-05,2.0,43,0.02024562,1.9278392e-09,0,-4.4965837993741825e-08,2.0
194,194,37.1518,10169708.0,3063833.2,10621207.0,-16.766006,132.49316602639738,0.005978261,-1.5079634e-07,0.001398219,0.00011634767,2.0,43,0.02023667,1.905308e-09,0,-4.4988645494942066e-08,2.0
195,195,32.150223,10547145.0,3149765.8,11007420.0,-16.627562,133.13139821673394,0.0060104937,-1.4107518e-07,0.0015716574,0.00012868956,2.0,43,0.02025985,1.8405629e-09,0,-4.5021059204167894e-08,2.0
196,196,27.835518,10855882.0,3154005.5,11304774.0,-16.20039,133.8593289446144,0.0060089477,-1.6481012e-07,0.0018128353,0.00014111055,2.0,43,0.020252695,1.791517e-09,0,-4.505366045789892e-08,2.0
197,197,24.082958,10817326.0,3439492.8,11350976.0,-17.638659,134.56141223132727,0.0059999297,-1.630316e-07,0.0019213916,0.00017641613,2.0,43,0.02010831,1.771505e-09,0,-4.50878478874376e-08,2.0
198,198,20.833313,11619038.0,3335347.5,12088283.0,-16.016594,135.21576388909307,0.005991713,-1.3729473e-07,0.0022904493,0.00017437075,2.0,43,0.020251753,1.6753209e-09,0,-4.511743907832856e-08,2.0
199,199,18.021912,11729664.0,3472905.5,12232992.0,-16.492907,135.96174872452684,0.0061312183,-1.9280967e-07,0.0025428827,0.00020494951,2.0,43,0.02023338,1.6540008e-09,0,-4.514019554240159e-08,2.0
200,200,15.604198,12146324.0,3440494.5,12624191.0,-15.814983,136.61699472897453,0.0059796027,-1.2820676e-07,0.0029645434,0.00022018739,2.0,43,0.020256402,1.6045703e-09,0,-4.516810870305863e-08,2.0
201,201,13.500899,12610019.0,3527746.5,13094181.0,-15.629358,137.36396289776894,0.0060117235,-1.5394366e-07,0.0033416431,0.00024254824,2.0,43,0.02025715,1.5470346e-09,0,-4.520265218791078e-08,2.0
202,202,11.686608,13145482.0,3710036.5,13658992.0,-15.760607,137.95488324583857,0.0060347337,-1.7154225e-07,0.003670739,0.0002708149,2.0,43,0.020303514,1.4864577e-09,0,-4.5231274365378956e-08,2.0
203,203,10.113269,13241595.0,3488193.5,13693332.0,-14.757981,138.62854773111758,0.006038404,-1.770174e-07,0.0045115734,0.00029275942,2.0,43,0.020233257,1.4775993e-09,0,-4.526353723246935e-08,2.0
204,204,8.748621,13725659.0,3506701.2,14166533.0,-14.331646,139.39438528750907,0.006003777,-1.661789e-07,0.0051877825,0.0003178719,2.0,43,0.020258205,1.4300044e-09,0,-4.530894236149052e-08,2.0
205,205,7.570237,13970210.0,3384680.5,14374381.0,-13.619103,140.2700206891459,0.006010205,-1.5753787e-07,0.006211449,0.00034438958,2.0,43,0.020247713,1.4085972e-09,0,-4.5335394107576475e-08,2.0
206,206,6.554112,14423517.0,3465954.0,14834105.0,-13.511921,140.80631439460558,0.0060641533,-1.8090958e-07,0.0070062154,0.00038247794,2.0,43,0.020267593,1.3662835e-09,0,-4.537199456141414e-08,2.0
207,207,5.669445,14674069.0,3338041.5,15048948.0,-12.815499,141.41613925024285,0.0060059107,-1.4187597e-07,0.008409842,0.00041377003,2.0,43,0.020243738,1.3451928e-09,0,-4.538971155453157e-08,2.0
208,208,4.907347,14975745.0,3144087.5,15302229.0,-11.856778,142.10855216308846,0.0060506267,-1.7204508e-07,0.010315225,0.0004354703,2.0,43,0.020228526,1.3219332e-09,0,-4.544021606031798e-08,2.0
209,209,4.245922,15126989.0,3132004.2,15447823.0,-11.6976595,142.89633452051203,0.0060153287,-1.5410195e-07,0.011968115,0.0004919669,2.0,43,0.020247228,1.3106849e-09,0,-4.545401765932904e-08,2.0
210,210,3.6747382,15395651.0,3317082.0,15748940.0,-12.158838,143.7959572832915,0.0060229027,-1.5217447e-07,0.013056823,0.00057922496,2.0,43,0.020264689,1.2867335e-09,0,-4.550375950423715e-08,2.0
211,211,3.180988,15797877.0,3036488.8,16087050.0,-10.880055,144.8241901321162,0.0059818197,-1.629478e-07,0.016477313,0.0005870525,2.0,43,0.020258311,1.2592931e-09,0,-4.557264642437916e-08,2.0
212,212,2.752818,16099613.0,3207883.0,16416091.0,-11.268728,146.00312653477886,0.006024959,-1.6274605e-07,0.018022874,0.000688211,2.0,43,0.02025905,1.2340972e-09,0,-4.5611157619739356e-08,2.0
