True,index,freq,Re(Z),Im(Z),Z,Phase(Z),time,Ewe_meas,I_meas,Cs,Cp,cycle_number,I_Range,Ewe,I,Ns,(QQo),cycle
0,0,7000018.5,174.93442,1648.0732,1657.3314,-83.94104,2.468477957212599,-0.015203673,9.03551e-06,1.3795723e-05,1.3642022e-05,1.0,40,0.010023358,6.04789e-06,0,2.9358039242121474e-09,1.0
1,1,6057573.0,349.5656,1878.7942,1911.0374,-79.46015,3.0204835034382995,-0.015173155,-1.5877215e-05,1.398435e-05,1.3516441e-05,1.0,40,0.014141555,7.3999363e-06,0,1.1965778495298057e-09,1.0
2,2,5242039.0,217.60307,2130.2048,2141.2903,-84.1674,3.4364867232216056,-0.015164565,-6.295425e-06,1.4252745e-05,1.4105554e-05,1.0,40,0.019651212,9.177276e-06,0,2.160641387591669e-09,1.0
3,3,4536288.0,170.25943,2474.363,2480.2139,-86.06371,4.804494174866704,-0.015182582,-1.41282835e-05,1.41793425e-05,1.4112523e-05,1.0,40,0.020226218,8.15503e-06,0,-8.915410594479707e-09,1.0
4,4,3925558.5,215.33119,2849.164,2857.2896,-85.67798,5.221495287987636,-0.01519527,-1.1932855e-05,1.42298795e-05,1.4149061e-05,1.0,40,0.0189205,6.621835e-06,0,-1.1059670412167734e-08,1.0
5,5,3397055.0,274.56784,3226.237,3237.8994,-85.13558,5.637480027711717,-0.015206394,-2.434265e-05,1.4521827e-05,1.44174055e-05,1.0,40,0.019822484,6.12202e-06,0,-1.0947790544681388e-08,1.0
6,6,2939708.2,288.14224,3710.9905,3722.1602,-85.56014,6.053498874156503,-0.015245986,-2.1650228e-06,1.4589018e-05,1.450159e-05,1.0,40,0.021652555,5.8172013e-06,0,-1.334262027055249e-08,1.0
7,7,2543924.5,324.97958,4249.474,4261.8823,-85.6268,6.605478660407243,-0.015271734,-5.1604866e-06,1.4722472e-05,1.4636869e-05,1.0,40,0.02072043,4.861802e-06,0,-1.624477923712675e-08,1.0
8,8,2201436.2,524.6287,4750.5166,4779.398,-83.69801,7.157497833279194,-0.015247439,-1.1635164e-05,1.5218547e-05,1.5035174e-05,1.0,40,0.020839224,4.3602195e-06,0,-2.204066696760915e-08,1.0
9,9,1905053.1,287.16595,5633.9136,5641.2275,-87.08211,7.876486854074756,-0.015252041,-2.6170378e-06,1.4828693e-05,1.4790266e-05,1.0,41,0.019410059,3.440751e-06,0,-2.195089211410719e-08,1.0
10,10,1648567.4,217.63126,6575.9336,6579.5337,-88.104485,8.42848570694332,-0.015261543,4.5371036e-07,1.4681013e-05,1.4664952e-05,1.0,41,0.019962251,3.0339918e-06,0,-2.2657071737912007e-08,1.0
11,11,1426616.2,220.05959,7645.0913,7648.258,-88.35123,8.98049922651262,-0.0152831,1.4183194e-06,1.45925205e-05,1.458044e-05,1.0,41,0.020236332,2.6458747e-06,0,-2.3027418112784895e-08,1.0
12,12,1234551.2,214.23782,8801.96,8804.566,-88.605705,9.532495706080226,-0.015267431,1.274931e-06,1.4646424e-05,1.4637753e-05,1.0,41,0.02085857,2.3690625e-06,0,-2.4133357065166036e-08,1.0
13,13,1068345.5,398.2733,10211.771,10219.535,-87.76652,10.084502745623467,-0.015245091,1.446252e-06,1.458839e-05,1.45662325e-05,1.0,41,0.02065698,2.0213229e-06,0,-2.46259034047023e-08,1.0
14,14,924510.06,197.71436,11773.87,11775.53,-89.03794,10.63649613186135,-0.0152441785,-5.518665e-07,1.462141e-05,1.4617287e-05,1.0,41,0.020278998,1.7221304e-06,0,-2.5192246422998702e-08,1.0
15,15,800039.0,-845.3053,12003.621,12033.348,-94.02817,11.188485464750556,-0.015293646,7.4979766e-07,1.657283e-05,1.649105e-05,1.0,41,0.020538026,1.7067592e-06,0,-2.4364297358832943e-08,1.0
16,16,692334.1,350.08636,15771.934,15775.818,-88.728424,11.74048847760423,-0.015271772,1.844758e-06,1.4575366e-05,1.4568189e-05,1.0,41,0.02031432,1.2876873e-06,0,-2.5045316591505046e-08,1.0
17,17,599122.25,454.25266,18004.299,18010.03,-88.55472,12.292500557174208,-0.015257258,-5.466477e-08,1.4754635e-05,1.4745247e-05,1.0,41,0.020855613,1.1579999e-06,0,-2.5261942342723387e-08,1.0
18,18,518454.94,529.5453,20830.943,20837.674,-88.54379,12.844483223365387,-0.015245464,1.0738166e-06,1.4736698e-05,1.4727179e-05,1.0,41,0.020322904,9.752962e-07,0,-2.3800501341384796e-08,1.0
19,19,448662.03,563.67865,23730.305,23736.998,-88.63928,13.396488529600902,-0.015247607,8.8015014e-07,1.4948495e-05,1.4940067e-05,1.0,41,0.02028916,8.5474835e-07,0,-2.404418082989284e-08,1.0
20,20,388258.97,1321.8856,27522.207,27553.934,-87.250206,13.948496982484357,-0.01528202,3.0179312e-06,1.4894138e-05,1.4859859e-05,1.0,41,0.02079954,7.5486645e-07,0,-2.4633209576797475e-08,1.0
21,21,335983.9,1117.0886,31031.771,31051.871,-87.93835,14.50049900871818,-0.01526145,1.9229694e-06,1.5264939e-05,1.5245183e-05,1.0,41,0.020205844,6.507126e-07,0,-2.4280512299385116e-08,1.0
22,22,290751.2,1776.4711,37286.656,37328.95,-87.272285,15.05250058157253,-0.015279411,1.8373096e-06,1.4680647e-05,1.4647399e-05,1.0,41,0.02064772,5.5312887e-07,0,-2.34676934315227e-08,1.0
23,23,251605.19,2113.5059,43001.55,43053.457,-87.1862,15.604480607813457,-0.015249917,1.7181297e-06,1.4710127e-05,1.4674679e-05,1.0,41,0.020317972,4.7192427e-07,0,-2.2772463104579465e-08,1.0
24,24,217729.38,2787.9817,49271.637,49350.45,-86.76144,16.156498794007348,-0.015275107,1.4090084e-06,1.4835635e-05,1.4788287e-05,1.0,41,0.020373363,4.1283036e-07,0,-2.221150748951888e-08,1.0
25,25,188418.58,2080.9595,55719.445,55758.29,-87.86116,16.875492854829645,-0.015270393,-3.4612086e-07,1.5159666e-05,1.5138551e-05,1.0,42,0.019727645,3.538065e-07,0,-2.1174659043862694e-08,1.0
26,26,163051.14,2991.5984,63999.332,64069.215,-87.3237,17.2914953813015,-0.015242595,-5.586334e-07,1.5251791e-05,1.52185385e-05,1.0,42,0.021645581,3.3784684e-07,0,-2.126580385993688e-08,1.0
27,27,141098.2,3011.2747,72985.68,73047.77,-87.637405,17.843485487479484,-0.015248501,-7.709597e-07,1.5454714e-05,1.5428452e-05,1.0,42,0.020277219,2.7758847e-07,0,-2.130355031735339e-08,1.0
28,28,122105.11,4490.7583,85108.305,85226.7,-86.979576,18.395495673728874,-0.015276765,-2.624941e-07,1.5314909e-05,1.5272386e-05,1.0,42,0.020374164,2.3905847e-07,0,-2.1274323027707708e-08,1.0
29,29,105663.59,4490.5723,95869.92,95975.03,-87.318214,18.81148812014726,-0.015233521,-5.265981e-07,1.571131e-05,1.5676915e-05,1.0,42,0.021755414,2.2667786e-07,0,-2.1355139581566243e-08,1.0
30,30,91439.65,6471.983,111243.89,111432.0,-86.67038,19.36350083971047,-0.0152353095,-5.632897e-07,1.564622e-05,1.559344e-05,1.0,42,0.020356786,1.8268348e-07,0,-2.1395823447626878e-08,1.0
31,31,79127.08,7250.5493,130949.74,131150.31,-86.830826,19.779498939431505,-0.015265269,-3.9976106e-07,1.5359969e-05,1.5313026e-05,1.0,42,0.021421118,1.6333257e-07,0,-2.1429277900675972e-08,1.0
32,32,68475.36,9305.102,149761.48,150050.28,-86.444626,20.33150160565856,-0.015213977,-6.5883654e-07,1.5519783e-05,1.54601e-05,1.0,42,0.020170193,1.3442289e-07,0,-2.139516062450417e-08,1.0
33,33,59252.523,9309.935,170097.05,170351.64,-86.86715,20.747495012095897,-0.015268978,-4.4353015e-07,1.579125e-05,1.5744085e-05,1.0,42,0.02085831,1.2244267e-07,0,-2.1468261603347224e-08,1.0
34,34,51282.285,8304.365,196230.44,196406.08,-87.57672,21.163495591870742,-0.015269686,-3.08498e-07,1.5815627e-05,1.5787353e-05,1.0,42,0.021404022,1.0897841e-07,0,-2.1509143631785428e-08,1.0
35,35,44369.8,16206.954,233262.6,233824.94,-86.025505,21.57947873158264,-0.015248277,-5.807972e-07,1.5377564e-05,1.5303687e-05,1.0,42,0.021877825,9.356498e-08,0,-2.158542619808178e-08,1.0
36,36,38403.727,23964.86,266333.3,267409.3,-84.85833,22.131492864486063,-0.015239316,-6.6032646e-07,1.5560418e-05,1.5435446e-05,1.0,42,0.020250853,7.57298e-08,0,-2.160058384996328e-08,1.0
37,37,33226.32,27024.996,304660.78,305857.06,-84.93083,22.547480217559496,-0.015266108,-2.8558912e-07,1.572249e-05,1.5599742e-05,1.0,42,0.020454444,6.687583e-08,0,-2.171954485051581e-08,1.0
38,38,28754.086,34330.33,349237.72,350921.0,-84.38582,22.96349858402391,-0.0152574815,-4.5172519e-07,1.5848911e-05,1.569723e-05,1.0,42,0.020550044,5.8560314e-08,0,-2.1770106502461387e-08,1.0
39,39,24884.947,47807.78,402298.34,405129.03,-83.222946,23.3794896704203,-0.015258245,-3.913799e-07,1.5897733e-05,1.5676349e-05,1.0,42,0.020597026,5.0840654e-08,0,-2.1821963806828856e-08,1.0
40,40,21553.963,56170.11,446106.3,449628.66,-82.82354,23.796483503567288,-0.0152642075,-4.921417e-07,1.6552158e-05,1.6293838e-05,1.0,42,0.020519268,4.5636032e-08,0,-2.1874500753299714e-08,1.0
41,41,18631.234,75093.52,538127.5,543341.75,-82.05591,24.378504464548314,-0.015250271,-4.6701328e-07,1.5874253e-05,1.5571037e-05,1.0,43,0.020207759,3.719162e-08,0,-2.195349183087282e-08,1.0
42,42,16126.037,85161.59,610534.1,616445.0,-82.05922,24.794496830989374,-0.015245035,-4.86288e-07,1.6165253e-05,1.5856735e-05,1.0,43,0.019974757,3.2403147e-08,0,-2.1999601429052688e-08,1.0
43,43,13954.87,228590.53,646029.9,685279.7,-70.51424,25.21050090409699,-0.015243992,-4.918004e-07,1.7653943e-05,1.5689577e-05,1.0,43,0.019779846,2.8863901e-08,0,-2.2051165625980158e-08,1.0
44,44,12080.609,148374.84,800450.4,814085.94,-79.498604,25.627486203884473,-0.015224988,-4.884669e-07,1.645875e-05,1.5912015e-05,1.0,43,0.019307576,2.3716877e-08,0,-2.2098130895584372e-08,1.0
45,45,10447.592,180449.56,944131.56,961221.3,-79.179695,26.043500170315383,-0.015238086,-4.823958e-07,1.613509e-05,1.5566453e-05,1.0,43,0.018851206,1.9611722e-08,0,-2.2148071775907842e-08,1.0
46,46,9045.586,211982.72,1017939.3,1039777.44,-78.23646,26.47526400416973,-0.015259122,-4.246834e-07,1.7284689e-05,1.6566262e-05,1.0,43,0.021359565,2.0542439e-08,0,-2.220238653931286e-08,1.0
47,47,7827.7437,303512.9,1213604.2,1250981.8,-75.958786,26.955940426996676,-0.015244272,-4.312573e-07,1.6753535e-05,1.576735e-05,1.0,43,0.021398433,1.7105311e-08,0,-2.2261938410071342e-08,1.0
48,48,6770.8345,368529.25,1385482.6,1433658.2,-75.10461,27.494412852538517,-0.015223591,-4.6226444e-07,1.6965898e-05,1.5844837e-05,1.0,43,0.021408139,1.4932526e-08,0,-2.2335403267403415e-08,1.0
49,49,5860.798,454631.2,1551508.1,1616745.8,-73.668076,28.099996641336475,-0.015172185,-4.7502115e-07,1.7502873e-05,1.6118847e-05,1.0,43,0.021378422,1.32231195e-08,0,-2.2416396264782116e-08,1.0
50,50,5071.625,596972.56,1757923.6,1856521.4,-71.24305,28.780706780366017,-0.015220628,-4.510348e-07,1.785143e-05,1.6005642e-05,1.0,43,0.021418892,1.153711e-08,0,-2.2502211507418885e-08,1.0
51,51,4388.5933,703918.75,2014363.9,2133814.2,-70.73805,29.460812865989283,-0.015244812,-4.3228155e-07,1.8003499e-05,1.6044254e-05,1.0,43,0.02145608,1.005527e-08,0,-2.2583428479786337e-08,1.0
52,52,3798.7827,925927.8,2182530.0,2370818.2,-67.01115,30.140808311625733,-0.015262717,-4.335293e-07,1.9196208e-05,1.6268195e-05,1.0,43,0.021410944,9.0310355e-09,0,-2.266097320702709e-08,1.0
53,53,3286.0488,1049602.8,2439602.8,2655810.2,-66.72093,30.820721863929066,-0.015277566,-4.2483236e-07,1.985304e-05,1.6752174e-05,1.0,43,0.021402797,8.058858e-09,0,-2.2739717295389025e-08,1.0
54,54,2844.088,1402693.0,2627783.8,2978723.8,-61.907005,31.50082117621787,-0.01526417,-4.1453393e-07,2.1295482e-05,1.6573196e-05,1.0,43,0.021415612,7.189526e-09,0,-2.281800941193235e-08,1.0
55,55,2460.7852,1718108.9,2838240.5,3317756.2,-58.81168,32.180698835189105,-0.015266593,-4.345908e-07,2.278753e-05,1.6676568e-05,1.0,43,0.021439135,6.461938e-09,0,-2.289815785708808e-08,1.0
56,56,2129.3164,2040966.5,3012855.5,3639071.8,-55.88553,32.860834120816435,-0.015312315,-4.1090246e-07,2.4808565e-05,1.7005013e-05,1.0,43,0.021405881,5.8822365e-09,0,-2.297544771685494e-08,1.0
57,57,1843.2289,2414855.0,3112456.5,3939404.8,-52.193264,33.54096033977112,-0.015240024,-4.4034527e-07,2.7741986e-05,1.731741e-05,1.0,43,0.021388715,5.429428e-09,0,-2.305646593448977e-08,1.0
58,58,1594.4913,2852665.0,3265591.5,4336102.5,-48.861088,34.22081765207986,-0.015219585,-4.42878e-07,3.0565825e-05,1.7336473e-05,1.0,43,0.02141384,4.9385e-09,0,-2.313447444237493e-08,1.0
59,59,1380.4436,3283634.2,3365979.5,4702347.5,-45.709484,34.90067915104737,-0.015260612,-4.3431146e-07,3.425232e-05,1.7550257e-05,1.0,43,0.021423718,4.5559623e-09,0,-2.3208530827739438e-08,1.0
60,60,1194.6187,3615189.0,3399690.0,4962608.5,-43.24041,35.58080758334836,-0.015228453,-4.2604287e-07,3.918786e-05,1.8391203e-05,1.0,43,0.021374613,4.3071324e-09,0,-2.3288774956545505e-08,1.0
61,61,1033.3434,4156082.5,3363132.8,5346371.0,-38.98004,36.26106438896386,-0.015191115,-4.550946e-07,4.5796412e-05,1.8121798e-05,1.0,43,0.021419495,4.0063615e-09,0,-2.3373539049107906e-08,1.0
62,62,894.71045,4542612.5,3333557.8,5634530.5,-36.27277,36.94081500793982,-0.015221001,-4.2479516e-07,5.33617e-05,1.867799e-05,1.0,43,0.021395728,3.7972514e-09,0,-2.3452072670068978e-08,1.0
63,63,774.2569,4799548.0,3281945.0,5814363.5,-34.364437,37.62097714690026,-0.015243173,-4.4064325e-07,6.263308e-05,1.9955472e-05,1.0,43,0.021328986,3.668327e-09,0,-2.3530130762870114e-08,1.0
64,64,669.7856,5416940.5,3128902.0,6255659.0,-30.011343,38.30083875253331,-0.0152695365,-4.2527935e-07,7.594381e-05,1.8998975e-05,1.0,43,0.021442344,3.4276715e-09,0,-2.3615223818043693e-08,1.0
65,65,579.81464,5718033.5,2974396.8,6445381.5,-27.48247,38.98082905150659,-0.015235347,-4.3500052e-07,9.22852e-05,1.965317e-05,1.0,43,0.021416998,3.322844e-09,0,-2.3700667399442975e-08,1.0
66,66,501.44418,6063656.0,2791667.0,6675427.0,-24.72103,39.65818452366511,-0.015156702,-4.9051545e-07,0.00011369305,1.9883968e-05,1.0,43,0.02143561,3.2111218e-09,0,-2.3784832048075304e-08,1.0
67,67,434.02762,6310569.0,2592454.2,6822323.5,-22.333422,40.33823026259779,-0.015246117,-4.143291e-07,0.00014144633,2.0424397e-05,1.0,43,0.02141294,3.138658e-09,0,-2.386166841287343e-08,1.0
68,68,375.6009,6559042.5,2425922.8,6993292.5,-20.297382,41.016425601468654,-0.015192326,-4.513142e-07,0.00017466929,2.101876e-05,1.0,43,0.021377757,3.0568945e-09,0,-2.3941419553818467e-08,1.0
69,69,325.10385,6804531.0,2213094.2,7155377.5,-18.01651,41.695704567129724,-0.015210418,-4.3390176e-07,0.0002212066,2.1160837e-05,1.0,43,0.021406896,2.9917215e-09,0,-2.402344050173862e-08,1.0
70,70,281.3503,7035052.5,2013718.0,7317583.0,-15.973275,42.3727808126132,-0.015221913,-4.352985e-07,0.00028091445,2.127336e-05,1.0,43,0.02143024,2.9285954e-09,0,-2.4109674654524107e-08,1.0
71,71,243.36427,7219519.0,1843106.4,7451073.5,-14.321416,43.056109405035386,-0.015238812,-4.4965674e-07,0.00035482395,2.171081e-05,1.0,43,0.02142564,2.8755105e-09,0,-2.4187004553144488e-08,1.0
72,72,210.60631,7280715.0,1652038.8,7465791.5,-12.784291,43.733174317196244,-0.015264673,-4.155396e-07,0.0004574341,2.2398415e-05,1.0,43,0.021405281,2.8671148e-09,0,-2.427251150010084e-08,1.0
73,73,182.27473,7393751.5,1651383.1,7575924.0,-12.590286,44.40526128243073,-0.015223889,-4.271603e-07,0.0005287444,2.5122928e-05,1.0,43,0.021411814,2.8262974e-09,0,-2.4352577287178484e-08,1.0
74,74,157.72879,7535024.0,1344891.1,7654104.5,-10.11989,45.093624781859035,-0.015242819,-4.1445946e-07,0.0007502777,2.3163677e-05,1.0,43,0.021402838,2.7962563e-09,0,-2.4431553037389556e-08,1.0
75,75,136.52892,7673825.5,1146528.5,7759003.0,-8.497572,45.765534040372586,-0.015246452,-4.2524212e-07,0.0010167416,2.2200793e-05,1.0,43,0.021458471,2.7656222e-09,0,-2.451145305031334e-08,1.0
76,76,118.14758,7734727.0,1109643.9,7813918.0,-8.164094,46.45390836644219,-0.015261096,-4.224673e-07,0.0012139804,2.448168e-05,1.0,43,0.021431455,2.7427285e-09,0,-2.4595990121125626e-08,1.0
77,77,102.25773,7625792.0,1024980.0,7694367.5,-7.6552258,47.120345651434036,-0.01524103,-4.4680743e-07,0.0015184784,2.694595e-05,1.0,43,0.021368822,2.7772031e-09,0,-2.467670491398868e-08,1.0
78,78,88.4436,7794598.0,862998.3,7842227.0,-6.317913,47.810289097513305,-0.015238142,-4.2857565e-07,0.002085181,2.5251362e-05,1.0,43,0.021404823,2.7294318e-09,0,-2.4756044229988018e-08,1.0
79,79,76.54279,7841810.0,803333.1,7882850.5,-5.8491077,48.47772923592129,-0.0152325705,-4.1073488e-07,0.0025883329,2.6880969e-05,1.0,43,0.021426408,2.718104e-09,0,-2.4833063172627024e-08,1.0
80,80,66.250786,7854081.0,752962.2,7890091.5,-5.4761477,49.14598289431888,-0.015203878,-4.2175964e-07,0.0031904792,2.9056158e-05,1.0,43,0.021397939,2.7120013e-09,0,-2.4909044565854434e-08,1.0
81,81,57.329906,8026535.0,362597.56,8034721.0,-2.58657,49.80064452542865,-0.015193183,-4.6867072e-07,0.0076562134,1.5592732e-05,1.0,43,0.021397913,2.6631806e-09,0,-2.498887991978803e-08,1.0
82,82,49.60321,7871504.0,620718.2,7895940.0,-4.508806,50.48637058460736,-0.01524267,-4.202698e-07,0.005169111,3.1944575e-05,1.0,43,0.021379774,2.707692e-09,0,-2.5070304835343164e-08,1.0
83,83,42.92585,7888584.5,404919.97,7898970.0,-2.9384058,51.19440896491869,-0.015215634,-4.3393905e-07,0.009156554,2.4061877e-05,1.0,43,0.021363914,2.7046456e-09,0,-2.5147076626870014e-08,1.0
84,84,37.1518,7943824.0,518978.06,7960758.5,-3.7378795,51.83817870213534,-0.015261897,-4.012372e-07,0.00825451,3.508168e-05,1.0,43,0.021410262,2.689475e-09,0,-2.5223090441481214e-08,1.0
85,85,32.150223,7974376.0,482811.75,7988978.5,-3.4647663,52.47736561248894,-0.015269909,-4.0721514e-07,0.010253173,3.7448244e-05,1.0,43,0.021394797,2.6780391e-09,0,-2.5296797014114887e-08,1.0
86,86,27.835518,7965378.5,507370.03,7981521.0,-3.6446407,53.20532735376037,-0.015228686,-4.3222573e-07,0.011269276,4.5538036e-05,1.0,43,0.021393755,2.6804108e-09,0,-2.5383456469353386e-08,1.0
87,87,24.082958,7921565.0,500980.8,7937391.0,-3.618718,53.907379760436015,-0.015209859,-4.2537246e-07,0.013191349,5.255038e-05,1.0,43,0.021405289,2.6967664e-09,0,-2.546732775565758e-08,1.0
88,88,20.833313,8064405.0,426000.94,8075649.0,-3.02383,54.56176461822179,-0.015240713,-4.1272753e-07,0.01793293,4.9901944e-05,1.0,43,0.021405255,2.6505926e-09,0,-2.553500869351957e-08,1.0
89,89,18.021912,8002330.0,437628.4,8014287.5,-3.130252,55.30775390699273,-0.0152259,-3.686285e-07,0.020179657,6.017207e-05,1.0,43,0.02139943,2.67016e-09,0,-2.5631286890625685e-08,1.0
90,90,15.604198,8066236.0,441709.22,8078321.0,-3.1344016,55.96203476472874,-0.015228118,-4.14925e-07,0.023090972,6.9035574e-05,1.0,43,0.021416863,2.6511529e-09,0,-2.570073310819956e-08,1.0
91,91,13.500899,8133585.0,460299.6,8146599.5,-3.2390542,56.709965466929134,-0.015242259,-4.124296e-07,0.02561043,8.176083e-05,1.0,43,0.02141509,2.6287152e-09,0,-2.578561084976711e-08,1.0
92,92,11.686608,8108031.5,480105.75,8122233.5,-3.3887327,57.300885494973045,-0.015272257,-3.9065938e-07,0.02836578,9.911003e-05,1.0,43,0.021391414,2.6336862e-09,0,-2.5854790407624704e-08,1.0
93,93,10.113269,8058772.5,465891.34,8072228.5,-3.3086836,57.974506113590905,-0.015221317,-4.3453494e-07,0.03377878,0.00011251912,1.0,43,0.021383949,2.6490763e-09,0,-2.5953939213034992e-08,1.0
94,94,8.748621,8192692.5,429126.06,8203923.5,-2.9983628,58.741409563372144,-0.015255954,-4.1426395e-07,0.042393144,0.00011599044,1.0,43,0.0214192,2.6108482e-09,0,-2.604253241492148e-08,1.0
95,95,7.570237,8194598.5,450417.5,8206968.0,-3.1461065,59.616999178309925,-0.015200469,-4.2988856e-07,0.04667619,0.00014059193,1.0,43,0.021402402,2.607833e-09,0,-2.6119518516348936e-08,1.0
96,96,6.554112,8240151.0,500761.06,8255353.0,-3.4776368,60.1532956037845,-0.015256699,-3.9620903e-07,0.04849263,0.00017842905,1.0,43,0.02139919,2.5921594e-09,0,-2.621736398820751e-08,1.0
97,97,5.669445,8154240.5,534079.4,8171712.0,-3.747357,60.7631241127674,-0.015182898,-4.5388416e-07,0.05256223,0.0002245222,1.0,43,0.021378301,2.6161349e-09,0,-2.6247408799762667e-08,1.0
98,98,4.907347,8242165.0,468597.06,8255475.0,-3.2539704,61.455536438938,-0.015262848,-4.0736413e-07,0.06921078,0.00022299173,1.0,43,0.021385409,2.5904516e-09,0,-2.6366454125979784e-08,1.0
99,99,4.245922,8371479.0,538582.94,8388786.0,-3.681077,62.243311303056544,-0.015233568,-4.2160138e-07,0.0695978,0.00028688146,1.0,43,0.021420969,2.5535243e-09,0,-2.643680032061334e-08,1.0
100,100,3.6747382,8351528.5,623696.9,8374785.0,-4.270953,63.14290974580217,-0.015240415,-4.2690888e-07,0.06944167,0.00038514117,1.0,43,0.021412136,2.5567386e-09,0,-2.6508939708011504e-08,1.0
101,101,3.180988,8439178.0,683319.0,8466797.0,-4.6291323,64.17223728800309,-0.015256299,-4.054646e-07,0.07322082,0.0004769175,1.0,43,0.021417683,2.5296087e-09,0,-2.667177946854989e-08,1.0
102,102,2.752818,8453709.0,671395.5,8480328.0,-4.5409126,65.35116113067488,-0.015243843,-4.1449044e-07,0.0861121,0.0005397538,1.0,43,0.02140596,2.52419e-09,0,-2.682132232744921e-08,1.0
103,103,2.3804083,8442211.0,752722.5,8475702.0,-5.0951195,66.70500311499927,-0.015242427,-4.1452148e-07,0.088824704,0.0007005711,1.0,43,0.021401338,2.5250226e-09,0,-2.6920065004526855e-08,1.0
