True,index,freq,Re(Z),Im(Z),Z,Phase(Z),time,Ewe_meas,I_meas,Cs,Cp,cycle_number,I_Range,Ewe,I,Ns,(QQo),cycle
0,0,7000018.5,139.71562,1418.4994,1425.3634,-84.37477,2.467486090521561,-0.0094353445,1.4189205e-05,1.602846e-05,1.5874459e-05,1.0,40,0.009981665,7.0028914e-06,0,3.6371773669729004e-09,1.0
1,1,6057573.0,252.9918,1654.8342,1674.0613,-81.3079,3.019491530052619,-0.009438121,7.0018467e-07,1.5876947e-05,1.5514339e-05,1.0,40,0.014106892,8.426748e-06,0,-7.100105443542917e-10,1.0
2,2,5242039.0,211.92839,1905.2104,1916.9613,-83.652725,3.435486296453746,-0.009346285,-2.6165973e-05,1.5935913e-05,1.574114e-05,1.0,40,0.019532705,1.018941e-05,0,-4.731071753414856e-10,1.0
3,3,4536288.0,155.82802,2201.5771,2207.085,-85.95135,4.803486574819544,-0.009379896,-2.1886732e-05,1.593623e-05,1.5856791e-05,1.0,40,0.019579975,8.871419e-06,0,-1.110737589973117e-09,1.0
4,4,3925558.5,215.60196,2526.064,2535.2483,-85.121574,5.219490807881812,-0.009468565,1.6849675e-05,1.6049973e-05,1.5933898e-05,1.0,40,0.018551689,7.317504e-06,0,-3.0820954577216575e-09,1.0
5,5,3397055.0,299.3029,2872.0806,2887.6338,-84.05061,5.635495867667487,-0.009462044,-9.402521e-06,1.6312515e-05,1.6137266e-05,1.0,40,0.019466043,6.7411743e-06,0,-6.054616895400815e-09,1.0
6,6,2939708.2,264.74246,3315.47,3326.0232,-85.43458,6.051494820712833,-0.009462379,-1.580277e-05,1.632942e-05,1.6225962e-05,1.0,40,0.021285417,6.39966e-06,0,-4.278713646518402e-09,1.0
7,7,2543924.5,263.42264,3805.244,3814.3508,-86.03995,6.603495353629114,-0.009455858,4.9980526e-06,1.6441196e-05,1.6362781e-05,1.0,40,0.020864317,5.469952e-06,0,-6.32096521763338e-09,1.0
8,8,2201436.2,291.62723,4309.6597,4319.515,-86.12879,7.155491939833155,-0.009482371,-8.23038e-06,1.6775328e-05,1.6698867e-05,1.0,40,0.020706661,4.7937465e-06,0,-2.2909102168821644e-09,1.0
9,9,1905053.1,206.23051,5105.5747,5109.7383,-87.6869,7.707500179385534,-0.009488352,-4.6767495e-06,1.6363207e-05,1.6336551e-05,1.0,40,0.020590357,4.0296304e-06,0,-3.4048694068613055e-09,1.0
10,10,1648567.4,151.459,5811.7217,5813.695,-88.50716,8.426497520209523,-0.009490569,-2.900089e-06,1.6611491e-05,1.6600217e-05,1.0,41,0.018860169,3.2440933e-06,0,-9.565869938100491e-09,1.0
11,11,1426616.2,204.42957,6764.1226,6767.211,-88.2689,8.842485646629939,-0.0095055485,2.0421503e-06,1.649307e-05,1.647802e-05,1.0,41,0.021766936,3.2165299e-06,0,-9.63728449140591e-09,1.0
12,12,1234551.2,284.96622,7912.0,7917.1304,-87.93727,9.394493032858009,-0.009479278,-1.4591053e-07,1.6293889e-05,1.6272777e-05,1.0,41,0.021078734,2.662421e-06,0,-9.543514689928165e-09,1.0
13,13,1068345.5,181.61441,8977.996,8979.833,-88.84113,9.94650039242697,-0.009469645,-1.7362119e-06,1.6593156e-05,1.658637e-05,1.0,41,0.020735987,2.309173e-06,0,-1.0645761889492177e-08,1.0
14,14,924510.06,313.11865,10482.529,10487.205,-88.289055,10.498494098632364,-0.009490532,-4.5875717e-07,1.6422619e-05,1.6407977e-05,1.0,41,0.020274814,1.9332906e-06,0,-1.0184112546691419e-08,1.0
15,15,800039.0,187.32248,11790.926,11792.414,-89.08982,11.050498311495176,-0.009477899,-9.559585e-07,1.6871785e-05,1.6867527e-05,1.0,41,0.0209164,1.7737166e-06,0,-9.881984226101142e-09,1.0
16,16,692334.1,505.8485,13849.202,13858.4375,-87.90817,11.6024821777537,-0.009540707,4.038405e-06,1.6598913e-05,1.6576798e-05,1.0,41,0.020283485,1.4636199e-06,0,-9.242569818245745e-09,1.0
17,17,599122.25,560.9073,16244.785,16254.466,-88.02245,12.154500177275622,-0.009466887,-6.040069e-07,1.6352747e-05,1.6333275e-05,1.0,41,0.020493796,1.2608102e-06,0,-8.720739699242586e-09,1.0
18,18,518454.94,702.55994,18500.111,18513.447,-87.82518,12.706488896830706,-0.009482855,9.058586e-08,1.6593376e-05,1.656948e-05,1.0,41,0.020573147,1.1112543e-06,0,-8.242560406663478e-09,1.0
19,19,448662.03,804.0132,21513.207,21528.227,-87.85968,13.258491643035086,-0.009521889,3.656659e-06,1.6489052e-05,1.646605e-05,1.0,41,0.020126859,9.3490553e-07,0,-8.447954096204234e-09,1.0
20,20,388258.97,1123.4673,24725.861,24751.371,-87.398445,13.81048500261386,-0.009525894,3.6101048e-06,1.6578575e-05,1.654442e-05,1.0,41,0.020911524,8.448633e-07,0,-7.978896962891705e-09,1.0
21,21,335983.9,375.81958,26271.295,26273.982,-89.18042,14.362479562143562,-0.009474546,1.1259573e-06,1.8031014e-05,1.8027325e-05,1.0,41,0.020366136,7.751446e-07,0,-8.278513449823776e-09,1.0
22,22,290751.2,1711.8419,32876.543,32921.08,-87.01937,14.914489375049016,-0.009456696,-1.8311829e-06,1.6649932e-05,1.6604916e-05,1.0,41,0.020528523,6.2356776e-07,0,-7.567760089506079e-09,1.0
23,23,251605.19,2026.1196,38029.92,38083.855,-86.95034,15.466501614573644,-0.009464783,-1.8907728e-06,1.6633174e-05,1.6586095e-05,1.0,41,0.020366307,5.347754e-07,0,-7.938180073579086e-09,1.0
24,24,217729.38,2639.545,43645.01,43724.754,-86.53911,16.01850073414971,-0.00945202,-2.9354562e-06,1.6748214e-05,1.6687181e-05,1.0,41,0.020234356,4.627666e-07,0,-8.541077414675e-09,1.0
25,25,188418.58,3615.001,50190.78,50320.797,-85.88037,16.570484333700733,-0.009508548,1.3903865e-06,1.6829546e-05,1.6742693e-05,1.0,41,0.020872882,4.1479632e-07,0,-7.882492582584494e-09,1.0
26,26,163051.14,2472.4226,57204.81,57258.215,-87.525185,17.289497434539953,-0.009496698,-7.661172e-07,1.7063328e-05,1.7031512e-05,1.0,42,0.019144664,3.3435663e-07,0,-6.851244665761295e-09,1.0
27,27,141098.2,3680.4868,65296.617,65400.26,-86.7739,17.70549401428434,-0.00945556,-7.4395325e-07,1.7274597e-05,1.7219889e-05,1.0,42,0.020864837,3.1903292e-07,0,-6.882288697471416e-09,1.0
28,28,122105.11,4898.0366,76519.52,76676.125,-86.33748,18.25749444050598,-0.0094898045,-5.7520975e-07,1.7033897e-05,1.696439e-05,1.0,42,0.020282263,2.6451863e-07,0,-7.006534037591155e-09,1.0
29,29,105663.59,5462.9624,86296.48,86469.22,-86.37775,18.673496993578738,-0.0094549265,-1.0894491e-06,1.745427e-05,1.7384602e-05,1.0,42,0.021696402,2.5091475e-07,0,-7.046142292568429e-09,1.0
30,30,91439.65,7183.292,98675.75,98936.87,-85.83639,19.22549653981696,-0.009516206,-4.5209768e-07,1.7639048e-05,1.7546065e-05,1.0,42,0.020429585,2.0649112e-07,0,-7.3284567209428685e-09,1.0
31,31,79127.08,7598.637,114230.6,114483.055,-86.19428,19.641489306202857,-0.009498394,-4.930729e-07,1.7608101e-05,1.753053e-05,1.0,42,0.021490289,1.877159e-07,0,-7.369583872714358e-09,1.0
32,32,68475.36,9766.959,132076.2,132436.84,-85.770706,20.193490879115416,-0.009542178,-1.0920925e-07,1.7597917e-05,1.7502203e-05,1.0,42,0.020219246,1.5267085e-07,0,-7.422582056566935e-09,1.0
33,33,59252.523,12365.74,150597.33,151104.16,-85.3059,20.60948004553211,-0.009497854,-3.0868438e-07,1.783594e-05,1.7716491e-05,1.0,42,0.020916872,1.3842684e-07,0,-7.531340467340817e-09,1.0
34,34,51282.285,11309.65,173228.88,173597.67,-86.26461,21.025497851980617,-0.009483992,-5.586333e-07,1.7915647e-05,1.7839606e-05,1.0,42,0.021481939,1.2374555e-07,0,-7.558307088975387e-09,1.0
35,35,44369.8,16756.041,202055.22,202748.8,-85.25942,21.441487391741248,-0.009443803,-8.73584e-07,1.7752625e-05,1.7631373e-05,1.0,42,0.021918952,1.08108914e-07,0,-7.652748573782335e-09,1.0
36,36,38403.727,21440.562,231230.19,232222.1,-84.70246,21.993498991272645,-0.009407192,-9.568383e-07,1.792265e-05,1.776987e-05,1.0,42,0.020247534,8.719039e-08,0,-7.752502771333682e-09,1.0
37,37,33226.32,29575.477,263557.84,265212.06,-83.59727,22.409491331054596,-0.009495785,-5.770722e-07,1.8174478e-05,1.7948463e-05,1.0,42,0.020418102,7.698783e-08,0,-7.767246244678679e-09,1.0
38,38,28754.086,36846.48,302934.4,305167.03,-83.06507,22.825486417481443,-0.00945297,-8.0373985e-07,1.8271407e-05,1.8005034e-05,1.0,42,0.02053992,6.730714e-08,0,-7.80060308269401e-09,1.0
39,39,24884.947,45605.957,347916.44,350892.78,-82.532074,23.24147937053931,-0.009474229,-5.9588365e-07,1.8382665e-05,1.8072136e-05,1.0,42,0.020577732,5.8643934e-08,0,-7.91088268415368e-09,1.0
40,40,21553.963,75335.5,397614.9,404688.84,-79.27143,23.658496803691378,-0.009479483,-5.8861974e-07,1.8570789e-05,1.792723e-05,1.0,42,0.020567045,5.082187e-08,0,-7.963365782810822e-09,1.0
41,41,18631.234,66830.414,460488.1,465312.34,-81.74235,24.240489204676123,-0.009524721,-6.1579175e-07,1.855069e-05,1.8168026e-05,1.0,43,0.020184765,4.3378957e-08,0,-8.027327554126916e-09,1.0
42,42,16126.037,81548.69,527989.3,534249.9,-81.21996,24.65648399773636,-0.009486805,-6.394428e-07,1.8692497e-05,1.8256971e-05,1.0,43,0.020016544,3.7466634e-08,0,-8.09469739291646e-09,1.0
43,43,13954.87,41962.918,574715.06,576245.0,-85.82395,25.072504337498685,-0.009453733,-6.50393e-07,1.9844574e-05,1.9739338e-05,1.0,43,0.01956594,3.3954205e-08,0,-8.166146280863367e-09,1.0
44,44,12080.609,120384.13,686148.7,696629.3,-80.04879,25.488490677293157,-0.009492786,-6.0953437e-07,1.9200521e-05,1.8627134e-05,1.0,43,0.019308135,2.7716512e-08,0,-8.232155036250299e-09,1.0
45,45,10447.592,149380.52,791760.7,805729.2,-79.31567,25.904486883693608,-0.00944861,-6.3424704e-07,1.9240219e-05,1.8578887e-05,1.0,43,0.018831838,2.3372417e-08,0,-8.2990083762479e-09,1.0
46,46,9045.586,159475.73,865630.94,880198.5,-79.56141,26.336261490912875,-0.009463105,-6.031654e-07,2.032594e-05,1.9658706e-05,1.0,43,0.021337725,2.4241947e-08,0,-8.371289086975153e-09,1.0
47,47,7827.7437,212887.98,1009865.75,1032061.1,-78.09588,26.816925460414495,-0.009500351,-6.1340796e-07,2.0133528e-05,1.9276862e-05,1.0,43,0.021361383,2.0697788e-08,0,-8.456057140063983e-09,1.0
48,48,6770.8345,264652.75,1171256.6,1200784.4,-77.26748,27.355397672596155,-0.009446393,-6.4970396e-07,2.0069008e-05,1.9094134e-05,1.0,43,0.02139701,1.7819193e-08,0,-8.54760551613376e-09,1.0
49,49,5860.798,331840.34,1300009.9,1341694.4,-75.68047,27.960998074733652,-0.009418334,-6.584009e-07,2.0888956e-05,1.961114e-05,1.0,43,0.021357412,1.591824e-08,0,-8.648428894194273e-09,1.0
50,50,5071.625,430970.9,1504900.0,1565394.5,-74.01943,28.641717280428566,-0.009472198,-6.088081e-07,2.0852847e-05,1.9272278e-05,1.0,43,0.02140233,1.3672163e-08,0,-8.759009677509125e-09,1.0
51,51,4388.5933,500260.44,1635983.5,1710760.8,-72.997116,29.321817606061813,-0.009451666,-6.1754224e-07,2.2167458e-05,2.0271933e-05,1.0,43,0.021320874,1.2462803e-08,0,-8.870983666290799e-09,1.0
52,52,3798.7827,625384.1,1890349.6,1991112.0,-71.694244,30.001835291695897,-0.009450808,-6.1562406e-07,2.2163254e-05,1.9976824e-05,1.0,43,0.021373497,1.0734452e-08,0,-8.978951570092579e-09,1.0
53,53,3286.0488,791347.3,2106654.8,2250383.2,-69.41173,30.681677003987716,-0.009465714,-6.1113593e-07,2.299073e-05,2.0147749e-05,1.0,43,0.021394022,9.506834e-09,0,-9.094246757645634e-09,1.0
54,54,2844.088,968382.4,2369476.2,2559723.0,-67.77063,31.360841996240197,-0.009485128,-6.1666697e-07,2.3617002e-05,2.023688e-05,1.0,43,0.021423677,8.369529e-09,0,-9.204715363211029e-09,1.0
55,55,2460.7852,1190505.0,2602724.0,2862075.2,-65.420296,32.04068210854166,-0.009474695,-6.1683454e-07,2.4849536e-05,2.055003e-05,1.0,43,0.021410907,7.480903e-09,0,-9.32005303047006e-09,1.0
56,56,2129.3164,1448619.6,2874827.8,3219182.0,-63.25656,32.720832940831315,-0.009471322,-6.1495365e-07,2.5999685e-05,2.073484e-05,1.0,43,0.021442503,6.6608545e-09,0,-9.43372639982138e-09,1.0
57,57,1843.2289,1742512.5,3132764.2,3584768.0,-60.916225,33.40096009313129,-0.009493512,-6.048042e-07,2.7562153e-05,2.1049727e-05,1.0,43,0.02143438,5.9792935e-09,0,-9.549400773021083e-09,1.0
58,58,1594.4913,2068457.0,3406330.0,3985172.2,-58.732235,34.08082100543834,-0.009477135,-6.0916193e-07,2.9302942e-05,2.140871e-05,1.0,43,0.021439947,5.37993e-09,0,-9.667096575425674e-09,1.0
59,59,1380.4436,2413381.0,3632091.0,4360790.5,-56.39753,34.760719864403654,-0.009463143,-6.2303604e-07,3.1742766e-05,2.202053e-05,1.0,43,0.021400487,4.907479e-09,0,-9.780276041572758e-09,1.0
60,60,1194.6187,2844704.5,3854542.0,4790599.0,-53.57217,35.440808376690256,-0.009485408,-6.184734e-07,3.4563527e-05,2.237608e-05,1.0,43,0.02142732,4.4727853e-09,0,-9.901315704607555e-09,1.0
61,61,1033.3434,3333847.0,4031708.5,5231559.0,-50.412426,36.121078595664585,-0.009438978,-6.3080176e-07,3.8202023e-05,2.268832e-05,1.0,43,0.0214124,4.092929e-09,0,-1.0021528713973894e-08,1.0
62,62,894.71045,3906708.5,4231841.5,5759414.5,-47.287735,36.80080484128848,-0.009482892,-6.1169465e-07,4.2034728e-05,2.2693965e-05,1.0,43,0.021455407,3.7252759e-09,0,-1.0133655156482519e-08,1.0
63,63,774.2569,4450995.5,4318356.0,6201577.0,-44.13345,37.480943353584735,-0.009474005,-5.9964566e-07,4.760106e-05,2.3080713e-05,1.0,43,0.02145013,3.4588188e-09,0,-1.024648082711277e-08,1.0
64,64,669.7856,5000389.5,4336766.0,6619020.5,-40.934628,38.16080450589652,-0.009445778,-6.3074594e-07,5.479215e-05,2.3521385e-05,1.0,43,0.021427961,3.237331e-09,0,-1.0365074017406224e-08,1.0
65,65,579.81464,5486575.0,4401945.0,7034175.5,-38.74049,38.84084504486236,-0.009446989,-6.349547e-07,6.235716e-05,2.4420198e-05,1.0,43,0.021425359,3.0458949e-09,0,-1.0484480708186922e-08,1.0
66,66,501.44418,6037552.0,4263179.0,7390989.5,-35.22632,39.51819665034418,-0.009503611,-5.960142e-07,7.4449876e-05,2.4769995e-05,1.0,43,0.021415867,2.8975642e-09,0,-1.0600242424858156e-08,1.0
67,67,434.02762,6581180.0,4252112.5,7835329.5,-32.866577,40.198210335947806,-0.009466291,-6.153821e-07,8.6237866e-05,2.5397618e-05,1.0,43,0.021401184,2.73137e-09,0,-1.0710854325937003e-08,1.0
68,68,375.6009,7131302.0,4042002.2,8197149.0,-29.544445,40.87642140817479,-0.009488985,-6.2165793e-07,0.00010483275,2.5489682e-05,1.0,43,0.02141649,2.6126756e-09,0,-1.0822369973343231e-08,1.0
69,69,325.10385,7579352.5,3851199.5,8501666.0,-26.935905,41.55571013381268,-0.009437151,-6.2947953e-07,0.00012711652,2.6084706e-05,1.0,43,0.021404838,2.5177227e-09,0,-1.0939534735554782e-08,1.0
70,70,281.3503,7971474.0,3646893.5,8766084.0,-24.583763,42.23281101930479,-0.009459156,-6.344705e-07,0.00015511352,2.6846308e-05,1.0,43,0.021411017,2.4424835e-09,0,-1.106069897837071e-08,1.0
71,71,243.36427,8361683.0,3325808.5,8998819.0,-21.68989,42.91609214505297,-0.009434654,-6.284181e-07,0.00019663738,2.6858981e-05,1.0,43,0.021407813,2.378958e-09,0,-1.1171253412809545e-08,1.0
72,72,210.60631,8629503.0,3058734.0,9155554.0,-19.516912,43.593169617204694,-0.009463124,-5.8152557e-07,0.00024706262,2.7575361e-05,1.0,43,0.021382779,2.335498e-09,0,-1.128542161165311e-08,1.0
73,73,182.27473,9052910.0,2724843.2,9454097.0,-16.751316,44.26524812911521,-0.009457516,-6.318075e-07,0.00032044397,2.6619204e-05,1.0,43,0.021405974,2.2642008e-09,0,-1.1401477258493042e-08,1.0
74,74,157.72879,9140170.0,2496275.5,9474919.0,-15.275549,44.95366088187802,-0.009472831,-6.241348e-07,0.0004042189,2.8057608e-05,1.0,43,0.021415109,2.2601891e-09,0,-1.1521402903249495e-08,1.0
75,75,136.52892,9395390.0,2267282.8,9665088.0,-13.56715,45.62553792705876,-0.0094327545,-6.30001e-07,0.00051414996,2.8293687e-05,1.0,43,0.021417951,2.216012e-09,0,-1.1638833662893324e-08,1.0
76,76,118.14758,9451822.0,2104610.8,9683301.0,-12.5531025,46.31389614645741,-0.009422321,-6.1441364e-07,0.0006400641,3.0235713e-05,1.0,43,0.021406457,2.210657e-09,0,-1.175581495401026e-08,1.0
77,77,102.25773,9731201.0,2028885.0,9940455.0,-11.777043,46.98035372476443,-0.009459323,-6.1916245e-07,0.00076712575,3.1957214e-05,1.0,43,0.02142561,2.1553954e-09,0,-1.1871242197278543e-08,1.0
78,78,88.4436,9664335.0,1703804.9,9813375.0,-9.998401,47.670270424190676,-0.009460031,-5.973737e-07,0.00105617,3.183734e-05,1.0,43,0.021398075,2.1805011e-09,0,-1.1985691083491457e-08,1.0
79,79,76.54279,9765015.0,1718278.6,9915039.0,-9.979757,48.3367057092255,-0.0094367415,-6.181755e-07,0.0012101027,3.6342983e-05,1.0,43,0.0213984,2.158176e-09,0,-1.2100124432972912e-08,1.0
80,80,66.250786,9941611.0,1336708.1,10031073.0,-7.657828,49.00498710095417,-0.009453007,-6.1798926e-07,0.0017971839,3.191324e-05,1.0,43,0.021405032,2.1338726e-09,0,-1.2214208074111048e-08,1.0
81,81,57.329906,9564926.0,1115132.0,9629711.0,-6.649839,49.65962702539946,-0.009432382,-6.4894056e-07,0.002489503,3.3384025e-05,1.0,43,0.021404969,2.2228048e-09,0,-1.2327393414915388e-08,1.0
82,82,49.60321,10056041.0,1145506.6,10121074.0,-6.498681,50.345350124611286,-0.0094660865,-6.156241e-07,0.0028009976,3.588019e-05,1.0,43,0.021417415,2.1161208e-09,0,-1.2441032758122065e-08,1.0
83,83,42.92585,9948034.0,1005335.06,9998704.0,-5.770643,51.05345117152319,-0.009404527,-6.2502875e-07,0.0036879957,3.7284186e-05,1.0,43,0.02139367,2.1396442e-09,0,-1.2558090457736531e-08,1.0
84,84,37.1518,10165276.0,991516.4,10213518.0,-5.570981,51.69716661548591,-0.009511883,-5.849895e-07,0.0043205637,4.0718285e-05,1.0,43,0.021415101,2.096741e-09,0,-1.2664220770281225e-08,1.0
85,85,32.150223,10266046.0,842602.56,10300567.0,-4.6921277,52.33635685915942,-0.009488612,-6.135198e-07,0.0058750743,3.9313043e-05,1.0,43,0.021425262,2.080008e-09,0,-1.2771990910776187e-08,1.0
86,86,27.835518,10373360.0,930348.94,10414996.0,-5.1249385,53.063305160350865,-0.009435009,-6.333811e-07,0.0061457506,4.9039776e-05,1.0,43,0.021435231,2.0581123e-09,0,-1.289798122610196e-08,1.0
87,87,24.082958,10303615.0,907895.1,10343537.0,-5.035568,53.765391087013995,-0.009457721,-6.220491e-07,0.007279049,5.6079978e-05,1.0,43,0.021384949,2.0674698e-09,0,-1.302011255674302e-08,1.0
88,88,20.833313,10258697.0,837506.75,10292827.0,-4.667203,54.41976479814912,-0.0094685275,-6.1515857e-07,0.009121652,6.0392187e-05,1.0,43,0.021416625,2.080733e-09,0,-1.312367008971159e-08,1.0
89,89,18.021912,10430746.0,934628.2,10472535.0,-5.120211,55.16570590025367,-0.0094565,-5.749052e-07,0.009448881,7.525832e-05,1.0,43,0.021410266,2.0444206e-09,0,-1.3253054026634458e-08,1.0
90,90,15.604198,10336005.0,983330.2,10382675.0,-5.434557,55.82002331796684,-0.009475607,-6.074673e-07,0.010372401,9.303782e-05,1.0,43,0.021373773,2.0585997e-09,0,-1.3367217407564525e-08,1.0
91,91,13.500899,10338357.0,836337.9,10372130.0,-4.6249623,56.567980366846314,-0.009454264,-6.036869e-07,0.014095345,9.1643844e-05,1.0,43,0.021390734,2.062328e-09,0,-1.3493534379091695e-08,1.0
92,92,11.686608,10659656.0,753727.7,10686270.0,-4.044564,57.15890082158148,-0.00948373,-6.141716e-07,0.018068297,8.988637e-05,1.0,43,0.02141841,2.0042923e-09,0,-1.3599549357176456e-08,1.0
93,93,10.113269,10647611.0,1009629.5,10695372.0,-5.416714,57.83253136018175,-0.009467689,-6.1795197e-07,0.0155871445,0.0001388989,1.0,43,0.021435507,2.0041853e-09,0,-1.3721418920766418e-08,1.0
94,94,8.748621,10612464.0,836761.9,10645401.0,-4.5082784,58.59936603662209,-0.009453286,-6.333346e-07,0.021740956,0.00013432547,1.0,43,0.021401236,2.0103739e-09,0,-1.384070930391902e-08,1.0
95,95,7.570237,10655317.0,931164.8,10695927.0,-4.994372,59.47501191825722,-0.009440514,-6.180079e-07,0.022577927,0.00017111983,1.0,43,0.021391029,1.999923e-09,0,-1.3985634571925883e-08,1.0
96,96,6.554112,10844649.0,1069297.1,10897239.0,-5.631239,60.01131341038854,-0.009469794,-6.1309146e-07,0.022709517,0.00021866121,1.0,43,0.021409819,1.9647013e-09,0,-1.4094682178289513e-08,1.0
97,97,5.669445,10793478.0,1039825.44,10843450.0,-5.5027966,60.621145199314924,-0.009472719,-5.9258764e-07,0.026997227,0.00024825902,1.0,43,0.021390768,1.9726902e-09,0,-1.4175532247063361e-08,1.0
98,98,4.907347,11011986.0,1104534.0,11067241.0,-5.727775,61.31351891221129,-0.009458448,-6.1808237e-07,0.029362584,0.00029246486,1.0,43,0.021426713,1.9360482e-09,0,-1.4300809362065792e-08,1.0
99,99,4.245922,11012967.0,1223384.4,11080709.0,-6.3387594,62.10128177629667,-0.009462677,-6.141716e-07,0.030639747,0.0003734874,1.0,43,0.021410042,1.9321906e-09,0,-1.4442860577163202e-08,1.0
100,100,3.6747382,11065144.0,1218407.6,11132023.0,-6.283651,63.00096189905889,-0.009427444,-6.095717e-07,0.035546847,0.00042583185,1.0,43,0.021396933,1.9221065e-09,0,-1.456345973370802e-08,1.0
101,101,3.180988,11098174.0,1179966.2,11160725.0,-6.068931,64.02917704122956,-0.009467894,-6.2118306e-07,0.042402208,0.00047396126,1.0,43,0.021393105,1.9168205e-09,0,-1.4750133751542105e-08,1.0
102,102,2.752818,11306908.0,1428587.0,11396799.0,-7.200959,65.20810939054354,-0.009470551,-6.170829e-07,0.040470254,0.0006358922,1.0,43,0.021405458,1.8781992e-09,0,-1.498613976349524e-08,1.0
103,103,2.3804083,11411866.0,1374322.5,11494322.0,-6.8670177,66.56298025490833,-0.009476806,-6.1989493e-07,0.048649684,0.0006954895,1.0,43,0.021391839,1.8610788e-09,0,-1.520141540797636e-08,1.0
