True,index,freq,Re(Z),Im(Z),Z,Phase(Z),time,Ewe_meas,I_meas,Cs,Cp,cycle_number,I_Range,Ewe,I,Ns,(QQo),cycle
0,0,7000018.5,187.3187,1600.8351,1611.7572,-83.32599,2.466475983761484,0.00091883197,1.0691391e-05,1.4202813e-05,1.4010973e-05,1.0,40,0.009981072,6.1926644e-06,0,-2.2832452326042586e-09,1.0
1,1,6057573.0,249.90668,1798.714,1815.9916,-82.09017,3.018477530014934,0.0009725101,-2.413801e-05,1.4606945e-05,1.4330322e-05,1.0,40,0.01414696,7.790212e-06,0,-4.936522584551363e-09,1.0
2,2,5242039.0,240.72836,2102.334,2116.0715,-83.46778,3.434489709761692,0.0009870989,-3.2752287e-05,1.4441696e-05,1.4254792e-05,1.0,40,0.019662185,9.2918335e-06,0,-8.66588967131242e-09,1.0
3,3,4536288.0,181.39032,2433.1145,2439.8665,-85.73645,4.666482408269076,0.00095762353,-1.4407362e-05,1.4419725e-05,1.4340027e-05,1.0,40,0.021770023,8.922629e-06,0,-2.3942011723601947e-08,1.0
4,4,3925558.5,262.85242,2811.6772,2823.937,-84.65917,5.082487708044937,0.0009195775,-1.8779638e-05,1.4419599e-05,1.429467e-05,1.0,40,0.020003403,7.083516e-06,0,-2.526220771005683e-08,1.0
5,5,3397055.0,302.65646,3193.2349,3207.5457,-84.58565,5.498490181140369,0.00092656445,-2.3691455e-05,1.4671911e-05,1.4541283e-05,1.0,40,0.02109764,6.5775025e-06,0,-2.892115807835833e-08,1.0
6,6,2939708.2,328.28156,3679.6128,3694.2278,-84.90178,6.0504944206622895,0.00090534287,-2.5663629e-05,1.4713425e-05,1.4597237e-05,1.0,40,0.020931989,5.666134e-06,0,-2.8851690339466688e-08,1.0
7,7,2543924.5,332.21872,4180.1006,4193.2817,-85.455894,6.602488020231249,0.000904728,-1.9226165e-05,1.4966808e-05,1.4872862e-05,1.0,40,0.020518215,4.893116e-06,0,-3.3200126558262534e-08,1.0
8,8,2201436.2,434.3167,4717.6465,4737.596,-84.74005,7.154501166456612,0.00089047477,-1.907732e-05,1.5324582e-05,1.5195791e-05,1.0,40,0.020827599,4.3962377e-06,0,-3.743635024473709e-08,1.0
9,9,1905053.1,24.4244,5735.6133,5735.6655,-89.75601,7.873491387261311,0.0008881644,-3.581647e-06,1.45657605e-05,1.4565496e-05,1.0,41,0.019524746,3.404094e-06,0,-4.35798603954917e-08,1.0
10,10,1648567.4,297.8487,6605.3105,6612.0225,-87.41815,8.425500160170486,0.0009119944,-2.479223e-06,1.461572e-05,1.4586061e-05,1.0,41,0.02001996,3.0278118e-06,0,-4.4795015798184286e-08,1.0
11,11,1426616.2,216.26166,7570.255,7573.3433,-88.36366,8.977503706380958,0.0008664584,7.144152e-07,1.4736776e-05,1.4724759e-05,1.0,41,0.020266045,2.6759708e-06,0,-4.468084045977921e-08,1.0
12,12,1234551.2,265.9119,8688.261,8692.329,-88.246956,9.529491225926904,0.0008816433,-2.8963502e-06,1.4838096e-05,1.4824209e-05,1.0,41,0.020755948,2.3878465e-06,0,-4.485733894016006e-08,1.0
13,13,1068345.5,231.18246,10039.715,10042.376,-88.68089,10.081502558809007,0.00087750703,-1.801389e-06,1.4838398e-05,1.4830536e-05,1.0,41,0.020677958,2.0590703e-06,0,-4.5043222589969095e-08,1.0
14,14,924510.06,264.08218,11634.741,11637.738,-88.69974,10.633503331715474,0.00087186164,2.1706394e-06,1.4796253e-05,1.4788634e-05,1.0,41,0.020398114,1.7527558e-06,0,-4.640226232428151e-08,1.0
15,15,800039.0,595.00696,12831.944,12845.731,-87.34514,11.185482451255666,0.0009034983,-2.1086491e-06,1.5503027e-05,1.5469766e-05,1.0,41,0.02024775,1.576224e-06,0,-4.672642118089401e-08,1.0
16,16,692334.1,489.22806,15487.468,15495.193,-88.190704,11.737501304160105,0.00086288113,7.311751e-07,1.4843078e-05,1.4828282e-05,1.0,41,0.020257091,1.3073145e-06,0,-4.665955380205844e-08,1.0
17,17,599122.25,351.42285,17769.082,17772.557,-88.867,12.28948535703239,0.0009048771,-1.7976647e-06,1.4949949e-05,1.4944104e-05,1.0,41,0.020739665,1.1669489e-06,0,-4.677709865198665e-08,1.0
18,18,518454.94,546.14734,20459.068,20466.357,-88.47087,12.841479063237784,0.0008701848,1.9114295e-07,1.500456e-05,1.4993874e-05,1.0,41,0.020390876,9.963119e-07,0,-4.743017336679145e-08,1.0
19,19,448662.03,823.6433,23608.734,23623.098,-88.00192,13.393490049435059,0.00089744304,-4.5875748e-07,1.5025471e-05,1.5007206e-05,1.0,41,0.020268828,8.580089e-07,0,-4.8199737254794036e-08,1.0
20,20,388258.97,1212.0823,27540.088,27566.748,-87.47995,13.94549906233442,0.0008864689,-3.8613268e-07,1.4884468e-05,1.4855692e-05,1.0,41,0.020842353,7.5606863e-07,0,-4.745787601034558e-08,1.0
21,21,335983.9,-3004.9116,30223.736,30372.746,-95.67782,14.497484715218889,0.0008498576,1.0868516e-06,1.567305e-05,1.5519641e-05,1.0,41,0.020449191,6.7327437e-07,0,-4.7396135097415026e-08,1.0
22,22,290751.2,1553.7191,36576.99,36609.973,-87.56765,15.049497514759423,0.0008798919,-1.3846284e-07,1.4965482e-05,1.4938527e-05,1.0,41,0.020498,5.599021e-07,0,-4.663400695144383e-08,1.0
23,23,251605.19,2016.5675,42762.42,42809.945,-87.30008,15.601480500976322,0.0009142302,-9.689957e-07,1.47923865e-05,1.4759563e-05,1.0,41,0.020293655,4.7404066e-07,0,-4.7375123112491086e-08,1.0
24,24,217729.38,2703.38,48572.035,48647.207,-86.81437,16.153502633882454,0.000854795,1.3214858e-06,1.5049318e-05,1.5002844e-05,1.0,41,0.020428734,4.199364e-07,0,-4.710759792694022e-08,1.0
25,25,188418.58,1956.6304,54733.01,54767.973,-87.95263,16.872478348057484,0.0008513481,-4.2900263e-07,1.5432883e-05,1.5413187e-05,1.0,42,0.019696841,3.596416e-07,0,-4.7425137639133425e-08,1.0
26,26,163051.14,2690.7446,63636.87,63693.73,-87.57882,17.288503274467075,0.0008973126,-5.163543e-07,1.5338663e-05,1.5311289e-05,1.0,42,0.021639211,3.3973848e-07,0,-4.7521541334137295e-08,1.0
27,27,141098.2,3137.4924,72947.61,73015.05,-87.53722,17.840483060659608,0.00090498885,-5.3777325e-07,1.546278e-05,1.543423e-05,1.0,42,0.02035834,2.788239e-07,0,-4.7569155938308265e-08,1.0
28,28,122105.11,3380.8884,83895.11,83963.2,-87.69228,18.392498740256997,0.0009005918,-5.2119697e-07,1.5536374e-05,1.5511185e-05,1.0,42,0.020420574,2.432086e-07,0,-4.774494940036293e-08,1.0
29,29,105663.59,4848.03,96201.74,96323.82,-87.11505,18.80849057334126,0.0008924311,-3.5673708e-07,1.5657119e-05,1.5617456e-05,1.0,42,0.021818206,2.2650893e-07,0,-4.783096475279357e-08,1.0
30,30,91439.65,4128.4707,112758.34,112833.9,-87.903145,19.360494359541917,0.000882165,-4.131712e-07,1.5436075e-05,1.541541e-05,1.0,42,0.020363718,1.8047518e-07,0,-4.7893373753360104e-08,1.0
31,31,79127.08,5077.1675,126824.28,126925.87,-87.7075,19.776483765948797,0.00087814056,-3.0533175e-07,1.5859614e-05,1.5834237e-05,1.0,42,0.021363415,1.6831412e-07,0,-4.791760095947565e-08,1.0
32,32,68475.36,8775.161,147486.67,147747.5,-86.59503,20.328485818841727,0.0008599187,-3.5245336e-07,1.5759158e-05,1.5703567e-05,1.0,42,0.020219017,1.3684846e-07,0,-4.800526418373055e-08,1.0
33,33,59252.523,9547.067,169184.97,169454.12,-86.77024,20.744480931927683,0.00092227914,-5.491346e-07,1.5876381e-05,1.5825985e-05,1.0,42,0.020893654,1.2329977e-07,0,-4.8104606712067425e-08,1.0
34,34,51282.285,10482.165,193548.8,193832.44,-86.90002,21.160498871729942,0.0009151804,-6.376038e-07,1.6034754e-05,1.598786e-05,1.0,42,0.021458099,1.1070437e-07,0,-4.8196966078039105e-08,1.0
35,35,44369.8,17928.812,227607.73,228312.78,-85.49607,21.57648579814122,0.000877917,-4.902792e-07,1.5759615e-05,1.5662432e-05,1.0,42,0.021892516,9.588826e-08,0,-4.819336094504914e-08,1.0
36,36,38403.727,23445.826,260399.12,261452.5,-84.85507,22.128502437699353,0.0008759234,-4.5340153e-07,1.5915022e-05,1.5787038e-05,1.0,42,0.02026079,7.74932e-08,0,-4.832632472981856e-08,1.0
37,37,33226.32,26831.588,295911.78,297125.75,-84.81892,22.544482324126875,0.00090854755,-4.4669648e-07,1.6187345e-05,1.6055343e-05,1.0,42,0.020438163,6.8786235e-08,0,-4.835368350708899e-08,1.0
38,38,28754.086,37671.812,342788.84,344852.66,-83.72848,22.96048178386991,0.00086222903,-2.3250763e-07,1.6147076e-05,1.5954385e-05,1.0,42,0.020547865,5.9584476e-08,0,-4.8417251509784364e-08,1.0
39,39,24884.947,49688.895,394484.53,397601.6,-82.820885,23.37650020365254,0.00089966017,-4.0628007e-07,1.6212629e-05,1.5959422e-05,1.0,42,0.020589631,5.178458e-08,0,-4.845176734451388e-08,1.0
40,40,21553.963,45466.71,447981.44,450282.78,-84.20476,23.793502596759936,0.00092082587,-4.3254147e-07,1.6482874e-05,1.6314822e-05,1.0,42,0.020530678,4.5595076e-08,0,-4.850614790395586e-08,1.0
41,41,18631.234,68538.1,524245.44,528706.7,-82.55158,24.37549401106662,0.0008929341,-3.865437e-07,1.6294605e-05,1.6020776e-05,1.0,43,0.020142779,3.809821e-08,0,-4.854938287474288e-08,1.0
42,42,16126.037,96387.67,592592.3,600380.06,-80.761505,24.79149920414784,0.00084676465,-3.698762e-07,1.6654687e-05,1.622542e-05,1.0,43,0.019992057,3.3299003e-08,0,-4.8598259273366916e-08,1.0
43,43,13954.87,103953.52,668196.6,676234.5,-81.157196,25.20749802395585,0.0008881644,-4.0194485e-07,1.7068292e-05,1.6664948e-05,1.0,43,0.019670818,2.9088753e-08,0,-4.864792210318708e-08,1.0
44,44,12080.609,155376.97,798807.5,813778.5,-78.992775,25.623504950344795,0.00092667615,-4.2226245e-07,1.64926e-05,1.5891357e-05,1.0,43,0.019360103,2.3790383e-08,0,-4.86966213048699e-08,1.0
45,45,10447.592,184640.27,907484.94,926078.25,-78.499374,26.039496543438872,0.00092956406,-4.3600613e-07,1.678667e-05,1.6119368e-05,1.0,43,0.018828938,2.0331909e-08,0,-4.874812927037373e-08,1.0
46,46,9045.586,205581.67,989085.3,1010224.5,-78.25824,26.47125005730777,0.00091141684,-4.266202e-07,1.7788923e-05,1.7052238e-05,1.0,43,0.021332217,2.1116314e-08,0,-4.879236338370063e-08,1.0
47,47,7827.7437,285057.94,1180086.4,1214027.1,-76.41995,26.95193954682327,0.00091266516,-4.0071572e-07,1.7229384e-05,1.627948e-05,1.0,43,0.02140525,1.7631608e-08,0,-4.8838594127497756e-08,1.0
48,48,6770.8345,356129.97,1330190.4,1377038.5,-75.011795,27.490405199030647,0.0008790908,-3.6319057e-07,1.7671122e-05,1.64892e-05,1.0,43,0.021378621,1.5525071e-08,0,-4.8895996671669845e-08,1.0
49,49,5860.798,448288.03,1506281.6,1571574.5,-73.426346,28.095992534479592,0.000780119,-2.9668817e-07,1.80284e-05,1.6561498e-05,1.0,43,0.021392576,1.3612193e-08,0,-4.8954130622197274e-08,1.0
50,50,5071.625,554754.5,1685902.1,1774829.1,-71.78595,28.77671094017569,0.0008795566,-3.773812e-07,1.861404e-05,1.6795475e-05,1.0,43,0.021373542,1.2042592e-08,0,-4.9024233668442106e-08,1.0
51,51,4388.5933,728904.6,1947743.4,2079664.9,-69.48263,29.456825799134094,0.00088930095,-3.9438393e-07,1.8619288e-05,1.6332018e-05,1.0,43,0.021470247,1.0323897e-08,0,-4.909898328413793e-08,1.0
52,52,3798.7827,924162.2,2125961.0,2318142.8,-66.50526,30.136838844773592,0.0008816247,-4.0123717e-07,1.9706993e-05,1.657489e-05,1.0,43,0.021418033,9.239307e-09,0,-4.917373391809093e-08,1.0
53,53,3286.0488,982805.6,2320756.2,2520281.0,-67.048065,30.816711890402075,0.0009359362,-4.0615362e-07,2.086972e-05,1.7696106e-05,1.0,43,0.021347016,8.470094e-09,0,-4.924495064012804e-08,1.0
54,54,2844.088,1358829.6,2541022.2,2881529.5,-61.86404,31.496825016030925,0.00088494114,-3.954082e-07,2.2022603e-05,1.7125349e-05,1.0,43,0.021412134,7.430822e-09,0,-4.932914653798834e-08,1.0
55,55,2460.7852,1625045.8,2732262.8,3178998.8,-59.25743,32.176675955000974,0.0008812148,-3.8624572e-07,2.36714e-05,1.7485907e-05,1.0,43,0.021385005,6.726962e-09,0,-4.939991298679229e-08,1.0
56,56,2129.3164,1999811.5,2919048.2,3538373.8,-55.585335,32.85582956057624,0.0008851647,-3.8570565e-07,2.5605817e-05,1.7426646e-05,1.0,43,0.021412117,6.0514007e-09,0,-4.947145877005127e-08,1.0
57,57,1843.2289,2365522.5,3144966.8,3935290.8,-53.05093,33.53594409953803,0.0008893755,-3.835454e-07,2.7455211e-05,1.75349e-05,1.0,43,0.02141725,5.4423555e-09,0,-4.9546597943003965e-08,1.0
58,58,1594.4913,2790103.2,3208209.5,4251739.0,-48.987293,34.2158030118444,0.0009526489,-3.975312e-07,3.1112526e-05,1.7714443e-05,1.0,43,0.02140464,5.0343263e-09,0,-4.962005217486147e-08,1.0
59,59,1380.4436,3255766.2,3290159.8,4628732.5,-45.301037,34.89571219080972,0.0008840841,-3.7723225e-07,3.5041645e-05,1.7704933e-05,1.0,43,0.021433188,4.630466e-09,0,-4.969683326496743e-08,1.0
60,60,1194.6187,3622709.5,3309400.0,4906745.5,-42.412174,35.57584104978014,0.00094916474,-4.0907742e-07,4.0257015e-05,1.8312729e-05,1.0,43,0.021392867,4.3598893e-09,0,-4.9771981706026626e-08,1.0
61,61,1033.3434,4106932.2,3287742.5,5260812.0,-38.67849,36.256080602062866,0.0008743583,-3.9345278e-07,4.6846555e-05,1.8296487e-05,1.0,43,0.021416174,4.0708876e-09,0,-4.984321401392518e-08,1.0
62,62,894.71045,4556704.0,3209173.2,5573360.5,-35.156082,36.93580716771248,0.00088857434,-3.7589137e-07,5.5429948e-05,1.8377927e-05,1.0,43,0.021430539,3.8451735e-09,0,-4.991564426476591e-08,1.0
63,63,774.2569,4641059.0,2735021.0,5387000.0,-30.511257,37.61594799999148,0.00087842,-3.8581743e-07,7.515786e-05,1.937322e-05,1.0,43,0.021171352,3.930082e-09,0,-4.999106982316596e-08,1.0
64,64,669.7856,5292043.0,2925075.8,6046634.5,-28.930786,38.29582587230834,0.00086651434,-3.9049178e-07,8.123576e-05,1.9010522e-05,1.0,43,0.0214193,3.5423506e-09,0,-5.006494162507262e-08,1.0
65,65,579.81464,5579648.0,2721405.8,6207940.0,-26.000246,38.975812997930916,0.00093660696,-3.847373e-07,0.00010086434,1.9383368e-05,1.0,43,0.021372966,3.4428436e-09,0,-5.01337610067516e-08,1.0
66,66,501.44418,5925215.5,2553680.0,6452089.5,-23.315325,39.65317996338126,0.0009256887,-3.9447707e-07,0.00012428853,1.9469879e-05,1.0,43,0.021420501,3.3199326e-09,0,-5.020049784627704e-08,1.0
67,67,434.02762,6145460.0,2287897.5,6557526.5,-20.419828,40.33321023572353,0.0009054733,-3.827074e-07,0.00016027516,1.9510087e-05,1.0,43,0.021406854,3.2644707e-09,0,-5.027454038785035e-08,1.0
68,68,375.6009,6391660.5,2153645.5,6744739.5,-18.621048,41.01245285462937,0.000866328,-3.7293037e-07,0.00019675207,2.0060297e-05,1.0,43,0.021429455,3.1772103e-09,0,-5.034512591152976e-08,1.0
69,69,325.10385,6552994.0,1956304.5,6838776.0,-16.622257,41.69167435360578,0.00090526836,-3.8551946e-07,0.0002502428,2.0477537e-05,1.0,43,0.021417165,3.1317249e-09,0,-5.0418981807006584e-08,1.0
70,70,281.3503,6759167.5,1732961.5,6977786.0,-14.380136,42.36779761237267,0.00091275835,-3.9105046e-07,0.0003264253,2.0133828e-05,1.0,43,0.021430848,3.0712963e-09,0,-5.048738281324875e-08,1.0
71,71,243.36427,6847014.0,1589621.5,7029118.0,-13.070398,43.05110972482362,0.000901542,-3.8088237e-07,0.00041140505,2.1040467e-05,1.0,43,0.021416599,3.0468401e-09,0,-5.05664018446765e-08,1.0
72,72,210.60631,6949935.5,1398880.6,7089321.0,-11.380413,43.72820450362633,0.0009291729,-3.8583605e-07,0.00054021686,2.1033917e-05,1.0,43,0.02142674,3.0223966e-09,0,-5.063450432678539e-08,1.0
73,73,182.27473,6837885.0,1736055.0,7054825.0,-14.245698,44.400258428853704,0.00088577956,-4.004178e-07,0.0005029562,3.0456826e-05,1.0,43,0.021301776,3.019462e-09,0,-5.07030161108595e-08,1.0
74,74,157.72879,7081275.5,952000.0,7144982.0,-7.6568813,45.088666088289756,0.0008729795,-3.8296812e-07,0.0010599178,1.8816716e-05,1.0,43,0.021420846,2.9980265e-09,0,-5.077919003852754e-08,1.0
75,75,136.52892,7062021.5,1002098.6,7132766.0,-8.076334,45.7604971601686,0.0009024177,-3.840855e-07,0.001163282,2.2960958e-05,1.0,43,0.02134637,2.9927198e-09,0,-5.08477739707192e-08,1.0
76,76,118.14758,7167299.5,916437.3,7225651.5,-7.2865114,46.448907619545935,0.0008993807,-3.76208e-07,0.001469916,2.3645258e-05,1.0,43,0.021384247,2.9594904e-09,0,-5.092434660224833e-08,1.0
77,77,102.25773,7282564.0,778372.6,7324043.0,-6.100708,47.11534714451409,0.00088255625,-3.8339644e-07,0.0019995691,2.2584463e-05,1.0,43,0.021433413,2.9264455e-09,0,-5.09946324028877e-08,1.0
78,78,88.4436,7263510.0,657134.44,7293175.0,-5.1695127,47.80525995060452,0.00092082587,-3.885736e-07,0.0027384162,2.2231801e-05,1.0,43,0.021405077,2.9349463e-09,0,-5.106967484688665e-08,1.0
79,79,76.54279,7299735.0,611887.25,7325335.5,-4.791515,48.47272432901809,0.000874172,-3.7633836e-07,0.0033981649,2.3710034e-05,1.0,43,0.021416103,2.9235663e-09,0,-5.1139577654133165e-08,1.0
80,80,66.250786,7314366.5,554708.0,7335370.5,-4.3369036,49.140984947414836,0.0008973685,-3.7559346e-07,0.0043307655,2.4765632e-05,1.0,43,0.021408327,2.9185065e-09,0,-5.1208829420094104e-08,1.0
81,81,57.329906,7082217.0,671163.4,7113948.0,-5.413605,49.79461871181229,0.0009398116,-3.9501714e-07,0.004136287,3.681678e-05,1.0,43,0.021402307,3.0084992e-09,0,-5.1285361384896256e-08,1.0
82,82,49.60321,7349706.0,444269.75,7363121.0,-3.459165,50.481380797718884,0.00090379646,-3.924658e-07,0.0072221016,2.629258e-05,1.0,43,0.021424295,2.9096758e-09,0,-5.135940900465642e-08,1.0
83,83,42.92585,7286828.0,458122.56,7301215.0,-3.5974483,51.189423604664626,0.0009786588,-4.193759e-07,0.008093187,3.186344e-05,1.0,43,0.021398744,2.930847e-09,0,-5.1435903196363006e-08,1.0
84,84,37.1518,7355842.0,388433.03,7366090.5,-3.022757,51.83318678193609,0.00092244684,-4.0235457e-07,0.011028696,3.0667783e-05,1.0,43,0.021411845,2.9068128e-09,0,-5.1505182024661406e-08,1.0
85,85,32.150223,7388383.0,332068.44,7395841.5,-2.5734081,52.471365212259116,0.00091970793,-3.733773e-07,0.014907626,3.0053048e-05,1.0,43,0.021414936,2.8955374e-09,0,-5.157142344500364e-08,1.0
86,86,27.835518,7440540.5,221705.72,7443843.0,-1.7067367,53.19932807350415,0.0009123671,-3.7394537e-07,0.025789559,2.2877222e-05,1.0,43,0.02142522,2.878247e-09,0,-5.1644720344057465e-08,1.0
87,87,24.082958,7431095.0,298764.88,7437098.5,-2.302319,53.90138778681285,0.0009451589,-4.0829528e-07,0.02211978,3.5697085e-05,1.0,43,0.021415925,2.8796074e-09,0,-5.172308198622528e-08,1.0
88,88,20.833313,7424544.5,350656.28,7432820.5,-2.704032,54.55574045794492,0.0009114727,-3.689637e-07,0.021786133,4.8488208e-05,1.0,43,0.021427913,2.8828777e-09,0,-5.180149096108128e-08,1.0
89,89,18.021912,7442218.5,236542.52,7445976.5,-1.8204689,55.30170513338089,0.0011650879,-6.2968445e-07,0.03733448,3.7677768e-05,1.0,43,0.021392135,2.8729792e-09,0,-5.189497424548121e-08,1.0
90,90,15.604198,7390339.0,292559.12,7396127.5,-2.266967,55.95702865780913,0.00088583544,-3.494283e-07,0.03486302,5.4548593e-05,1.0,43,0.021387422,2.8917055e-09,0,-5.1965570085025054e-08,1.0
91,91,13.500899,7477281.5,369584.47,7486410.0,-2.8296928,56.70500109333079,0.00089952047,-3.729956e-07,0.03189655,7.773631e-05,1.0,43,0.021416256,2.8606844e-09,0,-5.204680340592837e-08,1.0
92,92,11.686608,7473966.0,296212.12,7479833.5,-2.2695885,57.295875148091,0.0009042995,-3.7836827e-07,0.04597575,7.210255e-05,1.0,43,0.021401027,2.8611635e-09,0,-5.21031480773028e-08,1.0
93,93,10.113269,7555647.5,367138.66,7564562.0,-2.7818878,57.96952171335579,0.00092598685,-4.033416e-07,0.04286457,0.000100969715,1.0,43,0.021419538,2.8315637e-09,0,-5.2162069085280256e-08,1.0
94,94,8.748621,7558416.5,333134.94,7565754.5,-2.523661,58.73638321648468,0.0009354797,-4.000733e-07,0.05460851,0.00010587568,1.0,43,0.021421349,2.8313565e-09,0,-5.225612727176118e-08,1.0
95,95,7.570237,7527733.0,358572.66,7536268.0,-2.7271402,59.61196387142991,0.00087097666,-3.6575128e-07,0.05863183,0.00013273185,1.0,43,0.02139802,2.8393392e-09,0,-5.236091918743714e-08,1.0
96,96,6.554112,7531885.0,386557.03,7541798.0,-2.937999,60.14832013685373,0.00091191987,-3.8159e-07,0.06281924,0.00016503273,1.0,43,0.021382196,2.835159e-09,0,-5.2384844319251633e-08,1.0
97,97,5.669445,7557823.5,387004.28,7567725.5,-2.931315,60.7581317925069,0.000931446,-3.9194438e-07,0.072537705,0.00018969881,1.0,43,0.021387896,2.8261986e-09,0,-5.248658301025887e-08,1.0
98,98,4.907347,7567468.5,419264.97,7579074.0,-3.1711502,61.450543158716755,0.00091825466,-3.8946752e-07,0.07735435,0.0002367171,1.0,43,0.021374261,2.8201679e-09,0,-5.252807853904804e-08,1.0
99,99,4.245922,7622021.5,466729.8,7636298.0,-3.5040967,62.23827914279536,0.00089934346,-3.6498773e-07,0.08031239,0.0003000184,1.0,43,0.021398872,2.8022573e-09,0,-5.260435324526805e-08,1.0
100,100,3.6747382,7677210.0,454507.38,7690652.0,-3.3880792,63.137916812236654,0.00089163927,-3.762732e-07,0.09529119,0.00033281918,1.0,43,0.021403423,2.783044e-09,0,-5.274492788237343e-08,1.0
101,101,3.180988,7732825.0,520696.25,7750336.0,-3.8522441,64.16622976769577,0.0009092928,-3.757797e-07,0.09608899,0.00043371203,1.0,43,0.021406384,2.7619944e-09,0,-5.2818726571287046e-08,1.0
102,102,2.752818,7745394.0,557174.75,7765408.5,-4.1145573,65.34516145035741,0.0008955743,-3.7509062e-07,0.10376507,0.00053420186,1.0,43,0.021406991,2.7567115e-09,0,-5.290184803318098e-08,1.0
103,103,2.3804083,7763810.5,587808.75,7786030.5,-4.329682,66.69994932808913,0.0008935248,-3.8353298e-07,0.113745086,0.00064829475,1.0,43,0.021398522,2.7483225e-09,0,-5.308069882230172e-08,1.0
