True,index,freq,Re(Z),Im(Z),Z,Phase(Z),time,Ewe_meas,I_meas,Cs,Cp,cycle_number,I_Range,Ewe,I,Ns,(QQo),cycle
0,0,7000018.5,133.71028,1047.7516,1056.2489,-82.72743,2.4644783037074376,-0.0008910053,1.4263637e-05,2.1700145e-05,2.1352402e-05,1.0,40,0.00980173,9.279754e-06,0,1.048081735549052e-08,1.0
1,1,6057573.0,235.29796,1245.253,1267.2886,-79.29978,3.016491956572281,-0.0008501458,-1.7067958e-05,2.1099098e-05,2.0371737e-05,1.0,40,0.013900805,1.09689345e-05,0,1.0959236412879313e-08,1.0
2,2,5242039.0,225.74217,1416.4287,1434.3047,-80.94469,3.4325011763430666,-0.00091774156,3.8259163e-06,2.1435082e-05,2.0904114e-05,1.0,40,0.019159896,1.3358316e-05,0,8.424122296749677e-09,1.0
3,3,4536288.0,211.96512,1663.1971,1676.6497,-82.73713,4.800493561342591,-0.0009214865,1.9138155e-05,2.1094818e-05,2.075767e-05,1.0,40,0.019622983,1.1703687e-05,0,5.006142912811305e-09,1.0
4,4,3925558.5,298.9527,1900.7886,1924.1543,-81.06184,5.216502434428548,-0.0009128414,8.198182e-06,2.1329706e-05,2.0814821e-05,1.0,40,0.01865669,9.696047e-06,0,3.615982290568809e-09,1.0
5,5,3397055.0,336.50525,2145.377,2171.6072,-81.08571,5.63249346750672,-0.0009780525,8.365635e-06,2.1838054e-05,2.131369e-05,1.0,40,0.019607507,9.0290305e-06,0,6.686826745515696e-10,1.0
6,6,2939708.2,368.48126,2437.2024,2464.9004,-81.40255,6.048491460591322,-0.00093713717,7.3609444e-06,2.2213873e-05,2.1717446e-05,1.0,40,0.021461742,8.706941e-06,0,1.287432340809068e-09,1.0
7,7,2543924.5,450.12744,2809.7734,2845.6003,-80.89851,6.600494340149453,-0.0009834743,-1.40352495e-05,2.2266124e-05,2.170898e-05,1.0,40,0.020608783,7.2423322e-06,0,-6.8878125730059815e-09,1.0
8,8,2201436.2,543.87506,3204.4028,3250.2305,-80.367134,7.152500766358571,-0.00094242854,-2.0361085e-05,2.2561446e-05,2.1929705e-05,1.0,40,0.02099924,6.460846e-06,0,-1.2530794903177089e-09,1.0
9,9,1905053.1,580.9506,3664.847,3710.6074,-80.99244,7.704501565924147,-0.00087816775,-3.8315287e-05,2.2795924e-05,2.2237136e-05,1.0,40,0.020582419,5.5469136e-06,0,-7.749632053787537e-09,1.0
10,10,1648567.4,738.02454,4177.0938,4241.791,-79.98018,8.256500365474494,-0.00096795405,-1.6193477e-05,2.311209e-05,2.241244e-05,1.0,40,0.019929435,4.6983537e-06,0,-5.652034278366753e-09,1.0
11,11,1426616.2,876.8134,4772.2993,4852.179,-79.58917,8.80848441834678,-0.0010044536,-2.486585e-07,2.3376813e-05,2.2613458e-05,1.0,40,0.020368107,4.1977237e-06,0,-7.613665357881573e-09,1.0
12,12,1234551.2,883.63635,5696.4805,5764.608,-81.18257,9.527496239141328,-0.00091854273,-6.076965e-06,2.2631033e-05,2.2099277e-05,1.0,41,0.01933192,3.3535534e-06,0,-8.554893715967182e-09,1.0
13,13,1068345.5,1033.7574,6382.6094,6465.7837,-80.799995,10.079494345380226,-0.0009912065,1.3270757e-06,2.3340499e-05,2.2743869e-05,1.0,41,0.020089125,3.10699e-06,0,-9.197232789244817e-09,1.0
14,14,924510.06,1332.3857,7198.383,7320.6533,-79.51351,10.631499064940726,-0.0009804559,-3.0397337e-06,2.3915174e-05,2.3122977e-05,1.0,41,0.02083381,2.845895e-06,0,-8.868963191961004e-09,1.0
15,15,800039.0,1392.6748,8706.107,8816.794,-80.91167,11.183501251187408,-0.0009752018,7.926306e-07,2.2849932e-05,2.2279815e-05,1.0,41,0.02047007,2.3217135e-06,0,-9.256286208229073e-09,1.0
16,16,692334.1,1934.8928,9489.662,9684.911,-78.475655,11.735483064054279,-0.00093110045,-5.2817986e-06,2.4224435e-05,2.3257546e-05,1.0,41,0.020432092,2.109683e-06,0,-1.0309826325093733e-08,1.0
17,17,599122.25,2556.5273,10856.153,11153.111,-76.74879,12.287493543612072,-0.0009916723,5.351246e-06,2.4469706e-05,2.3184011e-05,1.0,41,0.020762278,1.8615683e-06,0,-1.04444704714663e-08,1.0
18,18,518454.94,3154.7827,12259.031,12658.456,-75.56844,12.83950079648639,-0.0009653456,1.1427204e-06,2.5041074e-05,2.3485714e-05,1.0,41,0.02060357,1.6276526e-06,0,-1.14178471495576e-08,1.0
19,19,448662.03,3852.5032,13806.517,14333.935,-74.40903,13.392485756106908,-0.0010114219,3.1147679e-06,2.5693109e-05,2.3837136e-05,1.0,41,0.020181496,1.4079523e-06,0,-1.148995295216082e-08,1.0
20,20,388258.97,4815.344,15491.252,16222.405,-72.73252,13.944489382294705,-0.0010016961,4.1817975e-06,2.6461357e-05,2.4129853e-05,1.0,41,0.020939862,1.2907989e-06,0,-1.1555451881277022e-08,1.0
21,21,335983.9,6821.097,16242.187,17616.355,-67.21946,14.496483648516005,-0.00095448334,-8.4455365e-08,2.9164676e-05,2.479214e-05,1.0,41,0.020120911,1.1421722e-06,0,-1.1871689098042124e-08,1.0
22,22,290751.2,7665.195,19485.93,20939.357,-68.52678,15.04849508809275,-0.0009338766,-2.7253665e-07,2.8091667e-05,2.4327252e-05,1.0,41,0.02054528,9.8118e-07,0,-1.2909055893721365e-08,1.0
23,23,251605.19,9507.53,22159.455,24112.955,-66.77821,15.600493434263626,-0.0009626626,2.1613316e-06,2.854575e-05,2.4107865e-05,1.0,41,0.020175373,8.3670267e-07,0,-1.174420986309441e-08,1.0
24,24,217729.38,11764.601,24273.182,26973.936,-64.1417,16.152486180508276,-0.0009840891,1.1892752e-06,3.011455e-05,2.4386034e-05,1.0,41,0.020322498,7.534124e-07,0,-1.26125725570208e-08,1.0
25,25,188418.58,14462.632,26627.346,30301.54,-61.49142,16.70449236672721,-0.0009876292,1.0831307e-06,3.1722582e-05,2.4495985e-05,1.0,41,0.020341488,6.7130213e-07,0,-1.360755608731602e-08,1.0
26,26,163051.14,17597.574,28634.465,33609.63,-58.42681,17.256486206286354,-0.0009721648,1.2172076e-06,3.4088447e-05,2.4743318e-05,1.0,41,0.020652413,6.1447906e-07,0,-1.2606780519961249e-08,1.0
27,27,141098.2,21463.611,30354.098,37176.04,-54.73558,17.808499699138338,-0.0009278027,-4.8553607e-06,3.716048e-05,2.4773635e-05,1.0,41,0.020300094,5.460532e-07,0,-1.3044511591815362e-08,1.0
28,28,122105.11,23460.08,32730.105,40269.53,-54.36804,18.360502178693423,-0.00097486645,4.7162403e-06,3.982345e-05,2.630756e-05,1.0,41,0.019878794,4.9364354e-07,0,-1.3864050525389378e-08,1.0
29,29,105663.59,30081.627,32871.633,44558.37,-47.537613,18.77648745183251,-0.0009825985,1.8000685e-06,4.582194e-05,2.4937759e-05,1.0,41,0.021382136,4.79868e-07,0,-1.3911678318556319e-08,1.0
30,30,91439.65,34318.246,33414.8,47898.758,-44.235817,19.328485771344276,-0.0009638923,1.2038042e-07,5.2089083e-05,2.5349884e-05,1.0,41,0.020312611,4.2407387e-07,0,-1.3893944880283332e-08,1.0
31,31,79127.08,39235.367,33679.78,51708.24,-40.64291,19.744478644424817,-0.00094270805,-4.1477347e-06,5.9720816e-05,2.5336392e-05,1.0,41,0.021438612,4.1460729e-07,0,-1.3823540199530902e-08,1.0
32,32,68475.36,43340.125,34679.84,55507.277,-38.666046,20.463491985254223,-0.00092487753,-5.6589687e-07,6.7020665e-05,2.6161524e-05,1.0,42,0.018367741,3.3090691e-07,0,-1.3987234376585888e-08,1.0
33,33,59252.523,48332.47,33858.016,59011.8,-35.012135,20.88048203176004,-0.0009997957,-4.317959e-07,7.933261e-05,2.6115422e-05,1.0,42,0.019002505,3.2201194e-07,0,-1.3973911720622124e-08,1.0
34,34,51282.285,51977.41,32483.7,61293.082,-32.003654,21.29648002484464,-0.0010119808,1.919593e-07,9.5540454e-05,2.6834612e-05,1.0,42,0.019436125,3.1710144e-07,0,-1.3932953023332454e-08,1.0
35,35,44369.8,56530.54,29728.229,63870.723,-27.738943,21.71249847128638,-0.0010244269,2.280922e-07,0.00012066008,2.6139543e-05,1.0,42,0.019837081,3.1058175e-07,0,-1.3977888883967894e-08,1.0
36,36,38403.727,59961.043,27716.139,66056.875,-24.80807,22.128497771016555,-0.0009982679,-3.839288e-07,0.00014952508,2.6323487e-05,1.0,42,0.02013681,3.048405e-07,0,-1.4003118274339323e-08,1.0
37,37,33226.32,62408.133,25132.105,67278.51,-21.934923,22.54448957744171,-0.0009472728,-7.1973926e-07,0.00019059391,2.659586e-05,1.0,42,0.020291999,3.016119e-07,0,-1.409715114364e-08,1.0
38,38,28754.086,65063.613,22634.041,68888.125,-19.181536,22.960499010543572,-0.00098258,5.990835e-08,0.00024454482,2.6399393e-05,1.0,42,0.020432442,2.9660328e-07,0,-1.4169806040537796e-08,1.0
39,39,24884.947,67528.85,21015.084,70723.26,-17.286224,23.376491483621066,-0.0009987523,2.8059688e-08,0.00030433526,2.6871383e-05,1.0,42,0.02054898,2.9055477e-07,0,-1.4227941205131304e-08,1.0
40,40,21553.963,68827.98,17902.451,71118.125,-14.579812,23.79349966344307,-0.0009909642,-1.857566e-07,0.0004124587,2.6136348e-05,1.0,42,0.020570504,2.8924418e-07,0,-1.419918220326366e-08,1.0
41,41,18631.234,69640.91,15751.062,71399.945,-12.744469,24.209488829859765,-0.0010363512,2.5565865e-07,0.0005423363,2.639323e-05,1.0,42,0.020456426,2.865048e-07,0,-1.423194038480228e-08,1.0
42,42,16126.037,70506.586,13617.231,71809.52,-10.931185,24.62548324963427,-0.0010111983,4.836146e-08,0.0007247757,2.6062567e-05,1.0,42,0.020280143,2.8241578e-07,0,-1.4344540932493525e-08,1.0
43,43,13954.87,71610.3,11414.654,72514.336,-9.056733,25.04149044273072,-0.00093941024,-7.538222e-07,0.0009991521,2.4757646e-05,1.0,42,0.020196091,2.7851172e-07,0,-1.4504993568651672e-08,1.0
44,44,12080.609,72252.125,9105.549,72823.625,-7.182814,25.45750507581397,-0.0010233835,4.929388e-08,0.0014468555,2.2620012e-05,1.0,42,0.019904193,2.7332055e-07,0,-1.4656050416457432e-08,1.0
45,45,10447.592,72253.734,8783.104,72785.61,-6.9308224,25.873495548876235,-0.0009950073,-2.9657406e-07,0.0017344265,2.5255786e-05,1.0,42,0.019389559,2.6639276e-07,0,-1.4794946685433451e-08,1.0
46,46,9045.586,72362.88,7495.02,72750.0,-5.9133515,26.446248856111197,-0.00092389,8.697021e-10,0.002347527,2.4916682e-05,1.0,42,0.020273896,2.7867898e-07,0,-1.4907585302168512e-08,1.0
47,47,7827.7437,72537.49,6095.264,72793.13,-4.8032317,26.92592757224338,-0.0009386463,-3.5542843e-07,0.003335731,2.3388116e-05,1.0,42,0.02037359,2.798834e-07,0,-1.4796902802851817e-08,1.0
48,48,6770.8345,72584.555,5328.3516,72779.87,-4.1984887,27.46439759779605,-0.0009564769,-6.172974e-07,0.004411488,2.3645489e-05,1.0,42,0.020514995,2.8187733e-07,0,-1.4941165908709308e-08,1.0
49,49,5860.798,72487.945,4440.7173,72623.84,-3.5056417,28.0709868799604,-0.0009698917,-3.5996959e-09,0.0061151944,2.2864306e-05,1.0,42,0.02061943,2.8392094e-07,0,-1.5167622815466884e-08,1.0
50,50,5071.625,72512.586,4068.5222,72626.63,-3.2113736,28.751681978988927,-0.0010623424,2.930983e-07,0.0077132303,2.4205712e-05,1.0,42,0.020729631,2.854274e-07,0,-1.5066367009510312e-08,1.0
51,51,4388.5933,72600.75,3590.8936,72689.5,-2.8315895,29.431826144616934,-0.0009341933,-3.565456e-07,0.0100993235,2.4646428e-05,1.0,42,0.02085372,2.8688765e-07,0,-1.4960848379481542e-08,1.0
52,52,3798.7827,72494.23,3253.1682,72567.18,-2.5694165,30.111832923576003,-0.0010032053,-6.8787294e-08,0.0128786145,2.5882231e-05,1.0,42,0.020904688,2.8807358e-07,0,-1.5085904087026593e-08,1.0
53,53,3286.0488,72426.26,2684.4033,72475.984,-2.1226366,30.791713809216162,-0.0009923988,-2.4684323e-07,0.018042568,2.4751735e-05,1.0,42,0.020955374,2.8913541e-07,0,-1.535285384482342e-08,1.0
54,54,2844.088,72466.19,2707.868,72516.766,-2.1399946,31.471835868185735,-0.0009994603,-2.0083912e-07,0.020665675,2.8815604e-05,1.0,42,0.021039465,2.9013242e-07,0,-1.5194677386907704e-08,1.0
55,55,2460.7852,72049.79,2417.7417,72090.34,-1.9219271,32.151681740477215,-0.0010165456,-2.8204448e-07,0.026750786,3.0088611e-05,1.0,42,0.020990767,2.9117308e-07,0,-1.535078429577652e-08,1.0
56,56,2129.3164,72226.21,2343.371,72264.22,-1.8583031,32.83184630610049,-0.0009892501,-1.5856004e-07,0.031896193,3.3540873e-05,1.0,42,0.021066293,2.915176e-07,0,-1.5181902908707913e-08,1.0
57,57,1843.2289,72161.18,2306.952,72198.05,-1.8310899,33.51195167173864,-0.0009951936,-2.147904e-08,0.03742849,3.821453e-05,1.0,42,0.021090606,2.9212157e-07,0,-1.5422814361665852e-08,1.0
58,58,1594.4913,72624.65,2216.9658,72658.48,-1.7484883,34.19182719737,-0.00092599535,-2.7217314e-07,0.04502347,4.191644e-05,1.0,42,0.021219129,2.9203926e-07,0,-1.562448397655479e-08,1.0
59,59,1380.4436,72463.375,2478.7688,72505.76,-1.959164,34.87168234967248,-0.0009255668,-2.3864777e-07,0.046512045,5.4361633e-05,1.0,42,0.021180177,2.9211716e-07,0,-1.5578691296560185e-08,1.0
60,60,1194.6187,72533.234,2490.1885,72575.97,-1.9662886,35.551845741967554,-0.0009852257,-2.32129e-07,0.0535006,6.298503e-05,1.0,42,0.021181718,2.918558e-07,0,-1.585882372629991e-08,1.0
61,61,1033.3434,72483.06,2677.3643,72532.49,-2.1154177,36.232103640941205,-0.0010092979,-1.2708334e-07,0.057526506,7.838225e-05,1.0,42,0.021185214,2.9207894e-07,0,-1.6066866932099008e-08,1.0
62,62,894.71045,72574.97,2868.5962,72631.64,-2.263493,36.911849299882306,-0.0009442172,-2.297079e-07,0.062010925,9.67287e-05,1.0,42,0.021182261,2.916396e-07,0,-1.586049850595038e-08,1.0
63,63,774.2569,72517.27,3175.3672,72586.76,-2.507251,37.591944985528244,-0.0010693852,2.8713933e-07,0.06473529,0.00012388371,1.0,42,0.02116395,2.9156763e-07,0,-1.5717758369476087e-08,1.0
64,64,669.7856,72520.69,3251.1267,72593.52,-2.5668705,38.27182253783394,-0.00097359944,-1.678721e-07,0.073088735,0.00014659612,1.0,42,0.021143585,2.9125994e-07,0,-1.6058907269167673e-08,1.0
65,65,579.81464,72679.125,3551.4656,72765.84,-2.7975333,38.95184499678726,-0.0009877037,-4.8299288e-08,0.077290006,0.00018411256,1.0,42,0.021153996,2.9071327e-07,0,-1.6026325024258072e-08,1.0
66,66,501.44418,73000.79,4100.668,73115.875,-3.2150927,39.629166282276856,-0.0010121298,1.3310944e-07,0.07740035,0.00024346064,1.0,42,0.021198014,2.8992355e-07,0,-1.5841717689441895e-08,1.0
67,67,434.02762,73016.18,4332.6665,73144.62,-3.3958604,40.309212287917035,-0.00091507717,-2.9824807e-07,0.08463451,0.0002969568,1.0,42,0.02114703,2.891126e-07,0,-1.58643088555108e-08,1.0
68,68,375.6009,73151.84,4866.7476,73313.555,-3.8062441,40.98742677344126,-0.0010089253,-2.5447926e-07,0.087067224,0.00038367524,1.0,42,0.021158373,2.8860111e-07,0,-1.5979415963665626e-08,1.0
69,69,325.10385,73427.54,5299.0645,73618.5,-4.1277237,41.66670973908185,-0.00094309926,-3.710725e-07,0.092384435,0.00047865577,1.0,42,0.0211751,2.8763284e-07,0,-1.575632100896011e-08,1.0
70,70,281.3503,73609.266,5962.1094,73850.33,-4.6306615,42.34280505118659,-0.0009700594,-1.2913199e-07,0.09487959,0.0006183976,1.0,42,0.021157362,2.8648975e-07,0,-1.6089800188106707e-08,1.0
71,71,243.36427,74114.586,6644.51,74411.836,-5.122977,43.026124630268896,-0.001015409,-1.6247121e-07,0.09842386,0.0007847697,1.0,42,0.02120109,2.849156e-07,0,-1.5751476734376665e-08,1.0
72,72,210.60631,74289.8,7470.092,74664.42,-5.741985,43.70317986243754,-0.0009659418,-2.2952163e-07,0.10116326,0.0010126218,1.0,42,0.021178586,2.836503e-07,0,-1.5567539679685025e-08,1.0
73,73,182.27473,74764.914,8068.4004,75199.016,-6.1593475,44.37525469434331,-0.0009386836,-3.4816372e-07,0.10821967,0.0012458242,1.0,42,0.021185482,2.8172553e-07,0,-1.5775510800997002e-08,1.0
74,74,157.72879,75444.6,9138.352,75996.04,-6.9064,45.06364022043272,-0.0010143657,-1.3900367e-07,0.11041836,0.0015965962,1.0,42,0.021226883,2.7931566e-07,0,-1.554915388206584e-08,1.0
75,75,136.52892,75791.164,10367.501,76496.96,-7.7891684,45.73551265228889,-0.0009806609,-3.178049e-07,0.11244015,0.0020652907,1.0,42,0.021190686,2.7701344e-07,0,-1.587079766040568e-08,1.0
76,76,118.14758,76322.836,11090.771,77124.445,-8.268003,46.42391676502302,-0.0009821327,-1.7960635e-07,0.12146007,0.00251173,1.0,42,0.0211766,2.7457702e-07,0,-1.5913218485785308e-08,1.0
77,77,102.25773,76904.95,12387.87,77896.28,-9.150617,47.09033642333816,-0.0010125397,3.0298697e-08,0.12563983,0.0031775117,1.0,42,0.02116815,2.717479e-07,0,-1.599749449888558e-08,1.0
78,78,88.4436,77651.734,14088.31,78919.41,-10.283283,47.780297656106995,-0.0009977834,-7.474756e-08,0.12773055,0.004070474,1.0,42,0.021171555,2.6826805e-07,0,-1.5986742119444053e-08,1.0
79,79,76.54279,78539.01,15223.302,80000.78,-10.969675,48.447737714494,-0.0009243185,-2.8446624e-07,0.13658625,0.0049457964,1.0,42,0.021178199,2.647249e-07,0,-1.6114573540663614e-08,1.0
80,80,66.250786,79456.984,16738.91,81201.01,-11.896338,49.11597102621454,-0.0009550236,-3.4537058e-07,0.14351654,0.006098646,1.0,42,0.02117651,2.607912e-07,0,-1.6085502986573234e-08,1.0
81,81,57.329906,80230.88,18394.84,82312.6,-12.913241,49.77062929733802,-0.0009715313,-2.665864e-07,0.15091865,0.007537065,1.0,42,0.021112217,2.5648828e-07,0,-1.6132889154532235e-08,1.0
82,82,49.60321,81755.39,20383.672,84258.164,-13.999844,50.45634452984086,-0.0010275942,-2.0028106e-07,0.1574084,0.009212315,1.0,42,0.021197036,2.515725e-07,0,-1.6195101507997203e-08,1.0
83,83,42.92585,82808.47,22123.625,85712.875,-14.958137,51.1644404034887,-0.0009915604,-3.2283458e-07,0.16758879,0.011165172,1.0,42,0.021146042,2.4670788e-07,0,-1.6201227525572095e-08,1.0
84,84,37.1518,84339.66,24566.842,87844.79,-16.240028,51.80818923408515,-0.0009822819,2.415143e-08,0.17437771,0.013638218,1.0,42,0.021192541,2.4124984e-07,0,-1.6401120362273346e-08,1.0
85,85,32.150223,85740.13,27214.697,89955.6,-17.609911,52.447391131107,-0.0009429875,-5.128003e-08,0.18189996,0.01664881,1.0,42,0.021203073,2.3570597e-07,0,-1.647813212643396e-08,1.0
86,86,27.835518,87375.984,29659.014,92272.53,-18.749332,53.17532959234086,-0.00096869,-2.3147817e-07,0.19278096,0.0199174,1.0,42,0.021191714,2.296644e-07,0,-1.675495439776695e-08,1.0
87,87,24.082958,89122.805,32417.4,94835.445,-19.98828,53.87740693232627,-0.0009895482,1.0498451e-07,0.20386006,0.023820294,1.0,42,0.021195108,2.2349353e-07,0,-1.689873980806627e-08,1.0
88,88,20.833313,91013.26,35768.566,97789.586,-21.45502,54.53175981680397,-0.00096480525,-1.7699955e-07,0.21357985,0.028574465,1.0,42,0.021212345,2.1691824e-07,0,-1.6205568763417154e-08,1.0
89,89,18.021912,92944.01,39202.297,100873.234,-22.86924,55.27775310557627,-0.00095805124,-2.965732e-07,0.22527228,0.034023494,1.0,42,0.021197302,2.1013803e-07,0,-1.6911685404911638e-08,1.0
90,90,15.604198,94980.7,42995.086,104258.87,-24.354921,55.93299334999756,-0.00097024575,-3.911888e-07,0.23722467,0.040343307,1.0,42,0.021206118,2.033987e-07,0,-1.636834741770896e-08,1.0
91,91,13.500899,97047.1,47060.39,107855.555,-25.869822,56.681008132203715,-0.0009793567,-1.5939945e-07,0.25049666,0.047690067,1.0,42,0.021163108,1.9621713e-07,0,-1.624168307006515e-08,1.0
92,92,11.686608,98895.414,51694.438,111591.3,-27.59689,57.27188546693651,-0.0009754626,-4.494859e-07,0.2634437,0.056534667,1.0,42,0.021113353,1.8920251e-07,0,-1.6493039114738256e-08,1.0
93,93,10.113269,101803.18,56633.15,116495.5,-29.087204,57.94550008556689,-0.0010307616,-9.672644e-08,0.27788037,0.065672114,1.0,42,0.021164156,1.816736e-07,0,-1.7415224919206354e-08,1.0
94,94,8.748621,104319.22,62674.15,121698.59,-30.99711,58.99137816191069,-0.0010095959,-1.5487925e-07,0.29026327,0.076983534,1.0,43,0.021162093,1.7388938e-07,0,-1.565373957463439e-08,1.0
95,95,7.570237,106864.76,69722.38,127598.15,-33.121864,59.867014256858965,-0.0010257683,-2.0790803e-07,0.30153546,0.09003142,1.0,43,0.021177486,1.6597016e-07,0,-1.6951624965365003e-08,1.0
96,96,6.554112,109566.06,76992.195,133912.36,-35.095757,60.4033103089605,-0.0009386463,2.0363949e-07,0.31539848,0.104258545,1.0,43,0.021134106,1.5782042e-07,0,-1.5002981521297086e-08,1.0
97,97,5.669445,112440.88,85958.37,141533.72,-37.39705,61.01314001795254,-0.0010063354,-5.2891136e-07,0.3265814,0.120461404,1.0,43,0.02117283,1.4959566e-07,0,-1.7199363339536966e-08,1.0
98,98,4.907347,115362.195,95161.88,149546.72,-39.519104,61.7055475708039,-0.0010201415,1.6341359e-07,0.34080842,0.13800111,1.0,43,0.02111276,1.4117836e-07,0,-1.5249642373613408e-08,1.0
99,99,4.245922,118836.97,106847.66,159808.16,-41.95907,62.493327101605246,-0.0009831948,-3.81186e-07,0.35081902,0.15682498,1.0,43,0.021183109,1.3255337e-07,0,-1.597799354753467e-08,1.0
100,100,3.6747382,122037.61,119275.32,170645.19,-44.34417,63.39293373099645,-0.00097255607,-2.0802173e-07,0.36311412,0.17740107,1.0,43,0.021150604,1.2394491e-07,0,-1.7572689143160977e-08,1.0
101,101,3.180988,125674.61,134242.94,183889.3,-46.888103,64.42117977983435,-0.0009727424,-8.356321e-09,0.3727062,0.19862624,1.0,43,0.021167988,1.1511267e-07,0,-1.5490051689188217e-08,1.0
102,102,2.752818,130287.414,150848.67,199324.19,-49.182957,65.60014151580981,-0.0009870137,-1.9719278e-07,0.38326672,0.21951494,1.0,43,0.021165235,1.06184984e-07,0,-1.4888931355409893e-08,1.0
103,103,2.3804083,134523.62,170338.27,217052.38,-51.7003,66.95498083351413,-0.00095765013,-2.749871e-07,0.39251515,0.24174182,1.0,43,0.021190865,9.763019e-08,0,-1.7138853213092868e-08,1.0
104,104,2.060257,140393.62,191218.86,237223.56,-53.71374,68.51126605409081,-0.0009625834,-1.5750743e-07,0.40398762,0.26249066,1.0,43,0.021128958,8.9067704e-08,0,-1.8226495490850424e-08,1.0
