True,index,freq,Re(Z),Im(Z),Z,Phase(Z),time,Ewe_meas,I_meas,Cs,Cp,cycle_number,I_Range,Ewe,I,Ns,(QQo),cycle
110,110,7000018.5,162.23029,1068.419,1080.6654,-81.36607,82.62050064423238,-0.012276746,2.1761603e-05,2.128038e-05,2.08008e-05,2.0,40,0.009820414,9.087376e-06,0,-2.5036575184345248e-08,2.0
111,111,6057573.0,218.30388,1190.5211,1210.3706,-79.6092,83.17250437711482,-0.012233297,-1.658422e-05,2.2069087e-05,2.135118e-05,2.0,40,0.013831017,1.1427092e-05,0,-2.7872749874747922e-08,2.0
112,112,5242039.0,216.62456,1378.287,1395.2065,-81.067924,83.58849274352542,-0.012191916,-1.5412057e-05,2.2028262e-05,2.1497232e-05,2.0,40,0.019135838,1.3715416e-05,0,-2.9535513069166994e-08,2.0
113,113,4536288.0,221.41377,1599.9187,1615.1669,-82.12085,84.95648216854897,-0.01220915,-1.9337793e-05,2.1929141e-05,2.1517046e-05,2.0,40,0.019390311,1.20051445e-05,0,-3.71550598372424e-08,2.0
114,114,3925558.5,265.56146,1832.9292,1852.067,-81.75614,85.37250717493589,-0.0122131,-2.2128599e-05,2.2119382e-05,2.1664615e-05,2.0,40,0.018514471,9.996653e-06,0,-3.8882312151912994e-08,2.0
115,115,3397055.0,319.773,2050.4385,2075.2236,-81.135925,85.78850722135394,-0.012229719,-2.0509933e-05,2.284919e-05,2.2306656e-05,2.0,40,0.019550877,9.421094e-06,0,-4.240053749116058e-08,2.0
116,116,2939708.2,355.8186,2344.7046,2371.5493,-81.370964,86.20449313448626,-0.012317605,-6.611703e-06,2.3090204e-05,2.2570423e-05,2.0,40,0.02139519,9.021609e-06,0,-4.9311351047900706e-08,2.0
117,117,2543924.5,449.55453,2718.2422,2755.166,-80.609184,86.75648457402713,-0.012291223,1.9281686e-06,2.301589e-05,2.2403121e-05,2.0,40,0.020602068,7.477614e-06,0,-5.555166876994989e-08,2.0
118,118,2201436.2,477.47183,3066.3933,3103.3445,-81.149475,87.3084828935971,-0.012275069,-7.969896e-06,2.3576871e-05,2.3018758e-05,2.0,40,0.020909732,6.737806e-06,0,-6.063816866815409e-08,2.0
119,119,1905053.1,577.8303,3553.0063,3599.6863,-80.76278,87.86048835978727,-0.012303557,-2.2054175e-05,2.3513488e-05,2.2907607e-05,2.0,40,0.020701917,5.7510338e-06,0,-6.541004934732777e-08,2.0
120,120,1648567.4,630.7214,4072.6584,4121.208,-81.19669,88.41250481267343,-0.0122670205,-3.2584827e-05,2.3704755e-05,2.314954e-05,2.0,40,0.019909434,4.8309703e-06,0,-7.485706832273229e-08,2.0
121,121,1426616.2,788.3931,4630.9253,4697.556,-80.338295,88.96448379891808,-0.01231019,4.025291e-07,2.4090466e-05,2.3411907e-05,2.0,40,0.020368097,4.3358923e-06,0,-7.650158963773615e-08,2.0
122,122,1234551.2,841.7667,5280.599,5347.27,-80.94283,89.68349036635482,-0.012340653,-4.587697e-07,2.4413373e-05,2.3808387e-05,2.0,41,0.019171897,3.5853618e-06,0,-7.608587524587287e-08,2.0
123,123,1068345.5,952.04913,6162.531,6235.638,-81.217804,90.23550063258153,-0.012264803,-9.596815e-07,2.4174045e-05,2.3610528e-05,2.0,41,0.020157011,3.23255e-06,0,-7.662443610433338e-08,2.0
124,124,924510.06,1067.4786,7120.4517,7200.024,-81.47387,90.78748775212443,-0.01232599,2.5989448e-06,2.4176918e-05,2.3645482e-05,2.0,41,0.02078347,2.8865834e-06,0,-7.701155321182046e-08,2.0
125,125,800039.0,1134.4473,8047.3135,8126.883,-81.97577,91.33950159171945,-0.012300651,-1.7138626e-06,2.4720544e-05,2.4238843e-05,2.0,41,0.020636385,2.5392744e-06,0,-7.871119915925403e-08,2.0
126,126,692334.1,1616.9723,9175.356,9316.746,-80.005394,91.89150428460562,-0.012248742,-2.6114342e-06,2.5054253e-05,2.4299583e-05,2.0,41,0.020347552,2.1839762e-06,0,-7.758564305485906e-08,2.0
127,127,599122.25,2105.732,10630.455,10837.005,-78.795616,92.44349703079206,-0.012287031,1.3605953e-06,2.498923e-05,2.4045732e-05,2.0,41,0.020782292,1.9177155e-06,0,-7.801641425826784e-08,2.0
128,128,518454.94,2573.8142,11993.111,12266.183,-77.8876,92.99548436366604,-0.012356043,2.559839e-06,2.5596304e-05,2.4469333e-05,2.0,41,0.020471977,1.668977e-06,0,-7.810342915124184e-08,2.0
129,129,448662.03,3328.4219,13647.656,14047.666,-76.29413,93.5474939099222,-0.0122797275,4.0123386e-06,2.599218e-05,2.4532992e-05,2.0,41,0.020141175,1.4337737e-06,0,-7.833261213574754e-08,2.0
130,130,388258.97,4207.256,15725.046,16278.147,-75.02128,94.09948993611033,-0.012276504,-1.0583761e-06,2.606794e-05,2.4326555e-05,2.0,41,0.020885015,1.2830093e-06,0,-7.92912870068524e-08,2.0
131,131,335983.9,5653.3765,16723.201,17652.936,-71.32188,94.6514926556556,-0.012330666,3.7870154e-06,2.8325803e-05,2.542068e-05,2.0,41,0.020114388,1.1394359e-06,0,-8.037760009217779e-08,2.0
132,132,290751.2,6585.414,19988.389,21045.27,-71.764915,95.20348537524114,-0.012272498,-1.5462665e-06,2.7385511e-05,2.4704008e-05,2.0,41,0.020541854,9.760794e-07,0,-7.987176117793836e-08,2.0
133,133,251605.19,8119.0903,22083.406,23528.63,-69.81376,95.75549588145805,-0.012300837,1.8019317e-06,2.8644055e-05,2.5233256e-05,2.0,41,0.020283435,8.6207456e-07,0,-7.967009538159865e-08,2.0
134,134,217729.38,10423.741,24705.092,26814.1,-67.12382,96.30849185437546,-0.0122497855,1.1967226e-06,2.9588069e-05,2.5116733e-05,2.0,41,0.020401627,7.6085445e-07,0,-7.934052004650383e-08,2.0
135,135,188418.58,12933.82,27154.875,30077.748,-64.531624,96.86048892061808,-0.012261766,-3.9149595e-06,3.1106316e-05,2.5354413e-05,2.0,41,0.020237759,6.728482e-07,0,-7.943195839285069e-08,2.0
136,136,163051.14,15764.663,29768.473,33685.11,-62.095387,97.41249612017418,-0.012268771,6.0793106e-08,3.2789874e-05,2.5608075e-05,2.0,41,0.020614285,6.119703e-07,0,-7.8954540760996e-08,2.0
137,137,141098.2,19116.938,32767.602,37936.434,-59.7403,97.96450385302887,-0.01224319,-3.3153383e-06,3.4423418e-05,2.5682086e-05,2.0,41,0.020432021,5.385857e-07,0,-7.825097660832962e-08,2.0
138,138,122105.11,24285.506,32716.693,40745.156,-53.41361,98.3804920061084,-0.012315015,3.4294762e-06,3.983978e-05,2.568643e-05,2.0,41,0.022061234,5.4144436e-07,0,-7.782680683517206e-08,2.0
139,139,105663.59,27276.992,36620.16,45662.57,-53.318947,98.9325022190169,-0.012261133,-2.3674902e-06,4.1131498e-05,2.645418e-05,2.0,41,0.020554258,4.501336e-07,0,-7.887215699986152e-08,2.0
140,140,91439.65,32155.781,37873.824,49683.203,-49.667946,99.34850719876704,-0.012210268,-3.2631983e-06,4.5956444e-05,2.6705799e-05,2.0,41,0.021864707,4.4008246e-07,0,-7.922125354178296e-08,2.0
141,141,79127.08,37909.742,41646.715,56316.938,-47.689354,100.06750843292684,-0.012264356,-1.5297817e-07,4.829634e-05,2.641178e-05,2.0,42,0.01849084,3.2833532e-07,0,-7.823990456559176e-08,2.0
142,142,68475.36,42443.312,41888.04,59632.562,-44.622746,100.48349882601178,-0.012225769,-5.6068194e-07,5.548758e-05,2.7378452e-05,2.0,42,0.019153604,3.211937e-07,0,-7.824451497694242e-08,2.0
143,143,59252.523,48388.812,41856.926,63980.305,-40.860214,100.89950119241257,-0.012268548,-3.4816918e-07,6.4172054e-05,2.746553e-05,2.0,42,0.019808536,3.0960365e-07,0,-7.832525364951455e-08,2.0
144,144,51282.285,53680.72,41755.016,68008.09,-37.877205,101.3154863055388,-0.012247494,-7.5103037e-07,7.432658e-05,2.80182e-05,2.0,42,0.020299528,2.9848695e-07,0,-7.833460421927066e-08,2.0
145,145,44369.8,59828.47,39494.742,71688.77,-33.430115,101.73149123197072,-0.012293124,-5.0257114e-07,9.0822476e-05,2.7565738e-05,2.0,42,0.020707274,2.888496e-07,0,-7.837940182787367e-08,2.0
146,146,38403.727,65061.855,37428.707,75059.664,-29.910904,102.14750143836136,-0.012242016,-7.0316344e-07,0.000110724046,2.7532038e-05,2.0,42,0.021070743,2.8071992e-07,0,-7.835932850046963e-08,2.0
147,147,33226.32,68781.375,35225.883,77277.04,-27.118925,102.56348780481494,-0.012291558,-2.222887e-08,0.0001359803,2.8255228e-05,2.0,42,0.021247417,2.7495122e-07,0,-7.842583748999646e-08,2.0
148,148,28754.086,73201.41,32376.102,80041.6,-23.85923,102.97950147787924,-0.012262064,-4.9027784e-07,0.00017096059,2.797136e-05,2.0,42,0.021423362,2.6765284e-07,0,-7.840694260292776e-08,2.0
149,149,24884.947,77045.71,29222.219,82401.336,-20.770943,103.39550563102239,-0.012320084,-2.7459868e-07,0.00021886193,2.7525048e-05,2.0,42,0.021508342,2.6101932e-07,0,-7.843477091212531e-08,2.0
150,150,21553.963,79080.086,26886.168,83525.6,-18.777344,103.8125020241423,-0.012258319,-5.377714e-07,0.0002746402,2.8456578e-05,2.0,42,0.021429779,2.565654e-07,0,-7.854060905983001e-08,2.0
151,151,18631.234,81543.23,24081.28,85024.734,-16.452883,104.22849348388263,-0.012252562,-4.6308466e-07,0.00035473084,2.8455583e-05,2.0,42,0.021446891,2.5224296e-07,0,-7.84946889546746e-08,2.0
152,152,16126.037,83294.89,20983.97,85897.414,-14.139941,104.64449473030982,-0.012342237,1.4670199e-07,0.00047033228,2.8068549e-05,2.0,42,0.02123108,2.4716786e-07,0,-7.864874618331067e-08,2.0
153,153,13954.87,83914.12,19098.49,86060.05,-12.82186,105.06049936343334,-0.012225341,-5.062946e-07,0.0005971663,2.9409675e-05,2.0,42,0.020943852,2.4336325e-07,0,-7.878646407768386e-08,2.0
154,154,12080.609,85384.27,15565.17,86791.41,-10.331319,105.47650634319871,-0.012261077,1.2081317e-07,0.0008464034,2.722273e-05,2.0,42,0.020664655,2.3809564e-07,0,-7.889373810971397e-08,2.0
155,155,10447.592,86558.55,14100.727,87699.555,-9.252433,105.89248876294005,-0.012259865,-3.9994484e-07,0.0010803449,2.7928694e-05,2.0,42,0.020204647,2.3038483e-07,0,-7.903612078217511e-08,2.0
156,156,9045.586,87222.26,12298.486,88085.05,-8.025892,106.46526519014151,-0.012292508,-1.8575524e-07,0.0014306447,2.7888856e-05,2.0,42,0.020330597,2.3080645e-07,0,-7.914940640865866e-08,2.0
157,157,7827.7437,87585.77,10313.96,88190.96,-6.7161283,106.94594643966411,-0.01227751,-6.692641e-08,0.0019713244,2.6962542e-05,2.0,42,0.020426312,2.3161458e-07,0,-7.911607451051792e-08,2.0
158,158,6770.8345,87688.49,9041.226,88153.36,-5.8867474,107.48442187855835,-0.012273784,1.0610124e-07,0.002599864,2.7348122e-05,2.0,42,0.02050513,2.3260748e-07,0,-7.918218888216799e-08,2.0
159,159,5860.798,88189.16,7415.7266,88500.4,-4.8066297,108.0919971340918,-0.01232068,3.4226787e-07,0.0036619266,2.5711453e-05,2.0,42,0.02064503,2.3327613e-07,0,-7.937337569757237e-08,2.0
160,160,5071.625,87862.87,7021.3447,88142.97,-4.568942,108.77270383311406,-0.012194132,-2.617441e-07,0.0044694357,2.8360766e-05,2.0,42,0.020659257,2.3438349e-07,0,-7.957322727753654e-08,2.0
161,161,4388.5933,87987.87,5908.9834,88186.055,-3.8420322,109.45181933202548,-0.012274343,-4.196771e-08,0.0061373664,2.7555467e-05,2.0,42,0.020742122,2.3520863e-07,0,-7.977219894566624e-08,2.0
162,162,3798.7827,88245.92,5178.5605,88397.74,-3.3584528,110.13184571100282,-0.012283454,1.7260126e-08,0.008090338,2.7765302e-05,2.0,42,0.020839075,2.3574215e-07,0,-7.993531409275354e-08,2.0
163,163,3286.0488,87988.65,4732.4316,88115.82,-3.0786626,110.81168363663164,-0.012260816,5.1717088e-08,0.010234386,2.9520432e-05,2.0,42,0.020836378,2.364658e-07,0,-8.00050301216303e-08,2.0
164,164,2844.088,88278.25,4121.97,88374.43,-2.673366,111.49184734892333,-0.012290571,-5.481876e-08,0.013576014,2.9534438e-05,2.0,42,0.020933019,2.3686736e-07,0,-8.008747526202953e-08,2.0
165,165,2460.7852,88219.32,4317.991,88324.93,-2.8021684,112.17172010122886,-0.012320102,7.611574e-08,0.014978373,3.579823e-05,2.0,42,0.020968022,2.373964e-07,0,-8.0254569266895e-08,2.0
166,166,2129.3164,88088.96,3776.8538,88169.89,-2.4550786,112.85081682680175,-0.012276504,-7.0091126e-08,0.01979018,3.6313617e-05,2.0,42,0.020949125,2.3759954e-07,0,-8.013468166505592e-08,2.0
167,167,1843.2289,88224.65,3566.5283,88296.71,-2.3149517,113.53094077910646,-0.012315202,2.0723684e-07,0.024210023,3.9500035e-05,2.0,42,0.020979619,2.3760363e-07,0,-8.031110804248106e-08,2.0
168,168,1594.4913,87954.484,3774.3936,88035.43,-2.457228,114.21084809140302,-0.012204735,-1.3937672e-07,0.026445441,4.861051e-05,2.0,42,0.020947138,2.3793986e-07,0,-8.047623660746812e-08,2.0
169,169,1380.4436,88090.15,3258.874,88150.41,-2.1186776,114.89072263037087,-0.012280473,2.986858e-07,0.03537805,4.8352664e-05,2.0,42,0.020967089,2.3785583e-07,0,-8.048926862850792e-08,2.0
170,170,1194.6187,88152.58,3450.133,88220.07,-2.2413094,115.57083228933334,-0.012251053,-1.1833046e-07,0.038614906,5.905979e-05,2.0,42,0.020984003,2.3785975e-07,0,-8.067909960639912e-08,2.0
171,171,1033.3434,88581.08,3302.1367,88642.61,-2.1348906,116.25109248163062,-0.0122722555,-1.2280059e-07,0.046642352,6.4727e-05,2.0,42,0.021041991,2.3738009e-07,0,-8.085096485946468e-08,2.0
172,172,894.71045,88273.336,3288.0588,88334.555,-2.1332016,116.93084566059406,-0.012232179,-2.0586843e-07,0.0541001,7.495765e-05,2.0,42,0.020990608,2.3762624e-07,0,-8.06996389914991e-08,2.0
173,173,774.2569,88937.78,3957.4175,89025.78,-2.5477796,117.61095123956329,-0.012267933,2.70562e-07,0.05194254,0.00010263969,2.0,42,0.021077724,2.3675977e-07,0,-8.064455316912836e-08,2.0
174,174,669.7856,88680.945,4029.519,88772.445,-2.6016383,118.29080649852403,-0.012226943,-1.5204213e-07,0.05897,0.000121501376,2.0,42,0.021021837,2.3680589e-07,0,-8.085493267916356e-08,2.0
175,175,579.81464,88926.93,4271.25,89029.445,-2.7498608,118.97084674415237,-0.01220779,-2.2263127e-07,0.064265214,0.00014791718,2.0,42,0.021034194,2.3626109e-07,0,-8.076536947356515e-08,2.0
176,176,501.44418,89010.13,4652.3374,89131.63,-2.9919848,119.64821133631631,-0.012203951,-2.0549588e-07,0.0682223,0.00018586816,2.0,42,0.021023257,2.3586752e-07,0,-8.058549711109938e-08,2.0
177,177,434.02762,89418.79,4956.42,89556.05,-3.1726177,120.32821958194836,-0.012264673,-1.5986451e-07,0.07398346,0.00022661102,2.0,42,0.021027425,2.3479627e-07,0,-8.067314538406321e-08,2.0
178,178,375.6009,89312.15,5715.9355,89494.87,-3.661909,121.00743857419002,-0.012281069,-1.1982061e-07,0.074132085,0.00030240195,2.0,42,0.021010963,2.3477283e-07,0,-8.088625409067044e-08,2.0
179,179,325.10385,89603.79,6405.23,89832.43,-4.088772,121.68669815316389,-0.012265585,7.3135574e-08,0.076429896,0.00038856748,2.0,42,0.02104524,2.3427218e-07,0,-8.104758399401212e-08,2.0
180,180,281.3503,89802.89,6963.0767,90072.44,-4.433691,122.36380922532408,-0.012272181,-2.6882122e-07,0.08124031,0.00048550096,2.0,42,0.02101375,2.3329834e-07,0,-8.111937173892435e-08,2.0
181,181,243.36427,90118.65,7814.284,90456.805,-4.9557824,123.04713315106346,-0.012261468,-2.5018426e-08,0.08369011,0.00062455406,2.0,42,0.02101873,2.3236207e-07,0,-8.130165939694657e-08,2.0
182,182,210.60631,90572.83,8493.697,90970.22,-5.357389,123.72420752988546,-0.012275218,-5.0895426e-09,0.08897172,0.00077561656,2.0,42,0.021019928,2.3106384e-07,0,-8.117981089443976e-08,2.0
183,183,182.27473,90166.33,9439.164,90659.055,-5.976305,124.39624449514668,-0.012273337,-8.8530186e-08,0.09250391,0.001002778,2.0,42,0.020893337,2.3046057e-07,0,-8.135845740062367e-08,2.0
184,184,157.72879,91073.45,11012.773,91736.88,-6.894838,125.08463791456234,-0.012242557,-3.053267e-07,0.09162467,0.0013204376,2.0,42,0.020971524,2.2860515e-07,0,-8.137734204973491e-08,2.0
185,185,136.52892,91823.11,12285.316,92641.31,-7.620535,125.75653122641961,-0.012318704,4.5384233e-08,0.09488753,0.0016686775,2.0,42,0.021012472,2.2681536e-07,0,-8.154986895194306e-08,2.0
186,186,118.14758,92355.836,13272.044,93304.59,-8.177733,126.44588424585527,-0.012256885,-2.4758876e-07,0.10149801,0.002053653,2.0,42,0.02099266,2.2499064e-07,0,-8.137197634239573e-08,2.0
187,187,102.25773,93291.766,14904.527,94474.86,-9.077009,127.11235913084238,-0.012259698,-2.3231624e-07,0.10442531,0.0025990203,2.0,42,0.021030767,2.2260701e-07,0,-8.152739197839422e-08,2.0
188,188,88.4436,94006.02,16328.394,95413.57,-9.85369,127.80230521693011,-0.012239296,-3.8187588e-07,0.11020726,0.0032275787,2.0,42,0.02101322,2.2023305e-07,0,-8.156829801723041e-08,2.0
189,189,76.54279,95065.07,18123.465,96777.2,-10.793507,128.4697145553364,-0.012182339,-6.407653e-07,0.11472936,0.004023564,2.0,42,0.021025881,2.1726068e-07,0,-8.164834930511984e-08,2.0
190,190,66.250786,95906.734,20171.46,98005.05,-11.877542,129.13798984038294,-0.012254314,-4.1408914e-08,0.11909451,0.005045098,2.0,42,0.021008685,2.143633e-07,0,-8.175887328952077e-08,2.0
191,191,57.329906,96997.586,22250.545,99516.92,-12.919717,129.7926371515132,-0.012225546,-3.9845256e-07,0.12476658,0.0062371427,2.0,42,0.021001747,2.1103695e-07,0,-8.158961156348038e-08,2.0
192,192,49.60321,98579.82,24831.74,101659.22,-14.138373,130.47835918402416,-0.012237657,-3.0271943e-07,0.1292121,0.00770946,2.0,42,0.021043137,2.0699683e-07,0,-8.156341080939101e-08,2.0
193,193,42.92585,99848.51,27336.35,103522.945,-15.3111515,131.18645087096957,-0.012271566,-2.2468018e-07,0.13563155,0.009457329,2.0,42,0.02099888,2.0284277e-07,0,-8.179522370411223e-08,2.0
194,194,37.1518,101808.55,30185.234,106189.12,-16.514572,131.8301917015633,-0.012257295,-1.1590961e-07,0.1419207,0.011467661,2.0,42,0.021050302,1.9823408e-07,0,-8.198395712650412e-08,2.0
195,195,32.150223,103174.52,33236.258,108395.72,-17.855633,132.46939090525848,-0.0122046415,-1.410537e-07,0.14894435,0.014003093,2.0,42,0.020990701,1.936488e-07,0,-8.163894962923834e-08,2.0
196,196,27.835518,106117.945,36320.617,112161.516,-18.894358,133.19630656644586,-0.012239194,-2.7096416e-07,0.15742278,0.016507689,2.0,42,0.021073036,1.8788116e-07,0,-8.193887704066485e-08,2.0
197,197,24.082958,106388.516,39197.125,113379.586,-20.225504,133.8984037998307,-0.012227763,-2.483347e-07,0.16859943,0.020150915,2.0,42,0.020824438,1.8367008e-07,0,-8.177013211131544e-08,2.0
198,198,20.833313,109710.22,44211.01,118283.33,-21.948444,134.55276519093604,-0.012263276,-2.3697375e-07,0.17279506,0.02414044,2.0,42,0.02102662,1.7776487e-07,0,-8.138599441760006e-08,2.0
199,199,18.021912,111975.58,48697.383,122106.37,-23.50388,135.29870594636304,-0.012126183,-1.5126082e-06,0.18134838,0.028843522,2.0,42,0.021007016,1.7203867e-07,0,-8.187100516526395e-08,2.0
200,200,15.604198,114788.62,53324.598,126569.9,-24.91704,135.95502661750652,-0.012203784,-3.224635e-07,0.19127187,0.03395044,2.0,42,0.0210092,1.6598891e-07,0,-8.193708587699039e-08,2.0
201,201,13.500899,117823.04,58357.312,131483.25,-26.349043,136.70200774632394,-0.01227151,-2.7701873e-07,0.20200501,0.039793473,2.0,42,0.021027783,1.5992747e-07,0,-8.190425686892331e-08,2.0
202,202,11.686608,120568.25,64275.53,136631.06,-28.062298,137.51586541166762,-0.012252003,-1.2784855e-07,0.21187805,0.046889808,2.0,43,0.02100516,1.5373634e-07,0,-8.111045387347105e-08,2.0
203,203,10.113269,122435.555,71686.35,141878.11,-30.349089,138.19051107033738,-0.012223608,-1.0196266e-07,0.21952912,0.056044664,2.0,43,0.020931102,1.4752877e-07,0,-8.046454027783451e-08,2.0
204,204,8.748621,126600.484,77850.53,148621.62,-31.588638,138.9574205467652,-0.012265995,-1.0080829e-07,0.2336786,0.06411772,2.0,43,0.020992428,1.4124747e-07,0,-8.090857339740944e-08,2.0
205,205,7.570237,130085.516,86140.98,156020.86,-33.51202,139.832971441705,-0.01227138,-1.239199e-07,0.24406236,0.074396946,2.0,43,0.021032555,1.3480604e-07,0,-8.181033683349052e-08,2.0
206,206,6.554112,133525.08,95108.836,163934.86,-35.461964,140.36829781378037,-0.012266051,2.3358345e-07,0.25532034,0.08593786,2.0,43,0.021025546,1.282555e-07,0,-8.029349873984692e-08,2.0
207,207,5.669445,136694.92,105804.21,172858.42,-37.740482,140.9781506427389,-0.012284795,-4.606976e-07,0.26532406,0.09940345,2.0,43,0.021027682,1.2164685e-07,0,-8.200653875208945e-08,2.0
208,208,4.907347,139939.55,117716.36,182866.67,-40.07036,141.67054851559806,-0.012247755,1.7523774e-07,0.27550948,0.11416712,2.0,43,0.021027468,1.1498798e-07,0,-8.060842589680719e-08,2.0
209,209,4.245922,143163.95,130952.22,194021.66,-42.44919,142.45831247305614,-0.012265483,-2.5719572e-07,0.28624326,0.13039489,2.0,43,0.020985087,1.0815848e-07,0,-8.086346134172592e-08,2.0
210,210,3.6747382,146968.61,146983.6,207855.6,-45.002922,143.35794219581294,-0.012262679,-1.9046986e-07,0.2946625,0.14734627,2.0,43,0.021048164,1.01263396e-07,0,-8.238951585426809e-08,2.0
211,211,3.180988,149926.3,165389.05,223229.55,-47.80748,144.3862211779633,-0.012273979,7.468308e-08,0.30251807,0.16605863,2.0,43,0.021012278,9.412857e-08,0,-8.082923352615978e-08,2.0
212,212,2.752818,154624.62,186121.9,241971.36,-50.28119,145.56510480729048,-0.012262126,-1.1691014e-07,0.31063122,0.18378589,2.0,43,0.021034367,8.692916e-08,0,-8.002944728324381e-08,2.0
213,213,2.3804083,158512.05,210479.38,263491.25,-53.01659,146.91899241827196,-0.012258257,-2.023462e-07,0.3176575,0.2026963,2.0,43,0.021036832,7.983883e-08,0,-8.172959025880999e-08,2.0
