True,index,freq,Re(Z),Im(Z),Z,Phase(Z),time,Ewe_meas,I_meas,Cs,Cp,cycle_number,I_Range,Ewe,I,Ns,(QQo),cycle
0,0,7000018.5,145.21837,1318.5563,1326.5289,-83.715096,2.467498277168488,0.015222558,1.4728763e-05,1.7243376e-05,1.7036728e-05,1.0,40,0.009885257,7.4519726e-06,0,7.460807586868314e-09,1.0
1,1,6057573.0,232.16919,1500.0873,1517.9474,-81.20211,3.0195015034114476,0.015195522,1.6942693e-05,1.751479e-05,1.710506e-05,1.0,40,0.013987883,9.2149985e-06,0,2.0953530432734623e-09,1.0
2,2,5242039.0,239.84181,1721.6189,1738.245,-82.06907,3.435488536459161,0.015249648,3.7328884e-06,1.76353e-05,1.7299555e-05,1.0,40,0.019416088,1.1169937e-05,0,5.4440663463740044e-09,1.0
3,3,4536288.0,236.63702,1986.4985,2000.5433,-83.20679,4.80347937476472,0.015296041,-5.0799503e-05,1.766165e-05,1.7414533e-05,1.0,40,0.020636192,1.0315293e-05,0,-3.61723276015861e-09,1.0
4,4,3925558.5,282.1781,2268.0469,2285.533,-82.90801,5.219493981188862,0.015249238,-1.4667839e-05,1.7875847e-05,1.7603366e-05,1.0,40,0.019017238,8.320701e-06,0,-3.98896302567664e-09,1.0
5,5,3397055.0,360.54324,2571.5195,2596.6716,-82.0188,5.635480160970474,0.015255257,-2.4454273e-05,1.8219134e-05,1.7867891e-05,1.0,40,0.019833647,7.638104e-06,0,-3.2334268907132155e-09,1.0
6,6,2939708.2,377.96155,2935.4402,2959.6729,-82.66308,6.051486287411535,0.015254194,-6.239597e-06,1.844347e-05,1.8142691e-05,1.0,40,0.021615969,7.3034994e-06,0,-5.022069769046943e-09,1.0
7,7,2543924.5,472.89685,3435.245,3467.6418,-82.16191,6.603498313605087,0.015199939,-1.1486317e-05,1.8212024e-05,1.7873317e-05,1.0,40,0.020816129,6.002964e-06,0,-5.614185888210462e-09,1.0
8,8,2201436.2,470.80338,3906.0442,3934.3154,-83.12718,7.1554909798142035,0.015152297,2.1966172e-05,1.8508741e-05,1.8243696e-05,1.0,40,0.020338297,5.169463e-06,0,-8.577478315613815e-09,1.0
9,9,1905053.1,603.22186,4451.8896,4492.5713,-82.28353,7.707496792747406,0.015197554,-2.2668155e-05,1.8765868e-05,1.8427545e-05,1.0,40,0.02061097,4.587789e-06,0,-6.646596204038562e-09,1.0
10,10,1648567.4,785.86194,5079.704,5140.1333,-81.2057,8.259488925599726,0.015216409,-1.7681914e-05,1.9005312e-05,1.8561073e-05,1.0,40,0.020009652,3.8928274e-06,0,-1.1453201890819602e-08,1.0
11,11,1426616.2,734.54114,6000.922,6045.7104,-83.02144,8.978498933109222,0.015230755,-1.4755211e-06,1.8590668e-05,1.8316237e-05,1.0,41,0.019410525,3.2106275e-06,0,-1.2767901388934256e-08,1.0
12,12,1234551.2,904.0691,6992.9233,7051.1216,-82.63347,9.53048741267412,0.015274186,-1.9317406e-06,1.8435387e-05,1.813232e-05,1.0,41,0.020543166,2.9134608e-06,0,-1.2508143081836763e-08,1.0
13,13,1068345.5,1069.01,7867.063,7939.362,-82.2618,10.082500585558591,0.015143801,4.3214586e-06,1.8936329e-05,1.8593017e-05,1.0,41,0.020637438,2.5993825e-06,0,-1.1799120445093396e-08,1.0
14,14,924510.06,1265.2874,9264.256,9350.262,-82.22282,10.63449887841125,0.015176891,-1.7734552e-06,1.8582235e-05,1.824196e-05,1.0,41,0.020296993,2.1707406e-06,0,-1.1667595815424648e-08,1.0
15,15,800039.0,1151.2357,10610.005,10672.279,-83.807365,11.186493357963627,0.015204689,1.5896413e-06,1.8749659e-05,1.8531482e-05,1.0,41,0.020859985,1.954595e-06,0,-1.2927374818108066e-08,1.0
16,16,692334.1,2272.166,11921.927,12136.519,-79.209564,11.738499650877202,0.015187474,2.859647e-06,1.928226e-05,1.860641e-05,1.0,41,0.020359008,1.6774999e-06,0,-1.3990034153932938e-08,1.0
17,17,599122.25,2701.0398,13509.154,13776.533,-78.69329,12.29048218371463,0.015194386,2.1762282e-06,1.9664212e-05,1.8908322e-05,1.0,41,0.020576118,1.4935628e-06,0,-1.4669705784797316e-08,1.0
18,18,518454.94,3253.6948,15482.65,15820.841,-78.131935,12.842491489980603,0.015156713,3.9322626e-06,1.982731e-05,1.8988703e-05,1.0,41,0.020596366,1.3018503e-06,0,-1.506018230216139e-08,1.0
19,19,448662.03,4397.7046,17502.75,18046.773,-75.89594,13.39450074287015,0.015171097,3.0626245e-06,2.0267236e-05,1.9063733e-05,1.0,41,0.020238098,1.1214247e-06,0,-1.5320274781361023e-08,1.0
20,20,388258.97,5419.9067,19918.795,20643.008,-74.77833,13.946489995723823,0.01524145,-3.4959705e-06,2.0579535e-05,1.9160892e-05,1.0,41,0.020822871,1.0087131e-06,0,-1.5691336948334662e-08,1.0
21,21,335983.9,7087.4497,23093.775,24156.871,-72.93882,14.498504341958323,0.015260454,-5.6542367e-06,2.0511938e-05,1.8746285e-05,1.0,41,0.020451501,8.466122e-07,0,-1.528520076520105e-08,1.0
22,22,290751.2,9038.327,25255.146,26823.754,-70.3087,15.05049284818233,0.0151061835,5.8279616e-06,2.1674483e-05,1.9213629e-05,1.0,41,0.02057622,7.670895e-07,0,-1.489171589581733e-08,1.0
23,23,251605.19,11360.6,28286.77,30482.857,-68.1185,15.602483754366403,0.015226806,3.9970752e-07,2.2362337e-05,1.9256287e-05,1.0,41,0.020379966,6.685714e-07,0,-1.4539171485150998e-08,1.0
24,24,217729.38,13523.285,31282.947,34080.816,-66.62169,16.154490420623915,0.01515716,3.0626243e-06,2.3366596e-05,1.968751e-05,1.0,41,0.0201996,5.9269706e-07,0,-1.429563963072648e-08,1.0
25,25,188418.58,16984.334,34237.42,38218.695,-63.61513,16.706499780149898,0.0151860025,3.5933456e-06,2.4671488e-05,1.9799114e-05,1.0,41,0.020740032,5.426672e-07,0,-1.5154682290355165e-08,1.0
26,26,163051.14,20848.19,36980.473,42452.355,-60.587345,17.258478979725624,0.015150695,-1.3563276e-06,2.6395131e-05,2.0029272e-05,1.0,41,0.020295858,4.7808555e-07,0,-1.5458804689098807e-08,1.0
27,27,141098.2,25231.633,39928.348,47232.492,-57.710278,17.810480845946586,0.015191386,1.9434535e-06,2.8249924e-05,2.018823e-05,1.0,41,0.020234598,4.284042e-07,0,-1.6158377269622154e-08,1.0
28,28,122105.11,29181.914,39035.156,48737.332,-53.218937,18.226497132360237,0.015191349,4.0272334e-06,3.3391076e-05,2.1419964e-05,1.0,41,0.021777539,4.4683486e-07,0,-1.6437279947537162e-08,1.0
29,29,105663.59,34478.152,46523.49,57906.633,-53.458176,18.945479033194715,0.015300401,-8.69114e-07,3.237595e-05,2.0898273e-05,1.0,42,0.018930994,3.2692273e-07,0,-1.6082238764343534e-08,1.0
30,30,91439.65,40180.293,48407.85,62910.86,-50.30608,19.361486919602612,0.015252592,-6.5269006e-07,3.595587e-05,2.128875e-05,1.0,42,0.020040646,3.1855623e-07,0,-1.6130329812599184e-08,1.0
31,31,79127.08,47145.133,50189.883,68859.914,-46.791695,19.777484112681122,0.015270795,-5.22128e-07,4.007549e-05,2.1290127e-05,1.0,42,0.021001106,3.0498305e-07,0,-1.6132298728162118e-08,1.0
32,32,68475.36,54053.312,49439.105,73252.89,-42.44716,20.19349397244514,0.015196622,2.5636824e-08,4.70127e-05,2.1414447e-05,1.0,42,0.021854771,2.983469e-07,0,-1.613843847870279e-08,1.0
33,33,59252.523,60647.48,49398.082,78219.484,-39.16322,20.745504452002933,0.015260268,-5.8861957e-07,5.437549e-05,2.16867e-05,1.0,42,0.02020577,2.5832145e-07,0,-1.6276404983291352e-08,1.0
34,34,51282.285,67208.414,49871.3,83690.61,-36.576874,21.16147959177033,0.015185536,1.3105492e-07,6.223033e-05,2.2097849e-05,1.0,42,0.02072598,2.4765e-07,0,-1.6242886860885855e-08,1.0
35,35,44369.8,73964.195,46429.95,87329.51,-32.11795,21.57749227815657,0.015250058,-3.0793888e-07,7.7256394e-05,2.1837797e-05,1.0,42,0.021116614,2.418039e-07,0,-1.6304772482308514e-08,1.0
36,36,38403.727,79173.07,44135.82,90644.06,-29.137918,21.993490404594922,0.0151990075,2.515597e-07,9.3897834e-05,2.2261747e-05,1.0,42,0.021408616,2.3618331e-07,0,-1.6235426749881457e-08,1.0
37,37,33226.32,84295.766,41242.42,93844.09,-26.070585,22.40949010438635,0.015201373,1.11685154e-07,0.00011614319,2.2432008e-05,1.0,42,0.021632234,2.3051247e-07,0,-1.6302909163250944e-08,1.0
38,38,28754.086,88779.14,37684.29,96446.055,-22.999878,22.82548996413243,0.015127927,5.2087927e-07,0.00014687917,2.2423941e-05,1.0,42,0.021764435,2.2566434e-07,0,-1.64299049408751e-08,1.0
39,39,24884.947,92946.51,35419.117,99466.414,-20.860336,23.241488037194358,0.01523791,2.8431442e-08,0.00018057003,2.2896453e-05,1.0,42,0.021852566,2.1969794e-07,0,-1.6478678729946142e-08,1.0
40,40,21553.963,95964.38,31726.688,101072.97,-18.294352,23.658486377011286,0.015248419,-7.016728e-07,0.00023273852,2.2932303e-05,1.0,42,0.021902956,2.167044e-07,0,-1.6544834556705093e-08,1.0
41,41,18631.234,98290.54,28443.848,102323.42,-16.139671,24.074500823422568,0.015169979,2.3219073e-07,0.00030032409,2.3206878e-05,1.0,42,0.02173718,2.1243602e-07,0,-1.646538631606292e-08,1.0
42,42,16126.037,100273.73,25245.076,103402.77,-14.131201,24.490487403207226,0.015195485,1.2193041e-07,0.00039094512,2.330262e-05,1.0,42,0.021524018,2.0815706e-07,0,-1.6427891566221287e-08,1.0
43,43,13954.87,100557.16,22531.143,103050.445,-12.629276,24.90648072960903,0.015303773,-7.035347e-07,0.00050618715,2.4197909e-05,1.0,42,0.02121631,2.0588277e-07,0,-1.647503580112201e-08,1.0
44,44,12080.609,103313.0,19819.475,105196.9,-10.859635,25.322492936073104,0.015169867,2.4280737e-07,0.0006647206,2.3594866e-05,1.0,42,0.020973459,1.9937336e-07,0,-1.658397563083004e-08,1.0
45,45,10447.592,104920.13,17007.043,106289.58,-9.207285,25.73847924915026,0.015162619,-1.5800507e-07,0.0008957259,2.2932498e-05,1.0,42,0.020515542,1.9301557e-07,0,-1.667999815286287e-08,1.0
46,46,9045.586,105054.2,15051.0,106126.9,-8.153221,26.311268396355445,0.015227029,-1.3453732e-07,0.0011690096,2.3512446e-05,1.0,42,0.02030018,1.9128214e-07,0,-1.678255249437092e-08,1.0
47,47,7827.7437,106122.28,13067.359,106923.78,-7.0197754,26.791927805898013,0.015230364,-1.8724627e-07,0.0015559501,2.3239285e-05,1.0,42,0.020427385,1.9104623e-07,0,-1.6840236680854757e-08,1.0
48,48,6770.8345,106275.75,11322.433,106877.19,-6.081253,27.33042321811081,0.015171506,1.351549e-07,0.002076052,2.3299557e-05,1.0,42,0.02048405,1.9165971e-07,0,-1.6996027216477356e-08,1.0
49,49,5860.798,106273.61,9770.36,106721.79,-5.2527733,27.936985940265004,0.015115704,3.8491817e-07,0.0027794112,2.329527e-05,1.0,42,0.020553134,1.9258611e-07,0,-1.7122109249993775e-08,1.0
50,50,5071.625,106337.79,8678.017,106691.3,-4.665457,28.61768173261953,0.015276757,-5.048031e-07,0.0036162008,2.3924094e-05,1.0,42,0.02061831,1.9325203e-07,0,-1.732375016929893e-08,1.0
51,51,4388.5933,106672.516,7396.628,106928.65,-3.9665167,29.29783371159283,0.015172214,-1.9804801e-08,0.00490299,2.346067e-05,1.0,42,0.020705417,1.9363769e-07,0,-1.7165776465108135e-08,1.0
52,52,3798.7827,106552.4,6855.314,106772.695,-3.681193,29.977836330552236,0.015210596,-1.02500174e-07,0.006111508,2.519316e-05,1.0,42,0.020709053,1.9395458e-07,0,-1.7053185797563765e-08,1.0
53,53,3286.0488,106550.9,6788.942,106766.96,-3.6457002,30.657687909515516,0.01525861,-3.7740668e-07,0.0071341796,2.884526e-05,1.0,42,0.020731905,1.9417904e-07,0,-1.7041106215791183e-08,1.0
54,54,2844.088,106615.875,6065.648,106788.28,-3.2561924,31.337802741807536,0.0152233215,-1.0194135e-07,0.009225712,2.9765084e-05,1.0,42,0.02079578,1.947384e-07,0,-1.697933616965318e-08,1.0
55,55,2460.7852,106581.914,5973.1025,106749.16,-3.2076356,32.017680560784356,0.015222688,4.1844732e-08,0.010827956,3.390139e-05,1.0,42,0.02080743,1.9491893e-07,0,-1.6894635028187013e-08,1.0
56,56,2129.3164,107016.22,5575.2905,107161.35,-2.9822776,32.69680680635793,0.015196399,-3.0663142e-07,0.013406408,3.628867e-05,1.0,42,0.020880276,1.9484895e-07,0,-1.7026303707348294e-08,1.0
57,57,1843.2289,106933.79,6057.767,107105.234,-3.2423232,33.37692963864538,0.015184679,3.8994804e-07,0.0142537225,4.5596556e-05,1.0,42,0.020864343,1.9480227e-07,0,-1.6880102897642166e-08,1.0
58,58,1594.4913,107285.2,5986.1035,107452.07,-3.193574,34.05681393762643,0.01524458,-2.0680058e-07,0.016674535,5.175027e-05,1.0,42,0.02091751,1.9466829e-07,0,-1.6782667155264046e-08,1.0
59,59,1380.4436,107331.16,5816.3403,107488.63,-3.101859,34.736711729929084,0.015243947,-3.893266e-07,0.019822191,5.8039837e-05,1.0,42,0.020894604,1.9438896e-07,0,-1.6796658856204023e-08,1.0
60,60,1194.6187,107358.86,6581.2334,107560.39,-3.5079136,35.415824508847436,0.015184474,6.680248e-08,0.020243404,7.578677e-05,1.0,42,0.020912588,1.9442648e-07,0,-1.674457714414807e-08,1.0
61,61,1033.3434,108083.51,6693.037,108290.54,-3.5434983,36.09609840778285,0.015174227,1.6439796e-07,0.023011886,8.790583e-05,1.0,42,0.020976176,1.9370276e-07,0,-1.6610735256907125e-08,1.0
62,62,894.71045,107428.34,7190.7783,107668.734,-3.829414,36.775813666768954,0.015209944,4.1285933e-08,0.024737839,0.00011034034,1.0,42,0.02087073,1.9384207e-07,0,-1.672290802990744e-08,1.0
63,63,774.2569,108477.6,7686.2866,108749.57,-4.0529747,37.45594679241185,0.015093495,4.476858e-07,0.026743514,0.00013359696,1.0,42,0.020945527,1.9260331e-07,0,-1.6882400111790456e-08,1.0
64,64,669.7856,108382.8,8249.817,108696.32,-4.352813,38.135810584702995,0.015219465,-1.7755917e-07,0.028803153,0.00016592011,1.0,42,0.02090127,1.922905e-07,0,-1.678377419243531e-08,1.0
65,65,579.81464,108670.7,9137.877,109054.22,-4.8065667,38.81580880367255,0.015186822,-4.3458172e-08,0.030039012,0.00021090716,1.0,42,0.020896582,1.9161645e-07,0,-1.664608485615392e-08,1.0
66,66,501.44418,109019.3,10488.81,109522.7,-5.495545,39.49317912911647,0.015214788,2.7875954e-08,0.030260166,0.00027753352,1.0,42,0.020867629,1.9053245e-07,0,-1.664740944403547e-08,1.0
67,67,434.02762,109557.984,11548.641,110164.984,-6.017396,40.173218894778984,0.015231836,-2.0084069e-07,0.031752057,0.00034893656,1.0,42,0.020897372,1.8969159e-07,0,-1.6815957082421662e-08,1.0
68,68,375.6009,110203.586,12691.896,110932.02,-6.569681,40.85143730029813,0.0151749905,1.8563151e-08,0.0333862,0.0004370249,1.0,42,0.020900855,1.8841138e-07,0,-1.693509953454559e-08,1.0
69,69,325.10385,111448.14,13257.069,112233.85,-6.7836185,41.53069559929281,0.015160626,-5.4447227e-08,0.036927547,0.00051522604,1.0,42,0.020935757,1.8653692e-07,0,-1.6979750954361488e-08,1.0
70,70,281.3503,111768.82,15099.666,112784.17,-7.693923,42.20780245811329,0.015128057,4.556947e-07,0.037463244,0.0006714965,1.0,42,0.020895837,1.8527278e-07,0,-1.6864813307863418e-08,1.0
71,71,243.36427,112288.65,16409.234,113481.29,-8.314035,42.89112126387772,0.015203963,-6.0221055e-08,0.039854284,0.0008333033,1.0,42,0.020851998,1.8374833e-07,0,-1.7160363651783663e-08,1.0
72,72,210.60631,113749.13,18150.355,115188.11,-9.065962,43.56820012271055,0.015212049,-4.0664922e-08,0.041635484,0.0010337573,1.0,42,0.020893313,1.8138428e-07,0,-1.7159728167574013e-08,1.0
73,73,182.27473,115019.2,20049.365,116753.56,-9.88806,44.23926068787114,0.015169756,1.9010052e-07,0.043550484,0.001284263,1.0,42,0.020898974,1.7900074e-07,0,-1.7250806569200527e-08,1.0
74,74,157.72879,115209.016,23990.818,117680.4,-11.763018,44.927638853972894,0.015122095,2.7335443e-07,0.042059496,0.0017480182,1.0,42,0.0208144,1.7687228e-07,0,-1.7427594221187545e-08,1.0
75,75,136.52892,117576.61,24658.953,120134.6,-11.844781,45.60051901920815,0.015125821,3.1041824e-07,0.047273837,0.0019917458,1.0,42,0.020882187,1.7382325e-07,0,-1.7253037756427998e-08,1.0
76,76,118.14758,119510.81,26796.412,122478.086,-12.637702,46.28890955861425,0.015166327,-1.1237425e-08,0.05027113,0.0024063298,1.0,42,0.020914966,1.7076496e-07,0,-1.719227716097402e-08,1.0
77,77,102.25773,120936.25,28764.842,124310.07,-13.379269,46.95533903021715,0.015227811,-2.9173188e-07,0.054108065,0.0028971657,1.0,42,0.020842908,1.676687e-07,0,-1.7265072735073654e-08,1.0
78,78,88.4436,123348.65,31978.592,127426.52,-14.534156,47.64429906298756,0.015173016,1.6141688e-07,0.056272257,0.003543997,1.0,42,0.020894373,1.6397193e-07,0,-1.7323118904039406e-08,1.0
79,79,76.54279,125820.69,34488.7,130461.93,-15.328828,48.31172610803333,0.015130741,2.9719376e-07,0.060289126,0.0042133257,1.0,42,0.020909794,1.6027506e-07,0,-1.72882455861937e-08,1.0
80,80,66.250786,127928.82,38266.49,133529.42,-16.653149,48.97996344641433,0.015176761,2.4335518e-08,0.062778436,0.005155773,1.0,42,0.020887619,1.5642709e-07,0,-1.732095752621306e-08,1.0
81,81,57.329906,130469.77,41443.8,136893.94,-17.62248,49.633606304164914,0.015195541,1.1839206e-07,0.06698527,0.006139458,1.0,42,0.0208633,1.5240485e-07,0,-1.7240699237712814e-08,1.0
82,82,49.60321,133736.08,44933.945,141082.95,-18.571817,50.319381963374326,0.015213279,-1.315571e-07,0.07140618,0.0072432887,1.0,42,0.020877441,1.479799e-07,0,-1.731740015509479e-08,1.0
83,83,42.92585,136264.64,49406.125,144944.88,-19.929369,51.02745762365521,0.015256411,-5.4726974e-07,0.07504477,0.008719194,1.0,42,0.02085389,1.4387463e-07,0,-1.7296017814513596e-08,1.0
84,84,37.1518,140573.1,53823.363,150524.9,-20.951107,51.67116824092227,0.015155278,1.9717602e-07,0.07959201,0.010176405,1.0,42,0.020915193,1.389484e-07,0,-1.7134820208373844e-08,1.0
85,85,32.150223,145021.97,57118.06,155864.83,-21.497395,52.310391684557544,0.015210689,-1.5502482e-07,0.08666878,0.011638937,1.0,42,0.020901902,1.3410275e-07,0,-1.724888624510997e-08,1.0
86,86,27.835518,148078.77,62041.293,160550.44,-22.732462,53.03834502582322,0.015195905,9.1553956e-09,0.09215947,0.013761909,1.0,42,0.020840295,1.2980529e-07,0,-1.70979476971938e-08,1.0
87,87,24.082958,153246.61,67453.13,167434.9,-23.757208,53.998399524745764,0.015153658,-8.807171e-08,0.0979734,0.015900852,1.0,43,0.02083457,1.2443385e-07,0,-1.6871092102076465e-08,1.0
88,88,20.833313,158787.55,73663.67,175042.34,-24.887217,54.652761235876824,0.015155613,-4.4996938e-08,0.10370708,0.018366607,1.0,43,0.020923018,1.1953118e-07,0,-1.6998925153603967e-08,1.0
89,89,18.021912,164321.56,79734.39,182644.88,-25.884233,55.39872961798392,0.015258806,-1.1500031e-07,0.11075761,0.021108141,1.0,43,0.02092106,1.14545024e-07,0,-1.700445575288878e-08,1.0
90,90,15.604198,169882.11,86167.16,190485.45,-26.894915,56.05302391570876,0.0152298985,-8.414223e-08,0.118368715,0.024221264,1.0,43,0.020896658,1.0970212e-07,0,-1.7304572701782107e-08,1.0
91,91,13.500899,176081.34,93233.25,199241.25,-27.900757,56.80100789791322,0.015191945,-7.734499e-08,0.12644063,0.027686607,1.0,43,0.020904653,1.04921305e-07,0,-1.7353174977579044e-08,1.0
92,92,11.686608,182554.22,100397.836,208340.52,-28.809109,57.39186237929971,0.015179481,-1.3064383e-07,0.13564609,0.031499855,1.0,43,0.020881042,1.0022555e-07,0,-1.741843586132013e-08,1.0
93,93,10.113269,189457.8,108224.31,218189.73,-29.73638,58.06553337126388,0.015204596,-1.225243e-07,0.14541318,0.035775423,1.0,43,0.020865088,9.562819e-08,0,-1.7112428787070064e-08,1.0
94,94,8.748621,197155.27,116422.63,228963.81,-30.562378,58.83137868766789,0.015189291,-5.661787e-08,0.1562583,0.040400267,1.0,43,0.020869983,9.11497e-08,0,-1.6557057735466094e-08,1.0
95,95,7.570237,205554.2,125014.586,240585.08,-31.307259,59.707021289272234,0.015204168,-6.18417e-08,0.16817056,0.045408163,1.0,43,0.02090676,8.6899654e-08,0,-1.7432180401557338e-08,1.0
96,96,6.554112,213232.98,134782.52,252259.06,-32.29659,60.24330176805961,0.015162004,-1.0343595e-07,0.18016596,0.051433526,1.0,43,0.020908201,8.2883844e-08,0,-1.676084190289363e-08,1.0
97,97,5.669445,221162.5,145281.6,264612.16,-33.300903,60.853129397000885,0.015183822,-1.417642e-08,0.19322751,0.0582466,1.0,43,0.020905696,7.900505e-08,0,-1.7487666693569123e-08,1.0
98,98,4.907347,229845.19,156126.25,277856.47,-34.186974,61.54553060323815,0.01518153,-1.2707804e-09,0.20772912,0.06558556,1.0,43,0.02089792,7.5211204e-08,0,-1.6429925557431563e-08,1.0
99,99,4.245922,237715.42,169143.14,291749.94,-35.433228,62.33329194728867,0.015217136,-1.8978136e-07,0.22161223,0.07448708,1.0,43,0.020874286,7.1548556e-08,0,-1.7641573922561075e-08,1.0
100,100,3.6747382,246235.16,183608.42,307154.38,-36.71053,63.232904950069496,0.0152185885,1.2733202e-08,0.23588544,0.08428939,1.0,43,0.020883167,6.7989156e-08,0,-1.734653057589666e-08,1.0
101,101,3.180988,253972.0,200241.14,323416.6,-38.253586,64.26220059892512,0.015190353,-3.675733e-08,0.24986462,0.09578264,1.0,43,0.020898245,6.461711e-08,0,-1.6261184589106698e-08,1.0
102,102,2.752818,262700.5,219525.36,342349.16,-39.883778,65.44115694824723,0.015191934,-1.4318277e-07,0.2633649,0.108290106,1.0,43,0.020903774,6.105981e-08,0,-1.709508986239181e-08,1.0
103,103,2.3804083,271052.25,240480.92,362353.97,-41.579834,66.79596479929751,0.015184879,-8.075889e-08,0.27802768,0.12245689,1.0,43,0.02089601,5.7667396e-08,0,-1.8196549384111934e-08,1.0
104,104,2.060257,279261.6,266999.16,386362.0,-43.714043,68.3523463398742,0.015196562,-4.176722e-08,0.28932694,0.13817193,1.0,43,0.020895243,5.4082033e-08,0,-1.7607155149987108e-08,1.0
