True,index,freq,Re(Z),Im(Z),Z,Phase(Z),time,Ewe_meas,I_meas,Cs,Cp,cycle_number,I_Range,Ewe,I,Ns,(QQo),cycle
110,110,7000018.5,170.20567,1199.5138,1211.5293,-81.9239,82.64349576531094,0.07746209,-8.546579e-06,1.8954646e-05,1.8580542e-05,2.0,40,0.0098163765,8.102467e-06,0,-3.75340167268866e-09,2.0
111,111,6057573.0,255.96268,1377.4539,1401.0339,-79.47319,83.1954968048667,0.077491194,-6.890813e-06,1.9074118e-05,1.8437466e-05,2.0,40,0.013956554,9.96161e-06,0,-5.1089495248059315e-09,2.0
112,112,5242039.0,252.90518,1622.1039,1641.7009,-81.13825,83.61148410462192,0.0775456,-2.2444892e-05,1.8717214e-05,1.8273025e-05,2.0,40,0.019317262,1.1766614e-05,0,-4.992950711130422e-09,2.0
113,113,4536288.0,238.98024,1851.7415,1867.0988,-82.646225,84.97948443630594,0.07752244,-3.371976e-05,1.8946943e-05,1.863654e-05,2.0,40,0.018505482,9.911357e-06,0,-2.4615786186162028e-08,2.0
114,114,3925558.5,337.7754,2142.7046,2169.1646,-81.041626,85.5314832891745,0.07753841,-2.1365777e-05,1.8921535e-05,1.8462732e-05,2.0,40,0.01994285,9.193793e-06,0,-2.561142495264177e-08,2.0
115,115,3397055.0,379.3015,2418.2644,2447.83,-81.08586,85.94748152224929,0.07745816,-9.43972e-06,1.9373754e-05,1.8908575e-05,2.0,40,0.020985506,8.573106e-06,0,-2.5873421928845158e-08,2.0
116,116,2939708.2,475.33243,2740.5842,2781.5,-80.16039,86.49949640178238,0.07745967,-1.9231445e-06,1.9754805e-05,1.9177895e-05,2.0,40,0.020601904,7.4067607e-06,0,-2.4059633774655253e-08,2.0
117,117,2543924.5,555.055,3128.542,3177.3984,-79.93947,87.05148818800808,0.07745663,-3.0556843e-05,1.9997418e-05,1.9387177e-05,2.0,40,0.020207059,6.359624e-06,0,-3.177952821535415e-08,2.0
118,118,2201436.2,592.4597,3577.3677,3626.0955,-80.59641,87.60350578758516,0.07745153,-8.974588e-06,2.020926e-05,1.9669764e-05,2.0,40,0.020988068,5.7880625e-06,0,-3.3914293063347145e-08,2.0
119,119,1905053.1,741.67706,4087.4011,4154.1465,-79.71533,88.15550109380274,0.077504836,-4.4548095e-05,2.0439289e-05,1.9787762e-05,2.0,40,0.02054638,4.945993e-06,0,-3.2833690632206944e-08,2.0
120,120,1648567.4,906.8685,4702.9717,4789.609,-79.08568,88.70748461337644,0.07745751,-2.3151892e-05,2.0527737e-05,1.9791818e-05,2.0,40,0.019961104,4.1675853e-06,0,-3.543122641064716e-08,2.0
121,121,1426616.2,917.55914,5483.753,5559.9873,-80.50108,89.42649520750274,0.077431574,-3.1067893e-06,2.0343941e-05,1.9789884e-05,2.0,41,0.01939005,3.4874272e-06,0,-4.131323949834709e-08,2.0
122,122,1234551.2,1309.6758,6236.3657,6372.402,-78.13988,89.97850446039229,0.07741812,-1.5146109e-06,2.0671852e-05,1.9798681e-05,2.0,41,0.020489724,3.2153848e-06,0,-4.1323953451531084e-08,2.0
123,123,1068345.5,1414.1029,7174.28,7312.317,-78.84952,90.53050445995177,0.07746759,-2.237137e-06,2.0764914e-05,1.998834e-05,2.0,41,0.020694558,2.8300958e-06,0,-4.0583608052609364e-08,2.0
124,124,924510.06,1771.1597,8114.97,8306.007,-77.6878,91.08250088614295,0.07746256,-1.9857425e-06,2.1213951e-05,2.024934e-05,2.0,41,0.020141473,2.4249284e-06,0,-4.08117963895397e-08,2.0
125,125,800039.0,2365.6208,9241.624,9539.59,-75.64203,91.6345048857329,0.07748514,-5.454983e-06,2.1525868e-05,2.0202162e-05,2.0,41,0.020736549,2.173736e-06,0,-4.047628374445663e-08,2.0
126,126,692334.1,2632.508,10467.303,10793.263,-75.882996,92.18648360527004,0.07734315,7.304671e-06,2.1961887e-05,2.0655403e-05,2.0,41,0.020588076,1.9074932e-06,0,-4.0693789339873653e-08,2.0
127,127,599122.25,3328.7117,12013.286,12465.928,-74.512695,92.73848208479467,0.077416405,6.719946e-06,2.2112756e-05,2.0536068e-05,2.0,41,0.020488061,1.6435248e-06,0,-3.952354202178279e-08,2.0
128,128,518454.94,4089.8982,13542.713,14146.813,-73.19569,93.29050112437108,0.07745026,-6.1145295e-07,2.2667491e-05,2.0772919e-05,2.0,41,0.020563155,1.4535539e-06,0,-3.8839953037261546e-08,2.0
129,129,448662.03,5142.5205,15306.572,16147.343,-71.42929,93.84249568390078,0.0774845,-2.635643e-06,2.3175166e-05,2.0824598e-05,2.0,41,0.020257901,1.2545656e-06,0,-4.0099732745203635e-08,2.0
130,130,388258.97,6450.8306,16964.932,18149.99,-69.18095,94.39448235012242,0.077438876,5.728928e-07,2.416276e-05,2.1110473e-05,2.0,41,0.020766167,1.1441421e-06,0,-3.989702388100902e-08,2.0
131,131,335983.9,7996.3633,18554.129,20203.898,-66.68517,94.94650330967852,0.077444725,3.9583338e-06,2.5530602e-05,2.153138e-05,2.0,41,0.020350099,1.0072363e-06,0,-3.9870287991061835e-08,2.0
132,132,290751.2,10087.512,20879.121,23188.264,-64.21301,95.4985038425948,0.077386916,8.032783e-06,2.6217205e-05,2.125565e-05,2.0,41,0.020636294,8.899456e-07,0,-4.057342583899645e-08,2.0
133,133,251605.19,11767.707,22839.404,25692.748,-62.7408,96.05050674881204,0.077481434,-3.380515e-06,2.769592e-05,2.188589e-05,2.0,41,0.020136693,7.8375007e-07,0,-4.103864283172223e-08,2.0
134,134,217729.38,14509.542,24916.38,28833.19,-59.786495,96.60248930836678,0.07744229,-1.3619115e-06,2.9337165e-05,2.1907998e-05,2.0,41,0.020393051,7.0727697e-07,0,-4.047384153691899e-08,2.0
135,135,188418.58,17434.754,26793.83,31966.857,-56.947933,97.15449565454037,0.077518806,-4.548101e-06,3.1525473e-05,2.2147837e-05,2.0,41,0.020874524,6.530052e-07,0,-4.069960553474673e-08,2.0
136,136,163051.14,20517.875,28204.516,34878.043,-53.965317,97.70649952077656,0.07748592,-3.0043545e-06,3.4608092e-05,2.2631364e-05,2.0,41,0.020280316,5.814637e-07,0,-4.0261220367211695e-08,2.0
137,137,141098.2,24656.518,29555.688,38490.03,-50.163807,98.25849298699177,0.07748315,-1.4270889e-06,3.8164322e-05,2.2503142e-05,2.0,41,0.020415582,5.304122e-07,0,-4.0261565582448234e-08,2.0
138,138,122105.11,26750.42,28632.15,39183.99,-46.945988,98.81049455990433,0.07743936,-3.172299e-07,4.5523153e-05,2.4306531e-05,2.0,41,0.019726507,5.034329e-07,0,-3.989279957351874e-08,2.0
139,139,105663.59,32077.11,31290.908,44811.402,-44.289173,99.22649793964229,0.07746774,1.1781004e-06,4.813673e-05,2.347123e-05,2.0,41,0.021427622,4.7817343e-07,0,-3.940075416946481e-08,2.0
140,140,91439.65,36317.95,31521.508,48089.49,-40.955757,99.77848404584802,0.077403195,5.5411842e-06,5.5217737e-05,2.3724237e-05,2.0,41,0.020360107,4.2337956e-07,0,-3.937831990313276e-08,2.0
141,141,79127.08,39356.023,32444.7,51005.44,-39.50182,100.36048596681212,0.07754549,-8.089546e-07,6.199423e-05,2.5084517e-05,2.0,42,0.019443009,3.811948e-07,0,-3.9155361584769783e-08,2.0
142,142,68475.36,44587.668,32567.959,55215.324,-36.145336,100.77650603992515,0.07744879,4.0652046e-07,7.1366645e-05,2.4828878e-05,2.0,42,0.020268794,3.670864e-07,0,-3.916854906796215e-08,2.0
143,143,59252.523,48256.598,31857.074,57823.633,-33.431194,101.19249925969052,0.07754558,-8.042981e-07,8.431549e-05,2.5592246e-05,2.0,42,0.020875132,3.6101383e-07,0,-3.9189555604469064e-08,2.0
144,144,51282.285,51831.77,30961.12,60374.855,-30.851503,101.60949354615877,0.0774742,-1.7253392e-07,0.00010023886,2.6360716e-05,2.0,42,0.021397576,3.5441204e-07,0,-3.9231847292055694e-08,2.0
145,145,44369.8,56019.47,29089.904,63122.13,-27.442041,102.02549780593836,0.077399544,3.133956e-07,0.00012330773,2.6188562e-05,2.0,42,0.021857193,3.462683e-07,0,-3.926902818147562e-08,2.0
146,146,38403.727,59283.54,26953.463,65123.168,-24.449081,102.57750503215357,0.077436306,3.7001578e-07,0.00015375605,2.6338454e-05,2.0,42,0.020261483,3.1112558e-07,0,-3.9253745229828e-08,2.0
147,147,33226.32,62021.14,25318.777,66990.016,-22.206669,102.99449107862893,0.077394366,3.5586112e-07,0.00018918868,2.7024675e-05,2.0,42,0.0204704,3.0557388e-07,0,-3.9169634330670494e-08,2.0
148,148,28754.086,64592.996,23121.252,68606.47,-19.694977,103.41049251172808,0.077470474,-1.1237399e-07,0.00023939178,2.7189535e-05,2.0,42,0.020588707,3.0009863e-07,0,-3.906594584972092e-08,2.0
149,149,24884.947,66698.17,20973.635,69918.09,-17.456062,103.82650778480456,0.07745924,3.3835408e-07,0.0003049367,2.7439612e-05,2.0,42,0.020641385,2.9522235e-07,0,-3.909608328430064e-08,2.0
150,150,21553.963,68635.8,19072.291,71236.4,-15.529376,104.24348657796509,0.07743124,6.223871e-07,0.00038715967,2.775185e-05,2.0,42,0.020676378,2.902502e-07,0,-3.9184369687095515e-08,2.0
151,151,18631.234,70097.484,17122.33,72158.375,-13.726542,104.6595052376797,0.07743787,2.6012887e-07,0.00049890246,2.8091043e-05,2.0,42,0.02064435,2.8609776e-07,0,-3.925876947652481e-08,2.0
152,152,16126.037,71358.05,15427.634,73006.734,-12.199599,105.07548877745285,0.077425666,3.6442964e-07,0.0006397247,2.8567085e-05,2.0,42,0.020519141,2.810582e-07,0,-3.920819757941412e-08,2.0
153,153,13954.87,72653.58,13659.493,73926.48,-10.6478,105.49148437057738,0.077418044,4.0000387e-07,0.0008349486,2.8505518e-05,2.0,42,0.020339798,2.751355e-07,0,-3.9046194035922555e-08,2.0
154,154,12080.609,73788.85,11589.049,74693.375,-8.925784,105.90748871033429,0.07743396,3.167504e-07,0.0011367985,2.7366224e-05,2.0,42,0.020138437,2.6961476e-07,0,-3.886991606956415e-08,2.0
155,155,10447.592,73417.75,10247.428,74129.45,-7.9458375,106.3235084634216,0.07751512,-2.1574137e-07,0.0014865826,2.8407774e-05,2.0,42,0.019550845,2.6373922e-07,0,-3.868844215661523e-08,2.0
156,156,9045.586,73506.24,9019.114,74057.49,-6.995149,106.89625617061392,0.077476926,1.7054438e-07,0.0019508303,2.8934055e-05,2.0,42,0.020178612,2.7247225e-07,0,-3.8227771205116274e-08,2.0
157,157,7827.7437,74163.88,7710.623,74563.63,-5.935566,107.37692070013145,0.0774242,1.9047373e-07,0.0026369023,2.8198037e-05,2.0,42,0.02038233,2.7335483e-07,0,-3.826885491770702e-08,2.0
158,158,6770.8345,74071.24,6690.602,74372.8,-5.1613255,107.91539776566788,0.077476196,-6.0592654e-08,0.0035132798,2.8432492e-05,2.0,42,0.020453844,2.750178e-07,0,-3.834919239363267e-08,2.0
159,159,5860.798,74385.92,6080.979,74634.06,-4.673484,108.52197592784069,0.07750491,-4.5320082e-08,0.0044657034,2.964577e-05,2.0,42,0.020629175,2.7640428e-07,0,-3.844088027609851e-08,2.0
160,160,5071.625,74165.97,5291.5386,74354.5,-4.0809813,109.20267812020757,0.07748134,-1.1441915e-07,0.0059304964,3.0035886e-05,2.0,42,0.020688768,2.78245e-07,0,-3.860579843080636e-08,2.0
161,161,4388.5933,74074.234,4943.331,74239.0,-3.8179626,109.88283433916513,0.07744866,3.2327097e-07,0.007336267,3.252747e-05,2.0,42,0.020766519,2.7972519e-07,0,-3.864149819269673e-08,2.0
162,162,3798.7827,74099.945,4674.288,74247.23,-3.6094844,110.5628407181357,0.07746714,2.0258045e-07,0.008963141,3.552472e-05,2.0,42,0.020822719,2.8045113e-07,0,-3.843986445233642e-08,2.0
163,163,3286.0488,74256.734,4587.8135,74398.32,-3.5354187,111.24271947043599,0.07741594,2.9086354e-07,0.010556996,4.014446e-05,2.0,42,0.020913526,2.8110213e-07,0,-3.816425913898512e-08,2.0
164,164,2844.088,74254.05,4460.943,74387.92,-3.4380128,111.92282918273122,0.07736789,3.5065034e-07,0.012544416,4.511271e-05,2.0,42,0.020947985,2.8160466e-07,0,-3.819017933488923e-08,2.0
165,165,2460.7852,74431.01,4726.9756,74580.96,-3.6338685,112.60272185502981,0.07746338,9.325125e-08,0.013682424,5.496343e-05,2.0,42,0.021014566,2.817685e-07,0,-3.799421548893614e-08,2.0
166,166,2129.3164,74127.24,4654.812,74273.25,-3.593164,113.28283796733012,0.07748635,-3.8427956e-08,0.016057495,6.306919e-05,2.0,42,0.020955728,2.8214367e-07,0,-3.811901135279526e-08,2.0
167,167,1843.2289,74063.01,5033.864,74233.88,-3.8882601,113.96295845296117,0.077365205,5.3317666e-07,0.017152973,7.887474e-05,2.0,42,0.02096344,2.823972e-07,0,-3.782827359170425e-08,2.0
168,168,1594.4913,74653.19,4964.7695,74818.09,-3.8048217,114.64281885858509,0.07745216,3.4582467e-08,0.020104758,8.852864e-05,2.0,42,0.021041771,2.8123907e-07,0,-3.754281744467688e-08,2.0
169,169,1380.4436,74905.33,5517.6504,75108.27,-4.212893,115.3226793442227,0.077426374,1.316193e-07,0.020895235,0.000112766495,2.0,42,0.021056103,2.8034333e-07,0,-3.753412211402403e-08,2.0
170,170,1194.6187,75059.6,6052.3115,75303.22,-4.60998,116.00282990984851,0.077449255,2.4467383e-07,0.022012511,0.00014219523,2.0,42,0.02104897,2.7952285e-07,0,-3.729782095371704e-08,2.0
171,171,1033.3434,75363.086,6492.2886,75642.21,-4.923692,116.68310364880017,0.07747243,1.12062494e-07,0.023723438,0.00017476114,2.0,42,0.021047672,2.78253e-07,0,-3.7087010310939306e-08,2.0
172,172,894.71045,75674.63,7045.0503,76001.86,-5.3187113,117.36283474777883,0.07746619,9.921161e-08,0.025249545,0.00021695682,2.0,42,0.021060064,2.7709933e-07,0,-3.7278854878833203e-08,2.0
173,173,774.2569,76584.62,7504.399,76951.414,-5.5964513,118.04297595340176,0.07737152,2.213922e-07,0.027391713,0.00026050603,2.0,42,0.02116549,2.7505004e-07,0,-3.7341299586319226e-08,2.0
174,174,669.7856,76852.07,8316.419,77300.734,-6.1761346,118.72282875904057,0.07743772,2.4206602e-07,0.028572485,0.00033071468,2.0,42,0.02111694,2.7317904e-07,0,-3.706578872533919e-08,2.0
175,175,579.81464,77425.91,8672.998,77910.16,-6.391443,119.40284377800708,0.07748702,6.8308728e-09,0.031649128,0.00039220403,2.0,42,0.021126488,2.7116477e-07,0,-3.719989387185565e-08,2.0
176,176,501.44418,77787.45,9901.247,78415.06,-7.253938,120.08017362348619,0.07741378,2.4839844e-07,0.032055873,0.0005110795,2.0,42,0.021084907,2.6888847e-07,0,-3.743463634324209e-08,2.0
177,177,434.02762,78433.2,10687.631,79158.02,-7.7595677,120.76019381577498,0.077469714,9.250626e-08,0.034310047,0.0006254525,2.0,42,0.021118537,2.6678958e-07,0,-3.7372244605220926e-08,2.0
178,178,375.6009,79259.04,11509.434,80090.336,-8.262333,121.43844246133813,0.077462055,1.0032877e-07,0.036816254,0.0007603039,2.0,42,0.021113263,2.6361812e-07,0,-3.7162508187345406e-08,2.0
179,179,325.10385,80159.71,12435.386,81118.55,-8.818152,122.11771801363648,0.07746366,1.4763617e-07,0.039367583,0.00092516025,2.0,42,0.021132184,2.605099e-07,0,-3.739639361246322e-08,2.0
180,180,281.3503,81064.086,13539.671,82187.03,-9.482258,122.79478871246101,0.077495314,-2.8557347e-08,0.041779634,0.0011338987,2.0,42,0.021135814,2.5716727e-07,0,-3.762618230084828e-08,2.0
181,181,243.36427,81798.64,15046.32,83170.96,-10.422672,123.47809821154806,0.077455126,-1.365729e-08,0.043464333,0.0014224931,2.0,42,0.021103332,2.5373438e-07,0,-3.7502506607138383e-08,2.0
182,182,210.60631,82797.695,15769.301,84286.0,-10.78317,124.15517936370452,0.07745533,2.0388401e-07,0.047922153,0.0016774528,2.0,42,0.021062447,2.498926e-07,0,-3.720382124667587e-08,2.0
183,183,182.27473,84250.31,17111.955,85970.54,-11.481085,124.82725110228057,0.07745602,4.6129255e-08,0.051026292,0.0020215942,2.0,42,0.021113023,2.455844e-07,0,-3.744230750299475e-08,2.0
184,184,157.72879,85278.65,19039.838,87378.27,-12.585794,125.51565548170038,0.077489145,-1.3657438e-08,0.052996345,0.0025163176,2.0,42,0.021107392,2.4156338e-07,0,-3.723306575759465e-08,2.0
185,185,136.52892,86942.21,20309.94,89282.93,-13.148661,126.18754636691301,0.07736796,1.4800855e-07,0.05739669,0.0029700738,2.0,42,0.0211365,2.3673618e-07,0,-3.7593486760700796e-08,2.0
186,186,118.14758,88057.07,22258.898,90826.79,-14.185955,126.87592319960822,0.07746705,-5.94751e-08,0.060518984,0.0036347208,2.0,42,0.02110769,2.32395e-07,0,-3.744260877881622e-08,2.0
187,187,102.25773,89687.78,24000.205,92843.46,-14.981185,127.5423550979176,0.07743776,-9.262756e-08,0.06484985,0.004333475,2.0,42,0.021102028,2.272861e-07,0,-3.754158683561077e-08,2.0
188,188,88.4436,91147.21,25975.146,94776.17,-15.9065,128.23226814399823,0.07748883,-1.533374e-08,0.069278054,0.005203713,2.0,42,0.021082915,2.2244954e-07,0,-3.751704124384641e-08,2.0
189,189,76.54279,93213.49,27960.244,97316.65,-16.6971,128.89971476243227,0.07750368,-3.6213342e-07,0.07436608,0.006138786,2.0,42,0.02109772,2.1679456e-07,0,-3.7592382514787714e-08,2.0
190,190,66.250786,95164.94,30074.871,99804.125,-17.538042,129.56798908748897,0.0774696,1.06660636e-07,0.07987766,0.007253304,2.0,42,0.021078408,2.1119776e-07,0,-3.768490777728061e-08,2.0
191,191,57.329906,97527.375,32377.148,102761.22,-18.36514,130.2226539452713,0.07744117,2.2250875e-07,0.08574332,0.008511753,2.0,42,0.021098584,2.053166e-07,0,-3.7481856644638334e-08,2.0
192,192,49.60321,99634.89,35134.26,105648.13,-19.424183,130.9073457910854,0.07746578,-1.7532389e-07,0.09132286,0.01009991,2.0,42,0.021069422,1.9943015e-07,0,-3.736565563393787e-08,2.0
193,193,42.92585,102023.55,38124.535,108914.12,-20.489895,131.61543782471563,0.07745624,3.525119e-07,0.09725158,0.011916191,2.0,42,0.02107677,1.9351734e-07,0,-3.75657517327779e-08,2.0
194,194,37.1518,105107.266,41029.09,112831.39,-21.32341,132.25918913530768,0.077424064,7.276231e-08,0.10441152,0.013806141,2.0,42,0.021103226,1.8703328e-07,0,-3.767257833508353e-08,2.0
195,195,32.150223,107912.57,44470.348,116716.47,-22.396368,132.8983615656325,0.077458754,-3.7498648e-08,0.11131805,0.016160037,2.0,42,0.021103377,1.808089e-07,0,-3.7298178057566746e-08,2.0
196,196,27.835518,111115.53,46970.598,120635.39,-22.914684,133.62535378683242,0.077454016,-2.0084434e-08,0.121729195,0.018454295,2.0,42,0.021055184,1.7453571e-07,0,-3.749845446093659e-08,2.0
197,197,24.082958,114814.13,51468.633,125822.516,-24.145638,134.32740110016312,0.07747605,2.8433824e-08,0.12840079,0.021485042,2.0,42,0.021157004,1.6814958e-07,0,-3.725558824443907e-08,2.0
198,198,20.833313,117894.62,55727.96,130402.25,-25.299774,134.9817663313006,0.077476904,2.526714e-08,0.13708459,0.02503599,2.0,42,0.021089517,1.6172663e-07,0,-3.694538879932669e-08,2.0
199,199,18.021912,122074.64,59633.508,135861.6,-26.035526,135.72771148673928,0.077579856,-7.814803e-07,0.1480911,0.02853095,2.0,42,0.021083938,1.5518688e-07,0,-3.748890339512813e-08,2.0
200,200,15.604198,126040.51,64849.266,141744.97,-27.226334,136.62703670276096,0.07744087,2.3779398e-08,0.15728004,0.03292065,2.0,43,0.021111107,1.4893725e-07,0,-3.6704625716163227e-08,2.0
201,201,13.500899,130254.1,69983.945,147864.4,-28.248596,137.37497572496068,0.07746447,4.0665373e-09,0.16844535,0.03773363,2.0,43,0.021100985,1.4270496e-07,0,-3.6794594679155936e-08,2.0
202,202,11.686608,134695.39,75776.56,154547.52,-29.361115,137.96587025970803,0.0774661,-3.6529981e-09,0.17972015,0.043205846,2.0,43,0.021103792,1.3655213e-07,0,-3.676062114241693e-08,2.0
203,203,10.113269,138847.19,81456.89,160977.53,-30.39869,138.63950957168709,0.077387564,7.63137e-08,0.19319718,0.049468175,2.0,43,0.02101986,1.3057635e-07,0,-3.616983072696181e-08,2.0
204,204,8.748621,144111.1,88660.66,169200.23,-31.600843,139.40639219476725,0.07745354,8.4255326e-08,0.20518687,0.05633905,2.0,43,0.021110877,1.247686e-07,0,-3.560342738903385e-08,2.0
205,205,7.570237,148689.55,96086.23,177034.3,-32.871372,140.28202810304356,0.0774295,6.175889e-08,0.2188011,0.06445505,2.0,43,0.021072343,1.1902972e-07,0,-3.682597070790846e-08,2.0
206,206,6.554112,154097.77,104560.18,186222.86,-34.158123,140.8183087684738,0.077436976,1.2998399e-07,0.23224159,0.07321611,2.0,43,0.021129498,1.134635e-07,0,-3.564156598151394e-08,2.0
207,207,5.669445,158503.11,113548.18,194978.02,-35.61699,141.42815138414153,0.07745149,4.968365e-09,0.24722901,0.08384718,2.0,43,0.021072442,1.0807599e-07,0,-3.687738950666011e-08,2.0
208,208,4.907347,163712.11,123831.766,205270.45,-37.103844,142.1205220570264,0.077463545,1.7179232e-07,0.26190346,0.09531308,2.0,43,0.021071829,1.0265398e-07,0,-3.5262227967300003e-08,2.0
209,209,4.245922,168503.86,136535.23,216876.52,-39.017143,142.9083051077614,0.077488616,-1.5176218e-07,0.27453858,0.10880975,2.0,43,0.021084392,9.721842e-08,0,-3.6745169274296314e-08,2.0
210,210,3.6747382,174064.72,150235.81,229933.31,-40.79758,143.80792808384285,0.077453375,1.4291732e-07,0.28828382,0.12307317,2.0,43,0.021098407,9.175881e-08,0,-3.66552105811052e-08,2.0
211,211,3.180988,178936.81,165808.78,243948.62,-42.81921,144.8362306659983,0.07747932,1.5343915e-07,0.30175227,0.13940196,2.0,43,0.02109413,8.646956e-08,0,-3.5004621963709284e-08,2.0
212,212,2.752818,184122.02,184896.05,260935.75,-45.12018,146.01517613531905,0.07745561,-3.0016093e-08,0.3126907,0.15700123,2.0,43,0.021082059,8.079406e-08,0,-3.5767335742983714e-08,2.0
213,213,2.3804083,189930.33,205791.39,280042.2,-47.29526,147.36895902632386,0.07748671,8.694228e-09,0.32489383,0.17544821,2.0,43,0.021100597,7.534793e-08,0,-3.7337303793054766e-08,2.0
214,214,2.060257,195848.33,231360.47,303124.12,-49.751842,148.925324166863,0.07745921,9.9153e-08,0.33389476,0.19451223,2.0,43,0.021109642,6.964026e-08,0,-3.684399474688899e-08,2.0
