True,index,freq,Re(Z),Im(Z),Z,Phase(Z),time,Ewe_meas,I_meas,Cs,Cp,cycle_number,I_Range,Ewe,I,Ns,(QQo),cycle
110,110,7000018.5,167.00644,1286.9963,1297.7869,-82.60635,82.6474832855456,0.05206273,4.803241e-05,1.766622e-05,1.7373668e-05,2.0,40,0.009886758,7.618168e-06,0,2.1565169805640594e-08,2.0
111,111,6057573.0,239.49428,1381.0344,1401.6467,-80.161804,83.19948147176183,0.052104414,8.309793e-06,1.9024663e-05,1.8469233e-05,2.0,40,0.013946029,9.9497465e-06,0,2.247973891799414e-08,2.0
112,112,5242039.0,191.90102,1627.9755,1639.2468,-83.27716,83.61550429151976,0.052175045,-2.7263688e-05,1.8649707e-05,1.8394121e-05,2.0,40,0.019329404,1.1791638e-05,0,2.1336686985738712e-08,2.0
113,113,4536288.0,181.12167,1875.3962,1884.1221,-84.483604,84.98349176978809,0.05217227,-2.8993985e-05,1.8707962e-05,1.853508e-05,2.0,40,0.01844383,9.789084e-06,0,3.0372547075073385e-08,2.0
114,114,3925558.5,263.82037,2154.4517,2170.5444,-83.018684,85.53548491603578,0.052120082,-1.8314495e-05,1.8818368e-05,1.8540355e-05,2.0,40,0.02023775,9.323812e-06,0,3.00518416729559e-08,2.0
115,115,3397055.0,307.7806,2454.6,2473.821,-82.85302,85.95150613578153,0.052126415,-2.127275e-05,1.9086961e-05,1.8791512e-05,2.0,40,0.02125583,8.5923075e-06,0,2.82557624528565e-08,2.0
116,116,2939708.2,377.64896,2806.0176,2831.3167,-82.334885,86.50350429533864,0.052066647,4.588737e-06,1.9294142e-05,1.8950881e-05,2.0,40,0.020597028,7.274717e-06,0,2.8735295782018216e-08,2.0
117,117,2543924.5,419.33044,3274.9717,3301.7083,-82.7035,87.05549994824105,0.05206743,-1.978965e-06,1.9103298e-05,1.8795163e-05,2.0,40,0.020241044,6.1304763e-06,0,1.8465986429970253e-08,2.0
118,118,2201436.2,414.84998,3758.2349,3781.062,-83.70095,87.60749901444069,0.0520207,1.2830923e-05,1.9236679e-05,1.9005107e-05,2.0,40,0.020986104,5.55032e-06,0,1.9038247671323166e-08,2.0
119,119,1905053.1,571.77423,4281.548,4319.5576,-82.39351,88.15948240066064,0.05211233,-2.8547456e-05,1.9512468e-05,1.9170582e-05,2.0,40,0.020574043,4.762998e-06,0,2.1052190148473335e-08,2.0
120,120,1648567.4,647.3322,4936.8057,4979.065,-82.529785,88.7114870135265,0.052090626,-2.3840292e-05,1.9555431e-05,1.9224892e-05,2.0,40,0.01994897,4.0065697e-06,0,1.7641905160475702e-08,2.0
121,121,1426616.2,571.91595,5766.336,5794.6284,-84.33582,89.42950494095567,0.052099194,-5.1067705e-06,1.9346973e-05,1.915851e-05,2.0,41,0.019370161,3.3427789e-06,0,1.815529062538247e-08,2.0
122,122,1234551.2,599.7463,6582.6274,6609.8926,-84.79413,89.9815028605226,0.052015148,5.7609236e-06,1.9584466e-05,1.942323e-05,2.0,41,0.020634055,3.121693e-06,0,1.8171393074665373e-08,2.0
123,123,1068345.5,922.94714,7621.4253,7677.106,-83.09516,90.53350144674187,0.05200179,6.5821446e-06,1.9546645e-05,1.9264136e-05,2.0,41,0.020700399,2.6963805e-06,0,1.8748591659003405e-08,2.0
124,124,924510.06,1432.3833,8797.762,8913.604,-80.752686,91.08549613962532,0.05212776,-7.603939e-06,1.9567544e-05,1.9062245e-05,2.0,41,0.020060938,2.2505978e-06,0,1.8610542528737087e-08,2.0
125,125,800039.0,1650.4059,9787.351,9925.526,-80.42846,91.63750173916924,0.052024968,6.351233e-06,2.032562e-05,1.9763644e-05,2.0,41,0.02052151,2.0675488e-06,0,1.8842353766170286e-08,2.0
126,126,692334.1,1807.4691,11524.548,11665.426,-81.08655,92.18948600543081,0.052078553,-4.374919e-06,1.9947134e-05,1.9468258e-05,2.0,41,0.0204076,1.749409e-06,0,1.9302969561689902e-08,2.0
127,127,599122.25,2587.0493,13145.546,13397.694,-78.86645,92.74249331167084,0.051943064,7.2655644e-06,2.0208128e-05,1.945464e-05,2.0,41,0.020625852,1.5395076e-06,0,1.9020385648234494e-08,2.0
128,128,518454.94,3266.5615,15198.1455,15545.226,-77.869865,93.29448768452858,0.05207738,-2.2725185e-06,2.0198471e-05,1.9306593e-05,2.0,41,0.020588504,1.3244262e-06,0,1.922975160952313e-08,2.0
129,129,448662.03,4069.044,17176.504,17651.895,-76.67255,93.84649787077797,0.05207242,-3.198022e-06,2.0652187e-05,1.955478e-05,2.0,41,0.020155115,1.1418103e-06,0,1.961923948721298e-08,2.0
130,130,388258.97,5218.0225,19405.61,20094.91,-74.949585,94.39849613697152,0.052100424,-5.4158763e-06,2.1123766e-05,1.9699435e-05,2.0,41,0.020943075,1.0422079e-06,0,1.9668333684605027e-08,2.0
131,131,335983.9,6604.124,21277.385,22278.725,-72.756584,94.95049786989694,0.05209558,-4.2203583e-06,2.2262986e-05,2.0306694e-05,2.0,41,0.020275448,9.1008116e-07,0,1.9951875171356154e-08,2.0
132,132,290751.2,8721.593,24605.047,26105.066,-70.48244,95.50248450940126,0.051979262,7.481577e-06,2.2247152e-05,1.9763926e-05,2.0,41,0.020501584,7.8534885e-07,0,1.936059045179207e-08,2.0
133,133,251605.19,11158.398,27523.594,29699.463,-67.93177,96.05449416229385,0.052057646,9.69535e-07,2.2982402e-05,1.9738243e-05,2.0,41,0.020380236,6.862156e-07,0,1.909595118212041e-08,2.0
134,134,217729.38,13956.025,30108.982,33186.164,-65.13148,96.6064830685209,0.052105717,-5.324631e-06,2.4277671e-05,1.9984122e-05,2.0,41,0.020225622,6.0945945e-07,0,1.9324414440300763e-08,2.0
135,135,188418.58,17258.73,33099.816,37329.098,-62.4618,97.15849434808479,0.052098114,-1.8051123e-06,2.5519419e-05,2.0064437e-05,2.0,41,0.020745313,5.5574105e-07,0,1.9949100030418165e-08,2.0
136,136,163051.14,21140.066,36062.234,41801.76,-59.620716,97.71048541428172,0.052086562,-1.6170327e-06,2.7067223e-05,2.0144651e-05,2.0,41,0.020436514,4.888912e-07,0,2.006709064656182e-08,2.0
137,137,141098.2,25704.629,37877.91,45776.24,-55.83848,98.26250096052536,0.052012652,4.122204e-06,2.9779174e-05,2.03894e-05,2.0,41,0.020058028,4.3817556e-07,0,1.9478867408954375e-08,2.0
138,138,122105.11,28364.879,36670.117,46360.152,-52.277515,98.98049078127951,0.052018892,2.0779018e-07,3.5544632e-05,2.2238675e-05,2.0,42,0.018449645,3.9796342e-07,0,1.9345434483388347e-08,2.0
139,139,105663.59,34764.344,43074.37,55353.06,-51.093792,99.39650389438611,0.05205407,-1.3528435e-07,3.4968405e-05,2.1175343e-05,2.0,42,0.019945469,3.6033182e-07,0,1.9329450593332354e-08,2.0
140,140,91439.65,41309.484,43828.168,60227.75,-46.694527,99.81249490080518,0.05208617,-4.4986243e-07,3.9712962e-05,2.1030308e-05,2.0,42,0.021116018,3.5060282e-07,0,1.9297545486609853e-08,2.0
141,141,79127.08,48415.152,44906.082,66034.71,-42.846577,100.36448746037786,0.051971253,4.0652031e-07,4.4790904e-05,2.0713602e-05,2.0,42,0.02026039,3.0681423e-07,0,1.921948098449179e-08,2.0
142,142,68475.36,53914.26,43783.457,69453.14,-39.07985,100.78050324009382,0.051999684,2.659007e-07,5.3085478e-05,2.109658e-05,2.0,42,0.021004973,3.0243373e-07,0,1.9175075223271183e-08,2.0
143,143,59252.523,59674.457,42780.72,73425.0,-35.636803,101.19649221989675,0.05204224,-3.818807e-07,6.278634e-05,2.1314416e-05,2.0,42,0.0216655,2.950698e-07,0,1.91329152224462e-08,2.0
144,144,51282.285,65693.664,41900.777,77918.76,-32.53057,101.74850427274941,0.05202439,-2.0925953e-08,7.406801e-05,2.1418587e-05,2.0,42,0.02023784,2.5973003e-07,0,1.9239429413604854e-08,2.0
145,145,44369.8,70761.05,38443.184,80529.52,-28.514425,102.1645082658797,0.0520697,-2.7404124e-07,9.330681e-05,2.1263842e-05,2.0,42,0.020572774,2.554687e-07,0,1.9233528438942807e-08,2.0
146,146,38403.727,75677.68,35219.26,83471.59,-24.956566,102.58049393896363,0.052104563,-8.5607587e-07,0.000117670206,2.0948339e-05,2.0,42,0.020897739,2.503575e-07,0,1.9138931133214458e-08,2.0
147,147,33226.32,78324.8,32352.004,84743.3,-22.443039,102.99648473205161,0.051994875,2.7633132e-07,0.00014805965,2.1578853e-05,2.0,42,0.021059705,2.4851175e-07,0,1.908780510015874e-08,2.0
148,148,28754.086,81441.695,28975.355,86442.586,-19.58456,103.41248547178111,0.05205528,-2.859606e-07,0.0001910257,2.146317e-05,2.0,42,0.021156369,2.4474474e-07,0,1.9108868768101633e-08,2.0
149,149,24884.947,84044.46,26541.367,88135.78,-17.526196,103.82848274489515,0.05206512,-1.0380668e-07,0.00024096842,2.1852553e-05,2.0,42,0.02123048,2.4088376e-07,0,1.9047937659552262e-08,2.0
150,150,21553.963,85902.52,23097.12,88953.48,-15.049528,104.24548559138202,0.052082036,-5.522992e-07,0.00031969452,2.1553855e-05,2.0,42,0.021226084,2.3862006e-07,0,1.8998601772374003e-08,2.0
151,151,18631.234,87303.69,20524.018,89683.72,-13.22931,104.66150753109832,0.052061073,-7.1061237e-07,0.00041621347,2.179785e-05,2.0,42,0.021129847,2.3560405e-07,0,1.8950619470779115e-08,2.0
152,152,16126.037,88915.15,18043.812,90727.516,-11.471423,105.07748331085895,0.05209208,-2.991835e-07,0.0005469708,2.1634294e-05,2.0,42,0.02101031,2.3157594e-07,0,1.8875868691590835e-08,2.0
153,153,13954.87,90080.914,17000.45,91671.08,-10.6874,105.49350621065241,0.05204414,1.295667e-07,0.00067086314,2.3072256e-05,2.0,42,0.020724501,2.2607459e-07,0,1.8908598457380343e-08,2.0
154,154,12080.609,91667.63,13407.668,92642.98,-8.3213005,105.90948897707858,0.0521084,-3.394135e-07,0.0009826028,2.058067e-05,2.0,42,0.020601295,2.2237298e-07,0,1.892296149957377e-08,2.0
155,155,10447.592,90432.74,11298.898,91135.87,-7.121776,106.32548974346719,0.052162375,-8.147264e-07,0.0013482419,2.0723417e-05,2.0,42,0.019938422,2.1877689e-07,0,1.877359634477078e-08,2.0
156,156,9045.586,90656.58,9944.386,91200.36,-6.2599144,106.89826582404203,0.05201893,7.872087e-08,0.0017693161,2.1036249e-05,2.0,42,0.020260066,2.2214897e-07,0,1.879356520123506e-08,2.0
157,157,7827.7437,90963.18,8438.361,91353.74,-5.299977,107.37892134021968,0.052105587,-2.4237522e-07,0.0024094917,2.0558384e-05,2.0,42,0.02037401,2.2302326e-07,0,1.892286387387168e-08,2.0
158,158,6770.8345,91262.625,7855.033,91600.05,-4.919361,107.91740419247071,0.052012894,-5.444755e-08,0.0029924707,2.200567e-05,2.0,42,0.020503428,2.2383644e-07,0,1.8778782036891427e-08,2.0
159,159,5860.798,91298.9,6513.9146,91530.98,-4.0809746,108.52300131457741,0.052127425,-1.5632651e-07,0.0041688983,2.1113938e-05,2.0,42,0.020605033,2.251154e-07,0,1.8673589401361212e-08,2.0
160,160,5071.625,90940.77,6186.7485,91150.98,-3.8918653,109.20369489358563,0.05197211,4.705952e-07,0.0050723655,2.3367531e-05,2.0,42,0.02063923,2.2642905e-07,0,1.8918084748886937e-08,2.0
161,161,4388.5933,90673.305,5596.9795,90845.88,-3.5322075,109.88385255253525,0.052051816,1.0070042e-07,0.006479494,2.4594501e-05,2.0,42,0.020664055,2.2746275e-07,0,1.8954963670883944e-08,2.0
162,162,3798.7827,90744.7,5221.6567,90894.81,-3.2932978,110.56383133151394,0.052070428,3.8306414e-08,0.008023565,2.6479258e-05,2.0,42,0.020738421,2.2815847e-07,0,1.8911374086056377e-08,2.0
163,163,3286.0488,90996.96,4971.996,91132.695,-3.1274827,111.24372517714801,0.052087925,2.6162164e-07,0.009741264,2.8995359e-05,2.0,42,0.020810537,2.2835424e-07,0,1.8745752473227343e-08,2.0
164,164,2844.088,91299.5,4926.448,91432.32,-3.0886393,111.92382880944933,0.052069645,-1.619133e-07,0.011359081,3.297703e-05,2.0,42,0.020900333,2.2858802e-07,0,1.8916380257291956e-08,2.0
165,165,2460.7852,90951.766,4997.9062,91088.984,-3.1453068,112.6037118550812,0.05201988,2.7968815e-07,0.012940716,3.895855e-05,2.0,42,0.020848518,2.2888078e-07,0,1.877854236300595e-08,2.0
166,166,2129.3164,91421.445,4954.16,91555.58,-3.1018445,113.28382402070565,0.052072644,1.3646105e-07,0.015087244,4.4175387e-05,2.0,42,0.020937195,2.286829e-07,0,1.8942289455212703e-08,2.0
167,167,1843.2289,91838.85,5245.561,91988.53,-3.2690122,113.96396127966,0.052055206,1.5713483e-07,0.016460724,5.352608e-05,2.0,42,0.020987988,2.2815874e-07,0,1.875922760735074e-08,2.0
168,168,1594.4913,91599.54,5302.714,91752.9,-3.3131654,114.64383221864409,0.052038625,1.2863872e-07,0.018823475,6.28719e-05,2.0,42,0.020936342,2.281818e-07,0,1.8595014918038425e-08,2.0
169,169,1380.4436,92183.336,6018.7476,92379.61,-3.7356,115.3236993442697,0.051946547,3.273685e-07,0.019155582,8.131213e-05,2.0,42,0.021005275,2.2738e-07,0,1.8693939122825083e-08,2.0
170,170,1194.6187,92229.08,6493.104,92457.36,-4.027088,116.00383918989974,0.05203007,-9.244142e-08,0.020518163,0.00010119528,2.0,42,0.021000618,2.2713841e-07,0,1.8514387742161435e-08,2.0
171,171,1033.3434,91998.336,6627.5044,92236.75,-4.1204348,116.68408068886492,0.052042723,-1.3360297e-07,0.023239428,0.00011998239,2.0,42,0.020918252,2.267887e-07,0,1.8342978321835526e-08,2.0
172,172,894.71045,92451.37,7033.2217,92718.51,-4.350387,117.3638203478331,0.052051444,1.4280416e-08,0.025292007,0.00014553219,2.0,42,0.020940736,2.2585282e-07,0,1.8574120666153604e-08,2.0
173,173,774.2569,93020.55,8124.1357,93374.64,-4.9913764,118.04396331345197,0.052077174,-8.257026e-08,0.025302177,0.00019153774,2.0,42,0.020963123,2.2450553e-07,0,1.8673451263893723e-08,2.0
174,174,669.7856,93761.83,8798.956,94173.79,-5.361146,118.7238331057597,0.052046318,2.3592905e-08,0.02700556,0.00023575201,2.0,42,0.021011168,2.2311058e-07,0,1.853794694712422e-08,2.0
175,175,579.81464,94075.83,9699.983,94574.58,-5.886858,119.4038172980654,0.05203305,3.065084e-07,0.028298277,0.0002976824,2.0,42,0.020979432,2.2182951e-07,0,1.86018457660576e-08,2.0
176,176,501.44418,95009.54,10421.94,95579.44,-6.259954,120.08116975685698,0.052050382,-1.1535048e-07,0.030454325,0.00036209053,2.0,42,0.021033732,2.2006544e-07,0,1.8792539827795175e-08,2.0
177,177,434.02762,95388.95,11450.481,96073.75,-6.845028,120.76119384248159,0.0519951,6.400933e-08,0.032024253,0.00045490114,2.0,42,0.02098275,2.1840252e-07,0,1.8834001588948843e-08,2.0
178,178,375.6009,96123.42,12467.474,96928.586,-7.390164,121.43943707473227,0.05207941,-2.285913e-07,0.033987176,0.0005623002,2.0,42,0.020983147,2.1648047e-07,0,1.8727924891957748e-08,2.0
179,179,325.10385,97233.45,13759.209,98202.14,-8.054275,122.11870694701793,0.05212696,-2.0922117e-07,0.035579886,0.0006984729,2.0,42,0.021028465,2.1413449e-07,0,1.8926596815622747e-08,2.0
180,180,281.3503,97860.31,15066.463,99013.33,-8.752471,122.79480468579277,0.05203542,2.4001636e-07,0.037545804,0.0008693541,2.0,42,0.020974586,2.1183598e-07,0,1.871874599187034e-08,2.0
181,181,243.36427,99197.44,16037.33,100485.46,-9.183593,123.47813234486966,0.05204811,-1.35652e-07,0.0407785,0.0010386971,2.0,42,0.02099537,2.0893937e-07,0,1.8970360942985603e-08,2.0
182,182,210.60631,100074.26,17583.965,101607.34,-9.965666,124.15517008371535,0.052010976,-4.1036696e-08,0.042976588,0.0012871091,2.0,42,0.020981165,2.064926e-07,0,1.906318968728746e-08,2.0
183,183,182.27473,101074.3,19491.484,102936.54,-10.915109,124.82724699561368,0.052019693,-2.8371673e-08,0.044796977,0.0016061993,2.0,42,0.02095829,2.0360399e-07,0,1.8970386041942197e-08,2.0
184,184,157.72879,101579.4,19935.469,103517.13,-11.103467,125.51563745503154,0.05208619,3.4953665e-08,0.050615404,0.0018772025,2.0,42,0.020828538,2.0120861e-07,0,1.9142698505400526e-08,2.0
185,185,136.52892,102942.49,21528.607,105169.56,-11.81216,126.18753319352982,0.05201103,3.1097767e-07,0.054147642,0.0022689833,2.0,42,0.020818982,1.9795634e-07,0,1.9001687569726162e-08,2.0
186,186,118.14758,105743.93,24411.248,108525.055,-12.9991455,126.87589730627951,0.0520384,1.1243401e-07,0.055183,0.0027920632,2.0,42,0.020969989,1.9322717e-07,0,1.900114530740973e-08,2.0
187,187,102.25773,107923.195,27251.152,111310.56,-14.17125,127.54234355126391,0.05209616,-5.5006044e-08,0.057113543,0.00342323,2.0,42,0.021040574,1.8902585e-07,0,1.895615199842994e-08,2.0
188,188,88.4436,109605.26,29103.703,113403.43,-14.870705,128.23226963737397,0.052056044,-1.8705802e-07,0.06183088,0.004072392,2.0,42,0.021006795,1.852395e-07,0,1.899917209831534e-08,2.0
189,189,76.54279,111618.664,31305.385,115925.64,-15.66707,128.89971204243193,0.0520221,6.2704526e-09,0.06641968,0.004843685,2.0,42,0.020984674,1.810184e-07,0,1.8964955871844918e-08,2.0
190,190,66.250786,113933.516,33603.11,118785.586,-16.432692,129.56801106082276,0.05202152,1.2379479e-07,0.07149072,0.00572112,2.0,42,0.020973792,1.7656849e-07,0,1.8987637951812648e-08,2.0
191,191,57.329906,116498.19,36571.664,122103.7,-17.428364,130.2226296252702,0.052104264,-1.3658443e-07,0.07590916,0.006809668,2.0,42,0.021011567,1.7207968e-07,0,1.8931798360622506e-08,2.0
192,192,49.60321,119625.73,39171.188,125875.72,-18.130924,130.90836021778523,0.05204058,1.3496941e-07,0.08191126,0.007932191,2.0,42,0.02099601,1.6679952e-07,0,1.8968321812928107e-08,2.0
193,193,42.92585,121779.49,43335.023,129260.086,-19.588015,131.61642523811315,0.05207481,-2.4591435e-07,0.08555831,0.009616375,2.0,42,0.02097939,1.6230369e-07,0,1.906092059367046e-08,2.0
194,194,37.1518,125461.8,46074.043,133654.33,-20.165033,132.26019065533183,0.052076094,3.774571e-08,0.09297881,0.011049193,2.0,42,0.021007242,1.5717592e-07,0,1.8948549424695333e-08,2.0
195,195,32.150223,129176.984,49606.926,138374.64,-21.007935,132.899403619027,0.052099623,-1.2559669e-07,0.099791564,0.012825238,2.0,42,0.021029072,1.51972e-07,0,1.8865001924263718e-08,2.0
196,196,27.835518,133416.67,53572.312,143770.66,-21.8775,133.6273429869616,0.052033715,3.8769542e-08,0.10672851,0.014819061,2.0,42,0.021038046,1.4633059e-07,0,1.8755378607882948e-08,2.0
197,197,24.082958,136550.23,57849.348,148298.73,-22.959888,134.32939600697136,0.052053437,1.1205929e-07,0.11423833,0.017383367,2.0,42,0.020991968,1.4155191e-07,0,1.8671080429118605e-08,2.0
198,198,20.833313,140599.28,62294.316,153781.47,-23.896353,135.22775175631978,0.052071117,-6.378631e-08,0.1226347,0.020123439,2.0,43,0.020969393,1.3635838e-07,0,1.852449968132102e-08,2.0
199,199,18.021912,145165.88,66954.97,159862.75,-24.760605,135.9737477650924,0.052234203,-2.53405e-07,0.13189748,0.023137026,2.0,43,0.020969035,1.3116899e-07,0,1.8308058519971007e-08,2.0
200,200,15.604198,150388.95,71867.91,166678.83,-25.542213,136.6290269161982,0.052050624,-6.000681e-08,0.14192003,0.02638474,2.0,43,0.02099789,1.2597815e-07,0,1.8679953902595e-08,2.0
201,201,13.500899,155403.53,77289.76,173562.56,-26.4434,137.37699079173035,0.05206578,-6.5500814e-08,0.15252306,0.030245954,2.0,43,0.020965643,1.2079589e-07,0,1.873440228825392e-08,2.0
202,202,11.686608,160522.02,84034.57,181188.1,-27.63242,137.9678914064716,0.052031208,-2.6075982e-08,0.1620592,0.03486024,2.0,43,0.02098436,1.1581533e-07,0,1.8720183616858282e-08,2.0
203,203,10.113269,166281.12,90024.445,189086.78,-28.431074,138.64154189176043,0.05205323,-6.013738e-08,0.17481075,0.039624766,2.0,43,0.020959057,1.1084359e-07,0,1.8240698749953585e-08,2.0
204,204,8.748621,172707.9,96666.97,197920.5,-29.236334,139.4083750481659,0.052056547,-1.3627712e-07,0.18819255,0.04489284,2.0,43,0.020994285,1.0607433e-07,0,1.7694490282457744e-08,2.0
205,205,7.570237,178722.48,103895.86,206727.06,-30.17051,140.28399199646083,0.05204236,-8.166548e-08,0.20235428,0.05111098,2.0,43,0.02096723,1.01424696e-07,0,1.8721034611168957e-08,2.0
206,206,6.554112,185342.78,111718.805,216409.42,-31.080254,140.8203065552225,0.052028544,-6.805221e-08,0.2173602,0.057926893,2.0,43,0.020983828,9.696356e-08,0,1.7763616667236013e-08,2.0
207,207,5.669445,191536.25,121167.59,226644.48,-32.31782,141.4301342375402,0.052040003,-3.4810274e-08,0.23168242,0.06621795,2.0,43,0.021011868,9.270849e-08,0,1.8760254974223794e-08,2.0
208,208,4.907347,197743.72,130518.06,236933.62,-33.426266,142.1225240570784,0.052078795,-2.0466992e-07,0.24848644,0.07540333,2.0,43,0.020968514,8.8499526e-08,0,1.7390049970087122e-08,2.0
209,209,4.245922,204244.42,141491.39,248466.48,-34.712482,142.91030809449148,0.052048042,9.338035e-08,0.26492205,0.085909754,2.0,43,0.02095391,8.4332946e-08,0,1.869396930178012e-08,2.0
210,210,3.6747382,211029.89,154333.28,261442.88,-36.179264,143.80992451059865,0.05204479,-1.6094361e-07,0.28063002,0.09779118,2.0,43,0.02098615,8.0270496e-08,0,1.8547840814326084e-08,2.0
211,211,3.180988,216913.98,168133.78,274446.06,-37.779884,144.83824258609093,0.052038707,-1.382796e-07,0.29757956,0.11168608,2.0,43,0.020958355,7.636602e-08,0,1.7118803551821788e-08,2.0
212,212,2.752818,223936.98,185655.4,290887.78,-39.660496,146.01709197543096,0.05205654,6.980766e-09,0.31141174,0.12685256,2.0,43,0.02098596,7.2144516e-08,0,1.781867030373046e-08,2.0
213,213,2.3804083,230068.45,203799.05,307352.47,-41.535137,147.37195425311802,0.052049,-5.3519006e-08,0.32806998,0.14424388,2.0,43,0.02095201,6.816933e-08,0,1.921441190221292e-08,2.0
214,214,2.060257,237581.56,226851.23,328491.22,-43.676464,148.9283305403369,0.052142352,-1.6620056e-07,0.34053174,0.16240238,2.0,43,0.020972498,6.384493e-08,0,1.870191604363273e-08,2.0
