True,index,freq,Re(Z),Im(Z),Z,Phase(Z),time,Ewe_meas,I_meas,Cs,Cp,cycle_number,I_Range,Ewe,I,Ns,(QQo),cycle
110,110,7000018.5,137.8352,1336.625,1343.7131,-84.112366,82.67448288682499,-0.0022679837,-1.2602554e-05,1.7010276e-05,1.683129e-05,2.0,40,0.009917112,7.380379e-06,0,-1.3363194394328278e-08,2.0
111,111,6057573.0,238.69731,1486.157,1505.204,-80.875435,83.22649459299282,-0.002225913,-4.919947e-05,1.7678964e-05,1.7234372e-05,2.0,40,0.013980079,9.287831e-06,0,-1.821145015920115e-08,2.0
112,112,5242039.0,237.99902,1733.8446,1750.103,-82.184044,83.64250122613157,-0.0022796094,-7.151259e-06,1.7510949e-05,1.7187109e-05,2.0,40,0.01940852,1.108993e-05,0,-2.2678294457758893e-08,2.0
113,113,4536288.0,202.51672,1980.6665,1990.9929,-84.16198,85.0105051844439,-0.0021750855,-5.461361e-05,1.7713654e-05,1.7530385e-05,2.0,40,0.020597987,1.0345585e-05,0,-3.4001106448622803e-08,2.0
114,114,3925558.5,276.63336,2272.3896,2289.166,-83.05915,85.42648917753831,-0.0022754732,-1.892848e-05,1.7841685e-05,1.7581135e-05,2.0,40,0.018967513,8.285774e-06,0,-3.699796916375734e-08,2.0
115,115,3397055.0,330.9282,2586.165,2607.252,-82.708,85.84250298395636,-0.0023444851,-1.8295887e-05,1.811596e-05,1.7824108e-05,2.0,40,0.019864285,7.6188594e-06,0,-4.31219639433965e-08,2.0
116,116,2939708.2,415.73962,2976.6096,3005.5024,-82.048996,86.25849055036088,-0.0023381878,-1.5021339e-05,1.8188379e-05,1.7840359e-05,2.0,40,0.021634027,7.19814e-06,0,-4.795974238682415e-08,2.0
117,117,2543924.5,416.24265,3419.0632,3444.3071,-83.05887,86.81049601660925,-0.0023322068,-2.9217255e-05,1.8298217e-05,1.803098e-05,2.0,40,0.020714594,6.014154e-06,0,-4.338433491314358e-08,2.0
118,118,2201436.2,521.8236,3951.5564,3985.8623,-82.47732,87.36249681611662,-0.002316165,-3.0873132e-05,1.8295565e-05,1.7981984e-05,2.0,40,0.02041261,5.1212533e-06,0,-4.1334417550068876e-08,2.0
119,119,1905053.1,607.46716,4510.26,4550.9844,-82.32924,87.9144833223254,-0.00231909,-2.8975379e-05,1.8523006e-05,1.8192983e-05,2.0,40,0.020646527,4.536717e-06,0,-4.234077254182939e-08,2.0
120,120,1648567.4,619.82935,5359.746,5395.4673,-83.40332,88.6334829031548,-0.002330083,-8.343239e-06,1.8012302e-05,1.7774588e-05,2.0,41,0.018981274,3.5180037e-06,0,-4.3062911175763414e-08,2.0
121,121,1426616.2,731.35333,6142.4023,6185.789,-83.20997,89.04948340295232,-0.002333716,3.8447823e-08,1.8162462e-05,1.7908575e-05,2.0,41,0.021811008,3.5259866e-06,0,-4.2960748285268794e-08,2.0
122,122,1234551.2,1004.6946,7018.7163,7090.2603,-81.85373,89.60149676250876,-0.0023106313,-3.8199896e-06,1.8367638e-05,1.7998833e-05,2.0,41,0.020975491,2.9583528e-06,0,-4.257296804629106e-08,2.0
123,123,1068345.5,1310.5637,7943.294,8050.683,-80.63117,90.15349342869013,-0.0024202606,2.865235e-06,1.87546e-05,1.8257597e-05,2.0,41,0.02077293,2.5802692e-06,0,-4.374603241807821e-08,2.0
124,124,924510.06,1239.5885,9352.466,9434.257,-82.44994,90.70550156160607,-0.0023213073,-1.4252277e-06,1.8406972e-05,1.8089195e-05,2.0,41,0.020173661,2.1383414e-06,0,-4.3836154217629345e-08,2.0
125,125,800039.0,2922.289,10916.515,11300.888,-75.013626,91.25748758777627,-0.0023712218,-6.971147e-07,1.8223212e-05,1.7004655e-05,2.0,41,0.021002717,1.8585016e-06,0,-4.344030090943324e-08,2.0
126,126,692334.1,2413.626,12133.495,12371.229,-78.749435,91.8094951340172,-0.002331387,1.2581725e-06,1.8946042e-05,1.8224879e-05,2.0,41,0.020346353,1.644651e-06,0,-4.3169859543966954e-08,2.0
127,127,599122.25,3109.401,13814.4795,14160.093,-77.3151,92.36150734688272,-0.0022142867,-8.922363e-06,1.9229596e-05,1.8302357e-05,2.0,41,0.020661835,1.4591595e-06,0,-4.268588038634055e-08,2.0
128,128,518454.94,4012.7754,15835.857,16336.362,-75.78066,92.91348787982133,-0.0022408182,-6.1644737e-06,1.9385077e-05,1.8215453e-05,2.0,41,0.020502185,1.2550031e-06,0,-4.230055353263455e-08,2.0
129,129,448662.03,5294.3735,17861.527,18629.668,-73.48954,93.46550595932058,-0.0023509318,1.5859168e-06,1.9860136e-05,1.8256149e-05,2.0,41,0.020225648,1.0856687e-06,0,-4.2582044847515774e-08,2.0
130,130,388258.97,6323.467,20417.596,21374.387,-72.79189,94.01749718558858,-0.0023302133,6.52965e-07,2.0076779e-05,1.8319597e-05,2.0,41,0.020990752,9.820517e-07,0,-4.341195984027162e-08,2.0
131,131,335983.9,8131.012,21997.062,23451.74,-69.71363,94.56948249178822,-0.0023348527,4.5929792e-07,2.1534606e-05,1.894594e-05,2.0,41,0.020370053,8.685945e-07,0,-4.38361456955203e-08,2.0
132,132,290751.2,10906.936,25379.896,27624.271,-66.74453,95.12150382468826,-0.0023679053,4.0346827e-06,2.1567947e-05,1.8205676e-05,2.0,41,0.020675115,7.484402e-07,0,-4.440719487524309e-08,2.0
133,133,251605.19,13174.546,27770.12,30736.756,-64.61966,95.67449851761921,-0.0022736287,-6.181234e-06,2.2778378e-05,1.8593546e-05,2.0,41,0.020262253,6.59219e-07,0,-4.5355087442560166e-08,2.0
134,134,217729.38,16656.387,30580.49,34822.43,-61.424034,96.22648302381276,-0.0022941981,-2.1145201e-08,2.3903345e-05,1.8434417e-05,2.0,41,0.020217663,5.805931e-07,0,-4.464781510387164e-08,2.0
135,135,188418.58,19944.398,31659.938,37418.32,-57.79084,96.77849201005301,-0.0023345544,7.497971e-07,2.6680033e-05,1.9100198e-05,2.0,41,0.0206535,5.519622e-07,0,-4.490589365171754e-08,2.0
136,136,163051.14,24343.871,34388.6,42133.12,-54.705124,97.33149232962751,-0.0023943437,2.9732403e-06,2.8384535e-05,1.8908782e-05,2.0,41,0.020374287,4.8356935e-07,0,-4.5612867626712213e-08,2.0
137,137,141098.2,29233.123,35361.152,45880.133,-50.419403,97.88349947586539,-0.0023102215,-5.0531287e-07,3.1898646e-05,1.8948538e-05,2.0,41,0.020197352,4.4022e-07,0,-4.616433817812984e-08,2.0
138,138,122105.11,33183.176,37445.473,50032.855,-48.4535,98.29950768229901,-0.0023437398,3.8294817e-07,3.4808636e-05,1.9497325e-05,2.0,41,0.021908125,4.3787477e-07,0,-4.6419600245368484e-08,2.0
139,139,105663.59,37764.84,38695.707,54069.777,-45.69751,99.01849440977094,-0.0022183484,-1.2203836e-06,3.89253e-05,1.9936475e-05,2.0,42,0.018996418,3.5133152e-07,0,-4.691191293172321e-08,2.0
140,140,91439.65,43662.164,38769.656,58390.67,-41.603355,99.43448466950213,-0.0022799263,-9.113929e-07,4.489455e-05,1.9792042e-05,2.0,42,0.020066226,3.4365465e-07,0,-4.696127314638174e-08,2.0
141,141,79127.08,46813.047,37518.883,59992.73,-38.710854,99.8505029292719,-0.0022778953,-8.305598e-07,5.3609914e-05,2.0967547e-05,2.0,42,0.020886382,3.4814855e-07,0,-4.698116402305767e-08,2.0
142,142,68475.36,53636.19,36734.688,65009.832,-34.406704,100.26648988240049,-0.0023347593,-8.3763723e-07,6.32717e-05,2.0202451e-05,2.0,42,0.021769091,3.3485844e-07,0,-4.709261838232158e-08,2.0
143,143,59252.523,58401.402,35164.605,68170.914,-31.052954,100.81848790860386,-0.0022600275,-9.786296e-07,7.63849e-05,2.0324544e-05,2.0,42,0.020270506,2.9734832e-07,0,-4.712079706344952e-08,2.0
144,144,51282.285,62414.297,33648.383,70906.69,-28.329702,101.2345074750192,-0.0023842826,3.1879622e-07,9.223347e-05,2.077029e-05,2.0,42,0.020798726,2.9332531e-07,0,-4.717507956139855e-08,2.0
145,145,44369.8,66651.26,30471.1,73286.27,-24.568562,101.65050090811565,-0.0022445074,-1.0536884e-06,0.00011771844,2.0350519e-05,2.0,42,0.021191873,2.8916565e-07,0,-4.71916968183904e-08,2.0
146,146,38403.727,69124.3,28286.248,74687.88,-22.254795,102.06649562119856,-0.0022923723,-8.368918e-07,0.00014651139,2.1014634e-05,2.0,42,0.02141557,2.867342e-07,0,-4.720208002289519e-08,2.0
147,147,33226.32,72025.945,25612.486,76444.336,-19.575428,102.4824926276051,-0.00234905,-1.3267598e-07,0.00018701919,2.0994185e-05,2.0,42,0.021672614,2.8350843e-07,0,-4.720976029160716e-08,2.0
148,148,28754.086,74297.125,22920.35,77752.2,-17.144773,102.89850198072963,-0.0023314615,-2.5504255e-07,0.0002414901,2.0985359e-05,2.0,42,0.021782303,2.801503e-07,0,-4.7294246065468095e-08,2.0
149,149,24884.947,76427.89,21085.504,79283.17,-15.423518,103.31449357382371,-0.002284994,-8.4303707e-07,0.00030331887,2.1453856e-05,2.0,42,0.021864697,2.757798e-07,0,-4.732059341505806e-08,2.0
150,150,21553.963,77596.836,18630.592,79802.055,-13.500866,103.73050042023533,-0.0023343123,-4.2715723e-08,0.00039633855,2.1601878e-05,2.0,42,0.021858959,2.7391474e-07,0,-4.741246282005286e-08,2.0
151,151,18631.234,78409.234,16165.893,80058.38,-11.649626,104.14648326663882,-0.002270573,-8.761895e-07,0.0005284195,2.1545897e-05,2.0,42,0.02175414,2.7172845e-07,0,-4.737698443104311e-08,2.0
152,152,16126.037,79486.305,14022.672,80713.74,-10.004957,104.56250093973358,-0.0023024706,-4.0553277e-07,0.00070382014,2.1243608e-05,2.0,42,0.021611227,2.6775152e-07,0,-4.742446760902988e-08,2.0
153,153,13954.87,80766.21,14028.75,81975.52,-9.853724,104.97849493284593,-0.0023841895,9.622807e-08,0.00081297156,2.3809207e-05,2.0,42,0.021416351,2.61253e-07,0,-4.7526384165651886e-08,2.0
154,154,12080.609,80762.016,11889.259,81632.45,-8.37456,105.3944969526201,-0.0023626324,-2.2972019e-08,0.0011080938,2.3505005e-05,2.0,42,0.021089343,2.583451e-07,0,-4.7680395242612336e-08,2.0
155,155,10447.592,81149.21,9681.236,81724.664,-6.803327,105.8104932923743,-0.0021825754,-9.3653364e-07,0.001573523,2.2081495e-05,2.0,42,0.020611344,2.522047e-07,0,-4.7891777184047985e-08,2.0
156,156,9045.586,81349.34,8698.131,81813.04,-6.1030602,106.38326689289534,-0.0023769604,-3.040242e-07,0.0020228212,2.2864637e-05,2.0,42,0.020366618,2.4894098e-07,0,-4.827324822702354e-08,2.0
157,157,7827.7437,81699.59,7398.713,82033.92,-5.174589,106.86394643576932,-0.0023522174,-5.6123255e-08,0.0027480673,2.2353872e-05,2.0,42,0.020484753,2.4971075e-07,0,-4.820651213485346e-08,2.0
158,158,6770.8345,81632.54,6873.217,81921.38,-4.812783,107.40241320800851,-0.0023514535,1.7929841e-07,0.0034199357,2.4073734e-05,2.0,42,0.02058204,2.5124137e-07,0,-4.833642820499426e-08,2.0
159,159,5860.798,81851.7,6540.1084,82112.57,-4.5683374,108.00797795676044,-0.00235872,-4.0143237e-07,0.0041522016,2.6340804e-05,2.0,42,0.020713858,2.522617e-07,0,-4.861579516006851e-08,2.0
160,160,5071.625,81410.89,6130.5996,81641.4,-4.306497,108.68868164245941,-0.0022872859,-1.3937685e-07,0.005118822,2.8863906e-05,2.0,42,0.020725027,2.5385438e-07,0,-4.86025269047921e-08,2.0
161,161,4388.5933,81616.664,5390.1,81794.45,-3.7784219,109.36880807475245,-0.0023155874,-4.6623768e-08,0.006728186,2.921756e-05,2.0,42,0.020829003,2.5465056e-07,0,-4.85817779556621e-08,2.0
162,162,3798.7827,81590.836,5036.8237,81746.16,-3.532541,110.04882453371829,-0.0022689148,-3.8019962e-07,0.0083180005,3.1578955e-05,2.0,42,0.02086795,2.5527743e-07,0,-4.8686803646994885e-08,2.0
163,163,3286.0488,82018.22,5420.4434,82197.14,-3.7810812,110.72870312602026,-0.002308265,-4.0608867e-07,0.008935344,3.8856844e-05,2.0,42,0.020962194,2.550234e-07,0,-4.8887600215099324e-08,2.0
164,164,2844.088,81933.234,5161.665,82095.664,-3.60478,111.4088344383199,-0.0023280892,-3.341957e-07,0.010841448,4.2857464e-05,2.0,42,0.02098319,2.5559436e-07,0,-4.8779412849128985e-08,2.0
165,165,2460.7852,82505.266,5221.6104,82670.336,-3.6213171,112.08868495061324,-0.002262133,-1.18144236e-07,0.012386311,4.9414168e-05,2.0,42,0.021079399,2.5498142e-07,0,-4.893558006113451e-08,2.0
166,166,2129.3164,82427.18,5851.627,82634.625,-4.0606995,112.76882143624243,-0.002287882,-1.9469353e-07,0.012773306,6.4051965e-05,2.0,42,0.02105773,2.548294e-07,0,-4.8786522287014e-08,2.0
167,167,1843.2289,82758.48,5869.761,82966.375,-4.0569897,113.44896448188229,-0.002312364,-3.9044363e-07,0.014710262,7.3630385e-05,2.0,42,0.02107492,2.540176e-07,0,-4.890076109899649e-08,2.0
168,168,1594.4913,82977.54,6129.5347,83203.625,-4.224755,114.12884774083795,-0.0023256484,-3.202267e-07,0.016284352,8.8377354e-05,2.0,42,0.021069596,2.532293e-07,0,-4.909569072089652e-08,2.0
169,169,1380.4436,83446.37,6593.0044,83706.414,-4.5174913,114.80869222647743,-0.0022460164,-5.973687e-07,0.017487112,0.00010848441,2.0,42,0.02113065,2.5243764e-07,0,-4.903656509363468e-08,2.0
170,170,1194.6187,83981.03,7032.324,84274.95,-4.786613,115.48782020539511,-0.0022916642,-3.2916674e-07,0.018944884,0.00013191455,2.0,42,0.021138355,2.5082608e-07,0,-4.9113274226491375e-08,2.0
171,171,1033.3434,84097.8,7242.9536,84409.125,-4.922473,116.16810599769815,-0.0023070914,-1.3453445e-07,0.021264724,0.00015657138,2.0,42,0.021102399,2.500014e-07,0,-4.9217437332954755e-08,2.0
172,172,894.71045,84780.516,7762.9287,85135.18,-5.2317,116.84781872332678,-0.0023653342,-2.2020977e-07,0.022914587,0.000190522,2.0,42,0.021142937,2.483455e-07,0,-4.925519895285014e-08,2.0
173,173,774.2569,85231.4,7739.742,85582.09,-5.1887174,117.52797747560544,-0.0024015915,2.141276e-07,0.026558807,0.00021721797,2.0,42,0.021091228,2.4644442e-07,0,-4.908951408735914e-08,2.0
174,174,669.7856,85951.67,9150.02,86437.336,-6.076559,118.20782924124796,-0.0023212887,-1.9171354e-07,0.025969425,0.00029100713,2.0,42,0.021145934,2.446389e-07,0,-4.904749470973356e-08,2.0
175,175,579.81464,86819.914,10015.693,87395.72,-6.580649,118.887807993553,-0.0023394919,-4.3643816e-08,0.027406272,0.00035994127,2.0,42,0.021185407,2.4240785e-07,0,-4.9313397622997355e-08,2.0
176,176,501.44418,87185.34,10840.675,87856.73,-7.087812,119.56517253236962,-0.0023017253,-4.2322367e-07,0.029277988,0.0004457628,2.0,42,0.021128654,2.404899e-07,0,-4.9521744983967426e-08,2.0
177,177,434.02762,87858.77,11668.744,88630.266,-7.5653214,120.24521672466653,-0.002264052,-5.174668e-07,0.031425245,0.00054470677,2.0,42,0.021146564,2.3859303e-07,0,-4.934504099198516e-08,2.0
178,178,375.6009,88757.484,12208.794,89593.23,-7.8320155,120.9234541702026,-0.002334014,-2.9880775e-07,0.034707293,0.0006444896,2.0,42,0.021134535,2.3589435e-07,0,-4.915138172407948e-08,2.0
179,179,325.10385,89609.21,13362.22,90600.0,-8.4812565,121.60269142917241,-0.0022586116,-4.0087357e-07,0.03663696,0.0007969301,2.0,42,0.021128058,2.3320153e-07,0,-4.9303381157175256e-08,2.0
180,180,281.3503,90610.11,14745.937,91802.15,-9.243312,122.27979348799272,-0.002274076,-7.249504e-07,0.038361922,0.0009897817,2.0,42,0.021146417,2.3034772e-07,0,-4.964202944933937e-08,2.0
181,181,243.36427,91566.16,15711.271,92904.28,-9.736219,122.96312317377306,-0.0023357656,-2.6397882e-07,0.041624784,0.0011904282,2.0,42,0.02110918,2.272143e-07,0,-4.9392557341377795e-08,2.0
182,182,210.60631,92702.33,17276.738,94298.5,-10.556981,123.64018160590786,-0.0023362313,-1.7085318e-07,0.04374083,0.0014682532,2.0,42,0.021151325,2.2430181e-07,0,-4.925792957051378e-08,2.0
183,183,182.27473,93423.0,18286.967,95195.95,-11.075256,124.31225091780652,-0.0023045202,-2.5578393e-07,0.047747646,0.0017619693,2.0,42,0.021059727,2.2122502e-07,0,-4.9425207826222774e-08,2.0
184,184,157.72879,95026.414,20844.865,97285.805,-12.372363,125.0006388172369,-0.0023280892,-3.194819e-07,0.048407212,0.0022223338,2.0,42,0.021121873,2.1711156e-07,0,-4.925784841130603e-08,2.0
185,185,136.52892,96946.164,20710.805,99133.73,-12.058942,125.67250602241256,-0.0023951821,9.623856e-09,0.056285758,0.0024566858,2.0,42,0.021165192,2.1350142e-07,0,-4.951969544506834e-08,2.0
186,186,118.14758,98254.234,23149.316,100944.47,-13.257466,126.36088096181629,-0.0023377032,-3.5468355e-07,0.058191177,0.003060331,2.0,42,0.021118797,2.0921203e-07,0,-4.958513540335652e-08,2.0
187,187,102.25773,99860.445,24771.777,102887.07,-13.931795,127.02734520679223,-0.0023230028,-2.7403675e-07,0.062829964,0.0036421644,2.0,42,0.021099739,2.0507667e-07,0,-4.96719319669017e-08,2.0
188,188,88.4436,102024.69,27481.625,105661.14,-15.075525,127.71727718619513,-0.0022878074,-4.4110422e-07,0.06548039,0.00442961,2.0,42,0.021167802,2.0033667e-07,0,-4.968330748603182e-08,2.0
189,189,76.54279,103824.34,29218.95,107857.51,-15.718022,128.3847365246329,-0.0022500968,-8.186356e-07,0.07116251,0.0052225143,2.0,42,0.021138044,1.959812e-07,0,-4.980366429434488e-08,2.0
190,190,66.250786,105868.016,31461.033,110443.805,-16.550486,129.05299306302913,-0.0023322816,-2.4945214e-07,0.07635828,0.0061961133,2.0,42,0.021138802,1.9139871e-07,0,-4.97744199117896e-08,2.0
191,191,57.329906,107861.23,34369.72,113204.78,-17.674353,129.70764333414263,-0.0023505592,-1.5576784e-07,0.080772385,0.007445354,2.0,42,0.02111349,1.8650705e-07,0,-4.978339077866837e-08,2.0
192,192,49.60321,110541.336,36940.03,116550.22,-18.478283,130.39336515331524,-0.0023351694,-3.0793558e-08,0.08685865,0.008725321,2.0,42,0.02109094,1.809601e-07,0,-4.977797589944721e-08,2.0
193,193,42.92585,113584.49,39977.043,120414.29,-19.38996,131.1014448936039,-0.002352851,-1.4198568e-07,0.09274502,0.01022247,2.0,42,0.02114212,1.7557817e-07,0,-4.979033631968694e-08,2.0
194,194,37.1518,116284.01,43443.04,124134.07,-20.485401,131.74515937754768,-0.0023279216,-4.3719407e-07,0.09860981,0.012077541,2.0,42,0.021130972,1.7022701e-07,0,-5.0001418843981286e-08,2.0
195,195,32.150223,119427.48,47186.11,128411.26,-21.559107,132.38437455458916,-0.0023279402,-2.6230433e-07,0.10491123,0.014165898,2.0,42,0.021157714,1.6476525e-07,0,-5.00714661048125e-08,2.0
196,196,27.835518,123518.47,49660.25,133127.58,-21.902452,133.11235005580238,-0.0023180654,-1.546518e-07,0.1151362,0.01602115,2.0,42,0.021142257,1.58812e-07,0,-5.0265373556139066e-08,2.0
197,197,24.082958,126726.164,53539.94,137571.97,-22.903341,133.81436651581316,-0.0023717247,-1.2373445e-07,0.123433314,0.018695122,2.0,42,0.021100452,1.5337756e-07,0,-5.036114649554671e-08,2.0
198,198,20.833313,130634.516,58551.75,143156.16,-24.142418,134.46874756026955,-0.0023293376,-2.1164516e-07,0.13047338,0.021826375,2.0,42,0.02110937,1.4745696e-07,0,-4.996040368250693e-08,2.0
199,199,18.021912,135551.23,62582.22,149300.61,-24.782148,135.4877303020039,-0.002366098,-1.8225568e-07,0.14111342,0.024794027,2.0,43,0.021128803,1.4151854e-07,0,-4.9886394793365185e-08,2.0
200,200,15.604198,140134.02,67750.55,155652.44,-25.802359,136.14301502643502,-0.0023285924,-1.6749753e-07,0.15054484,0.028521977,2.0,43,0.021132402,1.357666e-07,0,-4.969274516181442e-08,2.0
201,201,13.500899,145064.16,73012.45,162402.06,-26.716637,136.89097279531416,-0.0023282568,-1.4852085e-07,0.16145834,0.032634076,2.0,43,0.021115249,1.3001835e-07,0,-4.958190215139228e-08,2.0
202,202,11.686608,150570.47,78421.39,169768.61,-27.511786,137.48189189005643,-0.0023499443,-1.5133371e-07,0.17365894,0.03705539,2.0,43,0.02111386,1.2436846e-07,0,-4.9868619857603094e-08,2.0
203,203,10.113269,157145.5,83456.6,177931.77,-27.97181,138.15554656201857,-0.0022974215,-1.7684718e-07,0.18856797,0.041484162,2.0,43,0.021139363,1.1880601e-07,0,-5.044025567928006e-08,2.0
204,204,8.748621,162758.69,91136.52,186537.55,-29.24659,138.92239206508384,-0.0023401626,-2.0164343e-07,0.19961265,0.047647536,2.0,43,0.02116807,1.1347887e-07,0,-5.00356111431643e-08,2.0
205,205,7.570237,169093.81,97844.28,195361.77,-30.05535,139.79802464004024,-0.0023595304,-1.05958996e-07,0.21486971,0.05389729,2.0,43,0.02114149,1.0821713e-07,0,-4.948466686195907e-08,2.0
206,206,6.554112,175829.86,105581.04,205093.88,-30.983667,140.3343141855148,-0.002397008,-3.7562805e-07,0.22999604,0.060951844,2.0,43,0.021156074,1.0315313e-07,0,-5.066930520958538e-08,2.0
207,207,5.669445,183156.02,112855.76,215133.8,-31.640247,140.94413893445744,-0.0023330266,7.985102e-08,0.24874586,0.06845198,2.0,43,0.021148019,9.8301705e-08,0,-4.9405229928527716e-08,2.0
208,208,4.907347,189892.03,121708.54,225548.11,-32.657253,141.6365448340366,-0.0023283502,-3.4054273e-07,0.26647243,0.07759183,2.0,43,0.02113086,9.368671e-08,0,-5.04098605233209e-08,2.0
209,209,4.245922,197575.45,131268.22,237207.52,-33.59988,142.42428439142532,-0.0023336322,-5.516537e-08,0.28555417,0.08744819,2.0,43,0.021162286,8.921423e-08,0,-5.054167290776886e-08,2.0
210,210,3.6747382,204891.3,141196.05,248830.8,-34.571762,143.32391422084766,-0.0023195932,-8.824903e-08,0.30674055,0.09876612,2.0,43,0.021142023,8.496546e-08,0,-4.915742260332835e-08,2.0
211,211,3.180988,212456.02,153349.86,262018.58,-35.821594,144.35317786972155,-0.0023234407,-2.320923e-07,0.32626814,0.11175766,2.0,43,0.021140777,8.0684266e-08,0,-5.0302596966272754e-08,2.0
212,212,2.752818,220333.94,166092.5,275923.47,-37.00978,145.53213419238455,-0.0023389137,-1.361237e-07,0.34809083,0.1261291,2.0,43,0.021147447,7.6642436e-08,0,-5.1410756095130434e-08,2.0
213,213,2.3804083,227575.17,181879.17,291325.4,-38.63202,146.88695391008514,-0.0023106246,-7.891435e-08,0.3676086,0.14328308,2.0,43,0.021125479,7.251506e-08,0,-5.024305820389942e-08,2.0
