True,index,freq,Re(Z),Im(Z),Z,Phase(Z),time,Ewe_meas,I_meas,Cs,Cp,cycle_number,I_Range,Ewe,I,Ns,(QQo),cycle
110,110,7000018.5,125.55587,1135.5555,1142.4757,-83.69056,82.79547819923027,-0.0084125055,1.9566167e-05,2.0022235e-05,1.9780415e-05,2.0,40,0.009833635,8.607303e-06,0,-2.1950003803478237e-08,2.0
111,111,6057573.0,223.50328,1323.6946,1342.431,-80.416115,83.34750158540555,-0.008331644,-2.724511e-05,1.9848774e-05,1.9298579e-05,2.0,40,0.013913416,1.0364343e-05,0,-2.8419668073100762e-08,2.0
112,112,5242039.0,225.32025,1525.0323,1541.5878,-81.595474,83.76350101854769,-0.0082665635,-2.6258997e-05,1.9908606e-05,1.9483296e-05,2.0,40,0.019243095,1.24826465e-05,0,-2.8021094205376684e-08,2.0
113,113,4536288.0,183.28549,1741.9978,1751.6135,-83.99368,85.13149209684343,-0.008332296,-2.0733194e-05,2.0140576e-05,1.9920055e-05,2.0,40,0.019231752,1.0979449e-05,0,-3.511966952004819e-08,2.0
114,114,3925558.5,265.10654,2025.5961,2042.8707,-82.54361,85.54848760997993,-0.0083320355,2.132824e-06,2.0015472e-05,1.9678399e-05,2.0,40,0.018427435,9.020363e-06,0,-3.589448607822712e-08,2.0
115,115,3397055.0,337.66602,2287.9182,2312.7014,-81.604515,85.96450538971112,-0.008373416,-2.1068088e-05,2.0477506e-05,2.0040978e-05,2.0,40,0.01950349,8.433207e-06,0,-4.027618848523416e-08,2.0
116,116,2939708.2,357.58334,2629.3113,2653.5154,-82.255356,86.38048794280621,-0.008372764,-2.478917e-05,2.059083e-05,2.0216905e-05,2.0,40,0.021361666,8.050327e-06,0,-3.95845673944617e-08,2.0
117,117,2543924.5,382.9505,3004.9329,3029.2363,-82.73734,86.93248983568628,-0.008317782,-4.2520103e-05,2.082002e-05,2.0487283e-05,2.0,40,0.020541761,6.7811684e-06,0,-3.7656128420860844e-08,2.0
118,118,2201436.2,453.91443,3473.8662,3503.3962,-82.555595,87.48450023526675,-0.008390073,-1.1975346e-06,2.0811382e-05,2.0462025e-05,2.0,40,0.020873025,5.95794e-06,0,-3.761577405524857e-08,2.0
119,119,1905053.1,526.72235,3926.3848,3961.557,-82.35942,88.0365020481695,-0.008338631,-2.8082322e-05,2.127748e-05,2.0901338e-05,2.0,40,0.020633474,5.2084256e-06,0,-3.5817619929375744e-08,2.0
120,120,1648567.4,648.62775,4535.9956,4582.136,-81.86212,88.58850180768059,-0.008380179,-6.6675184e-06,2.128339e-05,2.0856914e-05,2.0,40,0.019921876,4.3477266e-06,0,-3.609970327273714e-08,2.0
121,121,1426616.2,707.4567,5242.2114,5289.733,-82.31415,89.30749293518602,-0.008330973,-6.1961455e-06,2.1281314e-05,2.0900661e-05,2.0,41,0.019382164,3.6641102e-06,0,-3.353959198951924e-08,2.0
122,122,1234551.2,754.55023,6099.7183,6146.211,-82.9482,89.8595047480485,-0.008344108,-3.7697105e-06,2.113495e-05,2.0816411e-05,2.0,41,0.020406827,3.3202289e-06,0,-3.4063124330185975e-08,2.0
123,123,1068345.5,1063.5569,6887.9243,6969.552,-81.22234,90.41150218763505,-0.008361269,1.610068e-08,2.1628182e-05,2.1124531e-05,2.0,41,0.020243432,2.904553e-06,0,-3.515412509996195e-08,2.0
124,124,924510.06,1045.3374,7963.0376,8031.3574,-82.52133,90.96349362717592,-0.00833252,-8.0325833e-07,2.1618707e-05,2.1252466e-05,2.0,41,0.020736951,2.5819984e-06,0,-3.585591921863439e-08,2.0
125,125,800039.0,1733.4397,8574.807,8748.264,-78.571396,91.51549413337489,-0.008370286,1.4257708e-06,2.319982e-05,2.2288948e-05,2.0,41,0.020491967,2.3424038e-06,0,-3.590456872766603e-08,2.0
126,126,692334.1,2020.1014,10488.424,10681.191,-79.09816,92.06750810626545,-0.008422287,5.0365365e-06,2.191766e-05,2.1133685e-05,2.0,41,0.02041502,1.9113054e-06,0,-3.510598784340601e-08,2.0
127,127,599122.25,2379.9417,11947.487,12182.224,-78.73414,92.61948914584354,-0.008394508,1.798206e-06,2.2234539e-05,2.138593e-05,2.0,41,0.02053174,1.6853852e-06,0,-3.51695476017277e-08,2.0
128,128,518454.94,2854.8171,13574.082,13871.037,-78.123,93.17149994536885,-0.008423424,3.5132744e-06,2.2615106e-05,2.165717e-05,2.0,41,0.02053383,1.4803385e-06,0,-3.449194107716597e-08,2.0
129,129,448662.03,3680.3625,15454.9,15887.07,-76.60531,93.72350778491818,-0.008311559,-2.6728865e-06,2.2952743e-05,2.1720978e-05,2.0,41,0.02024844,1.2745231e-06,0,-3.478572131268937e-08,2.0
130,130,388258.97,4623.0977,17480.904,18081.898,-75.186386,94.27550413113204,-0.00835212,-3.3786512e-06,2.3449562e-05,2.1916667e-05,2.0,41,0.020910732,1.1564456e-06,0,-3.489740829588308e-08,2.0
131,131,335983.9,7146.544,20733.535,21930.63,-70.98168,94.82748597071622,-0.008341035,1.4831501e-07,2.284695e-05,2.0420799e-05,2.0,41,0.020363227,9.28529e-07,0,-3.5959541791276807e-08,2.0
132,132,290751.2,7006.643,22257.855,23334.635,-72.5263,95.37949701023172,-0.008374814,1.09989e-06,2.4593215e-05,2.237587e-05,2.0,41,0.020450197,8.763881e-07,0,-3.5649197207661724e-08,2.0
133,133,251605.19,9153.897,25038.648,26659.479,-69.91806,95.93150090312702,-0.00842905,3.1520099e-06,2.5263276e-05,2.2284768e-05,2.0,41,0.020159077,7.561692e-07,0,-3.5748492056963364e-08,2.0
134,134,217729.38,11607.471,27540.941,29887.068,-67.14641,96.48348364935373,-0.008410755,4.7702442e-06,2.654143e-05,2.2537994e-05,2.0,41,0.020436393,6.8378716e-07,0,-3.607630405915291e-08,2.0
135,135,188418.58,14106.6,30496.049,33600.67,-65.17609,97.03549575558282,-0.008374162,3.2991225e-06,2.7698281e-05,2.2816239e-05,2.0,41,0.020833122,6.2002096e-07,0,-3.599330362512296e-08,2.0
136,136,163051.14,17223.432,33847.09,37977.258,-63.030277,97.58749298178009,-0.008317651,-4.3134673e-06,2.8838653e-05,2.2907117e-05,2.0,41,0.020421356,5.377259e-07,0,-3.519533396345587e-08,2.0
137,137,141098.2,21373.154,36446.727,42251.34,-59.611713,98.13950676799868,-0.008356554,1.5039805e-06,3.0948537e-05,2.3029059e-05,2.0,41,0.02008557,4.7538302e-07,0,-3.529636312092283e-08,2.0
138,138,122105.11,27845.371,37722.53,46886.61,-53.566635,98.55549593441538,-0.008322049,-3.1328457e-06,3.4552977e-05,2.2366059e-05,2.0,41,0.021840444,4.658141e-07,0,-3.4573081480686066e-08,2.0
139,139,105663.59,30325.742,41493.43,51394.117,-53.83856,99.10748609396978,-0.008388285,2.654806e-06,3.6300735e-05,2.3661773e-05,2.0,41,0.020502232,3.9892177e-07,0,-3.332022836815342e-08,2.0
140,140,91439.65,35077.98,44832.56,56924.715,-51.95959,99.68948852163157,-0.008332781,-7.057715e-07,3.8823266e-05,2.4081159e-05,2.0,42,0.01996588,3.5074186e-07,0,-3.352259874162685e-08,2.0
141,141,79127.08,43881.668,49358.984,66044.76,-48.36191,100.10550350139965,-0.008332725,-5.048066e-07,4.075011e-05,2.2760642e-05,2.0,42,0.021115594,3.197164e-07,0,-3.3511233000198635e-08,2.0
142,142,68475.36,47771.81,48076.805,67775.55,-45.18232,100.52149074783665,-0.008315807,-7.5494177e-07,4.834485e-05,2.432626e-05,2.0,42,0.021833314,3.2214146e-07,0,-3.364322899575218e-08,2.0
143,143,59252.523,53915.113,47704.113,71989.734,-41.502415,101.07350117401802,-0.008408165,-5.426494e-08,5.6306355e-05,2.4724524e-05,2.0,42,0.020225376,2.8094806e-07,0,-3.372192776223808e-08,2.0
144,144,51282.285,59567.527,48786.746,76996.34,-39.31802,101.48949559379253,-0.008375224,-2.7072078e-08,6.3613734e-05,2.5539619e-05,2.0,42,0.020716779,2.6906184e-07,0,-3.379415901577904e-08,2.0
145,145,44369.8,67573.27,46209.87,81862.69,-34.366207,101.90549156020279,-0.008403675,1.2900631e-07,7.762433e-05,2.473406e-05,2.0,42,0.021186851,2.5880962e-07,0,-3.3880186972732315e-08,2.0
146,146,38403.727,73836.65,44196.312,86053.266,-30.903423,102.32148979333579,-0.008353797,-3.3364128e-07,9.376931e-05,2.4734212e-05,2.0,42,0.021551544,2.5044423e-07,0,-3.391842241330561e-08,2.0
147,147,33226.32,78561.12,41395.62,88800.04,-27.785755,102.7375034930592,-0.008376174,-3.9584896e-07,0.00011571335,2.514583e-05,2.0,42,0.021727277,2.4467644e-07,0,-3.4025776471194646e-08,2.0
148,148,28754.086,83653.33,37885.867,91832.555,-24.36536,103.15349564616918,-0.0084043825,-1.2112841e-07,0.0001460977,2.4865916e-05,2.0,42,0.021890467,2.3837372e-07,0,-3.4048440876176164e-08,2.0
149,149,24884.947,87884.72,34606.758,94452.91,-21.493254,103.57048707929789,-0.008359051,-3.617645e-07,0.00018480874,2.4809253e-05,2.0,42,0.021973083,2.3263533e-07,0,-3.399653766363977e-08,2.0
150,150,21553.963,90335.58,31318.064,95610.34,-19.120707,103.98750805910095,-0.008313459,-4.0069068e-07,0.00023577518,2.5297531e-05,2.0,42,0.02188179,2.2886427e-07,0,-3.39810985601788e-08,2.0
151,151,18631.234,93143.05,27988.373,97257.266,-16.724895,104.40349309219164,-0.008364585,-7.586853e-08,0.00030521146,2.5276215e-05,2.0,42,0.0218157,2.243092e-07,0,-3.399140419389093e-08,2.0
152,152,16126.037,94977.75,24900.598,98187.64,-14.690772,104.81949417860596,-0.008411574,3.5306803e-07,0.0003963535,2.5491101e-05,2.0,42,0.02160873,2.2007588e-07,0,-3.405207150482761e-08,2.0
153,153,13954.87,95021.46,20722.805,97254.88,-12.30275,105.23548513170681,-0.008380366,-3.9176822e-08,0.0005503587,2.4987341e-05,2.0,42,0.021317817,2.1919534e-07,0,-3.4171397128389263e-08,2.0
154,154,12080.609,99055.984,17910.57,100662.19,-10.249065,105.65149955145898,-0.008389682,3.0222154e-07,0.0007355663,2.32867e-05,2.0,42,0.021179901,2.1040573e-07,0,-3.4178457151996966e-08,2.0
155,155,10447.592,99288.13,16099.982,100585.0,-9.210579,106.06748370456626,-0.008387931,1.4446695e-07,0.0009461904,2.424169e-05,2.0,42,0.020587698,2.0467961e-07,0,-3.422808638946763e-08,2.0
156,156,9045.586,99673.22,14301.318,100693.984,-8.165188,106.64025218514143,-0.00838316,-8.201431e-08,0.0012302896,2.481718e-05,2.0,42,0.020322528,2.0182465e-07,0,-3.4242243196437784e-08,2.0
157,157,7827.7437,100408.79,12140.319,101140.06,-6.8941064,107.12093351464137,-0.008397377,1.6774887e-07,0.0016747633,2.413055e-05,2.0,42,0.020443704,2.021326e-07,0,-3.4120892950028094e-08,2.0
158,158,6770.8345,100608.31,10842.458,101190.87,-6.1509695,107.65939986016019,-0.008273159,-5.025686e-07,0.0021679548,2.4889894e-05,2.0,42,0.020519117,2.0277638e-07,0,-3.4263415106019935e-08,2.0
159,159,5860.798,100757.79,9537.253,101208.16,-5.407235,108.26498783566058,-0.008389235,3.6592107e-07,0.0028473448,2.5284575e-05,2.0,42,0.02059678,2.0350909e-07,0,-3.4417798393776835e-08,2.0
160,160,5071.625,100660.56,8409.389,101011.22,-4.775517,108.94571138799802,-0.0084293485,1.6663277e-07,0.003731716,2.586415e-05,2.0,42,0.020629,2.0422483e-07,0,-3.4317661029362316e-08,2.0
161,161,4388.5933,100918.11,7213.099,101175.555,-4.0882506,109.62583907363296,-0.008365964,-1.5316044e-07,0.005027741,2.5554391e-05,2.0,42,0.020722585,2.048181e-07,0,-3.426112032640304e-08,2.0
162,162,3798.7827,100920.79,6316.594,101118.27,-3.5814495,110.30582001259609,-0.008384447,-1.280163e-07,0.006632736,2.5882093e-05,2.0,42,0.020738304,2.0508958e-07,0,-3.4441154020679337e-08,2.0
163,163,3286.0488,100936.7,5299.3735,101075.72,-3.0053809,110.98570396489231,-0.008360337,-2.2319047e-07,0.009139482,2.5123318e-05,2.0,42,0.020802766,2.0581369e-07,0,-3.4583681436437334e-08,2.0
164,164,2844.088,101124.6,5156.092,101255.96,-2.9188416,111.66584365052404,-0.008356554,-2.740372e-07,0.010853167,2.8142103e-05,2.0,42,0.020858163,2.0599443e-07,0,-3.4652817305063976e-08,2.0
165,165,2460.7852,100761.36,4941.9316,100882.48,-2.8078732,112.34569757615827,-0.008442969,1.6514323e-07,0.013087289,3.1405933e-05,2.0,42,0.02080654,2.0624533e-07,0,-3.4797063280739946e-08,2.0
166,166,2129.3164,101251.92,4615.9517,101357.086,-2.6102374,113.02580870178645,-0.008379825,-9.523583e-08,0.016192678,3.358404e-05,2.0,42,0.02088626,2.060661e-07,0,-3.470543080932388e-08,2.0
167,167,1843.2289,100849.875,5115.091,100979.51,-2.9035454,113.70593982739956,-0.008380161,-7.586575e-08,0.016880585,4.3313943e-05,2.0,42,0.020864686,2.0662297e-07,0,-3.488015586489862e-08,2.0
168,168,1594.4913,101293.82,4362.5005,101387.72,-2.4660785,114.38580863304378,-0.0083454875,-2.3492403e-07,0.02288034,4.2360665e-05,2.0,42,0.020917276,2.0630976e-07,0,-3.5061826077483044e-08,2.0
169,169,1380.4436,101673.65,3808.2888,101744.945,-2.1450684,115.06567847868428,-0.00831998,-3.8318018e-07,0.030274123,4.241365e-05,2.0,42,0.020974569,2.0614851e-07,0,-3.512784994915543e-08,2.0
170,170,1194.6187,101396.38,4271.2803,101486.305,-2.4121346,115.74584107098053,-0.008383981,-2.086628e-07,0.03119125,5.5250224e-05,2.0,42,0.02091661,2.0610277e-07,0,-3.52811745940406e-08,2.0
171,171,1033.3434,101248.14,3993.5425,101326.87,-2.2587533,116.42610710326699,-0.008366504,-1.16096004e-07,0.038567115,5.990796e-05,2.0,42,0.020893054,2.0619461e-07,0,-3.533904342317267e-08,2.0
172,172,894.71045,101438.914,4552.819,101541.03,-2.569846,117.10584145557368,-0.008403656,-1.3472092e-07,0.039071247,7.854795e-05,2.0,42,0.02090376,2.0586516e-07,0,-3.52760650230722e-08,2.0
173,173,774.2569,101510.69,4074.666,101592.44,-2.2986338,117.7859621278767,-0.008440025,1.8022963e-07,0.050447896,8.115295e-05,2.0,42,0.020895539,2.0568007e-07,0,-3.5347242155761216e-08,2.0
174,174,669.7856,101995.05,4796.7075,102107.77,-2.6925695,118.46582264016615,-0.008396352,-7.6610554e-08,0.049538303,0.00010932261,2.0,42,0.020950237,2.0517768e-07,0,-3.5487203685968065e-08,2.0
175,175,579.81464,102125.945,5246.0513,102260.59,-2.9406106,119.14581163246476,-0.008382192,-1.1907582e-07,0.0523237,0.0001377041,2.0,42,0.020931328,2.0468616e-07,0,-3.533585558820956e-08,2.0
176,176,501.44418,102320.28,5889.409,102489.63,-3.2942283,119.82320774460095,-0.008360486,-2.0456518e-07,0.053892188,0.00017795467,2.0,42,0.020932319,2.042384e-07,0,-3.515928681466564e-08,2.0
177,177,434.02762,102804.516,5838.014,102970.15,-3.2501945,120.5032217502303,-0.008321378,-3.6194743e-07,0.06281128,0.00020190414,2.0,42,0.020987472,2.0382093e-07,0,-3.529625301613631e-08,2.0
178,178,375.6009,102785.94,6733.297,103006.24,-3.7479746,121.182457622519,-0.008361194,5.860762e-08,0.062931165,0.0002689021,2.0,42,0.020939482,2.0328362e-07,0,-3.548161041695054e-08,2.0
179,179,325.10385,103039.66,7610.878,103320.36,-4.2244,121.86169552147476,-0.008345078,-1.5651237e-07,0.06432255,0.00034902856,2.0,42,0.02092302,2.0250627e-07,0,-3.56991054697142e-08,2.0
180,180,281.3503,103486.94,8020.3965,103797.266,-4.431652,122.53878160695604,-0.008339134,-1.6414859e-07,0.07053049,0.00042111115,2.0,42,0.02093322,2.016741e-07,0,-3.585217264962065e-08,2.0
181,181,243.36427,104041.805,9134.467,104442.02,-5.0174813,123.22210350606474,-0.008385732,1.3180441e-07,0.07159457,0.000547641,2.0,42,0.020951157,2.0060084e-07,0,-3.5844472792290536e-08,2.0
182,182,210.60631,104635.36,9975.933,105109.836,-5.446117,123.89919617821579,-0.008368554,-8.1825895e-08,0.0757522,0.0006823631,2.0,42,0.020966604,1.9947329e-07,0,-3.5656436814739305e-08,2.0
183,183,182.27473,104983.45,11128.261,105571.6,-6.050766,124.57127023677458,-0.008349977,-1.3062372e-07,0.07846326,0.00087181974,2.0,42,0.020950645,1.9844963e-07,0,-3.5849457406760265e-08,2.0
184,184,157.72879,105171.34,12922.344,105962.25,-7.004791,125.25964722954086,-0.00841422,-1.6210011e-07,0.07808504,0.0011613098,2.0,42,0.020899048,1.9723107e-07,0,-3.5733664114413895e-08,2.0
185,185,136.52892,105377.6,13026.784,106179.734,-7.0471544,125.93253536810516,-0.008439074,1.1299785e-08,0.08948666,0.0013469437,2.0,42,0.020834422,1.9621844e-07,0,-3.6020254080626184e-08,2.0
186,186,118.14758,107148.74,14649.659,108145.58,-7.785359,126.62087990751024,-0.008418151,4.01686e-08,0.0919534,0.0016873505,2.0,42,0.020947555,1.9369774e-07,0,-3.597766111579068e-08,2.0
187,187,102.25773,108118.57,16361.171,109349.5,-8.605064,127.28734993914259,-0.0083686095,-6.711209e-08,0.09512827,0.002129633,2.0,42,0.020972433,1.9179267e-07,0,-3.606468455339555e-08,2.0
188,188,88.4436,108962.766,17958.01,110432.67,-9.358713,127.97731266522896,-0.008403507,5.5068476e-08,0.1002064,0.002649822,2.0,42,0.020939909,1.8961697e-07,0,-3.6057418841946565e-08,2.0
189,189,76.54279,110276.18,19779.068,112035.92,-10.168417,128.64474864365184,-0.008480698,5.016989e-07,0.10512596,0.0032764766,2.0,42,0.020956986,1.8705595e-07,0,-3.6082982024889653e-08,2.0
190,190,66.250786,111454.766,21711.947,113549.875,-11.023445,129.31300534203183,-0.008377814,1.837706e-08,0.11064462,0.0040453356,2.0,42,0.020936368,1.8438037e-07,0,-3.608895057174344e-08,2.0
191,191,57.329906,112721.18,23720.043,115189.87,-11.883433,129.96763435982575,-0.008388955,-1.192628e-07,0.11703707,0.0049627894,2.0,42,0.020918014,1.8159595e-07,0,-3.602174378408998e-08,2.0
192,192,49.60321,114421.07,26422.812,117432.305,-13.00315,130.65236855231342,-0.008391247,-3.9361137e-08,0.12143148,0.006147722,2.0,42,0.02093782,1.7829694e-07,0,-3.588715258476623e-08,2.0
193,193,42.92585,116631.65,28996.23,120182.04,-13.961465,131.3604551992321,-0.008349642,-3.8224957e-07,0.12786737,0.007443268,2.0,42,0.02098945,1.7464714e-07,0,-3.60545133573683e-08,2.0
194,194,37.1518,118354.914,31556.215,122489.51,-14.929115,132.0041863231745,-0.008353182,-4.6103392e-07,0.13575487,0.009010055,2.0,42,0.020944849,1.70993e-07,0,-3.624785304857979e-08,2.0
195,195,32.150223,120180.305,34684.81,125085.336,-16.098478,132.64338928685174,-0.008410214,-5.463815e-09,0.14272393,0.010973942,2.0,42,0.020921953,1.6726143e-07,0,-3.601953315764818e-08,2.0
196,196,27.835518,121912.59,37682.617,127603.52,-17.176136,133.3713444947789,-0.008387763,-1.5242609e-08,0.1517329,0.013232336,2.0,42,0.020874858,1.6359155e-07,0,-3.6286241955924425e-08,2.0
197,197,24.082958,125141.49,41458.125,131830.08,-18.329517,134.0733827681106,-0.008417853,8.13285e-08,0.15940452,0.01576489,2.0,42,0.020925513,1.5873094e-07,0,-3.617535393207128e-08,2.0
198,198,20.833313,128346.58,44879.73,135967.03,-19.273512,134.7277714125812,-0.008415077,6.512441e-08,0.17022038,0.018545767,2.0,42,0.02095955,1.541517e-07,0,-3.567378973115807e-08,2.0
199,199,18.021912,131221.33,48561.64,139918.8,-20.308218,135.47373784800584,-0.008480288,6.3495946e-07,0.18185528,0.021905871,2.0,42,0.02093011,1.4958755e-07,0,-3.6293910465016944e-08,2.0
200,200,15.604198,134370.08,53151.613,144500.56,-21.581837,136.37199917066027,-0.008406935,-1.6375392e-07,0.19189437,0.02596307,2.0,43,0.020915056,1.4474031e-07,0,-3.574476239326035e-08,2.0
201,201,13.500899,137937.06,57888.258,149591.72,-22.766407,137.11997904619784,-0.008378885,-1.5980586e-07,0.2036418,0.030495293,2.0,43,0.020927794,1.3989941e-07,0,-3.579231944634683e-08,2.0
202,202,11.686608,141767.58,63190.37,155212.98,-24.02407,137.71087315425393,-0.00838249,-1.2457171e-07,0.21551661,0.035721235,2.0,43,0.020954942,1.3500767e-07,0,-3.595361909283569e-08,2.0
203,203,10.113269,145428.81,68910.83,160929.31,-25.353733,138.38453825286706,-0.008448446,-1.2021397e-07,0.22837108,0.041874126,2.0,43,0.020925699,1.3003037e-07,0,-3.5686325925582925e-08,2.0
204,204,8.748621,150088.5,74581.62,167597.66,-26.423592,139.15141674262122,-0.008383393,-9.2308206e-08,0.24392074,0.048303258,2.0,43,0.020952912,1.2501913e-07,0,-3.4795347120001e-08,2.0
205,205,7.570237,154398.86,81381.19,174533.39,-27.793003,140.0270272642665,-0.0083961375,-8.610712e-08,0.258337,0.05616653,2.0,43,0.020970332,1.2015083e-07,0,-3.5824081283661335e-08,2.0
206,206,6.554112,158868.58,87920.64,181574.4,-28.960907,140.56331296972348,-0.008394508,-2.6258687e-07,0.27619478,0.06475717,2.0,43,0.02094243,1.15338004e-07,0,-3.5295894765855705e-08,2.0
207,207,5.669445,163708.17,96018.17,189788.97,-30.39249,141.1731250253215,-0.008390446,-1.30212445e-08,0.29236552,0.07483264,2.0,43,0.020944914,1.1035896e-07,0,-3.58545150584742e-08,2.0
208,208,4.907347,168193.2,104557.56,198043.52,-31.867214,141.86556911157095,-0.008372634,-1.0386388e-07,0.31018293,0.08645847,2.0,43,0.020890445,1.0548411e-07,0,-3.472040006088406e-08,2.0
209,209,4.245922,173885.94,115550.93,208778.2,-33.60489,142.65331608228735,-0.008395495,-2.381072e-07,0.32439536,0.09936907,2.0,43,0.0209823,1.00500436e-07,0,-3.648461397980698e-08,2.0
210,210,3.6747382,179375.2,126383.734,219427.23,-35.167664,143.552945965057,-0.008374572,2.8693803e-08,0.34269089,0.113685176,2.0,43,0.020937143,9.541725e-08,0,-3.5494218336178486e-08,2.0
211,211,3.180988,184514.2,139238.16,231155.27,-37.038944,144.58217425391194,-0.00839447,-7.571568e-08,0.35933524,0.13037933,2.0,43,0.020930959,9.054935e-08,0,-3.440955313073996e-08,2.0
212,212,2.752818,190136.78,154169.58,244786.14,-39.036354,145.76111966991448,-0.008376577,-2.101985e-07,0.3750109,0.14875366,2.0,43,0.020926872,8.549043e-08,0,-3.6023843252588095e-08,2.0
213,213,2.3804083,196943.67,170773.45,260672.94,-40.929157,147.11597674764926,-0.0083656525,-1.269422e-07,0.39151493,0.16803399,2.0,43,0.020941852,8.033765e-08,0,-3.7070237958942464e-08,2.0
