True,index,freq,Re(Z),Im(Z),Z,Phase(Z),time,Ewe_meas,I_meas,Cs,Cp,cycle_number,I_Range,Ewe,I,Ns,(QQo),cycle
110,110,7000018.5,143.2127,1212.4769,1220.9055,-83.26367,82.94248055285425,0.06626699,3.0375897e-05,1.8751995e-05,1.8493978e-05,2.0,40,0.009850288,8.068018e-06,0,-2.2194043474977812e-08,2.0
111,111,6057573.0,266.6538,1410.0404,1435.0325,-79.291214,83.49449343243032,0.06638163,-4.5683046e-05,1.8633307e-05,1.7989934e-05,2.0,40,0.013987579,9.747221e-06,0,-2.7348281343437166e-08,2.0
112,112,5242039.0,282.01572,1629.7914,1654.0111,-80.18287,83.91050067884498,0.06632935,6.672537e-06,1.8628929e-05,1.8087356e-05,2.0,40,0.019352043,1.1700068e-05,0,-2.8019883145468328e-08,2.0
113,113,4536288.0,273.67032,1870.3965,1890.3118,-81.675735,85.2784864504647,0.06633828,-4.1943335e-05,1.875797e-05,1.8364804e-05,2.0,40,0.02023112,1.0702531e-05,0,-3.590560920841313e-08,2.0
114,114,3925558.5,382.86246,2153.619,2187.3862,-79.91949,85.69448612359702,0.06633613,-6.376746e-05,1.8825644e-05,1.8248895e-05,2.0,40,0.018772043,8.581952e-06,0,-4.0614611321959475e-08,2.0
115,115,3397055.0,439.29868,2413.5168,2453.171,-79.68418,86.11048299664981,0.06626237,4.5329225e-06,1.9411864e-05,1.8789373e-05,2.0,40,0.019669808,8.018116e-06,0,-3.919744503864169e-08,2.0
116,116,2939708.2,511.17648,2759.8738,2806.814,-79.506744,86.52648354976554,0.066345595,-5.435313e-05,1.9616731e-05,1.8966091e-05,2.0,40,0.021398606,7.623806e-06,0,-4.2608268161346687e-08,2.0
117,117,2543924.5,597.74426,3122.1292,3178.8345,-79.161644,87.07848493600613,0.066260956,-2.551478e-05,2.0038493e-05,1.932996e-05,2.0,40,0.02005822,6.309929e-06,0,-4.0246209023608673e-08,2.0
118,118,2201436.2,749.36304,3547.5945,3625.8752,-78.07267,87.63049725550809,0.06628203,-5.385078e-05,2.0378868e-05,1.9508429e-05,2.0,40,0.021091284,5.8168807e-06,0,-4.1841573875571054e-08,2.0
119,119,1905053.1,913.13055,4111.461,4211.6406,-77.478195,88.18248216176289,0.06632894,-3.5189583e-05,2.031968e-05,1.9364514e-05,2.0,40,0.02037533,4.8378606e-06,0,-4.712803254211748e-08,2.0
120,120,1648567.4,1127.931,4681.0586,4815.0327,-76.45247,88.73450218795915,0.06635201,-6.2334846e-05,2.0623833e-05,1.9492118e-05,2.0,40,0.02005,4.1640424e-06,0,-4.961745828652258e-08,2.0
121,121,1426616.2,1245.0627,5506.6426,5645.6436,-77.25954,89.45349371546763,0.06628801,-3.4270845e-06,2.0259376e-05,1.9274048e-05,2.0,41,0.019374428,3.4317484e-06,0,-5.144640720743925e-08,2.0
122,122,1234551.2,1550.7395,6198.644,6389.6777,-75.95438,90.00550286166253,0.06633185,-2.4866695e-06,2.0797652e-05,1.9572657e-05,2.0,41,0.02056682,3.218757e-06,0,-5.212531825672073e-08,2.0
123,123,1068345.5,1793.9779,7155.5967,7377.0537,-75.92549,90.55749832789297,0.06622032,5.399661e-06,2.081913e-05,1.9587922e-05,2.0,41,0.020627324,2.7961466e-06,0,-5.1622389691056964e-08,2.0
124,124,924510.06,2376.4346,7895.527,8245.41,-73.249,91.10950632745516,0.066324376,-1.0479143e-05,2.1803558e-05,1.9992407e-05,2.0,41,0.020124538,2.4406957e-06,0,-5.174906447826149e-08,2.0
125,125,800039.0,2641.0063,8866.773,9251.734,-73.41361,91.66148430030444,0.06630677,-5.954046e-06,2.2435894e-05,2.060764e-05,2.0,41,0.020442018,2.2095337e-06,0,-5.080540311734833e-08,2.0
126,126,692334.1,3916.1733,9887.45,10634.759,-68.392715,92.21349325988558,0.066336505,-1.0667222e-05,2.3249848e-05,2.00971e-05,2.0,41,0.020458028,1.9236945e-06,0,-5.094705163031045e-08,2.0
127,127,599122.25,4781.864,11324.372,12292.584,-67.10746,92.76550512612448,0.066355884,-1.0626255e-05,2.3457977e-05,1.990822e-05,2.0,41,0.020604918,1.6762073e-06,0,-5.050399453778059e-08,2.0
128,128,518454.94,5975.991,12407.816,13771.941,-64.28308,93.31748197900015,0.06632285,-5.7938987e-06,2.47408e-05,2.0082332e-05,2.0,41,0.020681772,1.5017325e-06,0,-5.063172328266003e-08,2.0
129,129,448662.03,7353.9556,13784.738,15623.689,-61.920734,93.8694950985082,0.066177934,3.5021008e-06,2.5733701e-05,2.0032361e-05,2.0,41,0.020187568,1.2921128e-06,0,-5.063737563943644e-08,2.0
130,130,388258.97,8931.582,14669.606,17174.705,-58.66488,94.42149600476841,0.06622715,-4.887017e-06,2.7943459e-05,2.0386306e-05,2.0,41,0.020845072,1.2137077e-06,0,-5.079525866507911e-08,2.0
131,131,335983.9,10526.555,16793.357,19819.818,-57.919342,94.97348691095249,0.06623647,-3.284015e-07,2.8207467e-05,2.025069e-05,2.0,41,0.020299837,1.0242192e-06,0,-5.128142524122599e-08,2.0
132,132,290751.2,13200.511,16588.672,21199.941,-51.48882,95.52549557716702,0.06627064,-3.2389878e-06,3.2997952e-05,2.0204167e-05,2.0,41,0.02058618,9.710488e-07,0,-5.082742829018135e-08,2.0
133,133,251605.19,15100.074,17082.78,22799.86,-48.525394,96.07750253673294,0.06629058,-5.8143823e-06,3.7029004e-05,2.078714e-05,2.0,41,0.020309478,8.9077207e-07,0,-5.022757143761996e-08,2.0
134,134,217729.38,17758.338,17400.275,24862.184,-44.416508,96.62950176294544,0.0661886,5.366144e-06,4.200945e-05,2.0576936e-05,2.0,41,0.020230457,8.1370393e-07,0,-5.16045487561472e-08,2.0
135,135,188418.58,19924.604,16988.85,26184.172,-40.452797,97.18149432251812,0.0663282,-7.5294492e-06,4.972015e-05,2.0930649e-05,2.0,41,0.02021388,7.719885e-07,0,-5.426146294657346e-08,2.0
136,136,163051.14,22428.715,16913.146,28090.955,-37.019382,97.73349064207287,0.06629906,-6.0341185e-06,5.7712765e-05,2.0921254e-05,2.0,41,0.020730563,7.3798e-07,0,-5.535308129656534e-08,2.0
137,137,141098.2,24478.723,16232.151,29371.596,-33.548862,98.28550445495057,0.06630362,-4.451267e-06,6.949004e-05,2.1223628e-05,2.0,41,0.02018938,6.8737774e-07,0,-5.534182749444315e-08,2.0
138,138,122105.11,26428.367,15110.46,30443.137,-29.758831,98.70148858139873,0.06633186,-4.4680264e-06,8.625984e-05,2.1251286e-05,2.0,41,0.021868711,7.183462e-07,0,-5.5068218438842665e-08,2.0
139,139,105663.59,28232.393,14188.134,31597.012,-26.681726,99.25348479425884,0.06630451,-5.1961383e-06,0.0001061621,2.1405629e-05,2.0,41,0.020439696,6.46887e-07,0,-5.402125972058198e-08,2.0
140,140,91439.65,29980.883,13185.134,32752.115,-23.739159,99.66948702736408,0.06623465,6.10137e-07,0.00013200824,2.1393971e-05,2.0,41,0.021725422,6.633288e-07,0,-5.375575876267331e-08,2.0
141,141,79127.08,30614.049,11990.27,32878.36,-21.388247,100.22148886692594,0.066277705,-1.7734524e-06,0.00016775136,2.231021e-05,2.0,41,0.020510416,6.2382725e-07,0,-5.464362672866072e-08,2.0
142,142,68475.36,32077.158,10930.607,33888.38,-18.817049,100.637507393345,0.0663006,-3.3451315e-06,0.00021263832,2.212221e-05,2.0,41,0.02146515,6.334074e-07,0,-5.4527525261554564e-08,2.0
143,143,59252.523,33191.562,9868.207,34627.465,-16.557777,101.18949077956495,0.0663919,-1.1242635e-05,0.0002721918,2.2105998e-05,2.0,41,0.020189894,5.830601e-07,0,-5.419951334334725e-08,2.0
144,144,51282.285,34007.914,9087.715,35201.203,-14.961202,101.60550661265734,0.06627126,-3.8106764e-06,0.0003415058,2.2761058e-05,2.0,41,0.020815164,5.913197e-07,0,-5.430593004871456e-08,2.0
145,145,44369.8,34413.773,7636.7314,35250.92,-12.511713,102.02249119247426,0.06627057,-5.646785e-06,0.00046970494,2.2044447e-05,2.0,41,0.021242158,6.025987e-07,0,-5.4822925470206643e-08,2.0
146,146,38403.727,35005.195,7291.3394,35756.5,-11.766077,102.43848921221797,0.066171765,5.772099e-06,0.00056838087,2.3634371e-05,2.0,41,0.021622665,6.0471984e-07,0,-5.4846110630903255e-08,2.0
147,147,33226.32,35161.207,6272.671,35716.34,-10.115013,102.85448405865463,0.066148154,3.6436277e-06,0.0007636342,2.3553557e-05,2.0,41,0.02182681,6.111155e-07,0,-5.450003506263575e-08,2.0
148,148,28754.086,35468.062,5643.965,35914.312,-9.04156,103.27048674508114,0.06627007,-1.7287596e-06,0.0009807001,2.4219755e-05,2.0,41,0.021954468,6.1130135e-07,0,-5.444169264649348e-08,2.0
149,149,24884.947,35850.715,4854.5386,36177.9,-7.7115064,103.68648287150427,0.06624266,1.0365764e-06,0.001317454,2.3721639e-05,2.0,41,0.022053076,6.0957314e-07,0,-5.39655307488971e-08,2.0
150,150,21553.963,35909.117,4357.185,36172.5,-6.918405,104.23950633776258,0.06625218,-1.0695478e-06,0.0016946772,2.458906e-05,2.0,41,0.020059349,5.5454694e-07,0,-5.4373725896059316e-08,2.0
151,151,18631.234,36090.805,3734.7742,36283.53,-5.908093,104.65550587748294,0.06630826,-5.6263016e-06,0.0022872526,2.4233925e-05,2.0,41,0.020015528,5.5164224e-07,0,-5.4622359070873155e-08,2.0
152,152,16126.037,36181.883,3710.7332,36371.668,-5.8556542,105.07149789723917,0.066319436,-4.3618816e-06,0.0026597006,2.7683804e-05,2.0,41,0.019824147,5.450437e-07,0,-5.428919529695975e-08,2.0
153,153,13954.87,36046.414,3360.3223,36202.703,-5.3258405,105.4884887970693,0.06620895,5.153856e-06,0.003394012,2.9241071e-05,2.0,41,0.019488385,5.38313e-07,0,-5.389549034594331e-08,2.0
154,154,12080.609,36364.01,2782.422,36470.305,-4.375508,105.904503296857,0.06630105,-2.6691614e-06,0.0047348724,2.7559765e-05,2.0,41,0.019129463,5.245216e-07,0,-5.3954713575319283e-08,2.0
155,155,10447.592,36427.285,2770.4438,36532.484,-4.3492055,106.32048363660579,0.06617398,6.6305633e-06,0.005498631,3.1622403e-05,2.0,41,0.01863914,5.102073e-07,0,-5.404330520639967e-08,2.0
156,156,9045.586,36392.793,2641.8054,36488.555,-4.151901,106.75225168376346,0.06624454,1.4965353e-06,0.006660128,3.4911693e-05,2.0,41,0.021123396,5.789047e-07,0,-5.421280936468678e-08,2.0
157,157,7827.7437,36546.324,2569.7556,36636.56,-4.022134,107.2329322132864,0.06629346,-8.6098396e-07,0.007912099,3.892656e-05,2.0,41,0.021155454,5.774411e-07,0,-5.467126090646701e-08,2.0
158,158,6770.8345,36865.02,2544.6667,36952.74,-3.9486694,107.77141447886243,0.066295534,8.2242616e-07,0.0092373425,4.3804186e-05,2.0,41,0.021215433,5.741234e-07,0,-5.390663643358411e-08,2.0
159,159,5860.798,37055.902,2552.2036,37143.688,-3.9399912,108.37698661431205,0.06626704,3.5021021e-06,0.010640157,5.023526e-05,2.0,41,0.02126418,5.724844e-07,0,-5.365679792335874e-08,2.0
160,160,5071.625,36756.69,2483.0479,36840.465,-3.8646662,109.05769656665507,0.06624734,-5.537247e-07,0.012638278,5.741269e-05,2.0,41,0.021172991,5.7472107e-07,0,-5.3843536043654834e-08,2.0
161,161,4388.5933,37023.414,2500.6016,37107.766,-3.8639507,109.73780726561381,0.066219874,1.8577979e-06,0.014502749,6.585818e-05,2.0,41,0.021205552,5.714586e-07,0,-5.352651496351118e-08,2.0
162,162,3798.7827,37169.598,2715.3623,37268.65,-4.1782246,110.41781745791377,0.06627999,-7.734617e-07,0.015429361,8.190609e-05,2.0,41,0.021253264,5.7027194e-07,0,-5.315778871688161e-08,2.0
163,163,3286.0488,37076.137,2721.3665,37175.875,-4.1979485,111.09768837020965,0.06628206,6.641411e-07,0.017797504,9.5369774e-05,2.0,41,0.02120018,5.7026716e-07,0,-5.266014379252226e-08,2.0
164,164,2844.088,37708.887,2212.2563,37773.723,-3.3575068,112.02881425443047,0.06630096,-2.486987e-07,0.025295405,8.676269e-05,2.0,42,0.02089575,5.5318213e-07,0,-5.296817479174523e-08,2.0
165,165,2460.7852,37812.58,2642.4475,37904.797,-3.9974885,112.70870124673093,0.066286966,-1.8492038e-08,0.024475979,0.00011895,2.0,42,0.020983038,5.5357214e-07,0,-5.276301903616027e-08,2.0
166,166,2129.3164,37915.97,2854.6257,38023.277,-4.305574,113.38882925236248,0.06625033,-7.9795215e-10,0.026183683,0.00014758085,2.0,42,0.02105295,5.536858e-07,0,-5.317101942651606e-08,2.0
167,167,1843.2289,38077.46,3271.346,38217.727,-4.9103904,114.06896803132258,0.0663009,-2.3752307e-07,0.02639456,0.00019339162,2.0,42,0.021116957,5.525435e-07,0,-5.285992193415565e-08,2.0
168,168,1594.4913,38132.285,3611.746,38302.95,-5.4106984,114.74883873028739,0.06629634,-2.1014465e-07,0.027636355,0.0002457258,2.0,42,0.021091953,5.5066135e-07,0,-5.2492075948500703e-08,2.0
169,169,1380.4436,38425.44,3846.0598,38617.44,-5.715783,115.42869505592535,0.066257045,9.073144e-09,0.029976811,0.00029733806,2.0,42,0.021169774,5.48192e-07,0,-5.2710233214966703e-08,2.0
170,170,1194.6187,38650.14,4334.3643,38892.418,-6.3986187,116.10882852821669,0.066235445,1.6895422e-08,0.03073728,0.00038175643,2.0,42,0.021185467,5.4471974e-07,0,-5.231006924724429e-08,2.0
171,171,1033.3434,38909.32,4605.5254,39180.94,-6.7504406,116.7890805338393,0.06619537,5.991997e-08,0.03344231,0.00046206696,2.0,42,0.021187276,5.407546e-07,0,-5.184485396194323e-08,2.0
172,172,894.71045,39405.848,5275.907,39757.465,-7.6257763,117.46883437948418,0.0663153,-2.6527485e-07,0.033716343,0.00059374154,2.0,42,0.021284753,5.3536496e-07,0,-5.230903316272241e-08,2.0
173,173,774.2569,39506.508,5601.695,39901.668,-8.070269,118.14894769177772,0.066239506,2.603253e-07,0.036695737,0.0007232233,2.0,42,0.02115851,5.3026633e-07,0,-5.257255194193533e-08,2.0
174,174,669.7856,40014.47,6246.0063,40499.016,-8.871917,118.82883628408308,0.06621995,3.672336e-07,0.03804363,0.00090489426,2.0,42,0.02122656,5.2412537e-07,0,-5.214133382810676e-08,2.0
175,175,579.81464,40493.04,6699.074,41043.438,-9.393796,119.50881666304485,0.06625702,4.0735415e-08,0.04097474,0.0010915869,2.0,42,0.021235956,5.17402e-07,0,-5.228464855377821e-08,2.0
176,176,501.44418,40963.855,7452.585,41636.266,-10.3110895,120.18617938851821,0.066255905,1.4391799e-07,0.042588327,0.0013644603,2.0,42,0.021234214,5.0999324e-07,0,-5.264892541491406e-08,2.0
177,177,434.02762,41375.562,8141.42,42168.945,-11.131809,120.86619070082088,0.0662407,2.1152694e-07,0.04504044,0.0016788715,2.0,42,0.021186123,5.0241056e-07,0,-5.271620739793074e-08,2.0
178,178,375.6009,42023.0,8928.66,42961.07,-11.995298,121.54443526637624,0.06624087,-1.116195e-07,0.047457762,0.0020498857,2.0,42,0.021214211,4.938008e-07,0,-5.258339119003273e-08,2.0
179,179,325.10385,42900.727,9607.228,43963.293,-12.622613,122.22369185867137,0.06625809,7.77976e-08,0.050956544,0.002433412,2.0,42,0.021302192,4.8454496e-07,0,-5.298349396890324e-08,2.0
180,180,281.3503,43515.13,10465.456,44755.918,-13.522902,122.90079527748458,0.066283405,3.7009457e-08,0.05405235,0.002955493,2.0,42,0.021253163,4.7486822e-07,0,-5.33080954594788e-08,2.0
181,181,243.36427,44300.684,11270.068,45711.76,-14.273237,123.58410496325814,0.06622546,-9.355283e-08,0.058027886,0.0035272315,2.0,42,0.021248281,4.6483183e-07,0,-5.334768500103672e-08,2.0
182,182,210.60631,44941.953,12224.713,46574.914,-15.216922,124.26117888875888,0.06619841,1.4131034e-07,0.06181731,0.004258761,2.0,42,0.02117169,4.5457284e-07,0,-5.292959567084034e-08,2.0
183,183,182.27473,45910.137,13135.137,47752.2,-15.96611,124.93327220066567,0.06625484,-5.9096564e-08,0.06647511,0.005029693,2.0,42,0.021181822,4.4357793e-07,0,-5.334581455595513e-08,2.0
184,184,157.72879,47187.945,14227.254,49286.074,-16.778156,125.62166074006745,0.06628148,7.463159e-08,0.07092316,0.0059099225,2.0,42,0.021289201,4.3195166e-07,0,-5.326205156922962e-08,2.0
185,185,136.52892,47470.67,15060.651,49802.49,-17.602266,126.29353903859737,0.066236675,-2.7365783e-07,0.07740191,0.0070784334,2.0,42,0.02101341,4.2193494e-07,0,-5.369307577700353e-08,2.0
186,186,118.14758,49157.69,16652.352,51901.633,-18.714003,126.98188224466867,0.06625342,-8.219226e-08,0.080894634,0.008327388,2.0,42,0.021209044,4.0863927e-07,0,-5.3405388353084505e-08,2.0
187,187,102.25773,50478.1,17866.27,53546.637,-19.49096,127.64836686293711,0.06626127,3.589069e-08,0.08711443,0.009698252,2.0,42,0.021220157,3.96293e-07,0,-5.354214791554155e-08,2.0
188,188,88.4436,51651.03,19259.01,55124.754,-20.44887,128.33826849571778,0.06625281,-5.643484e-09,0.09343719,0.011404974,2.0,42,0.02117922,3.8420524e-07,0,-5.357216695724571e-08,2.0
189,189,76.54279,53176.004,20888.736,57131.66,-21.446022,129.0057461007964,0.06620463,1.6347227e-07,0.09954138,0.013306821,2.0,42,0.02121839,3.7139458e-07,0,-5.3568512369852706e-08,2.0
190,190,66.250786,54645.277,22724.285,59181.918,-22.580025,129.67400546584395,0.06628873,-3.232025e-07,0.10571554,0.0155862365,2.0,42,0.02122543,3.586472e-07,0,-5.3786134562668925e-08,2.0
191,191,57.329906,56396.883,24301.41,61409.83,-23.311203,130.32862589697106,0.06622125,2.3499143e-07,0.11423717,0.017889353,2.0,42,0.02121262,3.4542714e-07,0,-5.339488413915482e-08,2.0
192,192,49.60321,58124.21,26132.691,63728.656,-24.208721,131.0133702494495,0.066269696,1.6518593e-08,0.12277959,0.020645479,2.0,42,0.021200871,3.3267406e-07,0,-5.321271966838618e-08,2.0
193,193,42.92585,60134.504,28160.193,66401.47,-25.093071,131.72143444305402,0.06625941,1.6533234e-07,0.13166356,0.02367999,2.0,42,0.021207944,3.1938967e-07,0,-5.3679528856586086e-08,2.0
194,194,37.1518,61946.613,30460.996,69030.83,-26.184721,132.3651943136647,0.06624648,-1.1758414e-07,0.14063591,0.027384086,2.0,42,0.02117951,3.0681235e-07,0,-5.371630761065305e-08,2.0
195,195,32.150223,64293.156,32921.734,72231.92,-27.115015,133.00436079732026,0.06624111,1.1187726e-07,0.1503673,0.031236365,2.0,42,0.021223625,2.9382613e-07,0,-5.305835894533217e-08,2.0
196,196,27.835518,66389.57,35732.113,75394.69,-28.28997,133.7323525919055,0.06626946,-1.7737166e-07,0.16001552,0.035941653,2.0,42,0.021236649,2.81673e-07,0,-5.339044375497437e-08,2.0
197,197,24.082958,68940.945,38363.67,78896.3,-29.09469,134.43440219861805,0.0662696,1.5025801e-08,0.17226225,0.040730264,2.0,42,0.021209264,2.6882458e-07,0,-5.301167383598345e-08,2.0
198,198,20.833313,71655.875,41143.242,82627.664,-29.863503,135.08876004305785,0.066287614,1.1262104e-07,0.18567921,0.04603725,2.0,42,0.021227129,2.56901e-07,0,-5.2742890313165705e-08,2.0
199,199,18.021912,74635.67,43822.547,86549.984,-30.419447,135.83470730515546,0.0661324,8.710353e-07,0.20152164,0.05166339,2.0,42,0.021198466,2.4492743e-07,0,-5.315874082150292e-08,2.0
200,200,15.604198,77500.47,47614.812,90958.74,-31.565773,136.49003248292138,0.06625857,-1.669419e-07,0.21420845,0.058699157,2.0,42,0.02123297,2.3343517e-07,0,-5.357719376764357e-08,2.0
201,201,13.500899,80386.83,51142.145,95276.234,-32.464542,137.23796537177986,0.06624217,-7.791406e-08,0.230504,0.06641515,2.0,42,0.021208957,2.2260491e-07,0,-5.3520451677385556e-08,2.0
202,202,11.686608,83502.85,55038.273,100009.69,-33.389614,137.82889569317922,0.066256896,-2.4162907e-07,0.24743825,0.074939765,2.0,42,0.021203533,2.120148e-07,0,-5.386518525958945e-08,2.0
203,203,10.113269,86296.62,58937.664,104502.414,-34.331753,138.50252052515862,0.06622883,1.638395e-07,0.267015,0.084931515,2.0,42,0.021107778,2.0198364e-07,0,-5.379041715148445e-08,2.0
204,204,8.748621,90252.52,64602.39,110990.93,-35.594933,139.26936837492394,0.06625449,1.5210572e-08,0.28159952,0.095401265,2.0,42,0.021235757,1.9132875e-07,0,-5.225011169940351e-08,2.0
205,205,7.570237,93359.64,69987.625,116680.29,-36.857285,140.45899381811614,0.06626286,2.9502516e-09,0.30039272,0.1080779,2.0,43,0.021213776,1.8181113e-07,0,-5.2738791756998265e-08,2.0
206,206,6.554112,96629.62,76076.65,122983.49,-38.213413,140.99531821688288,0.06621253,6.6184114e-08,0.31919414,0.12214172,2.0,43,0.0211977,1.7236216e-07,0,-5.429378595090423e-08,2.0
207,207,5.669445,99753.13,82903.57,129706.164,-39.729546,141.60511667255196,0.06627707,-4.899874e-08,0.33861512,0.13833484,2.0,43,0.021169653,1.6321239e-07,0,-5.266722036469239e-08,2.0
208,208,4.907347,103187.41,91117.97,137659.45,-41.44559,142.2975555053854,0.06620187,-1.2315576e-07,0.35593387,0.15594278,2.0,43,0.021195114,1.5396773e-07,0,-5.494369731981684e-08,2.0
209,209,4.245922,106465.195,100493.21,146402.61,-43.347134,143.08533346283366,0.06623392,2.690707e-07,0.37300217,0.17574671,2.0,43,0.02118221,1.4468465e-07,0,-5.254264354036743e-08,2.0
210,210,3.6747382,110120.73,111222.805,156515.45,-45.285275,143.98491561226547,0.066267304,-1.8315924e-07,0.38940352,0.19664057,2.0,43,0.02119632,1.3542638e-07,0,-5.306387178553054e-08,2.0
211,211,3.180988,113601.67,123892.766,168091.52,-47.481182,145.01420680779847,0.06624069,-8.14043e-08,0.4038426,0.21938778,2.0,43,0.021253213,1.2643835e-07,0,-5.528323234422731e-08,2.0
212,212,2.752818,117295.6,138080.83,181175.53,-49.653076,146.19312859713682,0.06626581,1.3515823e-07,0.41870603,0.24320747,2.0,43,0.021210289,1.17070385e-07,0,-5.37421400472778e-08,2.0
213,213,2.3804083,121459.414,154189.3,196282.27,-51.77146,147.54799538149382,0.06626946,4.7859963e-08,0.43362513,0.26758438,2.0,43,0.021204755,1.0803195e-07,0,-5.1674971321187256e-08,2.0
214,214,2.060257,125571.555,173367.31,214066.44,-54.083836,149.10431465538568,0.06627169,-9.451529e-08,0.445586,0.2922596,2.0,43,0.021176675,9.892572e-08,0,-5.281903441444176e-08,2.0
