True,index,freq,Re(Z),Im(Z),Z,Phase(Z),time,Ewe_meas,I_meas,Cs,Cp,cycle_number,I_Range,Ewe,I,Ns,(QQo),cycle
110,110,7000018.5,161.67139,1517.3838,1525.9722,-83.9183,82.64050160520128,-0.007705268,-4.3912042e-08,1.4983923e-05,1.4815734e-05,2.0,40,0.009936135,6.5113477e-06,0,-1.6398623207892784e-08,2.0
111,111,6057573.0,256.5208,1750.2214,1768.92,-81.66183,83.19248979139957,-0.0076994733,-1.9287172e-07,1.5011652e-05,1.4695965e-05,2.0,40,0.014123447,7.98422e-06,0,-1.7446109854200624e-08,2.0
112,112,5242039.0,292.87335,1986.3912,2007.8657,-81.61274,83.6084881578281,-0.0076250397,4.7561775e-06,1.5284637e-05,1.4959441e-05,2.0,40,0.019680835,9.801868e-06,0,-2.083288943901904e-08,2.0
113,113,4536288.0,237.27359,2323.6062,2335.6892,-84.16949,84.84048973632162,-0.007666253,-4.2315445e-05,1.50993055e-05,1.4943486e-05,2.0,40,0.021213004,9.082118e-06,0,-1.773075441528407e-08,2.0
114,114,3925558.5,356.13815,2625.6558,2649.6985,-82.275665,85.25648543608258,-0.0077308863,1.6198495e-05,1.5441194e-05,1.5162246e-05,2.0,40,0.01978875,7.4683026e-06,0,-1.8723123322020444e-08,2.0
115,115,3397055.0,397.2869,2943.7288,2970.4167,-82.31378,85.67250577584491,-0.0076890024,-4.151541e-05,1.591548e-05,1.5630778e-05,2.0,40,0.02093721,7.0485767e-06,0,-1.7865355199469313e-08,2.0
116,116,2939708.2,445.37378,3403.0532,3432.0735,-82.54381,86.22450702873175,-0.0077846018,1.011454e-05,1.5909156e-05,1.5641252e-05,2.0,40,0.020976454,6.1118894e-06,0,-1.7202377786006194e-08,2.0
117,117,2543924.5,509.6364,3823.5193,3857.3345,-82.40781,86.77648862832575,-0.007742643,-1.7830758e-05,1.6362612e-05,1.6076985e-05,2.0,40,0.020370737,5.2810396e-06,0,-2.266875475217647e-08,2.0
118,118,2201436.2,533.5099,4378.6807,4411.063,-83.05318,87.32850500117638,-0.0077282037,-1.6360931e-05,1.65109e-05,1.626937e-05,2.0,40,0.02087084,4.731476e-06,0,-2.275180921333073e-08,2.0
119,119,1905053.1,690.01917,5184.849,5230.563,-82.41941,87.88050601407303,-0.007741581,-2.6147367e-05,1.611302e-05,1.5832602e-05,2.0,40,0.020330958,3.886954e-06,0,-2.428668379590862e-08,2.0
120,120,1648567.4,683.3432,5974.1265,6013.081,-83.474655,88.59949847488315,-0.0077366065,-3.8032463e-06,1.6159913e-05,1.5951215e-05,2.0,41,0.018856915,3.135982e-06,0,-2.6132486437527783e-08,2.0
121,121,1426616.2,828.2563,6985.8794,7034.8076,-83.23849,89.01548524133977,-0.007826467,3.4685795e-06,1.5969521e-05,1.5748152e-05,2.0,41,0.021794267,3.0980616e-06,0,-2.6277787778718043e-08,2.0
122,122,1234551.2,974.94824,8105.877,8164.2983,-83.1416,89.56750630753231,-0.0077282595,-2.322799e-06,1.590417e-05,1.5677373e-05,2.0,41,0.021049345,2.5782185e-06,0,-2.6224683580202345e-08,2.0
123,123,1068345.5,1285.4934,9264.937,9353.691,-82.100746,90.1195046804205,-0.0077555175,-2.0695425e-06,1.6079257e-05,1.577556e-05,2.0,41,0.020868652,2.2310605e-06,0,-2.5821323013043223e-08,2.0
124,124,924510.06,1745.2021,11131.223,11267.202,-81.089455,90.67248649333487,-0.0078018922,3.511408e-06,1.5465559e-05,1.5094516e-05,2.0,41,0.020402754,1.8108093e-06,0,-2.5535806806565295e-08,2.0
125,125,800039.0,2488.0422,12435.064,12681.529,-78.68551,91.22449929287541,-0.007797197,1.1185085e-06,1.5997824e-05,1.5382033e-05,2.0,41,0.02066748,1.629731e-06,0,-2.4629657465246802e-08,2.0
126,126,692334.1,2873.0718,13867.792,14162.28,-78.29529,91.7764949191187,-0.0077996375,9.3973915e-07,1.6576661e-05,1.5894444e-05,2.0,41,0.020304445,1.4336989e-06,0,-2.5435768156528286e-08,2.0
127,127,599122.25,3477.592,16046.85,16419.35,-77.77223,92.3284861719876,-0.007839044,4.7814146e-06,1.6554457e-05,1.5811846e-05,2.0,41,0.020637922,1.2569269e-06,0,-2.4879679754486497e-08,2.0
128,128,518454.94,4653.3965,18030.908,18621.701,-75.52894,92.8804875848873,-0.0077409847,1.2879665e-06,1.7025171e-05,1.5962025e-05,2.0,41,0.020551745,1.1036449e-06,0,-2.5533271565638277e-08,2.0
129,129,448662.03,6041.712,20844.87,21702.785,-73.83621,93.43249435778125,-0.007695598,-4.624453e-06,1.701773e-05,1.5698894e-05,2.0,41,0.020386819,9.3936416e-07,0,-2.632868846571373e-08,2.0
130,130,388258.97,7911.517,23169.996,24483.48,-71.14726,93.98449667732348,-0.007756617,7.237262e-07,1.7691827e-05,1.5844491e-05,2.0,41,0.020769907,8.483233e-07,0,-2.678514935871116e-08,2.0
131,131,335983.9,9152.45,27940.879,29401.701,-71.86302,94.53648382352549,-0.0077911415,9.4346296e-07,1.6953587e-05,1.5310761e-05,2.0,41,0.020445874,6.9539766e-07,0,-2.6897103879223196e-08,2.0
132,132,290751.2,12544.963,28417.111,31062.973,-66.18055,95.08849024979281,-0.007842435,5.658502e-06,1.9262769e-05,1.6121021e-05,2.0,41,0.020633208,6.6423803e-07,0,-2.7185763624634282e-08,2.0
133,133,251605.19,15625.183,31290.598,34974.96,-63.464424,95.64049654264818,-0.007820188,4.9899786e-06,2.0215602e-05,1.6180798e-05,2.0,41,0.020280138,5.798473e-07,0,-2.693362919927564e-08,2.0
134,134,217729.38,20084.395,34117.734,39590.438,-59.51557,96.19249502223101,-0.0078221075,4.7944495e-06,2.1425105e-05,1.5911191e-05,2.0,41,0.020315323,5.1313714e-07,0,-2.7113741658191988e-08,2.0
135,135,188418.58,24329.191,36476.38,43845.59,-56.297314,96.7444991551165,-0.0078000473,3.232081e-06,2.3157127e-05,1.6027148e-05,2.0,41,0.020788508,4.7412996e-07,0,-2.630278861161154e-08,2.0
136,136,163051.14,29314.617,38398.934,48309.676,-52.641064,97.29648944796645,-0.007827138,6.503929e-06,2.5420095e-05,1.6060063e-05,2.0,41,0.020411901,4.2252202e-07,0,-2.6342616171035616e-08,2.0
137,137,141098.2,32975.027,40155.188,51959.52,-50.60751,98.01550358880195,-0.0077825338,-3.0961561e-07,2.8090337e-05,1.6776836e-05,2.0,42,0.019080155,3.6721192e-07,0,-2.680743811568023e-08,2.0
138,138,122105.11,38270.66,40392.09,55643.188,-46.544815,98.4314918218588,-0.0077711125,-6.482201e-07,3.226933e-05,1.7004295e-05,2.0,42,0.02046845,3.6785184e-07,0,-2.6790198689812545e-08,2.0
139,139,105663.59,44276.168,42030.32,61048.562,-43.5094,98.84750834832084,-0.007821418,-2.446138e-07,3.5837034e-05,1.6986603e-05,2.0,42,0.021874234,3.5830874e-07,0,-2.686214529236608e-08,2.0
140,140,91439.65,49948.098,41213.113,64755.95,-39.52668,99.3994826945418,-0.007685052,-1.0276136e-06,4.2232827e-05,1.710652e-05,2.0,42,0.020385154,3.147997e-07,0,-2.689675787644911e-08,2.0
141,141,79127.08,57260.105,39509.71,69568.22,-34.605835,99.81548268764163,-0.0077702366,-6.403975e-07,5.09086e-05,1.6420148e-05,2.0,42,0.021408537,3.0773444e-07,0,-2.6906505186388252e-08,2.0
142,142,68475.36,61385.773,37903.414,72144.87,-31.693775,100.36750023384229,-0.0078012585,1.761276e-07,6.132075e-05,1.6925958e-05,2.0,42,0.020177517,2.7968056e-07,0,-2.6816004040611674e-08,2.0
143,143,59252.523,65799.87,35777.99,74897.84,-28.534672,100.7834952135745,-0.007820691,5.18271e-07,7.507535e-05,1.713131e-05,2.0,42,0.02078434,2.7750252e-07,0,-2.6882457415590957e-08,2.0
144,144,51282.285,69941.29,33765.79,77665.39,-25.77001,101.19949974000338,-0.007774615,-2.2449846e-07,9.191277e-05,1.7372991e-05,2.0,42,0.021287883,2.740974e-07,0,-2.687808267350089e-08,2.0
145,145,44369.8,73621.914,29987.346,79494.83,-22.161827,101.6154961064749,-0.007705622,-1.0423272e-06,0.00011961748,1.7021308e-05,2.0,42,0.021665089,2.7253458e-07,0,-2.684224382856372e-08,2.0
146,146,38403.727,76095.016,27007.213,80745.53,-19.540504,102.03150063284556,-0.007766771,-2.0792187e-07,0.00015345003,1.7166807e-05,2.0,42,0.021952152,2.7186832e-07,0,-2.6792117522402257e-08,2.0
147,147,33226.32,78414.07,24086.074,82029.91,-17.075136,102.58349068576354,-0.007738209,-2.3157575e-07,0.00019887119,1.7145869e-05,2.0,42,0.020251656,2.4688137e-07,0,-2.6824878805485774e-08,2.0
148,148,28754.086,80553.52,21852.387,83464.945,-15.1777935,102.99949097217177,-0.0077427365,-3.4444363e-07,0.00025329212,1.7362458e-05,2.0,42,0.020351354,2.4383115e-07,0,-2.6757834533198615e-08,2.0
149,149,24884.947,82077.87,18588.537,84156.46,-12.760766,103.41548541860539,-0.0077186455,-6.666578e-07,0.00034406318,1.678625e-05,2.0,42,0.020446831,2.429621e-07,0,-2.6833978780848847e-08,2.0
150,150,21553.963,82772.76,16272.969,84357.21,-11.122394,103.83250357172801,-0.007730365,-4.5973223e-07,0.00045375997,1.6885555e-05,2.0,42,0.020399462,2.418224e-07,0,-2.6824434507630378e-08,2.0
151,151,18631.234,83432.32,14300.407,84649.0,-9.726061,104.24949119155644,-0.007707746,-4.761222e-07,0.0005973517,1.7048385e-05,2.0,42,0.0203337,2.4021193e-07,0,-2.6772046956355193e-08,2.0
152,152,16126.037,84707.82,12041.462,85559.41,-8.090554,104.6655061180063,-0.0077037215,-5.107647e-07,0.00081962126,1.6234397e-05,2.0,42,0.020247104,2.366438e-07,0,-2.6582399886643633e-08,2.0
153,153,13954.87,84977.13,11072.607,85695.484,-7.423872,105.08149728438002,-0.007822555,4.1564846e-07,0.0010300172,1.7196036e-05,2.0,42,0.019999746,2.3338156e-07,0,-2.648387992525948e-08,2.0
154,154,12080.609,81505.375,8726.711,81971.23,-6.111328,105.49749338414404,-0.0077636037,-4.2639286e-07,0.0015096653,1.7110355e-05,2.0,42,0.019309375,2.3556284e-07,0,-2.649036243524942e-08,2.0
155,155,10447.592,85313.13,7923.092,85680.26,-5.3058805,105.9135083105939,-0.0077478415,-7.0055444e-07,0.0019226898,1.6441336e-05,2.0,42,0.019258367,2.2477018e-07,0,-2.6456477530758824e-08,2.0
156,156,9045.586,84997.65,7075.3813,85291.625,-4.7584496,106.34525070441305,-0.0077848067,1.2807892e-07,0.0024867582,1.7112778e-05,2.0,42,0.021862395,2.5632522e-07,0,-2.6591744160465996e-08,2.0
157,157,7827.7437,85295.95,6301.9326,85528.44,-4.2255144,106.82594947397592,-0.0077886074,-1.738308e-08,0.0032263375,1.7516051e-05,2.0,42,0.021987282,2.570757e-07,0,-2.670122221762878e-08,2.0
158,158,6770.8345,84991.195,5777.8286,85187.36,-3.889069,107.53941569451126,-0.0078000473,4.0727194e-08,0.004068303,1.8715105e-05,2.0,42,0.020165429,2.3671856e-07,0,-2.696460392120138e-08,2.0
159,159,5860.798,85206.1,5184.4365,85363.68,-3.481917,108.14596788331983,-0.007707988,-4.904051e-09,0.0052379556,1.9320514e-05,2.0,42,0.020295626,2.3775482e-07,0,-2.6837619094001397e-08,2.0
160,160,5071.625,85007.99,4872.658,85147.53,-3.2806044,108.82670343568316,-0.00774773,-1.5800214e-07,0.006440314,2.1090886e-05,2.0,42,0.020358684,2.3909894e-07,0,-2.7031633599878073e-08,2.0
161,161,4388.5933,85106.58,4605.5806,85231.1,-3.0975654,109.50685202796012,-0.00778667,-1.643348e-07,0.007874272,2.299233e-05,2.0,42,0.020439185,2.39809e-07,0,-2.691853746292752e-08,2.0
162,162,3798.7827,85455.625,4493.85,85573.7,-3.0102372,110.18682203360368,-0.007775603,1.1673015e-08,0.009323031,2.5710684e-05,2.0,42,0.020556185,2.4021614e-07,0,-2.6750409098940035e-08,2.0
163,163,3286.0488,85250.586,4187.834,85353.38,-2.8123264,110.8666897459043,-0.0077875457,4.612942e-08,0.011565294,2.7841594e-05,2.0,42,0.020544399,2.406981e-07,0,-2.6690468821337435e-08,2.0
164,164,2844.088,85614.414,4612.107,85738.555,-3.083582,111.54583492482197,-0.0077960417,-1.6637243e-08,0.012133267,3.510946e-05,2.0,42,0.02063356,2.4065673e-07,0,-2.656281947466807e-08,2.0
165,165,2460.7852,85610.914,5046.925,85759.55,-3.3737895,112.22568037045858,-0.007765262,9.082969e-08,0.012815028,4.438215e-05,2.0,42,0.020643992,2.4071946e-07,0,-2.639275404829691e-08,2.0
166,166,2129.3164,85820.93,5139.879,85974.71,-3.4273925,112.90580640274857,-0.0077428482,-1.5371812e-07,0.014542098,5.1974625e-05,2.0,42,0.02066307,2.4033892e-07,0,-2.6377521014260768e-08,2.0
167,167,1843.2289,86294.59,5755.8525,86486.336,-3.8159785,113.58598120839451,-0.0077729756,-3.0607146e-07,0.015001379,6.6443965e-05,2.0,42,0.02072839,2.3967243e-07,0,-2.6272199334566754e-08,2.0
168,168,1594.4913,86384.73,6074.294,86598.02,-4.022233,114.26582140068058,-0.007758629,-2.5392137e-07,0.016432444,8.084959e-05,2.0,42,0.020693906,2.389651e-07,0,-2.6172629668482253e-08,2.0
169,169,1380.4436,86889.54,5973.5044,87094.63,-3.932797,114.94568428631464,-0.007732731,-6.506259e-08,0.019300664,9.079206e-05,2.0,42,0.02070667,2.3774909e-07,0,-2.5989585790944778e-08,2.0
170,170,1194.6187,87367.08,6639.0303,87618.97,-4.3455586,115.62582834527711,-0.00776692,-1.1739922e-07,0.020067172,0.0001152124,2.0,42,0.020739412,2.3670003e-07,0,-2.609951712859192e-08,2.0
171,171,1033.3434,87497.22,7177.482,87791.11,-4.689529,116.30609525754699,-0.0077731805,-7.083624e-08,0.021458698,0.00014343215,2.0,42,0.020697024,2.3575308e-07,0,-2.6242631121179588e-08,2.0
172,172,894.71045,88285.555,7683.833,88619.3,-4.974139,116.98584718321217,-0.0077604363,-2.4554e-07,0.023150466,0.00017404396,2.0,42,0.02073878,2.3402104e-07,0,-2.620171527966796e-08,2.0
173,173,774.2569,88639.76,8219.181,89020.01,-5.297641,117.6659778021567,-0.007746295,-1.8631205e-07,0.025009587,0.00021320056,2.0,42,0.020706214,2.326018e-07,0,-2.5990011128465242e-08,2.0
174,174,669.7856,89469.01,9055.702,89926.13,-5.779571,118.34582140781276,-0.007817058,1.2584488e-07,0.026239902,0.00026609373,2.0,42,0.020745933,2.3069971e-07,0,-2.6032505428575173e-08,2.0
175,175,579.81464,90340.92,9852.865,90876.625,-6.2242575,119.02584405343805,-0.00777128,-2.2542487e-07,0.027859187,0.00032748329,2.0,42,0.020774873,2.2860524e-07,0,-2.6215613555034482e-08,2.0
176,176,501.44418,90860.27,10247.529,91436.32,-6.43482,119.70319744557492,-0.00774391,-2.522448e-07,0.03097265,0.00038902654,2.0,42,0.020746768,2.2689854e-07,0,-2.6297324573946747e-08,2.0
177,177,434.02762,91461.984,11440.897,92174.77,-7.130043,120.38321627789992,-0.0077404073,-2.3026725e-07,0.032051083,0.00049378595,2.0,42,0.020739635,2.2500338e-07,0,-2.6107202002531297e-08,2.0
178,178,375.6009,92516.445,12507.812,93358.12,-7.699451,121.06246228344389,-0.007783521,-3.053267e-07,0.033877566,0.000608094,2.0,42,0.020758104,2.2234921e-07,0,-2.600232464556266e-08,2.0
179,179,325.10385,93474.43,13326.7705,94419.66,-8.114051,121.74168716910935,-0.0078099594,1.7780873e-07,0.036734413,0.0007318096,2.0,42,0.020745909,2.1972023e-07,0,-2.5871363149689506e-08,2.0
180,180,281.3503,94321.66,14370.657,95410.12,-8.662849,122.41880138793204,-0.007738004,-1.375143e-07,0.03936372,0.0008930186,2.0,42,0.02072407,2.172104e-07,0,-2.5657721838544017e-08,2.0
181,181,243.36427,95633.195,16097.507,96978.54,-9.554774,123.10213523366838,-0.007784695,-1.339758e-07,0.04062606,0.0011193623,2.0,42,0.020769672,2.1416771e-07,0,-2.5938930143724626e-08,2.0
182,182,210.60631,96619.42,16925.902,98090.766,-9.9363165,123.77916822585394,-0.0077463696,-3.714461e-07,0.044647478,0.0013293653,2.0,42,0.020746145,2.1149947e-07,0,-2.6172166326742957e-08,2.0
183,183,182.27473,97470.82,18704.771,99249.33,-10.863069,124.45128161777393,-0.007786707,-3.191023e-08,0.046681117,0.0016580243,2.0,42,0.020717988,2.0874688e-07,0,-2.601818448238507e-08,2.0
184,184,157.72879,99481.49,20121.59,101496.04,-11.434643,125.13964690384091,-0.0077494998,-2.2058272e-07,0.050147217,0.0019709393,2.0,42,0.020786926,2.0480529e-07,0,-2.6275029820416603e-08,2.0
185,185,136.52892,101006.09,21271.78,103221.7,-11.892643,125.8115384556877,-0.007760194,-4.126077e-07,0.0548014,0.0023273262,2.0,42,0.020790039,2.0141151e-07,0,-2.604050380058788e-08,2.0
186,186,118.14758,101936.086,23077.37,104515.695,-12.756195,126.49990702176001,-0.0077589084,-2.2281785e-07,0.058372594,0.002845893,2.0,42,0.020703495,1.9808981e-07,0,-2.6165227169492768e-08,2.0
187,187,102.25773,103914.734,25052.078,106891.9,-13.554392,127.16632670673425,-0.0077483444,-2.0046794e-07,0.062126976,0.003412543,2.0,42,0.020756094,1.9417837e-07,0,-2.6148927596732423e-08,2.0
188,188,88.4436,105991.68,27170.871,109418.88,-14.378106,127.85630649948143,-0.007771187,-1.5427783e-07,0.06622929,0.0040838774,2.0,42,0.020779653,1.899092e-07,0,-2.6205274798517703e-08,2.0
189,189,76.54279,107298.81,29100.076,111174.86,-15.173957,128.52373423789686,-0.007759859,-5.405627e-07,0.0714532,0.0048954966,2.0,42,0.02069031,1.8610602e-07,0,-2.622646402759285e-08,2.0
190,190,66.250786,110173.64,31698.742,114643.1,-16.051386,129.1919928829593,-0.0077109877,-4.4538876e-07,0.07578567,0.005793957,2.0,42,0.020787075,1.8131989e-07,0,-2.6301286071783478e-08,2.0
191,191,57.329906,112257.12,34227.285,117359.14,-16.956507,129.84562016736436,-0.0077226884,-2.913589e-07,0.08110852,0.0068988632,2.0,42,0.020794151,1.771839e-07,0,-2.637878032719322e-08,2.0
192,192,49.60321,114770.79,37159.977,120636.63,-17.940685,130.5323824666266,-0.0077365506,-1.3583966e-07,0.08634455,0.008192706,2.0,42,0.020763094,1.7211268e-07,0,-2.645639120789885e-08,2.0
193,193,42.92585,116692.29,40256.5,123440.984,-19.033407,131.2404210602108,-0.007797234,-2.1350631e-07,0.09210119,0.009795317,2.0,42,0.020728864,1.679253e-07,0,-2.6508869474333273e-08,2.0
194,194,37.1518,120249.95,43439.723,127855.625,-19.862013,131.88417458414915,-0.007853557,2.290261e-07,0.09861733,0.011383811,2.0,42,0.02076763,1.6243031e-07,0,-2.6353837199247702e-08,2.0
195,195,32.150223,123427.81,47010.637,132077.34,-20.850615,132.5233685344865,-0.007742047,-4.766797e-07,0.10530282,0.013340607,2.0,42,0.020783681,1.5735992e-07,0,-2.6458154681115787e-08,2.0
196,196,27.835518,126687.41,50809.195,136496.42,-21.853725,133.25032232902595,-0.007794216,-2.1862947e-07,0.11253264,0.015592674,2.0,42,0.02077494,1.5220135e-07,0,-2.6339482612430725e-08,2.0
197,197,24.082958,129635.555,54093.285,140468.72,-22.64941,133.95239393573138,-0.007785198,-1.5725968e-07,0.122170664,0.018117338,2.0,42,0.020714365,1.4746604e-07,0,-2.6399795644932864e-08,2.0
198,198,20.833313,133498.05,59681.67,146231.42,-24.087523,134.60677626015968,-0.0077557038,-2.4926788e-07,0.1280032,0.021321677,2.0,42,0.020765325,1.4200317e-07,0,-2.6956871757493653e-08,2.0
199,199,18.021912,137507.2,63802.945,151588.4,-24.891165,135.62573268188862,-0.0076800124,-3.2575477e-07,0.13841353,0.024520427,2.0,43,0.020715918,1.3665898e-07,0,-2.6980440349838374e-08,2.0
200,200,15.604198,141888.84,69527.98,158008.17,-26.105648,136.28100345967687,-0.0077745034,-1.7772138e-07,0.14669627,0.028403979,2.0,43,0.020773713,1.3147239e-07,0,-2.7116655322406776e-08,2.0
201,201,13.500899,146351.78,74883.61,164397.08,-27.097399,137.028982668533,-0.0077558155,-2.3378635e-07,0.1574239,0.032662995,2.0,43,0.020751407,1.2622735e-07,0,-2.7289095077578276e-08,2.0
202,202,11.686608,150144.31,81467.79,170822.47,-28.484106,137.61986760326545,-0.007789986,-2.432007e-07,0.16716515,0.038021356,2.0,43,0.020694178,1.2114435e-07,0,-2.7055585111716437e-08,2.0
203,203,10.113269,156453.44,88507.71,179753.42,-29.497398,138.2935050218657,-0.007738805,-2.2891658e-07,0.17780644,0.04310775,2.0,43,0.0208416,1.15945504e-07,0,-2.6687856859708426e-08,2.0
204,204,8.748621,160477.22,95934.766,186966.36,-30.871372,139.06039887163206,-0.0077520427,-2.6196312e-07,0.1896289,0.049926326,2.0,43,0.020747444,1.1096886e-07,0,-2.737224607947771e-08,2.0
205,205,7.570237,165728.47,104304.27,195819.58,-32.185017,139.93601565994322,-0.0077512977,-2.3800482e-07,0.20156194,0.05718742,2.0,43,0.020759802,1.06014944e-07,0,-2.770127538604012e-08,2.0
206,206,6.554112,171000.23,113535.875,205259.53,-33.582233,140.47229539204272,-0.007784788,5.7149624e-08,0.21388148,0.06543841,2.0,43,0.020758104,1.0113101e-07,0,-2.680690644498106e-08,2.0
207,207,5.669445,176070.69,124403.84,215585.72,-35.243355,141.08214110104018,-0.0077479905,-4.985394e-07,0.22565544,0.07514039,2.0,43,0.020724472,9.6131004e-08,0,-2.789568632628519e-08,2.0
208,208,4.907347,181695.73,137017.2,227567.69,-37.02004,141.7745229472348,-0.007821288,-5.4420383e-08,0.2367,0.08580789,2.0,43,0.020771854,9.127769e-08,0,-2.7302800767612232e-08,2.0
209,209,4.245922,186915.03,150384.61,239901.56,-38.81881,142.56231658466277,-0.007787462,-2.8361268e-07,0.24925546,0.09794569,2.0,43,0.02074731,8.648259e-08,0,-2.690526030206423e-08,2.0
210,210,3.6747382,191970.39,166312.31,253992.95,-40.90381,143.4619433740736,-0.0077564307,-3.616333e-07,0.26041698,0.111654125,2.0,43,0.020736804,8.164323e-08,0,-2.8456934939184702e-08,2.0
211,211,3.180988,198322.38,184380.83,270791.53,-42.913685,144.49123576961574,-0.007741106,-1.0671369e-07,0.2713578,0.12580667,2.0,43,0.020730829,7.655641e-08,0,-2.7708797492732312e-08,2.0
212,212,2.752818,203821.4,205348.34,289328.72,-45.213818,145.67010019897134,-0.007768901,-1.9868446e-07,0.28154734,0.14182432,2.0,43,0.020742891,7.1693165e-08,0,-2.6582134005334662e-08,2.0
213,213,2.3804083,210101.02,230350.7,311775.38,-47.63231,147.02501148998272,-0.00779011,-2.993602e-07,0.29025462,0.15844356,2.0,43,0.020749077,6.6551365e-08,0,-2.761878003466952e-08,2.0
