True,index,freq,Re(Z),Im(Z),Z,Phase(Z),time,Ewe_meas,I_meas,Cs,Cp,cycle_number,I_Range,Ewe,I,Ns,(QQo),cycle
110,110,7000018.5,170.36331,1770.1398,1778.319,-84.502625,83.1164879744465,-0.035058778,2.3789584e-05,1.2844388e-05,1.2726507e-05,2.0,40,0.010001474,5.624117e-06,0,4.8560468125166935e-08,2.0
111,111,6057573.0,394.3188,1996.6895,2035.2533,-78.82862,83.66849402736989,-0.035116218,2.4422057e-05,1.31586385e-05,1.26647055e-05,2.0,40,0.014217082,6.985412e-06,0,4.5567129223086394e-08,2.0
112,112,5242039.0,394.0179,2282.749,2316.5046,-80.206856,84.0845069004281,-0.035005827,-6.834982e-06,1.3300309e-05,1.2915514e-05,2.0,40,0.019790139,8.543104e-06,0,4.306834965088107e-08,2.0
113,113,4536288.0,337.3793,2603.5686,2625.337,-82.61656,85.86048463810585,-0.035063714,2.7398928e-05,1.3475675e-05,1.32531295e-05,2.0,40,0.018770475,7.1497393e-06,0,3.015379045094245e-08,2.0
114,114,3925558.5,403.27948,3011.9773,3038.8552,-82.37391,86.27648431123816,-0.035057176,4.6631453e-06,1.346068e-05,1.3223619e-05,2.0,40,0.018400464,6.055064e-06,0,3.110469705401157e-08,2.0
115,115,3397055.0,488.25476,3356.6929,3392.017,-81.72397,86.69249475761899,-0.035087787,6.7283468e-06,1.3957447e-05,1.3668256e-05,2.0,40,0.01954245,5.7613065e-06,0,3.087118609719209e-08,2.0
116,116,2939708.2,589.8423,3883.4077,3927.9473,-81.36348,87.1084902974253,-0.035009235,-4.1552634e-05,1.3941289e-05,1.3626916e-05,2.0,40,0.021548228,5.485875e-06,0,2.8963592653707517e-08,2.0
117,117,2543924.5,644.32434,4318.855,4366.6533,-81.5147,87.6604914436175,-0.035028763,-1.8891269e-05,1.44859605e-05,1.4170563e-05,2.0,40,0.020582072,4.7134663e-06,0,2.3067451735151382e-08,2.0
118,118,2201436.2,721.91675,5098.6743,5149.5283,-81.94111,88.21250434985268,-0.035082944,-2.597992e-05,1.4179364e-05,1.3900691e-05,2.0,40,0.020867161,4.0522473e-06,0,2.405114725843512e-08,2.0
119,119,1905053.1,610.16565,6040.779,6071.516,-84.23224,88.93149670396815,-0.0350609,-3.9931897e-06,1.3829933e-05,1.3690259e-05,2.0,41,0.019902103,3.2779462e-06,0,2.6990476569476246e-08,2.0
120,120,1648567.4,827.1794,6893.327,6942.7793,-83.15739,89.48348193019046,-0.035071112,4.3322436e-07,1.4005046e-05,1.3806246e-05,2.0,41,0.019813884,2.8538836e-06,0,2.665996901720982e-08,2.0
121,121,1426616.2,986.7197,7965.2705,8026.1543,-82.9383,90.0354840097425,-0.03507195,-4.5127235e-06,1.4005946e-05,1.37942625e-05,2.0,41,0.020276107,2.5262543e-06,0,2.6313936961415743e-08,2.0
122,122,1234551.2,1269.62,9208.36,9295.474,-82.149734,90.58749840929522,-0.03510461,4.4998535e-07,1.4000022e-05,1.3738846e-05,2.0,41,0.020768236,2.234231e-06,0,2.6752239987314673e-08,2.0
123,123,1068345.5,1568.2458,10546.534,10662.494,-81.54222,91.13950750217191,-0.035137758,6.2823315e-06,1.4125332e-05,1.3819762e-05,2.0,41,0.020781627,1.9490399e-06,0,2.6569118617458265e-08,2.0
124,124,924510.06,1964.2899,12084.427,12243.031,-80.76748,91.69150774177979,-0.03505166,-1.5183381e-06,1.4245655e-05,1.3878951e-05,2.0,41,0.020292673,1.6574877e-06,0,2.7389890782522545e-08,2.0
125,125,800039.0,1868.0028,13960.807,14085.225,-82.3789,92.24350798132946,-0.0351189,5.4778693e-06,1.4249461e-05,1.3998836e-05,2.0,41,0.020921148,1.4853258e-06,0,2.8259396314702005e-08,2.0
126,126,692334.1,3287.806,15452.262,15798.166,-77.9882,92.79549859420513,-0.035056412,1.1993286e-09,1.4876897e-05,1.42325625e-05,2.0,41,0.020315614,1.2859476e-06,0,2.9734182914838707e-08,2.0
127,127,599122.25,4139.9497,18053.098,18521.703,-77.084206,93.34748472706997,-0.03498777,-8.745457e-06,1.4714753e-05,1.3979595e-05,2.0,41,0.020798914,1.1229482e-06,0,3.0488404866289604e-08,2.0
128,128,518454.94,5349.9253,20588.35,21272.09,-75.43372,93.89948549997644,-0.035075713,-1.8293222e-06,1.4910341e-05,1.3967231e-05,2.0,41,0.02044704,9.612145e-07,0,3.031846656060812e-08,2.0
129,129,448662.03,7098.0845,23141.783,24205.887,-72.9481,94.45149008618318,-0.03510808,2.9415808e-06,1.5328653e-05,1.4010564e-05,2.0,41,0.020151705,8.3251257e-07,0,3.038880669651898e-08,2.0
130,130,388258.97,8627.288,26801.25,28155.588,-72.1567,95.00350056574098,-0.035068635,-5.7979986e-07,1.5294792e-05,1.3858764e-05,2.0,41,0.020777458,7.379515e-07,0,3.011982542484838e-08,2.0
131,131,335983.9,10035.892,32744.24,34247.69,-72.960045,95.55548432530486,-0.035128087,3.0235167e-06,1.4466608e-05,1.32243385e-05,2.0,41,0.020430028,5.965374e-07,0,3.059550333133072e-08,2.0
132,132,290751.2,14025.364,32164.904,35089.77,-66.440605,96.10750773813925,-0.035078302,3.8667068e-07,1.7018307e-05,1.4299468e-05,2.0,41,0.020567073,5.861273e-07,0,3.002252067025542e-08,2.0
133,133,251605.19,17722.936,35976.348,40104.863,-63.77388,96.65950347107719,-0.035076234,7.1627653e-07,1.7582615e-05,1.4148928e-05,2.0,41,0.020456344,5.100714e-07,0,3.0720516550948913e-08,2.0
134,134,217729.38,21622.879,39091.6,44673.28,-61.051544,97.21148269725381,-0.035208296,1.4583926e-05,1.8699055e-05,1.4318281e-05,2.0,41,0.020153044,4.5112074e-07,0,3.126149118397118e-08,2.0
135,135,188418.58,26758.572,41448.742,49335.78,-57.15443,97.76349357681465,-0.035148416,5.189231e-06,2.0379102e-05,1.4384134e-05,2.0,41,0.020780448,4.212044e-07,0,3.036242113006201e-08,2.0
136,136,163051.14,31038.34,44914.418,54595.637,-55.35339,98.48250190433464,-0.03511646,2.6999788e-07,2.1732541e-05,1.47084265e-05,2.0,42,0.019365454,3.54707e-07,0,3.048540461604787e-08,2.0
137,137,141098.2,37213.79,46920.793,59886.785,-51.581383,98.8984956573986,-0.035118565,1.04979534e-07,2.4039935e-05,1.4757133e-05,2.0,42,0.021051208,3.5151675e-07,0,3.048532871014429e-08,2.0
138,138,122105.11,42637.707,49191.94,65098.55,-49.082497,99.45050763027393,-0.035149552,4.5885665e-07,2.6496735e-05,1.5129955e-05,2.0,42,0.020293437,3.1173408e-07,0,3.0458055595394925e-08,2.0
139,139,105663.59,49887.855,48936.465,69882.586,-44.448425,99.86649026340456,-0.035065968,-7.0655254e-08,3.077954e-05,1.5093481e-05,2.0,42,0.02164515,3.0973595e-07,0,3.044725036501422e-08,2.0
140,140,91439.65,56430.8,50040.176,75421.84,-41.5651,100.41849050295423,-0.035104275,2.0238885e-07,3.4782977e-05,1.5311232e-05,2.0,42,0.020310387,2.6929052e-07,0,3.046224916821997e-08,2.0
141,141,79127.08,65058.117,49191.32,81561.91,-37.09342,100.83449148267391,-0.03499338,-9.667095e-07,4.0889005e-05,1.4873348e-05,2.0,42,0.021320289,2.614001e-07,0,3.0515274964466105e-08,2.0
142,142,68475.36,70788.336,46337.17,84605.69,-33.208263,101.38649718891247,-0.035068765,-1.7197591e-07,5.0159855e-05,1.5045832e-05,2.0,42,0.020241052,2.3923985e-07,0,3.056445985527548e-08,2.0
143,143,59252.523,75546.055,43810.996,87330.46,-30.110489,101.80248446200858,-0.03504961,-4.2546358e-07,6.130984e-05,1.5429963e-05,2.0,42,0.020782482,2.3797519e-07,0,3.051048012308696e-08,2.0
144,144,51282.285,80426.78,41908.402,90690.58,-27.522903,102.2184990151145,-0.03515596,6.646644e-07,7.405454e-05,1.5813555e-05,2.0,42,0.021268865,2.3452122e-07,0,3.0545169335061965e-08,2.0
145,145,44369.8,86154.24,37731.863,94054.49,-23.651358,102.63449738154304,-0.035015944,-4.1708216e-07,9.5065814e-05,1.5299662e-05,2.0,42,0.021677209,2.30475e-07,0,3.052192899456458e-08,2.0
146,146,38403.727,89557.39,33600.625,95653.164,-20.565357,103.18750039444421,-0.034969307,-6.22331e-07,0.0001233387,1.5219326e-05,2.0,42,0.020191384,2.1108956e-07,0,3.0508101091660976e-08,2.0
147,147,33226.32,92248.14,30359.68,97115.55,-18.216833,103.60349262753152,-0.0350658,7.0117916e-09,0.00015777591,1.5419047e-05,2.0,42,0.020359792,2.0964502e-07,0,3.0480954361403374e-08,2.0
148,148,28754.086,94982.03,27084.703,98768.25,-15.915823,104.01948923399323,-0.03518357,9.5074654e-07,0.00020436027,1.5367737e-05,2.0,42,0.020472456,2.0727771e-07,0,3.0546621041852696e-08,2.0
149,149,24884.947,97896.45,22686.576,100490.77,-13.047444,104.43550690702978,-0.035097085,9.380516e-08,0.00028191257,1.4368122e-05,2.0,42,0.020584743,2.0484212e-07,0,3.052497680510907e-08,2.0
150,150,21553.963,97819.03,20680.928,99981.32,-11.937696,104.85248484686599,-0.035051752,-3.5673597e-07,0.000357045,1.527655e-05,2.0,42,0.020452973,2.0456794e-07,0,3.0551185532907843e-08,2.0
151,151,18631.234,99220.73,18424.434,100916.86,-10.519516,105.2684880666493,-0.035147354,6.139825e-08,0.0004636437,1.5454152e-05,2.0,42,0.020411428,2.0225984e-07,0,3.049182842117126e-08,2.0
152,152,16126.037,99747.375,15949.193,101014.43,-9.08446,105.68450733969803,-0.035162874,5.031862e-07,0.0006188049,1.542639e-05,2.0,42,0.02019864,1.9995797e-07,0,3.057161418234738e-08,2.0
153,153,13954.87,101708.99,14182.198,102693.01,-7.9380817,106.10049791945494,-0.03498945,-1.051452e-06,0.00080417545,1.5337555e-05,2.0,42,0.020095857,1.9568866e-07,0,3.0627464011124894e-08,2.0
154,154,12080.609,101710.19,13359.794,102583.85,-7.483052,106.51649300588178,-0.035061814,-6.366707e-07,0.0009861239,1.6725266e-05,2.0,42,0.019753706,1.9256156e-07,0,3.060667279798383e-08,2.0
155,155,10447.592,101405.51,10325.335,101929.83,-5.8139467,106.93250385232386,-0.03511484,2.2660359e-07,0.0014753661,1.513929e-05,2.0,42,0.019244546,1.888019e-07,0,3.070281171477942e-08,2.0
156,156,9045.586,101548.85,9259.388,101970.12,-5.2099147,107.36425845950725,-0.03502856,2.2325155e-07,0.001900208,1.5668227e-05,2.0,42,0.021910464,2.1487142e-07,0,3.063290065691425e-08,2.0
157,157,7827.7437,101502.24,7824.2607,101803.36,-4.407906,108.00092206310364,-0.03512011,2.2604524e-07,0.0025986047,1.5349797e-05,2.0,42,0.020123541,1.976707e-07,0,3.063461207001013e-08,2.0
158,158,6770.8345,101730.42,7062.764,101975.3,-3.97146,108.53939704867662,-0.035127714,1.8860919e-07,0.0033281527,1.5964772e-05,2.0,42,0.020225734,1.9833954e-07,0,3.07241418975352e-08,2.0
159,159,5860.798,101371.41,6482.5464,101578.47,-3.6589952,109.14598334414768,-0.035125908,3.71881e-07,0.0041890712,1.7061047e-05,2.0,42,0.020284697,1.9969485e-07,0,3.087295236117349e-08,2.0
160,160,5071.625,101522.04,6216.914,101712.21,-3.5042508,109.82670169651101,-0.0350868,2.372216e-07,0.0050477535,1.8858264e-05,2.0,42,0.02037146,2.0028529e-07,0,3.098694430602479e-08,2.0
161,161,4388.5933,101323.8,5951.896,101498.46,-3.3617678,110.50683516880963,-0.035057995,-9.486399e-08,0.0060931165,2.0952277e-05,2.0,42,0.020410126,2.0108804e-07,0,3.0983995378795764e-08,2.0
162,162,3798.7827,101502.36,5698.5815,101662.2,-3.2133465,111.18680549443525,-0.035038933,-3.5635864e-08,0.007352058,2.3100609e-05,2.0,42,0.020483425,2.0148515e-07,0,3.095139599397692e-08,2.0
163,163,3286.0488,101504.67,5848.4375,101673.016,-3.2975893,111.86671955340717,-0.03497907,-4.5321082e-07,0.008281448,2.7401515e-05,2.0,42,0.020510083,2.0172592e-07,0,3.077325134920529e-08,2.0
164,164,2844.088,101564.16,5716.1406,101724.88,-3.2212703,112.5468053190416,-0.035064645,-3.4331883e-08,0.009789809,3.0911895e-05,2.0,42,0.020537842,2.0189596e-07,0,3.091567287283937e-08,2.0
165,165,2460.7852,102032.76,5175.445,102163.93,-2.9037461,113.22668151133257,-0.03497829,-2.74037e-07,0.012496797,3.207e-05,2.0,42,0.020593638,2.0157445e-07,0,3.081599734598169e-08,2.0
166,166,2129.3164,102386.29,5981.732,102560.875,-3.3436005,113.90680533030536,-0.035053615,1.8451314e-07,0.012495481,4.2505333e-05,2.0,42,0.020650215,2.0134594e-07,0,3.0995500243064926e-08,2.0
167,167,1843.2289,102434.75,6356.2773,102631.77,-3.550763,114.5869577092526,-0.035079364,5.1343825e-08,0.013584323,5.2105075e-05,2.0,42,0.020643167,2.0113816e-07,0,3.08779330702256e-08,2.0
168,168,1594.4913,103152.336,6889.4565,103382.15,-3.8210614,115.26683086156845,-0.03504825,-1.2726758e-08,0.014488153,6.43416e-05,2.0,42,0.02070047,2.0023253e-07,0,3.0738128339676545e-08,2.0
169,169,1380.4436,103181.31,7257.12,103436.21,-4.023197,115.94669814719236,-0.035212714,5.830908e-07,0.015886826,7.820249e-05,2.0,42,0.020665605,1.9979082e-07,0,3.077395637880996e-08,2.0
170,170,1194.6187,103570.266,7808.567,103864.21,-4.3115954,116.62682927282003,-0.03511603,3.875272e-07,0.017061591,9.6434036e-05,2.0,42,0.020675868,1.9906633e-07,0,3.068273646487876e-08,2.0
171,171,1033.3434,104310.37,8727.981,104674.88,-4.782979,117.30709653176018,-0.035100233,1.958748e-07,0.017646626,0.00012268862,2.0,42,0.020701172,1.9776637e-07,0,3.060096463737653e-08,2.0
172,172,894.71045,105188.914,9193.771,105589.93,-4.995099,117.98681429741555,-0.03505095,7.015513e-08,0.01934835,0.00014668521,2.0,42,0.02073288,1.9635281e-07,0,3.0788342203139075e-08,2.0
173,173,774.2569,104921.46,10161.44,105412.37,-5.5317335,118.66697539639426,-0.03510767,2.413199e-07,0.02022925,0.00018797808,2.0,42,0.02063618,1.9576622e-07,0,3.087771708746602e-08,2.0
174,174,669.7856,106252.945,10985.1875,106819.3,-5.902675,119.34681030867796,-0.0350811,1.7222054e-07,0.021631015,0.00022876648,2.0,42,0.020719592,1.9396862e-07,0,3.0753666717263627e-08,2.0
175,175,579.81464,106484.95,12050.01,107164.586,-6.456218,120.02682431432186,-0.035022445,-3.1184618e-07,0.022779468,0.00028801544,2.0,42,0.020671744,1.9289716e-07,0,3.089711887141632e-08,2.0
176,176,501.44418,107619.164,12867.516,108385.69,-6.818218,120.70418981314288,-0.03506856,4.901513e-07,0.024666233,0.00034765492,2.0,42,0.020694345,1.9093245e-07,0,3.1111370931210895e-08,2.0
177,177,434.02762,108218.24,14408.075,109173.164,-7.583707,121.38423853876884,-0.03508991,4.7990852e-08,0.025450528,0.00044327878,2.0,42,0.020636234,1.8902296e-07,0,3.108970636368823e-08,2.0
178,178,375.6009,109406.69,15254.211,110464.99,-7.9373903,122.0624542243022,-0.035108972,2.5286698e-07,0.027778178,0.00052970485,2.0,42,0.020679975,1.872084e-07,0,3.10161977843008e-08,2.0
179,179,325.10385,110647.0,16263.825,111835.91,-8.361937,122.74169038994296,-0.035165146,5.242351e-07,0.030100612,0.0006365876,2.0,42,0.020677662,1.8489287e-07,0,3.127007851808392e-08,2.0
180,180,281.3503,111516.36,17640.352,112902.97,-8.988921,123.41880842209503,-0.035130117,3.353765e-07,0.03206753,0.0007828332,2.0,42,0.020645058,1.8285664e-07,0,3.146948477754504e-08,2.0
181,181,243.36427,112849.8,19274.92,114484.055,-9.692676,124.1021120811638,-0.035074465,5.581336e-08,0.033928975,0.0009617582,2.0,42,0.020646382,1.8034287e-07,0,3.142111388921008e-08,2.0
182,182,210.60631,114250.586,21041.943,116172.11,-10.435431,124.7791894999973,-0.035096806,9.2877244e-08,0.03591393,0.0011782321,2.0,42,0.020673268,1.779538e-07,0,3.1260805353297745e-08,2.0
183,183,182.27473,115916.79,22907.861,118158.67,-11.178937,125.45127537191729,-0.035045326,3.867797e-08,0.038116157,0.0014326727,2.0,42,0.02067724,1.7499553e-07,0,3.143668756828966e-08,2.0
184,184,157.72879,117853.7,24525.916,120378.63,-11.755736,126.13966508467274,-0.035069734,2.567781e-07,0.04114186,0.0017077944,2.0,42,0.020700451,1.7196118e-07,0,3.1330003739031734e-08,2.0
185,185,136.52892,119289.57,27766.56,122478.5,-13.103193,126.81250514325802,-0.035040386,-5.8172727e-08,0.041982993,0.0021577338,2.0,42,0.020673592,1.6879363e-07,0,3.1592977483630474e-08,2.0
186,186,118.14758,121518.42,28337.74,124778.82,-13.126617,127.50089037595899,-0.035079513,1.4912443e-07,0.047536816,0.0024517647,2.0,42,0.020682078,1.6574991e-07,0,3.160770778432011e-08,2.0
187,187,102.25773,123924.484,30459.71,127612.98,-13.80913,128.16732942094677,-0.035133377,2.9738018e-07,0.05109733,0.0029111197,2.0,42,0.020701941,1.6222442e-07,0,3.1689678850178124e-08,2.0
188,188,88.4436,125419.984,32982.863,129684.39,-14.733994,128.85628998701577,-0.035086762,1.5936774e-07,0.054558866,0.0035291216,2.0,42,0.020601403,1.58858e-07,0,3.166650017864884e-08,2.0
189,189,76.54279,128355.54,35996.984,133307.64,-15.666018,129.52374431207136,-0.03511603,5.7359017e-07,0.05776299,0.0042118398,2.0,42,0.020681746,1.5514298e-07,0,3.174493809616388e-08,2.0
190,190,66.250786,130591.04,37630.97,135904.78,-16.074806,130.1919869837875,-0.0350775,2.3237762e-07,0.06383865,0.004894463,2.0,42,0.02060491,1.5161285e-07,0,3.1794393158910716e-08,2.0
191,191,57.329906,134723.89,40840.26,140778.03,-16.86418,130.84663157490832,-0.035101518,2.1095883e-07,0.067975186,0.005720812,2.0,42,0.02069343,1.4699333e-07,0,3.1694026181222415e-08,2.0
192,192,49.60321,137292.78,44511.23,144327.95,-17.963037,131.5323541140824,-0.035103418,7.98378e-08,0.07208431,0.00685613,2.0,42,0.020684278,1.4331442e-07,0,3.1623394183658486e-08,2.0
193,193,42.92585,140885.98,47329.055,148623.34,-18.569193,132.24041177440085,-0.03506364,8.131258e-09,0.07833817,0.007944289,2.0,42,0.02068724,1.391924e-07,0,3.172347979247488e-08,2.0
194,194,37.1518,143871.8,51962.766,152968.05,-19.858406,132.88418487165472,-0.03513051,3.7336963e-07,0.08244191,0.009513298,2.0,42,0.020673875,1.351516e-07,0,3.1868198888653825e-08,2.0
195,195,32.150223,148411.69,54862.832,158227.56,-20.287664,133.52340242199716,-0.035074614,1.6532701e-07,0.09023144,0.01084801,2.0,42,0.020688616,1.3075228e-07,0,3.1715582246158213e-08,2.0
196,196,27.835518,151821.88,57897.062,162486.78,-20.87428,134.25132664325065,-0.035059866,5.450752e-08,0.09875618,0.012538375,2.0,42,0.020616181,1.2687913e-07,0,3.197227060607608e-08,2.0
197,197,24.082958,156369.36,64870.387,169291.3,-22.531294,135.21140935548465,-0.03506552,-9.165827e-10,0.101874106,0.014958482,2.0,43,0.020701498,1.222833e-07,0,3.2190215452397986e-08,2.0
198,198,20.833313,161346.66,68239.1,175183.67,-22.92519,135.8657834399637,-0.035077743,7.301654e-08,0.111951135,0.016986653,2.0,43,0.020680754,1.1805184e-07,0,3.1947422144670055e-08,2.0
199,199,18.021912,165660.1,73433.5,181206.36,-23.906662,136.61173814206268,-0.035082635,6.567913e-08,0.12026107,0.019749979,2.0,43,0.020613384,1.1375641e-07,0,3.213006816292364e-08,2.0
200,200,15.604198,171667.16,78740.695,188864.27,-24.640087,137.26700075983535,-0.035029024,6.0129416e-08,0.12953271,0.02251533,2.0,43,0.020674463,1.09467315e-07,0,3.180271033056374e-08,2.0
201,201,13.500899,177437.66,84672.66,196605.14,-25.51032,138.0149946353631,-0.03505994,5.6665524e-08,0.13922405,0.025823249,2.0,43,0.020690667,1.052397e-07,0,3.173880957960041e-08,2.0
202,202,11.686608,183428.33,91208.26,204853.36,-26.438492,138.60589935677126,-0.035144668,-2.3059117e-08,0.14931296,0.029599177,2.0,43,0.020719483,1.01143e-07,0,3.17448747159735e-08,2.0
203,203,10.113269,191354.92,97459.11,214744.0,-26.99023,139.27954352207598,-0.0350457,-9.278198e-09,0.16147532,0.033258982,2.0,43,0.020810861,9.691009e-08,0,3.216599531043782e-08,2.0
204,204,8.748621,195748.89,105423.44,222332.47,-28.305338,140.0464166518359,-0.035078462,7.2904605e-08,0.17256127,0.03879823,2.0,43,0.020682123,9.30234e-08,0,3.262171115191354e-08,2.0
205,205,7.570237,202828.61,113117.62,232239.19,-29.14843,140.92202978677233,-0.035068747,1.1551295e-08,0.18585762,0.044093024,2.0,43,0.020687994,8.9080544e-08,0,3.170574895587583e-08,2.0
206,206,6.554112,209646.97,121907.16,242514.34,-30.17748,141.4583228788979,-0.03512965,7.4505806e-08,0.19919439,0.050333906,2.0,43,0.020685116,8.52944e-08,0,3.256054884138967e-08,2.0
207,207,5.669445,216596.25,130834.55,253044.69,-31.133993,142.06814496117295,-0.035087135,4.6869452e-08,0.21456416,0.057359792,2.0,43,0.02066419,8.166222e-08,0,3.165836704339379e-08,2.0
208,208,4.907347,223837.16,141607.12,264869.12,-32.31886,142.76055320739397,-0.035061087,1.6106512e-07,0.22902781,0.06546298,2.0,43,0.020666108,7.8023845e-08,0,3.286949115116681e-08,2.0
209,209,4.245922,231571.94,153495.69,277824.56,-33.538105,143.54832044479554,-0.035091735,-1.1825079e-07,0.24420352,0.074542336,2.0,43,0.020689044,7.446802e-08,0,3.172545528109172e-08,2.0
210,210,3.6747382,238088.95,166360.11,290451.44,-34.94319,144.44794054090744,-0.035065588,1.1201225e-07,0.26034218,0.085407466,2.0,43,0.020645393,7.108036e-08,0,3.180573329428792e-08,2.0
211,211,3.180988,245535.45,181545.45,305362.75,-36.4787,145.4761906430649,-0.035060007,9.246711e-08,0.27559587,0.097411744,2.0,43,0.020709053,6.781787e-08,0,3.308139412874716e-08,2.0
212,212,2.752818,252772.19,199337.17,321914.72,-38.259457,146.65514955241815,-0.035065733,-4.766563e-08,0.2900376,0.11121138,2.0,43,0.020690689,6.427382e-08,0,3.2486373766591665e-08,2.0
213,213,2.3804083,258674.23,218715.31,338745.84,-40.21533,148.01001217676094,-0.035050094,1.0288579e-08,0.3056958,0.12743828,2.0,43,0.020653512,6.097053e-08,0,3.120694502372877e-08,2.0
214,214,2.060257,266339.62,243363.4,360780.47,-42.418987,149.56636195731699,-0.03507232,4.6593836e-08,0.3174267,0.14443351,2.0,43,0.020684227,5.7331892e-08,0,3.159424863485268e-08,2.0
