True,index,freq,Re(Z),Im(Z),Z,Phase(Z),time,Ewe_meas,I_meas,Cs,Cp,cycle_number,I_Range,Ewe,I,Ns,(QQo),cycle
0,0,7000018.5,200.83911,1458.5675,1472.33,-82.1599,2.4674961705168243,0.011745928,1.23658765e-05,1.5588144e-05,1.529809e-05,1.0,40,0.0099219605,6.738952e-06,0,2.246027090943138e-09,1.0
1,1,6057573.0,366.38116,1648.005,1688.2404,-77.465965,3.0195025167486165,0.011775925,-1.8295917e-05,1.594274e-05,1.5191878e-05,1.0,40,0.014092676,8.347553e-06,0,2.39562834438958e-09,1.0
2,2,5242039.0,369.31204,1923.5343,1958.6667,-79.13166,3.4354904831561726,0.011820026,-2.469615e-05,1.5784104e-05,1.5222947e-05,1.0,40,0.019597366,1.0005462e-05,0,-2.161820836754992e-09,1.0
3,3,4536288.0,401.31494,2231.5205,2267.3193,-79.80495,4.803501268121181,0.011744157,6.443874e-07,1.5722393e-05,1.5229829e-05,1.0,40,0.018572047,8.191192e-06,0,-6.5793557069784784e-09,1.0
4,4,3925558.5,501.02594,2544.833,2593.685,-78.862076,5.219492621225072,0.0117782345,-3.3124397e-05,1.59316e-05,1.5337107e-05,1.0,40,0.018028885,6.9510697e-06,0,-1.1315892779034837e-08,1.0
5,5,3397055.0,597.2996,2819.865,2882.4304,-78.04047,5.636489334370708,0.011757069,-1.9207562e-05,1.6614575e-05,1.5901138e-05,1.0,40,0.018967126,6.580254e-06,0,-1.7935992513242935e-08,1.0
6,6,2939708.2,676.69525,3239.658,3309.5771,-78.201775,6.052490207453957,0.011726495,-3.839506e-06,1.671155e-05,1.6012902e-05,1.0,40,0.02075521,6.2712575e-06,0,-2.151364415251717e-08,1.0
7,7,2543924.5,870.0235,3676.2158,3777.7644,-76.685196,6.604487593664089,0.011747809,-2.6538077e-05,1.701825e-05,1.6115626e-05,1.0,40,0.020632349,5.4615234e-06,0,-3.090763792312935e-08,1.0
8,8,2201436.2,1070.9198,4131.396,4267.939,-75.46792,7.1564799665648025,0.011765361,-4.1087485e-05,1.749916e-05,1.639738e-05,1.0,40,0.020812888,4.8765664e-06,0,-3.828557643083109e-08,1.0
9,9,1905053.1,1310.1292,4859.1626,5032.683,-74.9107,7.70848025943269,0.011723476,-1.3272437e-05,1.7192997e-05,1.602785e-05,1.0,40,0.020413388,4.056164e-06,0,-4.1017224699803336e-08,1.0
10,10,1648567.4,1507.7583,5564.9824,5765.619,-74.84041,8.426488053548383,0.011803816,-7.9819765e-06,1.734801e-05,1.6161637e-05,1.0,41,0.018975388,3.2911275e-06,0,-4.6346101331816984e-08,1.0
11,11,1426616.2,1892.8882,6329.6113,6606.588,-73.350555,8.84248647329514,0.01175243,-4.004346e-06,1.7625276e-05,1.6178401e-05,1.0,41,0.021869177,3.3102076e-06,0,-4.6891405934470894e-08,1.0
12,12,1234551.2,2274.4773,7132.273,7486.158,-72.31255,9.394496766180964,0.011772292,-4.611416e-06,1.8075198e-05,1.640669e-05,1.0,41,0.020993078,2.8042525e-06,0,-4.7903449954023674e-08,1.0
13,13,1068345.5,2962.1968,8153.938,8675.328,-70.03471,9.946498632401926,0.01178321,-5.0341323e-06,1.8270104e-05,1.6140018e-05,1.0,41,0.020894,2.4084393e-06,0,-4.8987042145483885e-08,1.0
14,14,924510.06,4112.01,9248.024,10120.997,-66.02832,10.498495431937044,0.011698454,2.787021e-06,1.8614848e-05,1.5542142e-05,1.0,41,0.020410765,2.0166754e-06,0,-4.9080573086617583e-08,1.0
15,15,800039.0,4226.4497,10106.519,10954.661,-67.305786,11.050485804822529,0.011727203,3.8782587e-06,1.9683728e-05,1.6753773e-05,1.0,41,0.020707488,1.8902902e-06,0,-4.8646132937926094e-08,1.0
16,16,692334.1,5892.889,10925.025,12412.99,-61.65786,11.602491617755732,0.011707267,1.0905762e-06,2.1041755e-05,1.6299491e-05,1.0,41,0.020334937,1.6381981e-06,0,-4.799198802358815e-08,1.0
17,17,599122.25,7423.4556,11727.838,13879.837,-57.667118,12.154503457277315,0.011698081,3.3810572e-06,2.2650967e-05,1.6171634e-05,1.0,41,0.020552572,1.4807503e-06,0,-4.844020786192576e-08,1.0
18,18,518454.94,8803.326,12409.058,15214.574,-54.647064,12.706479750137078,0.011781458,-3.1179493e-06,2.4738327e-05,1.6456153e-05,1.0,41,0.020467518,1.3452574e-06,0,-4.8587658594605107e-08,1.0
19,19,448662.03,10664.64,12857.213,16704.564,-50.325397,13.25848873637733,0.011617163,7.891255e-06,2.7590144e-05,1.6344715e-05,1.0,41,0.02018522,1.2083655e-06,0,-4.856230618645283e-08,1.0
20,20,388258.97,12381.013,13250.549,18134.678,-46.94298,13.810484789282782,0.011704062,1.5672957e-06,3.0936044e-05,1.6516302e-05,1.0,41,0.02084393,1.1493962e-06,0,-4.7810042128727696e-08,1.0
21,21,335983.9,14309.795,12892.868,19261.264,-42.018284,14.362480308831437,0.011714682,1.2898305e-06,3.6741094e-05,1.6461963e-05,1.0,41,0.020507932,1.0647241e-06,0,-4.8283662442083637e-08,1.0
22,22,290751.2,16488.53,13287.6875,21176.266,-38.86446,14.914491721690865,0.011714775,1.6361963e-06,4.1195446e-05,1.6219941e-05,1.0,41,0.020580396,9.718615e-07,0,-4.751335351378493e-08,1.0
23,23,251605.19,17860.549,12636.92,21879.008,-35.280647,15.466498094581766,0.011727147,3.4012004e-07,5.0056366e-05,1.6698848e-05,1.0,41,0.020319425,9.2871784e-07,0,-4.8506258557349665e-08,1.0
24,24,217729.38,19689.191,12018.797,23067.635,-31.400982,16.018503667466575,0.011643304,6.6827033e-06,6.0819395e-05,1.6510414e-05,1.0,41,0.020295192,8.7981243e-07,0,-4.875479114879343e-08,1.0
25,25,188418.58,21202.03,11201.107,23978.967,-27.847652,16.57047974705347,0.011839831,-8.3246005e-06,7.5411124e-05,1.6454946e-05,1.0,41,0.020197399,8.4229646e-07,0,-4.950318776853033e-08,1.0
26,26,163051.14,22360.205,10337.515,24634.184,-24.811928,17.12249742660788,0.011757721,-4.8255642e-06,9.4423514e-05,1.662785e-05,1.0,41,0.020518685,8.329354e-07,0,-4.985727834740781e-08,1.0
27,27,141098.2,23399.336,9438.394,25231.176,-21.967257,17.67448139944463,0.011802922,-6.2389586e-06,0.00011950898,1.672329e-05,1.0,41,0.02025844,8.02913e-07,0,-5.0061533641439736e-08,1.0
28,28,122105.11,23632.62,8115.9766,24987.393,-18.953632,18.226489185675746,0.01170028,1.8373134e-06,0.00016059999,1.69428e-05,1.0,41,0.019886736,7.958708e-07,0,-4.9954820965078346e-08,1.0
29,29,105663.59,25321.496,7397.5576,26379.955,-16.285479,18.642479925445514,0.011787215,-3.5965259e-06,0.00020361342,1.601161e-05,1.0,41,0.02147633,8.141155e-07,0,-4.905516108390066e-08,1.0
30,30,91439.65,25747.277,6719.978,26609.78,-14.627743,19.19448501834995,0.011711719,2.0086338e-06,0.00025901073,1.651851e-05,1.0,41,0.020361457,7.65187e-07,0,-4.8307396919142124e-08,1.0
31,31,79127.08,26364.576,5741.297,26982.465,-12.285248,19.610485171404434,0.011718371,9.5278017e-07,0.0003503362,1.586141e-05,1.0,41,0.021498477,7.967573e-07,0,-4.863916093693691e-08,1.0
32,32,68475.36,26565.354,5304.6523,27089.8,-11.292473,20.16248530431767,0.011660073,4.006753e-06,0.00043815613,1.6800845e-05,1.0,41,0.020275256,7.484461e-07,0,-4.840198053322315e-08,1.0
33,33,59252.523,26867.805,4590.0483,27257.062,-9.694717,20.578488044062397,0.011684089,4.5169913e-06,0.0005851888,1.6594815e-05,1.0,41,0.02107021,7.7301837e-07,0,-4.744338056309496e-08,1.0
34,34,51282.285,27145.125,4197.1846,27467.693,-8.789481,20.994495103805093,0.011734059,-1.5574378e-06,0.000739426,1.7264994e-05,1.0,41,0.02174935,7.9181564e-07,0,-4.748504411352034e-08,1.0
35,35,44369.8,27185.572,3599.0735,27422.777,-7.541481,21.546485903352732,0.011692268,3.893161e-06,0.0009966483,1.716724e-05,1.0,41,0.020227734,7.3762527e-07,0,-4.869969673953258e-08,1.0
36,36,38403.727,27326.49,3139.6858,27506.266,-6.554277,21.96250405648607,0.011627952,7.265569e-06,0.0013199594,1.7197674e-05,1.0,41,0.020632263,7.500932e-07,0,-4.809738929052128e-08,1.0
37,37,33226.32,27544.344,2901.3442,27696.727,-6.012996,22.378488529560855,0.011738251,1.178104e-06,0.0016509679,1.8116749e-05,1.0,41,0.020958409,7.567107e-07,0,-4.727528105948073e-08,1.0
38,38,28754.086,27648.688,2697.562,27779.97,-5.5724626,22.79450324267964,0.011795637,-6.484764e-06,0.0020518666,1.9347659e-05,1.0,41,0.021157794,7.6162047e-07,0,-4.760780057105427e-08,1.0
39,39,24884.947,27826.336,2287.5876,27920.209,-4.699686,23.210489689052338,0.011752691,-3.497828e-06,0.002795797,1.8768253e-05,1.0,41,0.021297062,7.6278303e-07,0,-4.747905062297105e-08,1.0
40,40,21553.963,27939.297,2261.109,28030.643,-4.6268263,23.627493842242984,0.011746785,2.1054702e-06,0.003265664,2.1249483e-05,1.0,41,0.021316454,7.604697e-07,0,-4.6839223319892456e-08,1.0
41,41,18631.234,27940.434,2053.6724,28015.807,-4.203784,24.0434929819603,0.0116924355,3.33637e-06,0.0041595595,2.235133e-05,1.0,41,0.021219425,7.5740905e-07,0,-4.616816783364324e-08,1.0
42,42,16126.037,27893.605,1967.6453,27962.92,-4.0350227,24.45950425506453,0.011793662,-5.123511e-06,0.0050158626,2.4835575e-05,1.0,41,0.021035643,7.522692e-07,0,-4.775467216045253e-08,1.0
43,43,13954.87,28280.445,1926.4587,28345.984,-3.8969576,24.87550430148258,0.011806518,-5.0359886e-06,0.005920176,2.7344562e-05,1.0,41,0.02082837,7.3479083e-07,0,-4.834230555352133e-08,1.0
44,44,12080.609,27601.52,3056.6484,27770.254,-6.319302,25.291484267945634,0.011631045,6.800024e-06,0.0043100845,5.221762e-05,1.0,41,0.020374058,7.336648e-07,0,-4.837922327289807e-08,1.0
45,45,10447.592,28153.02,1801.3585,28210.59,-3.6610544,25.70749818100012,0.011749468,-4.326808e-07,0.008456755,3.4480992e-05,1.0,41,0.01986966,7.0433333e-07,0,-4.893524031400393e-08,1.0
46,46,9045.586,28346.662,1810.3007,28404.408,-3.6541135,26.28026626157225,0.011729364,7.20008e-07,0.009719249,3.947868e-05,1.0,41,0.020196782,7.110439e-07,0,-4.886569377290072e-08,1.0
47,47,7827.7437,28713.7,1803.7766,28770.299,-3.5945616,26.759946097707143,0.011715166,-1.1477578e-06,0.0112719955,4.430753e-05,1.0,41,0.020282723,7.049883e-07,0,-4.841219596444368e-08,1.0
48,48,6770.8345,28662.703,1982.1084,28731.156,-3.9558702,27.2984194032324,0.01170041,4.073793e-06,0.011859068,5.644158e-05,1.0,41,0.020253487,7.0493115e-07,0,-4.8468763158849623e-08,1.0
49,49,5860.798,28807.24,1990.6373,28875.938,-3.9529676,27.903973218693864,0.011708496,3.0961498e-06,0.013641786,6.483109e-05,1.0,41,0.020261088,7.016599e-07,0,-4.849899000911092e-08,1.0
50,50,5071.625,28786.516,2078.3896,28861.447,-4.1295958,28.584714451055333,0.011714235,-5.779308e-07,0.015098925,7.830036e-05,1.0,41,0.020234514,7.0109144e-07,0,-4.75682505439337e-08,1.0
51,51,4388.5933,29120.299,2353.1052,29215.217,-4.6198254,29.264827763356152,0.011765622,1.2395566e-06,0.015411804,9.998111e-05,1.0,41,0.020270888,6.938469e-07,0,-4.7878262209757477e-08,1.0
52,52,3798.7827,29371.598,2583.3345,29484.986,-5.0264287,29.94483035565645,0.011752021,-1.1049276e-06,0.016217917,0.00012449574,1.0,41,0.02027678,6.8769845e-07,0,-4.829480162604523e-08,1.0
53,53,3286.0488,29720.352,2595.2126,29833.445,-4.99047,30.6246883879503,0.0117409155,8.373249e-07,0.018662645,0.00014122522,1.0,41,0.020306123,6.8064963e-07,0,-4.8365421324910214e-08,1.0
54,54,2844.088,29944.559,2677.0305,30063.982,-5.108637,31.304820980250952,0.011727408,-8.03254e-07,0.02090373,0.00016574384,1.0,41,0.020316837,6.757866e-07,0,-4.890170476512701e-08,1.0
55,55,2460.7852,30100.11,3094.9558,30258.807,-5.8706403,31.984720425884007,0.011685952,8.0566804e-07,0.020897387,0.00021862373,1.0,41,0.020269416,6.698683e-07,0,-4.942711817240762e-08,1.0
56,56,2129.3164,30478.996,3431.1685,30671.52,-6.423022,32.664823711515055,0.011746971,-2.0732616e-06,0.021784013,0.00027261602,1.0,41,0.020323433,6.626158e-07,0,-4.9596490347511036e-08,1.0
57,57,1843.2289,30861.463,3569.474,31067.201,-6.597584,33.34496537045925,0.011714198,1.6268888e-06,0.024190042,0.00031933084,1.0,41,0.020329325,6.5436615e-07,0,-4.954723032770107e-08,1.0
58,58,1594.4913,31125.781,4245.6646,31414.008,-7.7674065,34.02483380277408,0.011712726,8.149783e-07,0.023509981,0.00042943453,1.0,41,0.020325493,6.4702004e-07,0,-4.9932870450738147e-08,1.0
59,59,1380.4436,31325.57,4459.5596,31641.414,-8.102278,34.70468938173872,0.011709801,2.6659848e-06,0.025852915,0.00051354873,1.0,41,0.020275768,6.407984e-07,0,-5.0692515396074396e-08,1.0
60,60,1194.6187,31801.277,4800.0654,32161.496,-8.583397,35.384824560707784,0.011740208,9.006378e-07,0.027755158,0.000618252,1.0,41,0.020309025,6.314702e-07,0,-5.036442336022932e-08,1.0
61,61,1033.3434,32066.344,5076.8345,32465.746,-8.996557,36.317066418298054,0.011713956,-2.7719415e-07,0.030337686,0.00074185274,1.0,42,0.020188915,6.218528e-07,0,-4.973780974713292e-08,1.0
62,62,894.71045,32680.482,5526.8945,33144.54,-9.598986,36.99684437060205,0.011738139,-4.5301545e-07,0.03218522,0.0008949419,1.0,42,0.020280655,6.118853e-07,0,-5.012902160330472e-08,1.0
63,63,774.2569,33341.742,6026.9165,33882.082,-10.246252,37.67697608290473,0.011722713,7.1281384e-08,0.034106717,0.0010791705,1.0,42,0.020368824,6.0116804e-07,0,-5.005791032583456e-08,1.0
64,64,669.7856,33679.004,6688.415,34336.72,-11.232398,38.35683776852966,0.011751983,-2.1405602e-07,0.035527214,0.0013480003,1.0,42,0.020299358,5.9118514e-07,0,-4.961752341097419e-08,1.0
65,65,579.81464,34351.234,7224.2295,35102.66,-11.876505,39.036829134158324,0.011742556,-2.0139035e-07,0.037996136,0.00160932,1.0,42,0.02034939,5.797108e-07,0,-5.005927132562545e-08,1.0
66,66,501.44418,34909.8,7728.8965,35755.14,-12.483698,39.71417577963439,0.0117566595,-2.164773e-07,0.041065775,0.0019188368,1.0,42,0.020305999,5.679183e-07,0,-5.060902901812763e-08,1.0
67,67,434.02762,35561.453,8422.285,36545.203,-13.32428,40.39421690526069,0.01174466,-2.910829e-08,0.043538436,0.0023124479,1.0,42,0.020303044,5.555598e-07,0,-5.035066738839866e-08,1.0
68,68,375.6009,36261.484,9076.449,37380.17,-14.052716,41.073461684194626,0.011715725,-2.1908397e-07,0.04668502,0.0027524973,1.0,42,0.020296883,5.429853e-07,0,-4.9889162195610126e-08,1.0
69,69,325.10385,37084.1,9909.888,38385.367,-14.961409,41.752719609838095,0.011718762,-2.1908504e-07,0.049400266,0.0032925725,1.0,42,0.020339243,5.298697e-07,0,-4.949914722224453e-08,1.0
70,70,281.3503,37732.004,10619.847,39198.027,-15.7195015,42.42979516199557,0.011735941,-1.6879743e-07,0.05326654,0.0039098724,1.0,42,0.020255575,5.167499e-07,0,-4.926108971567859e-08,1.0
71,71,243.36427,38646.35,11449.529,40306.727,-16.50267,43.11310863439576,0.011782446,-5.04795e-07,0.057118353,0.0046088854,1.0,42,0.02026445,5.0275605e-07,0,-4.924793480694846e-08,1.0
72,72,210.60631,39598.473,12262.344,41453.637,-17.206034,43.79018370658741,0.011722172,-1.3117636e-07,0.0616276,0.0053925845,1.0,42,0.02025854,4.8870356e-07,0,-4.9761078944972604e-08,1.0
73,73,182.27473,40805.684,13524.058,42988.418,-18.336529,44.46224043183611,0.01170041,-5.9841604e-08,0.06456343,0.0063899537,1.0,42,0.020362865,4.7368258e-07,0,-4.9359358576086384e-08,1.0
74,74,157.72879,41597.33,14569.435,44075.004,-19.30277,45.15064310456728,0.011723793,6.6064885e-08,0.06925744,0.007567756,1.0,42,0.020258749,4.596426e-07,0,-4.971849910257219e-08,1.0
75,75,136.52892,42963.63,15474.518,45665.457,-19.807863,45.82250617639511,0.01177775,-3.781446e-07,0.07533181,0.008650416,1.0,42,0.020307446,4.4470036e-07,0,-4.927993568136261e-08,1.0
76,76,118.14758,44091.46,16583.223,47106.902,-20.611763,46.51090303581441,0.011723849,-1.3005837e-07,0.081231855,0.0100668855,1.0,42,0.020266987,4.3023394e-07,0,-4.9613858825406454e-08,1.0
77,77,102.25773,45591.22,17893.275,48976.816,-21.428616,47.177334320760565,0.011737059,-3.1481952e-07,0.08698295,0.011610013,1.0,42,0.020317197,4.1483295e-07,0,-4.9585524588031916e-08,1.0
78,78,88.4436,46968.297,19215.256,50746.89,-22.25002,47.86726750023081,0.011726402,-1.816503e-07,0.09364994,0.013427061,1.0,42,0.020295018,3.9992634e-07,0,-4.958489340556523e-08,1.0
79,79,76.54279,48245.04,20807.434,52540.773,-23.329884,48.53475003862695,0.011748723,-1.5408584e-07,0.09993032,0.015672613,1.0,42,0.02025553,3.8552022e-07,0,-4.95800410237092e-08,1.0
80,80,66.250786,49974.95,22215.73,54690.348,-23.966932,49.203005083691096,0.011736407,-8.852548e-08,0.10813556,0.01784302,1.0,42,0.020276798,3.7075642e-07,0,-4.9384441288051407e-08,1.0
81,81,57.329906,51768.227,23934.828,57033.547,-24.813269,49.85662018142284,0.011718203,-1.853768e-07,0.11598682,0.020427182,1.0,42,0.020300388,3.559377e-07,0,-4.979411214120974e-08,1.0
82,82,49.60321,53357.395,25670.775,59211.49,-25.692673,50.54337064063293,0.011775031,-4.7481137e-07,0.12498887,0.02349294,1.0,42,0.020258892,3.4214463e-07,0,-5.000005932646415e-08,1.0
83,83,42.92585,55353.195,27708.996,61901.25,-26.591873,51.25144702094258,0.011726569,1.5434412e-07,0.1338075,0.02681163,1.0,42,0.020292018,3.2781273e-07,0,-4.96039589984894e-08,1.0
84,84,37.1518,57152.55,29746.965,64430.55,-27.496239,51.89518089152989,0.011771919,-3.029037e-07,0.14401166,0.030697236,1.0,42,0.020268856,3.1458455e-07,0,-4.946452388006674e-08,1.0
85,85,32.150223,59111.938,31827.682,67135.85,-28.299387,52.5343609485717,0.011761392,-2.5094045e-07,0.15553607,0.03495684,1.0,42,0.020242972,3.0152253e-07,0,-5.0203625275926515e-08,1.0
86,86,27.835518,61697.965,34499.29,70688.33,-29.212353,53.262320476496825,0.011726188,-1.4896811e-07,0.16573364,0.03947622,1.0,42,0.020342296,2.8777447e-07,0,-4.985140828548524e-08,1.0
87,87,24.082958,63012.12,37283.477,73216.016,-30.612268,53.964393043163,0.011748554,-1.6060899e-07,0.17725313,0.045963652,1.0,42,0.020193528,2.7580754e-07,0,-5.029267229925032e-08,1.0
88,88,20.833313,65821.484,40413.55,77238.09,-31.54939,54.618760167606524,0.01173378,6.736211e-08,0.18903176,0.05175183,1.0,42,0.020333122,2.632525e-07,0,-5.0802982028495964e-08,1.0
89,89,18.021912,68128.21,43724.3,80952.26,-32.692116,55.364746869701776,0.011795637,-5.0564006e-07,0.20197445,0.058922917,1.0,42,0.020331455,2.5115366e-07,0,-5.0070479082613024e-08,1.0
90,90,15.604198,70205.555,47639.027,84842.78,-34.15944,56.02000780747039,0.011726085,4.1100446e-08,0.21409957,0.06750125,1.0,42,0.020304974,2.3932472e-07,0,-4.991446086731067e-08,1.0
91,91,13.500899,72533.79,51923.734,89203.28,-35.597202,56.76800168299815,0.011733361,5.516233e-08,0.22703433,0.076923974,1.0,42,0.02030988,2.2768086e-07,0,-5.005096631150923e-08,1.0
92,92,11.686608,74795.27,56986.395,94030.75,-37.30372,57.35886712439242,0.011779036,-1.986047e-07,0.2389794,0.08777343,1.0,42,0.02033478,2.1625671e-07,0,-4.962161511089826e-08,1.0
93,93,10.113269,77606.6,62755.89,99805.24,-38.96043,58.03252595636877,0.0117392205,1.2770683e-07,0.25076914,0.09914627,1.0,42,0.020373927,2.0413684e-07,0,-4.940373542912773e-08,1.0
94,94,8.748621,79423.64,68996.76,105207.734,-40.981438,58.79836497941869,0.011739211,-7.7076685e-08,0.2636646,0.11340021,1.0,42,0.020314131,1.9308591e-07,0,-5.0932512303441275e-08,1.0
95,95,7.570237,81892.11,76068.46,111770.875,-42.88859,59.988026769278804,0.011716145,-8.6486295e-08,0.27637962,0.12801415,1.0,43,0.020275038,1.8139822e-07,0,-5.01227904788036e-08,1.0
96,96,6.554112,84148.66,84579.12,119308.94,-45.146175,60.52430119473138,0.011736053,-3.1674023e-07,0.28710657,0.14428577,1.0,43,0.020270217,1.698969e-07,0,-4.912261307980614e-08,1.0
97,97,5.669445,86742.01,94099.4,127979.97,-47.329746,61.13412218369194,0.011735979,1.05198886e-07,0.29832712,0.1612807,1.0,43,0.020257257,1.5828459e-07,0,-5.0121780714718116e-08,1.0
98,98,4.907347,89308.914,105729.79,138401.12,-49.81255,61.826558829896385,0.01174753,-8.60217e-08,0.30674392,0.17901585,1.0,43,0.020285325,1.4656908e-07,0,-4.839614420093952e-08,1.0
99,99,4.245922,92080.31,118927.14,150407.61,-52.250877,62.61432470733416,0.011687098,-2.8538983e-07,0.31518614,0.1970559,1.0,43,0.020290073,1.3490057e-07,0,-5.081084511763952e-08,1.0
100,100,3.6747382,95028.555,134015.95,164288.47,-54.66016,63.51394085676293,0.011738037,1.3201384e-07,0.3231746,0.21504831,1.0,43,0.020279283,1.2343705e-07,0,-4.957737350797823e-08,1.0
101,101,3.180988,98231.71,151079.8,180207.03,-56.968178,64.54222349225893,0.011698575,-8.519432e-08,0.33117053,0.23276678,1.0,43,0.020256579,1.1240726e-07,0,-4.8147386560629394e-08,1.0
102,102,2.752818,101838.43,171549.95,199500.5,-59.305058,65.72110749493004,0.011723503,-2.464193e-07,0.33701715,0.24919839,1.0,43,0.020304035,1.0177436e-07,0,-5.005702123304564e-08,1.0
103,103,2.3804083,105970.92,194514.3,221507.67,-61.418556,67.07595526592922,0.011757561,-1.323359e-07,0.34372976,0.26505905,1.0,43,0.020275945,9.153609e-08,0,-5.132690219111454e-08,1.0
104,104,2.060257,110244.305,221367.28,247299.98,-63.52599,68.63135413979762,0.011741833,-3.0378374e-08,0.34896776,0.27961728,1.0,43,0.020302324,8.209594e-08,0,-4.986019751571725e-08,1.0
105,105,1.7836765,115825.164,251221.03,276636.0,-65.24799,70.41962915811382,0.01172212,-5.7871624e-08,0.35517964,0.2929157,1.0,43,0.020283654,7.332254e-08,0,-4.8178285033140255e-08,1.0
