True,index,freq,Re(Z),Im(Z),Z,Phase(Z),time,Ewe_meas,I_meas,Cs,Cp,cycle_number,I_Range,Ewe,I,Ns,(QQo),cycle
0,0,7000018.5,183.15057,1734.2052,1743.8497,-83.9713,2.4684823572461028,0.06709675,-1.1969965e-05,1.3110536e-05,1.2965919e-05,1.0,40,0.010030937,5.7521797e-06,0,1.408060339580667e-09,1.0
1,1,6057573.0,301.6239,1908.1954,1931.8868,-81.01771,3.0204932367487345,0.067093566,1.0747094e-05,1.376888e-05,1.3433247e-05,1.0,40,0.014192347,7.3463657e-06,0,-1.6026169328395352e-09,1.0
2,2,5242039.0,311.6829,2197.0364,2219.0347,-81.925606,3.4374853899062146,0.067132,4.179412e-06,1.3819192e-05,1.3546558e-05,1.0,40,0.019706368,8.880605e-06,0,-2.7049449829329813e-09,1.0
3,3,4536288.0,270.07794,2554.7932,2569.029,-83.96543,4.941481621324783,0.06714402,-1.9226154e-05,1.3732948e-05,1.35811715e-05,1.0,40,0.021648655,8.426785e-06,0,-1.4856755923814388e-08,1.0
4,4,3925558.5,370.9778,2911.672,2935.2102,-82.73904,5.357503534440184,0.067088366,-1.9747113e-05,1.392439e-05,1.3701961e-05,1.0,40,0.01941085,6.613104e-06,0,-1.6495632727779727e-08,1.0
5,5,3397055.0,442.74493,3290.2117,3319.867,-82.336075,5.773488087550504,0.06703597,-1.4202708e-05,1.42394665e-05,1.39862095e-05,1.0,40,0.02024997,6.099633e-06,0,-1.655591511619529e-08,1.0
6,6,2939708.2,427.8696,3781.3584,3805.4885,-83.544304,6.32549790039775,0.067014955,2.406857e-05,1.43175275e-05,1.4136533e-05,1.0,40,0.020239538,5.318512e-06,0,-1.4803093535356816e-08,1.0
7,7,2543924.5,545.4019,4259.2275,4294.0054,-82.70288,6.8774985666095745,0.06707154,-4.7208672e-05,1.4688759e-05,1.4451788e-05,1.0,40,0.020336427,4.736004e-06,0,-2.023932099798584e-08,1.0
8,8,2201436.2,639.6228,4912.4414,4953.907,-82.58156,7.429482672858285,0.067023866,1.4630322e-06,1.471691e-05,1.44715705e-05,1.0,40,0.020827077,4.204172e-06,0,-1.955400181278972e-08,1.0
9,9,1905053.1,523.4336,5836.632,5860.0557,-84.87538,8.14848193366197,0.0670149,-1.5779422e-06,1.4313661e-05,1.4199461e-05,1.0,41,0.019501697,3.327903e-06,0,-1.9103082835554928e-08,1.0
10,10,1648567.4,741.2802,6596.3516,6637.8726,-83.58816,8.700495239900192,0.067040876,-2.568608e-06,1.463557e-05,1.4453047e-05,1.0,41,0.01978982,2.9813498e-06,0,-2.0430941816054352e-08,1.0
11,11,1426616.2,758.2041,7693.7,7730.9697,-84.37175,9.252486466109985,0.06699012,4.898731e-06,1.4500324e-05,1.4360855e-05,1.0,41,0.020221438,2.6156406e-06,0,-1.978939744640229e-08,1.0
12,12,1234551.2,881.8277,8804.545,8848.595,-84.280556,9.804482519015437,0.06693356,8.90428e-06,1.4642124e-05,1.4496705e-05,1.0,41,0.020791523,2.3496978e-06,0,-1.947370506814631e-08,1.0
13,13,1068345.5,1196.9867,10537.846,10605.61,-83.519585,10.35648238522117,0.067102455,-4.59652e-06,1.4136977e-05,1.3956898e-05,1.0,41,0.0206308,1.9452723e-06,0,-1.999859530912968e-08,1.0
14,14,924510.06,1692.2091,11629.276,11751.751,-81.72083,10.908503931452287,0.06705736,3.3810559e-06,1.4803207e-05,1.4496261e-05,1.0,41,0.020324629,1.729498e-06,0,-1.9206490766205458e-08,1.0
15,15,800039.0,2056.3599,13898.052,14049.358,-81.583565,11.460480997659033,0.06698148,7.2320427e-06,1.4313803e-05,1.4007153e-05,1.0,41,0.020920927,1.4891019e-06,0,-2.011121030067405e-08,1.0
16,16,692334.1,2460.9304,15856.42,16046.253,-81.178024,12.012496890529292,0.067125894,-4.1980143e-06,1.4497706e-05,1.4156708e-05,1.0,41,0.020380005,1.2700788e-06,0,-2.0096046881630198e-08,1.0
17,17,599122.25,3089.774,17978.85,18242.416,-80.24863,12.5644807300705,0.06695972,7.652895e-06,1.4775521e-05,1.4351652e-05,1.0,41,0.020782305,1.1392299e-06,0,-1.9206715693542265e-08,1.0
18,18,518454.94,4009.341,20335.488,20726.96,-78.84663,13.11649923629011,0.067094624,-5.158898e-06,1.5095744e-05,1.4530898e-05,1.0,41,0.02037023,9.827891e-07,0,-1.844376395192171e-08,1.0
19,19,448662.03,4868.491,23437.38,23937.691,-78.26521,13.668479102518177,0.06709004,-2.8833153e-06,1.5135324e-05,1.4509263e-05,1.0,41,0.020232204,8.452028e-07,0,-1.846719148383771e-08,1.0
20,20,388258.97,6375.2017,26492.436,27248.713,-76.469475,14.22050022208714,0.06695357,9.907995e-06,1.547308e-05,1.46261e-05,1.0,41,0.020879002,7.662381e-07,0,-1.8515199703146992e-08,1.0
21,21,335983.9,9282.724,28500.998,29974.586,-71.95966,14.772500381601276,0.06708758,-3.8777193e-06,1.6620403e-05,1.5026413e-05,1.0,41,0.020157725,6.7249385e-07,0,-1.8409985122782282e-08,1.0
22,22,290751.2,10702.399,34106.01,35745.79,-72.57825,15.32450251452974,0.06694867,8.64916e-06,1.6049727e-05,1.4610995e-05,1.0,41,0.020607417,5.7649913e-07,0,-1.8657633319136242e-08,1.0
23,23,251605.19,13060.368,38939.492,41071.367,-71.458466,15.876487394067226,0.067025654,-1.0323099e-06,1.6244647e-05,1.4602006e-05,1.0,41,0.020441724,4.977123e-07,0,-1.7736544528301264e-08,1.0
24,24,217729.38,17347.482,42487.836,45892.824,-67.79015,16.428495926928008,0.06713769,-7.430758e-06,1.7204358e-05,1.4746133e-05,1.0,41,0.020297166,4.4227318e-07,0,-1.6820096593333585e-08,1.0
25,25,188418.58,21165.242,46021.4,50655.074,-65.3023,16.980497713171644,0.06707881,-3.929861e-06,1.8354247e-05,1.5149919e-05,1.0,41,0.02064367,4.075341e-07,0,-1.788148540610103e-08,1.0
26,26,163051.14,25594.11,52586.324,58484.016,-64.04751,17.69948948067031,0.06708798,-6.4915156e-07,1.8561945e-05,1.500703e-05,1.0,42,0.019392239,3.3158187e-07,0,-1.7962263558675632e-08,1.0
27,27,141098.2,32325.979,57432.41,65904.86,-60.626904,18.11549664704944,0.06711043,-2.7255155e-07,1.9640005e-05,1.49149155e-05,1.0,42,0.021083763,3.1991212e-07,0,-1.8031010609608382e-08,1.0
28,28,122105.11,42786.855,62923.242,76092.375,-55.78489,18.667500059964368,0.06699474,6.080438e-07,2.0714537e-05,1.41649525e-05,1.0,42,0.020759618,2.7282127e-07,0,-1.8078662729356964e-08,1.0
29,29,105663.59,46868.414,63706.383,79089.516,-53.658302,19.21949645949644,0.06708855,-2.518777e-07,2.3643503e-05,1.5340513e-05,1.0,42,0.02018909,2.5526884e-07,0,-1.7822999419529536e-08,1.0
30,30,91439.65,55817.855,65921.29,86378.52,-49.744247,19.635478612588486,0.06707247,-3.96781e-07,2.6403402e-05,1.5377995e-05,1.0,42,0.021366587,2.4735994e-07,0,-1.7817704081304935e-08,1.0
31,31,79127.08,61909.855,67822.664,91829.98,-47.609562,20.187489038828062,0.06705528,1.3869092e-07,2.965652e-05,1.617711e-05,1.0,42,0.02017994,2.197533e-07,0,-1.7754548800564545e-08,1.0
32,32,68475.36,75277.74,68273.79,101627.01,-42.206722,20.603482578560943,0.06711613,-6.3164373e-07,3.404331e-05,1.536461e-05,1.0,42,0.021043621,2.070672e-07,0,-1.775325773190812e-08,1.0
33,33,59252.523,84549.305,66638.04,107653.21,-38.24362,21.019482865027385,0.06703627,-1.4180307e-07,4.0307983e-05,1.5444772e-05,1.0,42,0.021708287,2.0165017e-07,0,-1.776173869761265e-08,1.0
34,34,51282.285,93585.06,67896.23,115620.336,-35.96099,21.571501584578073,0.067102864,-2.4256505e-07,4.5709567e-05,1.5762676e-05,1.0,42,0.020239778,1.7505378e-07,0,-1.7704717663215983e-08,1.0
35,35,44369.8,105079.5,61817.68,121914.42,-30.46806,21.98748971099849,0.06710279,-5.364693e-07,5.8025642e-05,1.49188445e-05,1.0,42,0.020653188,1.6940726e-07,0,-1.773152982594084e-08,1.0
36,36,38403.727,108991.15,59508.88,124178.81,-28.634424,22.403494264086476,0.06714033,-7.5848055e-07,6.9641e-05,1.5993131e-05,1.0,42,0.020839682,1.6781995e-07,0,-1.7735743627267276e-08,1.0
37,37,33226.32,117244.93,52145.656,128318.13,-23.977503,22.819480950507568,0.06704989,4.239938e-08,9.185859e-05,1.5169804e-05,1.0,42,0.021094406,1.6439147e-07,0,-1.773543027200909e-08,1.0
38,38,28754.086,121973.73,47145.258,130767.984,-21.132504,23.235495263623307,0.06709645,-4.5470492e-07,0.0001174039,1.5260042e-05,1.0,42,0.021177122,1.6194424e-07,0,-1.772411412658754e-08,1.0
39,39,24884.947,127197.88,41781.863,133884.38,-18.184277,23.651490323332837,0.066979654,6.413832e-07,0.00015307195,1.4907727e-05,1.0,42,0.02123825,1.586313e-07,0,-1.7753970306952817e-08,1.0
40,40,21553.963,130277.75,37558.777,135583.75,-16.08215,24.068495169834932,0.06704104,-2.3306579e-07,0.00019659911,1.5086523e-05,1.0,42,0.021217568,1.564905e-07,0,-1.7763543571943628e-08,1.0
41,41,18631.234,133587.25,33266.57,137667.06,-13.983656,24.48450372289517,0.066970244,8.0174567e-07,0.00025678548,1.4994308e-05,1.0,42,0.021128224,1.5347334e-07,0,-1.7849060573145564e-08,1.0
42,42,16126.037,135822.47,29244.676,138935.22,-12.1511545,24.900484862708254,0.067120895,-8.137965e-07,0.00033747815,1.4952527e-05,1.0,42,0.020955024,1.5082587e-07,0,-1.780001307646654e-08,1.0
43,43,13954.87,136798.9,25272.36,139113.73,-10.4668665,25.317483042512322,0.06699916,6.50324e-07,0.00045128257,1.4893615e-05,1.0,42,0.02067211,1.4859863e-07,0,-1.771407480442286e-08,1.0
44,44,12080.609,141974.61,23447.678,143897.83,-9.377975,25.733486368932063,0.067006335,6.531179e-07,0.0005618643,1.4918413e-05,1.0,42,0.020491716,1.4240462e-07,0,-1.7648854387339774e-08,1.0
45,45,10447.592,139157.56,18392.828,140367.81,-7.529295,26.149502495332854,0.06710154,-3.1296648e-07,0.0008282385,1.4220583e-05,1.0,42,0.019794289,1.410173e-07,0,-1.7626647599533622e-08,1.0
46,46,9045.586,139853.25,16551.533,140829.28,-6.749519,26.722255829226924,0.06702496,1.1466648e-07,0.0010630292,1.4683707e-05,1.0,42,0.020251583,1.4380237e-07,0,-1.758506055313052e-08,1.0
47,47,7827.7437,140588.95,13690.644,141253.98,-5.561963,27.20293953208602,0.06703288,-1.0082616e-07,0.0014851135,1.3951021e-05,1.0,42,0.020339988,1.4399586e-07,0,-1.7504347019500777e-08,1.0
48,48,6770.8345,141180.28,11269.84,141629.38,-4.564008,27.74141881093965,0.06703612,-6.357575e-08,0.0020857402,1.3206539e-05,1.0,42,0.020428207,1.4423708e-07,0,-1.748248067963296e-08,1.0
49,49,5860.798,140867.8,10181.711,141235.28,-4.134063,28.346996519743698,0.06710608,-4.4837068e-07,0.0026671202,1.3861101e-05,1.0,42,0.020445446,1.447616e-07,0,-1.7332995860686237e-08,1.0
50,50,5071.625,141914.31,9125.882,142207.44,-3.679372,29.027717432094505,0.06700037,3.2960054e-07,0.003438731,1.4161304e-05,1.0,42,0.020533152,1.4438874e-07,0,-1.7331494259164593e-08,1.0
51,51,4388.5933,142332.84,8296.709,142574.45,-3.3360472,29.707848264399217,0.06700581,2.2306493e-07,0.004371082,1.4801893e-05,1.0,42,0.020580225,1.4434721e-07,0,-1.7424276865304123e-08,1.0
52,52,3798.7827,142138.95,6656.0845,142294.72,-2.6810887,30.38784571000724,0.0670722,-9.765961e-08,0.0062944368,1.3772632e-05,1.0,42,0.020591527,1.4471041e-07,0,-1.749342176226855e-08,1.0
53,53,3286.0488,142715.25,6394.7407,142858.44,-2.5655756,31.067695795660256,0.067078136,9.473779e-08,0.0075739627,1.5175999e-05,1.0,42,0.02064155,1.4448955e-07,0,-1.744868454510061e-08,1.0
54,54,2844.088,142552.1,5816.3145,142670.7,-2.336448,31.747832841283525,0.067060925,-2.7629186e-08,0.0096212,1.5990256e-05,1.0,42,0.02062559,1.4456779e-07,0,-1.7561194029893397e-08,1.0
55,55,2460.7852,142960.77,5322.7417,143059.81,-2.1322622,32.42767583359091,0.067030124,1.884223e-07,0.012150972,1.6820795e-05,1.0,42,0.020660266,1.4441699e-07,0,-1.7624418501126923e-08,1.0
56,56,2129.3164,143173.08,4802.132,143253.6,-1.9210229,33.10783749255643,0.06704861,-3.1540388e-08,0.015564882,1.7490529e-05,1.0,42,0.020670317,1.4429179e-07,0,-1.765115722410688e-08,1.0
57,57,1843.2289,144180.11,5117.604,144270.9,-2.0328329,33.78796456483542,0.06706506,-2.842832e-07,0.016872296,2.1230002e-05,1.0,42,0.02070959,1.4354654e-07,0,-1.777751186744937e-08,1.0
58,58,1594.4913,143883.02,5485.05,143987.53,-2.183149,34.46782977048133,0.0670613,-1.5968114e-07,0.018197738,2.640759e-05,1.0,42,0.020673437,1.4357796e-07,0,-1.7865249630032862e-08,1.0
59,59,1380.4436,144821.77,4586.1934,144894.36,-1.8138278,35.147708202785,0.067141205,-2.7087313e-07,0.025139064,2.5185516e-05,1.0,42,0.020737568,1.4312198e-07,0,-1.7998648225474292e-08,1.0
60,60,1194.6187,144779.36,4525.8457,144850.08,-1.7904999,35.82782247508294,0.066998824,1.0535422e-07,0.029436836,2.8737773e-05,1.0,42,0.020700254,1.4290814e-07,0,-1.7969051211454632e-08,1.0
61,61,1033.3434,145440.92,5522.315,145545.72,-2.174446,36.50806810735958,0.06708114,-3.4425614e-07,0.027890371,4.0151128e-05,1.0,42,0.020711057,1.4229931e-07,0,-1.7937727433849522e-08,1.0
62,62,894.71045,145032.16,5558.3096,145138.62,-2.1947677,37.18784083300852,0.06704885,-5.837796e-09,0.03200331,4.6936897e-05,1.0,42,0.020681273,1.4249323e-07,0,-1.792130482787968e-08,1.0
63,63,774.2569,146576.52,5084.385,146664.67,-1.9866555,37.86794347863179,0.067080334,-2.081064e-07,0.04042934,4.8587266e-05,1.0,42,0.020741489,1.4142117e-07,0,-1.801668721500338e-08,1.0
64,64,669.7856,146760.48,6310.204,146896.08,-2.4620082,38.54780401760945,0.0670866,-1.6806248e-07,0.037656587,6.948761e-05,1.0,42,0.020731438,1.4112996e-07,0,-1.8050252993931162e-08,1.0
65,65,579.81464,146641.64,6378.8687,146780.31,-2.4907796,39.22783711657394,0.067032605,1.2677322e-07,0.04303158,8.127164e-05,1.0,42,0.020675218,1.4085825e-07,0,-1.7918362686360626e-08,1.0
66,66,501.44418,147539.84,7453.007,147727.97,-2.8918505,39.90520805536653,0.06703977,-3.787294e-08,0.042585917,0.000108393586,1.0,42,0.020717535,1.4024111e-07,0,-1.7850776326250738e-08,1.0
67,67,434.02762,148606.86,8354.93,148841.53,-3.2178783,40.585224887676304,0.06708078,-1.0455072e-07,0.043889433,0.00013829207,1.0,42,0.020716526,1.3918512e-07,0,-1.7984340349344783e-08,1.0
68,68,375.6009,149168.44,9197.612,149451.73,-3.5283473,41.26445699992473,0.06702249,-1.514862e-07,0.04607002,0.00017448846,1.0,42,0.020731261,1.3871542e-07,0,-1.8113307314197396e-08,1.0
69,69,325.10385,149545.83,9712.587,149860.9,-3.7159827,41.943719938906725,0.06713481,-3.1799465e-07,0.050403778,0.00021171724,1.0,42,0.020720689,1.3826613e-07,0,-1.827929421389898e-08,1.0
70,70,281.3503,150441.25,11430.415,150874.86,-4.344943,42.62082346440002,0.06702105,5.543881e-08,0.049489234,0.00028405405,1.0,42,0.020699881,1.3719901e-07,0,-1.841140863636623e-08,1.0
71,71,243.36427,151463.12,12010.609,151938.58,-4.5339108,43.3041172568046,0.06708479,-3.3140483e-07,0.05445005,0.0003402454,1.0,42,0.02071768,1.3635562e-07,0,-1.8326593553676988e-08,1.0
72,72,210.60631,152256.52,12966.901,152807.69,-4.8678393,43.98117848896072,0.0670612,-1.4105616e-07,0.058279064,0.0004196571,1.0,42,0.020724772,1.356265e-07,0,-1.818734266600804e-08,1.0
73,73,182.27473,153997.48,15235.19,154749.27,-5.649968,44.65325054756249,0.06707555,-1.7402262e-07,0.057312027,0.00055550033,1.0,42,0.020743672,1.3404699e-07,0,-1.8334180858095312e-08,1.0
74,74,157.72879,153444.1,15919.441,154267.69,-5.9231033,45.34164311363929,0.06705753,-1.2373461e-07,0.06338424,0.000674974,1.0,42,0.020671433,1.3399716e-07,0,-1.823982300352848e-08,1.0
75,75,136.52892,154639.83,18216.74,155709.11,-6.718541,46.01450330551597,0.06711142,-2.9992822e-07,0.063991874,0.0008758669,1.0,42,0.020649098,1.326133e-07,0,-1.8474363278753478e-08,1.0
76,76,118.14758,156878.11,19842.215,158127.97,-7.208592,46.702901604934596,0.06707821,-5.2028128e-08,0.0678899,0.0010689762,1.0,42,0.020690737,1.3084805e-07,0,-1.8490881503803082e-08,1.0
77,77,102.25773,158004.06,22159.01,159550.33,-7.983281,47.36936131658149,0.06700829,4.3518785e-08,0.07023824,0.0013548117,1.0,42,0.020655142,1.2945847e-07,0,-1.8487481749892095e-08,1.0
78,78,88.4436,160458.11,24257.678,162281.36,-8.596744,48.05927369600977,0.0671007,-2.384655e-07,0.07418301,0.0016575461,1.0,42,0.020721752,1.2769029e-07,0,-1.845986527666494e-08,1.0
79,79,76.54279,162121.4,27471.006,164432.38,-9.617254,48.726730874419445,0.067061014,1.8561183e-08,0.07569048,0.0021125926,1.0,42,0.02069952,1.258847e-07,0,-1.848952978046725e-08,1.0
80,80,66.250786,164094.5,29157.795,166664.88,-10.075669,49.395005279482575,0.06702152,5.4507648e-08,0.08238998,0.0025217128,1.0,42,0.020693421,1.2416186e-07,0,-1.8380342210336823e-08,1.0
81,81,57.329906,166968.61,32529.549,170107.88,-11.024512,50.049632030590146,0.06707231,-1.3174365e-07,0.08534162,0.0031208156,1.0,42,0.02072421,1.2182981e-07,0,-1.8395967344358628e-08,1.0
82,82,49.60321,169098.03,36025.13,172892.89,-12.026657,50.73537043642136,0.067032605,-8.313207e-08,0.08906453,0.0038668881,1.0,42,0.020722972,1.1986018e-07,0,-1.845900964156202e-08,1.0
83,83,42.92585,171642.53,40232.223,176294.61,-13.19172,51.44344745672424,0.06707842,-1.926698e-09,0.09215677,0.004799513,1.0,42,0.020733442,1.1760679e-07,0,-1.836804416729147e-08,1.0
84,84,37.1518,174836.64,42952.047,180035.36,-13.802487,52.32816024540807,0.06714998,-4.361887e-08,0.09973703,0.0056768646,1.0,43,0.02073279,1.15159544e-07,0,-1.8504124561280676e-08,1.0
85,85,32.150223,178499.52,46548.387,184469.05,-14.615853,52.967393449129304,0.06706653,-4.9336048e-08,0.10634853,0.0067716385,1.0,43,0.020759633,1.12537215e-07,0,-1.8499941633863495e-08,1.0
86,86,27.835518,181715.3,51613.637,188903.19,-15.8564415,53.69534113703412,0.06707362,-6.100323e-08,0.11077872,0.008270022,1.0,43,0.020752667,1.09858746e-07,0,-1.862513913280337e-08,1.0
87,87,24.082958,185063.03,55144.51,193104.23,-16.592842,54.397403543727705,0.06711661,-1.9818756e-08,0.11984171,0.009773025,1.0,43,0.020666977,1.0702498e-07,0,-1.866408063729076e-08,1.0
88,88,20.833313,189363.62,61099.855,198976.81,-17.882757,55.051775494837784,0.06705555,-1.5070002e-08,0.12503213,0.0117895445,1.0,43,0.020735066,1.0420845e-07,0,-1.8303451804145413e-08,1.0
89,89,18.021912,193444.03,66669.6,204610.44,-19.016275,55.797704543605505,0.06700783,1.709172e-08,0.13246202,0.01406344,1.0,43,0.020675309,1.01047185e-07,0,-1.8681826707216506e-08,1.0
90,90,15.604198,198311.64,72600.45,211183.17,-20.107311,56.45301404138445,0.067062765,-7.6022864e-08,0.14048803,0.01660349,1.0,43,0.020699028,9.8014574e-08,0,-1.843992681340328e-08,1.0
91,91,13.500899,203550.2,79115.86,218384.98,-21.2401,57.19999669017852,0.067015424,6.2996652e-09,0.14900261,0.019555794,1.0,43,0.020698126,9.477816e-08,0,-1.8359032955946948e-08,1.0
92,92,11.686608,208942.28,86646.75,226195.8,-22.523405,57.79087853158126,0.06698973,3.2958372e-08,0.15717353,0.023062952,1.0,43,0.020688122,9.1461125e-08,0,-1.8504630062157584e-08,1.0
93,93,10.113269,214018.83,93116.305,233398.17,-23.513117,58.46452221690561,0.06695767,1.5285188e-08,0.16900629,0.026900442,1.0,43,0.020601615,8.826811e-08,0,-1.8967047917586102e-08,1.0
94,94,8.748621,221494.72,102077.33,243884.58,-24.742931,59.23141062664217,0.067042515,-2.7556935e-08,0.17821787,0.031220593,1.0,43,0.020709842,8.491657e-08,0,-1.8904140751714414e-08,1.0
95,95,7.570237,228688.11,110716.67,254079.58,-25.8334,60.10700954825734,0.067064516,-8.5336165e-09,0.18988805,0.03605655,1.0,43,0.020722654,8.15597e-08,0,-1.8225064748265868e-08,1.0
96,96,6.554112,235893.61,120063.305,264690.38,-26.97483,60.64331064038561,0.0670538,-1.4150127e-07,0.20225348,0.041614078,1.0,43,0.02071928,7.8277424e-08,0,-1.9218762969032848e-08,1.0
97,97,5.669445,242745.72,130952.41,275815.2,-28.345232,61.25311840270297,0.06707462,1.1469388e-07,0.21437104,0.048323315,1.0,43,0.020706516,7.507388e-08,0,-1.8132631314023564e-08,1.0
98,98,4.907347,249540.56,142640.78,287431.53,-29.752874,61.94554854222224,0.06706979,-1.3693877e-07,0.22736816,0.05599487,1.0,43,0.020692572,7.199131e-08,0,-1.9178368218712254e-08,1.0
99,99,4.245922,257776.5,155265.61,300925.47,-31.061668,62.73331108634011,0.067016535,7.914259e-08,0.24141978,0.06426959,1.0,43,0.020720514,6.885597e-08,0,-1.8758959387491874e-08,1.0
100,100,3.6747382,265008.53,168409.3,313992.38,-32.435402,63.63294835574925,0.06706149,-6.1598393e-09,0.25717434,0.07398123,1.0,43,0.020672783,6.5838485e-08,0,-1.799388893221623e-08,1.0
101,101,3.180988,272802.97,185681.22,329998.44,-34.24086,64.6612410445523,0.06705825,-1.3030038e-07,0.2694574,0.08531046,1.0,43,0.020710748,6.276014e-08,0,-1.915537002729146e-08,1.0
102,102,2.752818,281164.0,203989.52,347368.56,-35.961555,65.8401734472427,0.067052566,2.0077989e-08,0.28342277,0.09773935,1.0,43,0.020704873,5.9604915e-08,0,-1.9508951492536692e-08,1.0
103,103,2.3804083,288293.38,225492.9,366005.62,-38.031265,67.19498372491216,0.067052275,3.8750528e-08,0.29650757,0.112544954,1.0,43,0.020694654,5.6541904e-08,0,-1.8270703854492353e-08,1.0
104,104,2.060257,298595.12,249089.4,388850.34,-39.835014,68.75129371884395,0.06703918,-2.035082e-08,0.3101298,0.12725915,1.0,43,0.020725345,5.329903e-08,0,-1.7675748744675406e-08,1.0
105,105,1.7836765,305371.1,279471.2,413951.28,-42.4643,70.53968601714587,0.06707474,-6.678936e-08,0.31927654,0.14552669,1.0,43,0.02073137,5.0081667e-08,0,-1.868962592970834e-08,1.0
