True,index,freq,Re(Z),Im(Z),Z,Phase(Z),time,Ewe_meas,I_meas,Cs,Cp,cycle_number,I_Range,Ewe,I,Ns,(QQo),cycle
0,0,7000018.5,263.07068,1668.2185,1688.8336,-81.038506,2.4664903570956085,0.21941464,2.8273485e-05,1.3629126e-05,1.3298423e-05,1.0,40,0.0099944845,5.9179806e-06,0,-1.4943295941457614e-09,1.0
1,1,6057573.0,357.45175,1972.5223,2004.6487,-79.72858,3.0184967567038257,0.21938169,2.202196e-05,1.3319856e-05,1.2896352e-05,1.0,40,0.014250055,7.108505e-06,0,-5.142078101363899e-09,1.0
2,2,5242039.0,353.90106,2241.542,2269.3074,-81.02804,3.4344977897417266,0.21945061,6.3562406e-06,1.3544813e-05,1.3215395e-05,1.0,40,0.019726634,8.692799e-06,0,-6.577365456360932e-09,1.0
3,3,4536288.0,338.7505,2582.5273,2604.6497,-82.52717,4.666493954922771,0.21951038,-9.928797e-07,1.3585467e-05,1.3355674e-05,1.0,40,0.021435985,8.229892e-06,0,-1.6794437384659332e-08,1.0
4,4,3925558.5,369.72122,2921.6643,2944.9646,-82.78786,5.082480294717243,0.21937308,2.8645498e-05,1.3876769e-05,1.3658054e-05,1.0,40,0.019726817,6.6984903e-06,0,-1.6507355322387537e-08,1.0
5,5,3397055.0,423.4948,3337.7205,3364.48,-82.76887,5.498481914488366,0.21941826,-2.3207711e-05,1.4036784e-05,1.3814387e-05,1.0,40,0.020938776,6.223481e-06,0,-1.881735700113849e-08,1.0
6,6,2939708.2,563.8538,3778.915,3820.75,-81.51348,6.050486740685301,0.21937859,1.8412538e-05,1.4326785e-05,1.4014764e-05,1.0,40,0.02088813,5.467023e-06,0,-2.1549332462932904e-08,1.0
7,7,2543924.5,546.40955,4478.442,4511.6523,-83.04379,6.60248914026306,0.2194479,-3.158014e-05,1.396976e-05,1.3764854e-05,1.0,40,0.020528398,4.550084e-06,0,-2.9175664119823827e-08,1.0
8,8,2201436.2,611.365,5018.553,5055.655,-83.0544,7.154491033143131,0.2193863,-2.3170505e-05,1.4405737e-05,1.4195076e-05,1.0,40,0.02083088,4.120313e-06,0,-2.989798489823493e-08,1.0
9,9,1905053.1,598.6609,5854.791,5885.3184,-84.16171,7.87349536063266,0.21941829,-5.356304e-06,1.4269266e-05,1.412162e-05,1.0,41,0.01960522,3.3312078e-06,0,-3.027105707812754e-08,1.0
10,10,1648567.4,628.0991,6730.366,6759.611,-84.66842,8.4254823201627,0.21930863,5.8894116e-06,1.43441475e-05,1.42203e-05,1.0,41,0.01993857,2.9496623e-06,0,-3.107253417201782e-08,1.0
11,11,1426616.2,759.8819,7762.632,7799.7354,-84.40914,8.977479066379601,0.21934654,4.6845807e-06,1.43715615e-05,1.4235156e-05,1.0,41,0.02019583,2.5892969e-06,0,-3.091311246917093e-08,1.0
12,12,1234551.2,968.51587,8892.258,8944.846,-83.784035,9.529487439285731,0.21935101,3.369883e-06,1.4497695e-05,1.4327728e-05,1.0,41,0.02081066,2.3265532e-06,0,-2.9769826906061782e-08,1.0
13,13,1068345.5,1471.4578,10320.1,10424.474,-81.88536,10.081497278792085,0.21930504,7.034652e-06,1.4435258e-05,1.4147641e-05,1.0,41,0.020797217,1.9950376e-06,0,-2.9724167756168324e-08,1.0
14,14,924510.06,1624.3718,11542.511,11656.249,-81.9894,10.633501998352585,0.21941997,-2.7678605e-06,1.4914483e-05,1.462484e-05,1.0,41,0.020137671,1.7276288e-06,0,-2.9445577638483657e-08,1.0
15,15,800039.0,3149.0105,13620.432,13979.715,-76.982086,11.185487651237054,0.2194081,-1.6654503e-06,1.4605556e-05,1.3864467e-05,1.0,41,0.020931697,1.4972907e-06,0,-2.8348238003328813e-08,1.0
16,16,692334.1,2447.5947,15542.601,15734.14,-81.05075,11.737496290792478,0.2193991,-3.270649e-06,1.47904275e-05,1.4432518e-05,1.0,41,0.020342251,1.2928734e-06,0,-2.8014453496998234e-08,1.0
17,17,599122.25,3284.5723,18213.316,18507.115,-79.777214,12.289478610357037,0.21929148,7.386604e-06,1.4585311e-05,1.4125904e-05,1.0,41,0.02085811,1.127032e-06,0,-2.8613091827319674e-08,1.0
18,18,518454.94,4245.9517,20626.855,21059.328,-78.36838,12.841502423252678,0.21936896,-3.9358184e-07,1.4882507e-05,1.4277531e-05,1.0,41,0.020466805,9.718641e-07,0,-2.845877795809315e-08,1.0
19,19,448662.03,5025.2935,23536.875,24067.365,-77.94789,13.393504262814531,0.21935311,3.5914818e-06,1.5071345e-05,1.4414265e-05,1.0,41,0.020140652,8.368449e-07,0,-2.828702681396559e-08,1.0
20,20,388258.97,6834.477,26672.428,27534.133,-75.62789,13.945486822369276,0.21936658,2.505831e-06,1.5368663e-05,1.4421764e-05,1.0,41,0.020717025,7.5241246e-07,0,-2.9063676613102667e-08,1.0
21,21,335983.9,11169.73,32031.553,33923.195,-70.77581,14.498486608586973,0.21943532,-3.1942998e-06,1.4788483e-05,1.3185182e-05,1.0,41,0.020736644,6.112822e-07,0,-2.9256696435048467e-08,1.0
22,22,290751.2,11603.353,34442.402,36344.42,-71.38177,15.050492314825533,0.2193668,4.613818e-06,1.5892974e-05,1.4273041e-05,1.0,41,0.020555524,5.6557576e-07,0,-2.8955754792895682e-08,1.0
23,23,251605.19,13764.043,38775.746,41146.17,-70.4569,15.602486661024159,0.2194049,-3.8535118e-06,1.6313246e-05,1.44877795e-05,1.0,41,0.020512385,4.9852474e-07,0,-2.8511983323224082e-08,1.0
24,24,217729.38,17105.97,42110.33,45452.105,-67.89213,16.154499407246476,0.21926922,7.67524e-06,1.7358592e-05,1.48999125e-05,1.0,41,0.020283509,4.4626117e-07,0,-2.7690213178067955e-08,1.0
25,25,188418.58,20132.81,47673.508,51750.297,-67.10537,16.873504348070128,0.21928972,2.0592749e-07,1.7718186e-05,1.5036537e-05,1.0,42,0.019896172,3.844649e-07,0,-2.754412602101376e-08,1.0
26,26,163051.14,25926.75,52379.14,58444.594,-63.6654,17.28948802119703,0.21945289,-1.3190968e-06,1.8635366e-05,1.4968076e-05,1.0,42,0.021788282,3.7280236e-07,0,-2.766422318250367e-08,1.0
27,27,141098.2,31766.037,57382.74,65588.56,-61.031887,17.841493007406825,0.21938035,-2.2673383e-07,1.9657005e-05,1.5046091e-05,1.0,42,0.020317243,3.097681e-07,0,-2.7738524443245537e-08,1.0
28,28,122105.11,38888.05,61655.574,72895.06,-57.75912,18.257484893809306,0.21935938,-1.4366579e-07,2.1140437e-05,1.5123853e-05,1.0,42,0.021938862,3.0096498e-07,0,-2.7767005377230684e-08,1.0
29,29,105663.59,46485.367,64365.69,79396.67,-54.16291,18.80947974670562,0.21941131,-4.0553493e-07,2.3401317e-05,1.5379585e-05,1.0,42,0.020416873,2.5715022e-07,0,-2.7755526828069168e-08,1.0
30,30,91439.65,57554.723,67467.32,88681.37,-49.533314,19.225482193141943,0.21942551,-6.7578526e-07,2.5798361e-05,1.4931873e-05,1.0,42,0.02170349,2.4473562e-07,0,-2.7771866415655607e-08,1.0
31,31,79127.08,66752.03,71279.23,97655.32,-46.878532,19.777485926024383,0.21944743,-6.9403796e-07,2.8218377e-05,1.503371e-05,1.0,42,0.02017808,2.066255e-07,0,-2.7694791832247114e-08,1.0
32,32,68475.36,76703.4,68986.07,103162.44,-41.967815,20.193484585761325,0.21931963,4.171365e-07,3.3691816e-05,1.506621e-05,1.0,42,0.021011531,2.0367425e-07,0,-2.7731790871479786e-08,1.0
33,33,59252.523,85069.56,68164.91,109010.484,-38.70465,20.609481298859464,0.21941856,-5.8638466e-07,3.94051e-05,1.5407692e-05,1.0,42,0.021653414,1.9863607e-07,0,-2.7729183195353593e-08,1.0
34,34,51282.285,94542.51,68622.41,116821.75,-35.97352,21.16149804511224,0.21942121,-3.351319e-07,4.5225857e-05,1.560527e-05,1.0,42,0.020198036,1.728962e-07,0,-2.7734808284670404e-08,1.0
35,35,44369.8,103608.49,61125.688,120295.76,-30.539242,21.577485051500844,0.21940774,-3.8020454e-07,5.868254e-05,1.5151505e-05,1.0,42,0.020532839,1.706863e-07,0,-2.780029986495928e-08,1.0
36,36,38403.727,108926.695,57559.477,123199.51,-27.853046,21.993481711280765,0.21932828,4.7506074e-07,7.199957e-05,1.5716132e-05,1.0,42,0.020744415,1.6838067e-07,0,-2.7880031537543224e-08,1.0
37,37,33226.32,117660.71,53678.7,129326.9,-24.523232,22.40949725100654,0.21936366,-2.3347305e-08,8.923514e-05,1.5373125e-05,1.0,42,0.021012088,1.6247269e-07,0,-2.795938493233743e-08,1.0
38,38,28754.086,123668.586,48477.375,132830.62,-21.404894,22.82549228411517,0.21931355,4.651896e-07,0.00011417774,1.5207689e-05,1.0,42,0.021125644,1.5904197e-07,0,-2.791057275715995e-08,1.0
39,39,24884.947,126092.945,44856.203,133833.89,-19.582466,23.24148435718962,0.21937308,-2.0925864e-08,0.00014258076,1.6016726e-05,1.0,42,0.021081343,1.5751871e-07,0,-2.8004067198830048e-08,1.0
40,40,21553.963,132293.25,38109.992,137673.08,-16.070213,23.65849376367987,0.21950717,-1.220942e-06,0.00019375555,1.48468325e-05,1.0,42,0.021180777,1.5384836e-07,0,-2.8113231666246463e-08,1.0
41,41,18631.234,135333.5,34192.61,139586.14,-14.179296,24.07448951675906,0.21935764,2.394535e-07,0.00024983095,1.4990846e-05,1.0,42,0.021097945,1.5114641e-07,0,-2.825834292967677e-08,1.0
42,42,16126.037,137078.44,29345.092,140184.28,-12.083223,24.490480949898483,0.219434,-8.5626175e-07,0.0003363233,1.4737686e-05,1.0,42,0.020915585,1.4920064e-07,0,-2.8240569146163747e-08,1.0
43,43,13954.87,139895.52,25353.969,142174.47,-10.2725,24.90650459632161,0.2194532,-9.549747e-07,0.00044983,1.4305303e-05,1.0,42,0.020696692,1.455725e-07,0,-2.8231572645308646e-08,1.0
44,44,12080.609,135429.8,20838.006,137023.55,-8.747258,25.323488376132445,0.21937871,-5.2510677e-07,0.00063223,1.4621672e-05,1.0,42,0.020037077,1.462309e-07,0,-2.8258314334478168e-08,1.0
45,45,10447.592,141174.42,19202.424,142474.39,-7.745787,25.73950340921874,0.21935377,3.7262393e-07,0.0007933191,1.4410743e-05,1.0,42,0.01978961,1.3889942e-07,0,-2.827615636610354e-08,1.0
46,46,9045.586,141548.9,17564.273,142634.48,-7.073462,26.31226159640937,0.21938993,-3.5638248e-08,0.0010017358,1.5190237e-05,1.0,42,0.02021848,1.4175029e-07,0,-2.8358762225925716e-08,1.0
47,47,7827.7437,142575.11,13885.64,143249.69,-5.562593,26.791921379219275,0.21940795,-3.103587e-07,0.0014642582,1.3758214e-05,1.0,42,0.020314468,1.418116e-07,0,-2.8429362014140284e-08,1.0
48,48,6770.8345,143749.72,13213.219,144355.7,-5.251769,27.33040380474995,0.21936837,-3.0346732e-07,0.0017789728,1.4904544e-05,1.0,42,0.020383343,1.4120221e-07,0,-2.865147703739367e-08,1.0
49,49,5860.798,143303.69,11398.499,143756.3,-4.547781,27.93697591361706,0.2192418,9.120077e-07,0.0023824056,1.4978119e-05,1.0,42,0.020405814,1.4194727e-07,0,-2.8694365569276553e-08,1.0
50,50,5071.625,143747.81,9632.299,144070.17,-3.8335629,28.617699385955348,0.21946771,-4.3067666e-07,0.0032579398,1.4563133e-05,1.0,42,0.02049644,1.4226706e-07,0,-2.8788926473902126e-08,1.0
51,51,4388.5933,143938.47,9084.553,144224.86,-3.611384,29.296815258203424,0.21944584,-2.7254944e-07,0.0039920066,1.5838648e-05,1.0,42,0.020498145,1.421263e-07,0,-2.896555184410242e-08,1.0
52,52,3798.7827,143715.98,7987.5156,143937.78,-3.1811395,29.97683185050846,0.21940154,-2.5207866e-08,0.005245223,1.6152428e-05,1.0,42,0.020466866,1.4219245e-07,0,-2.8987329855369064e-08,1.0
53,53,3286.0488,144705.73,7107.4614,144880.17,-2.8119173,30.65667780280637,0.2193902,-5.9291835e-08,0.0068144626,1.6399958e-05,1.0,42,0.02058094,1.4205492e-07,0,-2.892719435001191e-08,1.0
54,54,2844.088,145689.48,7216.2407,145868.1,-2.835637,31.335848688380793,0.21938576,-5.536026e-07,0.0077547194,1.8978746e-05,1.0,42,0.020633655,1.414542e-07,0,-2.9112731441769945e-08,1.0
55,55,2460.7852,145091.84,6501.2773,145237.42,-2.565594,32.015683120684116,0.21937427,1.3291941e-07,0.009948274,1.9933706e-05,1.0,42,0.020566082,1.4160318e-07,0,-2.9057852217296916e-08,1.0
56,56,2129.3164,145814.77,5590.9,145921.9,-2.1957867,32.6958241929824,0.21930955,3.0669176e-07,0.013368978,1.9625497e-05,1.0,42,0.020619001,1.4130161e-07,0,-2.919994162796671e-08,1.0
57,57,1843.2289,145786.45,5858.06,145904.1,-2.3010483,33.37595259860973,0.21937293,6.586886e-08,0.014739646,2.3760727e-05,1.0,42,0.020585671,1.4109042e-07,0,-2.913668858619979e-08,1.0
58,58,1594.4913,146731.36,5439.543,146832.16,-2.1230648,34.05580799090967,0.2193359,-3.768659e-08,0.01834998,2.5183614e-05,1.0,42,0.020624163,1.404608e-07,0,-2.910998161438864e-08,1.0
59,59,1380.4436,146841.08,5731.8267,146952.9,-2.235361,34.73571020988311,0.21941511,-1.17588385e-07,0.020114463,3.060118e-05,1.0,42,0.020596169,1.401549e-07,0,-2.9199831842617307e-08,1.0
60,60,1194.6187,148035.38,6203.5776,148165.3,-2.3996358,35.415835735504515,0.21945553,-2.900571e-07,0.021475764,3.7647842e-05,1.0,42,0.020672826,1.3952543e-07,0,-2.912994207379427e-08,1.0
61,61,1033.3434,148460.64,6568.9863,148605.9,-2.5335324,36.096089181141,0.21932149,-4.4950266e-08,0.02344645,4.5814366e-05,1.0,42,0.020671856,1.3910521e-07,0,-2.904917496329931e-08,1.0
62,62,894.71045,149508.05,6885.702,149666.53,-2.6369355,36.77580806676997,0.21938233,-4.155903e-07,0.025833867,5.4681004e-05,1.0,42,0.020689635,1.3823822e-07,0,-2.9217479708940964e-08,1.0
63,63,774.2569,149653.14,8186.4253,149876.89,-3.131111,37.455950712406775,0.21940947,-5.027559e-07,0.025109656,7.491349e-05,1.0,42,0.020669114,1.3790728e-07,0,-2.9353382736239553e-08,1.0
64,64,669.7856,150061.86,8414.578,150297.6,-3.2094462,38.1358117047057,0.21930799,-3.18181e-07,0.028239174,8.851414e-05,1.0,42,0.02066567,1.3749835e-07,0,-2.9273958280923137e-08,1.0
65,65,579.81464,151223.75,8755.839,151477.02,-3.31372,38.81584229700093,0.21939577,-2.05499e-07,0.03134969,0.00010474547,1.0,42,0.020690806,1.365937e-07,0,-2.9306490131920288e-08,1.0
66,66,501.44418,151552.88,10111.922,151889.84,-3.8172352,39.49319470245973,0.21932635,-1.9469645e-07,0.03138801,0.00013911494,1.0,42,0.02064413,1.3591514e-07,0,-2.9394109722907224e-08,1.0
67,67,434.02762,152265.16,10566.261,152631.33,-3.9696095,40.17321212144452,0.21941443,-4.0441526e-07,0.034704152,0.00016631703,1.0,42,0.020634895,1.3519437e-07,0,-2.9502040563715562e-08,1.0
68,68,375.6009,153566.53,11646.663,154007.55,-4.337075,40.851432393625146,0.21938632,-4.1819774e-07,0.036382455,0.00020807075,1.0,42,0.020718064,1.3452629e-07,0,-2.9546141751500066e-08,1.0
69,69,325.10385,154082.45,13508.837,154673.5,-5.010469,41.53070783929434,0.21938744,-2.420043e-07,0.036239322,0.00027642935,1.0,42,0.020680413,1.3370365e-07,0,-2.9701648737895406e-08,1.0
70,70,281.3503,155641.17,14258.845,156292.95,-5.23446,42.20778504478221,0.21931566,9.734538e-08,0.039672393,0.0003302009,1.0,42,0.020697014,1.3242449e-07,0,-2.972095919178328e-08,1.0
71,71,243.36427,156091.22,15422.982,156851.33,-5.6429358,42.891102783876704,0.21936142,-1.1032465e-07,0.04240284,0.00040997303,1.0,42,0.020644784,1.3162008e-07,0,-2.981138204086322e-08,1.0
72,72,210.60631,156790.44,17304.63,157742.48,-6.2981243,43.568174442712916,0.21939263,-2.5317928e-07,0.043670323,0.00052554964,1.0,42,0.020614957,1.3068741e-07,0,-2.978354668567502e-08,1.0
73,73,182.27473,158300.16,18954.355,159430.89,-6.827907,44.239272527891444,0.2193546,-3.2302447e-09,0.046066437,0.000651115,1.0,42,0.020643966,1.2948536e-07,0,-2.992230738920259e-08,1.0
74,74,157.72879,155386.97,21896.361,156922.16,-8.021024,44.927621920642196,0.21939333,-1.3584093e-07,0.046082623,0.00089724816,1.0,42,0.020376947,1.2985386e-07,0,-2.996866794935787e-08,1.0
75,75,136.52892,161113.97,23206.262,162776.66,-8.196302,45.599526805832284,0.21938352,-2.9303715e-07,0.050233133,0.0010209781,1.0,42,0.020619523,1.2667371e-07,0,-2.988178713395071e-08,1.0
76,76,118.14758,163420.2,26115.525,165493.75,-9.079438,46.28789105190663,0.21936694,-2.1239042e-07,0.051581807,0.0012844905,1.0,42,0.020679481,1.2495627e-07,0,-2.988757265993483e-08,1.0
77,77,102.25773,165470.48,27869.473,167801.03,-9.560352,46.954359350173036,0.21937045,-1.2690109e-07,0.055846404,0.0015405063,1.0,42,0.020664824,1.2315076e-07,0,-2.988635274818445e-08,1.0
78,78,88.4436,167333.23,30671.402,170120.97,-10.386752,47.64429676960572,0.21935584,-6.4320844e-08,0.058670536,0.0019070919,1.0,42,0.020682584,1.2157575e-07,0,-2.9935748218728104e-08,1.0
79,79,76.54279,169401.22,34639.465,172906.52,-11.55663,48.31172853469616,0.21931696,9.119897e-08,0.060026724,0.0024091525,1.0,42,0.020649776,1.194274e-07,0,-2.998933027454282e-08,1.0
80,80,66.250786,172079.9,38618.38,176360.06,-12.648814,48.98000595308258,0.21937509,-3.2414127e-07,0.062206402,0.0029827899,1.0,42,0.020657081,1.17130156e-07,0,-3.011192162395836e-08,1.0
81,81,57.329906,175598.45,41452.02,180424.73,-13.28217,49.63465214421012,0.21937203,-8.164217e-08,0.066971995,0.0035350248,1.0,42,0.020765813,1.15094046e-07,0,-3.011661350986551e-08,1.0
82,82,49.60321,177463.61,47172.645,183626.23,-14.885897,50.32037708340795,0.2193221,1.02187734e-07,0.068017416,0.0044888086,1.0,42,0.020674977,1.1259272e-07,0,-3.012511824705536e-08,1.0
83,83,42.92585,181418.78,50602.125,188343.7,-15.585083,51.28843160936958,0.21939115,-2.0880391e-07,0.07327106,0.0052889297,1.0,43,0.020672832,1.097612e-07,0,-3.041056441757522e-08,1.0
84,84,37.1518,185061.38,55883.707,193315.03,-16.802946,51.932188866630895,0.21934085,-1.2595075e-07,0.07665758,0.006406108,1.0,43,0.020720104,1.071831e-07,0,-3.0460267619827243e-08,1.0
85,85,32.150223,188729.81,60438.863,198171.14,-17.75715,52.5713592703396,0.21931183,-2.0327307e-07,0.08190678,0.007618537,1.0,43,0.020688519,1.0439723e-07,0,-3.0253419717279687e-08,1.0
86,86,27.835518,192598.67,67633.61,204128.77,-19.34941,53.29933015824645,0.21938264,-1.8668007e-07,0.08453922,0.009280576,1.0,43,0.020713653,1.0147347e-07,0,-3.038074248115308e-08,1.0
87,87,24.082958,195268.16,73893.86,208782.08,-20.727768,54.00137720492785,0.21944515,-1.6243314e-07,0.08943386,0.011202945,1.0,43,0.020568509,9.851664e-08,0,-3.0275177439969286e-08,1.0
88,88,20.833313,201603.19,80827.734,217202.6,-21.847078,54.655763929360546,0.219348,-2.4182256e-07,0.09451514,0.013088569,1.0,43,0.020698074,9.529386e-08,0,-3.027957622847587e-08,1.0
89,89,18.021912,206285.22,89523.7,224873.48,-23.45989,55.40173244479229,0.21923675,-4.919661e-08,0.098646395,0.015634386,1.0,43,0.020717252,9.212848e-08,0,-3.0442835400172504e-08,1.0
90,90,15.604198,211130.33,97800.64,232682.14,-24.854706,56.0570301025582,0.21939273,-2.6901213e-07,0.10428863,0.018424438,1.0,43,0.020670554,8.883601e-08,0,-3.06623587053113e-08,1.0
91,91,13.500899,217321.02,106546.43,242034.22,-26.117424,56.804976298095426,0.21939811,-2.4630157e-07,0.11064162,0.02144089,1.0,43,0.020678312,8.543549e-08,0,-3.0691834204020354e-08,1.0
92,92,11.686608,222447.0,118318.22,251956.08,-28.008242,57.39589853948564,0.21940161,-2.1126262e-07,0.115101255,0.025382454,1.0,43,0.020683935,8.2093415e-08,0,-3.0836577279781866e-08,1.0
93,93,10.113269,228403.55,133634.98,264625.2,-30.331165,58.06953502478427,0.21933176,-1.558781e-07,0.11776288,0.030032149,1.0,43,0.020785322,7.854627e-08,0,-3.0808339945474434e-08,1.0
94,94,8.748621,234479.81,143538.14,274925.4,-31.47312,58.83636226123781,0.21938075,-1.7339308e-07,0.12673986,0.034547616,1.0,43,0.020627037,7.502776e-08,0,-3.0256501700228036e-08,1.0
95,95,7.570237,241319.3,158354.19,288636.53,-33.272964,59.712009609502275,0.21934944,-1.8702507e-07,0.13276424,0.039961115,1.0,43,0.020657716,7.157e-08,0,-3.074590146765329e-08,1.0
96,96,6.554112,247839.7,175379.72,303615.8,-35.28451,60.24829611493624,0.21937396,-3.086796e-07,0.13846083,0.04619946,1.0,43,0.020661974,6.8053026e-08,0,-3.0705624622203744e-08,1.0
97,97,5.669445,256291.4,194069.62,321478.3,-37.133827,60.858112863934366,0.21938555,-1.1507591e-07,0.14465119,0.052714948,1.0,43,0.020693569,6.437003e-08,0,-3.076589975357081e-08,1.0
98,98,4.907347,262882.84,214895.42,339540.03,-39.264523,61.55053321682499,0.21935579,-2.1148706e-07,0.15091978,0.060453095,1.0,43,0.020636339,6.077734e-08,0,-3.0393031242583353e-08,1.0
99,99,4.245922,270403.2,239767.28,361394.84,-41.563496,62.338294640911045,0.21931623,-2.2506318e-07,0.15633571,0.06881358,1.0,43,0.020645812,5.7128133e-08,0,-3.134375739484568e-08,1.0
100,100,3.6747382,278650.53,269319.38,387529.4,-44.02443,63.23791249698843,0.21938707,-1.1164039e-07,0.16081484,0.07766976,1.0,43,0.0206649,5.332473e-08,0,-3.056549988768155e-08,1.0
101,101,3.180988,288808.53,300761.9,416974.94,-46.161495,64.26721545253531,0.21939515,-1.8974487e-07,0.16635476,0.08654879,1.0,43,0.020678494,4.9591694e-08,0,-3.032168168779749e-08,1.0
102,102,2.752818,296705.34,338434.34,450079.84,-48.758957,65.44615596186486,0.21936335,-2.3342994e-07,0.17083159,0.09659128,1.0,43,0.020679072,4.594534e-08,0,-3.136354653013464e-08,1.0
103,103,2.3804083,307481.94,381628.75,490087.38,-51.141273,66.80095882620662,0.21932389,-1.3006053e-07,0.17519738,0.1062338,1.0,43,0.02067343,4.218315e-08,0,-3.1607115368399345e-08,1.0
104,104,2.060257,317764.94,430021.12,534689.4,-53.53738,68.35730191346374,0.21934359,-1.1766047e-07,0.17964244,0.116194464,1.0,43,0.020671949,3.8661604e-08,0,-3.0749240331662464e-08,1.0
105,105,1.7836765,331327.3,485206.94,587540.25,-55.67248,70.14565807843246,0.21939582,-1.7224441e-07,0.18389802,0.12541683,1.0,43,0.020655468,3.5155836e-08,0,-3.02841796513404e-08,1.0
