True,index,freq,Re(Z),Im(Z),Z,Phase(Z),time,Ewe_meas,I_meas,Cs,Cp,cycle_number,I_Range,Ewe,I,Ns,(QQo),cycle
0,0,7000018.5,210.14029,1641.2924,1654.6902,-82.70392,2.4654799837444443,-0.01003795,4.6446444e-06,1.38527175e-05,1.3629299e-05,1.0,40,0.010077254,6.090115e-06,0,-1.548267040041493e-09,1.0
1,1,6057573.0,241.73071,1862.0171,1877.6425,-82.60312,3.017495636624517,-0.01000037,-2.7003241e-05,1.4110352e-05,1.3876482e-05,1.0,40,0.014346789,7.640852e-06,0,-5.911686066610855e-09,1.0
2,2,5242039.0,276.80942,2134.0305,2151.9084,-82.609314,3.433478323073359,-0.010039832,-2.6301595e-06,1.4227194e-05,1.3991779e-05,1.0,40,0.019882536,9.239489e-06,0,-7.952393414105549e-09,1.0
3,3,4536288.0,242.06229,2455.671,2467.5725,-84.370384,4.665494008251699,-0.01005416,-2.3058872e-05,1.4287274e-05,1.4149785e-05,1.0,40,0.020131638,8.1584785e-06,0,-2.404560306840469e-08,1.0
4,4,3925558.5,335.8192,2838.7312,2858.5256,-83.25332,5.081494268000824,-0.010048347,-2.4491492e-05,1.4282177e-05,1.4085062e-05,1.0,40,0.019247802,6.7334718e-06,0,-3.162131519650302e-08,1.0
5,5,3397055.0,385.79684,3187.1814,3210.446,-83.09813,5.497502581070876,-0.010067482,-1.7049335e-05,1.4699777e-05,1.4487505e-05,1.0,40,0.020277902,6.316226e-06,0,-3.545179643817341e-08,1.0
6,6,2939708.2,432.15015,3696.0781,3721.256,-83.331184,6.049478820612421,-0.010041192,-5.1525123e-05,1.464788e-05,1.4450335e-05,1.0,40,0.020449625,5.4953557e-06,0,-4.156177355875299e-08,1.0
7,7,2543924.5,454.37732,4237.317,4261.6094,-83.87943,6.601495246839477,-0.010080785,-3.2603442e-05,1.4764712e-05,1.4596864e-05,1.0,40,0.020610407,4.8362967e-06,0,-4.3879453416505186e-08,1.0
8,8,2201436.2,472.5315,4839.975,4862.9873,-84.42383,7.153498979721917,-0.010109496,-3.969209e-05,1.4937259e-05,1.4796223e-05,1.0,40,0.020792682,4.2757015e-06,0,-5.505073777350036e-08,1.0
9,9,1905053.1,426.60632,5793.7505,5809.435,-85.78879,7.872479600569932,-0.010100907,-3.54999e-06,1.4419601e-05,1.4341845e-05,1.0,41,0.019438904,3.346092e-06,0,-6.260679963025318e-08,1.0
10,10,1648567.4,565.4291,6581.888,6606.131,-85.08996,8.42449733344256,-0.0100812875,-1.4103322e-06,1.4667732e-05,1.4560275e-05,1.0,41,0.020087093,3.0406745e-06,0,-6.298176465294662e-08,1.0
11,11,1426616.2,589.3911,7407.309,7430.7207,-85.45062,8.976481919671642,-0.010053042,-5.306011e-06,1.5060955e-05,1.4966201e-05,1.0,41,0.020250712,2.7252688e-06,0,-6.4010884605608e-08,1.0
12,12,1234551.2,693.4946,8621.166,8649.014,-85.40098,9.528485412563896,-0.010059731,-6.1346805e-06,1.4953574e-05,1.48574345e-05,1.0,41,0.020785686,2.4032436e-06,0,-6.355401583716811e-08,1.0
13,13,1068345.5,860.80505,10069.327,10106.055,-85.113785,10.080488665407756,-0.01009284,-1.1626616e-06,1.4794761e-05,1.4687423e-05,1.0,41,0.02075884,2.0540992e-06,0,-6.295105160272859e-08,1.0
14,14,924510.06,1207.1505,11405.266,11468.971,-83.95822,10.632492078322684,-0.010101037,2.1036008e-06,1.5093957e-05,1.4926742e-05,1.0,41,0.020265916,1.7670213e-06,0,-6.286760284041214e-08,1.0
15,15,800039.0,1479.8153,13223.786,13306.328,-83.614845,11.184489704523003,-0.010096063,2.2093836e-07,1.5043647e-05,1.4857588e-05,1.0,41,0.020817146,1.5644546e-06,0,-6.330809891328156e-08,1.0
16,16,692334.1,1826.1013,15003.14,15113.862,-83.0604,11.736480104067596,-0.010028634,-5.0713766e-06,1.5322239e-05,1.5098563e-05,1.0,41,0.020213481,1.3374133e-06,0,-6.487410865837736e-08,1.0
17,17,599122.25,2302.3228,17510.033,17660.746,-82.509384,12.288497356959851,-0.010124905,2.9844123e-06,1.5171124e-05,1.4913294e-05,1.0,41,0.020846777,1.1804018e-06,0,-6.423469608609858e-08,1.0
18,18,518454.94,2934.0044,19784.322,20000.695,-81.564545,12.840488769841613,-0.010104764,1.9304189e-06,1.551629e-05,1.5182389e-05,1.0,41,0.020234399,1.0116847e-06,0,-6.533192015153746e-08,1.0
19,19,448662.03,3980.9275,22908.656,23251.975,-80.14193,13.392502022761619,-0.010031541,-4.1253898e-06,1.5484644e-05,1.5030753e-05,1.0,41,0.020330317,8.74348e-07,0,-6.572165932209688e-08,1.0
20,20,388258.97,4164.0767,25588.367,25924.97,-80.757095,13.9444879956136,-0.010056713,-3.5983924e-06,1.6019763e-05,1.5606469e-05,1.0,41,0.02065054,7.965502e-07,0,-6.66231144098701e-08,1.0
21,21,335983.9,5841.954,29229.418,29807.504,-78.69747,14.496496155188652,-0.010032548,-2.7808962e-06,1.620621e-05,1.55837e-05,1.0,41,0.02015793,6.762703e-07,0,-6.755217832570932e-08,1.0
22,22,290751.2,8486.288,33670.582,34723.555,-75.853874,15.049491941434098,-0.010105006,1.5449472e-06,1.6257285e-05,1.5286249e-05,1.0,41,0.020511646,5.907127e-07,0,-6.811311012155367e-08,1.0
23,23,251605.19,10522.489,38448.5,39862.387,-74.69422,15.601482927653706,-0.010053378,-2.6393707e-06,1.6452092e-05,1.5305706e-05,1.0,41,0.02053389,5.1511944e-07,0,-6.751780337301877e-08,1.0
24,24,217729.38,13381.613,42925.977,44963.4,-72.685814,16.153495327249402,-0.010016133,-5.4531247e-06,1.7028757e-05,1.5520476e-05,1.0,41,0.02017517,4.4870208e-07,0,-6.762229140185304e-08,1.0
25,25,188418.58,16843.523,48014.375,50883.047,-70.669044,16.705479433439905,-0.010131147,1.2730688e-06,1.7592401e-05,1.5664678e-05,1.0,41,0.020840993,4.095862e-07,0,-6.713364528431182e-08,1.0
26,26,163051.14,18835.086,53622.7,56834.445,-70.646065,17.42447901426931,-0.010063346,-7.175057e-07,1.8203194e-05,1.6203981e-05,1.0,42,0.019308738,3.3973654e-07,0,-6.725166875735835e-08,1.0
27,27,141098.2,24131.732,59872.848,64553.066,-68.04812,17.840504047373543,-0.0100974785,-1.7905361e-07,1.8839472e-05,1.6206708e-05,1.0,42,0.02100345,3.2536718e-07,0,-6.726275657386793e-08,1.0
28,28,122105.11,28540.447,64096.914,70163.89,-65.99802,18.392502926901216,-0.01008071,-3.9864372e-07,2.0335234e-05,1.6970558e-05,1.0,42,0.020185206,2.8768653e-07,0,-6.730584326181068e-08,1.0
29,29,105663.59,35533.14,71417.92,79769.19,-63.5479,18.80849060000037,-0.010122799,-3.2228067e-07,2.1090533e-05,1.690564e-05,1.0,42,0.021654317,2.7146217e-07,0,-6.73946999680588e-08,1.0
30,30,91439.65,43411.406,77661.11,88970.77,-60.79546,19.360495559551055,-0.010139158,-5.5382703e-08,2.241207e-05,1.7076327e-05,1.0,42,0.020415992,2.2946851e-07,0,-6.739155677458047e-08,1.0
31,31,79127.08,51500.29,83821.51,98378.48,-58.433258,19.776491259312024,-0.0100916475,-2.6696407e-07,2.3996037e-05,1.7420085e-05,1.0,42,0.021366233,2.1718402e-07,0,-6.743163516671104e-08,1.0
32,32,68475.36,61068.734,88317.586,107374.98,-55.337402,20.328502485499484,-0.010101541,8.356067e-08,2.6317137e-05,1.780438e-05,1.0,42,0.020227201,1.883791e-07,0,-6.757354820016757e-08,1.0
33,33,59252.523,71104.14,92693.664,116824.29,-52.508644,20.744486665265867,-0.010134071,4.929048e-08,2.8977653e-05,1.8243032e-05,1.0,42,0.020893164,1.7884264e-07,0,-6.761778188100346e-08,1.0
34,34,51282.285,80599.04,97411.164,126432.35,-50.39528,21.160481591679854,-0.010150859,-3.787499e-08,3.1859872e-05,1.8912331e-05,1.0,42,0.021431295,1.69508e-07,0,-6.766666510623528e-08,1.0
35,35,44369.8,93103.93,99213.16,136057.31,-46.819473,21.57649462480913,-0.010106962,-2.656601e-07,3.6154583e-05,1.9224637e-05,1.0,42,0.021864807,1.6070292e-07,0,-6.768325416745293e-08,1.0
36,36,38403.727,102689.51,101464.5,144361.28,-44.656208,22.128484277665848,-0.010047378,-4.472551e-07,4.084441e-05,2.017713e-05,1.0,42,0.020229751,1.4013281e-07,0,-6.78163864417161e-08,1.0
37,37,33226.32,111733.55,102095.016,151353.16,-42.419083,22.54450005744002,-0.010078195,-2.2952746e-07,4.691734e-05,2.134811e-05,1.0,42,0.020397173,1.3476543e-07,0,-6.784694127329911e-08,1.0
38,38,28754.086,121890.74,104940.484,160841.1,-40.72644,22.96048455723212,-0.010022262,-8.316774e-07,5.274454e-05,2.2452752e-05,1.0,42,0.020545445,1.2773754e-07,0,-6.783737814029846e-08,1.0
39,39,24884.947,130164.49,106594.25,168241.28,-39.31472,23.376487030269345,-0.0100560235,-2.9620517e-07,5.9999777e-05,2.4085299e-05,1.0,42,0.020598754,1.224358e-07,0,-6.777945633881139e-08,1.0
40,40,21553.963,139439.55,107687.35,176181.6,-37.67844,23.793479396757903,-0.010095672,-2.1872471e-07,6.8569076e-05,2.5617492e-05,1.0,42,0.020607134,1.169653e-07,0,-6.778337930556016e-08,1.0
41,41,18631.234,146207.92,110837.05,183471.0,-37.164974,24.209478883218253,-0.010058856,-3.6977423e-07,7.7071454e-05,2.8127335e-05,1.0,42,0.020546105,1.1198557e-07,0,-6.775645662870941e-08,1.0
42,42,16126.037,154888.97,113801.59,192201.44,-36.305847,24.625503996299813,-0.010049409,-7.324052e-07,8.672496e-05,3.0403777e-05,1.0,42,0.02037945,1.0603173e-07,0,-6.786137034821336e-08,1.0
43,43,13954.87,159469.66,125237.266,202768.2,-38.14382,25.041493482684018,-0.010056079,-3.789005e-07,9.106695e-05,3.473987e-05,1.0,42,0.020140732,9.9328844e-08,0,-6.792103741174395e-08,1.0
44,44,12080.609,168561.23,124042.484,209283.12,-36.348972,25.457504889142,-0.010071506,-4.4855835e-07,0.00010620887,3.7310692e-05,1.0,42,0.019845068,9.4824024e-08,0,-6.79198125063007e-08,1.0
45,45,10447.592,175192.42,128281.59,217137.17,-36.212803,25.873486535536358,-0.010058315,-5.131875e-07,0.00011875164,4.1447653e-05,1.0,42,0.019319283,8.897271e-08,0,-6.794320075289622e-08,1.0
46,46,9045.586,180979.45,136115.28,226452.94,-36.946957,26.305244049435714,-0.010054961,-3.3010218e-07,0.00012926369,4.6701884e-05,1.0,42,0.021927008,9.68281e-08,0,-6.802139034907542e-08,1.0
47,47,7827.7437,185456.22,143276.95,234355.06,-37.68841,26.784943965554703,-0.010076127,-3.1054574e-07,0.00014190811,5.3040938e-05,1.0,42,0.021921424,9.353937e-08,0,-6.811936947137001e-08,1.0
48,48,6770.8345,194465.38,154898.45,248616.8,-38.538544,27.498423012759304,-0.010048384,-5.2175494e-07,0.00015175076,5.890662e-05,1.0,42,0.020199597,8.124792e-08,0,-6.836745421492177e-08,1.0
49,49,5860.798,200803.95,167035.64,261195.58,-39.75485,28.10498485493008,-0.010096324,-2.714333e-07,0.00016257518,6.6487635e-05,1.0,42,0.020232037,7.745934e-08,0,-6.849203267165451e-08,1.0
50,50,5071.625,205926.31,182891.02,275417.44,-41.6095,28.785695660604688,-0.010071786,-3.382975e-07,0.00017158552,7.566282e-05,1.0,42,0.020236839,7.347697e-08,0,-6.857550338053247e-08,1.0
51,51,4388.5933,215183.66,201285.12,294651.84,-43.088615,29.46582937290077,-0.010034578,-2.9601867e-07,0.00018017027,8.4079125e-05,1.0,42,0.020332173,6.900406e-08,0,-6.858119649762765e-08,1.0
52,52,3798.7827,223553.56,220364.77,313905.75,-44.588436,30.145843325197347,-0.010094311,-1.6899548e-07,0.0001901225,9.369562e-05,1.0,42,0.020275462,6.459092e-08,0,-6.856492728202607e-08,1.0
53,53,3286.0488,228942.03,240983.78,332396.8,-46.46787,30.82567733083124,-0.010033591,-3.4910036e-07,0.00020098254,0.00010563801,1.0,42,0.020218574,6.0826615e-08,0,-6.858476636837413e-08,1.0
54,54,2844.088,238484.33,269385.9,359782.62,-48.48189,31.505820563121233,-0.010066196,-3.2339787e-07,0.00020773144,0.000116458614,1.0,42,0.02024669,5.6274786e-08,0,-6.863576810238876e-08,1.0
55,55,2460.7852,261742.03,313322.2,408264.22,-50.125404,32.436688554014836,-0.010060756,-1.078701e-07,0.00020642167,0.000121577985,1.0,43,0.02010115,4.923564e-08,0,-6.863289542672963e-08,1.0
56,56,2129.3164,275130.3,348368.2,443911.12,-51.699425,33.11683095963963,-0.010071823,-1.04033774e-07,0.00021455639,0.00013213759,1.0,43,0.020105712,4.52922e-08,0,-6.86507785752474e-08,1.0
57,57,1843.2289,288608.3,388215.9,483742.03,-53.372066,33.796964778593974,-0.010099659,-9.975047e-08,0.00022241677,0.00014324734,1.0,43,0.020136056,4.1625608e-08,0,-6.868203159349267e-08,1.0
58,58,1594.4913,303530.72,430518.75,526761.1,-54.81483,34.47681907757942,-0.010076667,-9.0699714e-08,0.00023184935,0.00015486834,1.0,43,0.0200998,3.8157335e-08,0,-6.871549669598408e-08,1.0
59,59,1380.4436,322649.34,484705.25,582272.94,-56.349846,35.156712923206214,-0.010046689,-1.0226456e-07,0.00023786127,0.0001648261,1.0,43,0.020193122,3.467982e-08,0,-6.874757021357662e-08,1.0
60,60,1194.6187,339966.5,541758.75,639593.44,-57.89075,35.83683863549959,-0.010059247,-9.5113336e-08,0.00024591494,0.00017643665,1.0,43,0.020216722,3.1608707e-08,0,-6.876744960104612e-08,1.0
61,61,1033.3434,363570.44,605461.7,706234.6,-59.01583,36.517103867809055,-0.010010674,-9.6714935e-08,0.00025438343,0.00018696664,1.0,43,0.020195995,2.8596721e-08,0,-6.878178592293614e-08,1.0
62,62,894.71045,391344.4,679069.06,783763.5,-60.04535,37.19680587343464,-0.0100535825,-1.077397e-07,0.0002619532,0.00019664437,1.0,43,0.020221628,2.5800675e-08,0,-6.88000739873947e-08,1.0
63,63,774.2569,406158.0,763327.94,864658.25,-61.98307,37.876953852392035,-0.010038714,-8.785045e-08,0.00026929227,0.00020987332,1.0,43,0.020210959,2.3374506e-08,0,-6.883181975059926e-08,1.0
64,64,669.7856,448077.56,857504.6,967516.25,-62.411285,38.55683583136124,-0.01011272,-8.740355e-08,0.00027710723,0.00021767286,1.0,43,0.020256255,2.0936346e-08,0,-6.884706320229759e-08,1.0
65,65,579.81464,483550.97,962782.75,1077391.4,-63.332226,39.2368350103352,-0.010097646,-8.317619e-08,0.00028510357,0.00022767339,1.0,43,0.020249737,1.8795154e-08,0,-6.885206539868468e-08,1.0
66,66,501.44418,519658.75,1077618.8,1196372.6,-64.255295,39.91418088247883,-0.010086356,-8.001036e-08,0.00029453193,0.00023896249,1.0,43,0.020192372,1.6877996e-08,0,-6.886584027733455e-08,1.0
67,67,434.02762,573599.3,1207780.9,1337068.0,-64.59602,40.594208888098365,-0.010062489,-7.727283e-08,0.00030360898,0.00024773303,1.0,43,0.020191353,1.5101216e-08,0,-6.889360374944944e-08,1.0
68,68,375.6009,625518.06,1365974.4,1502384.4,-65.39562,41.27244137364323,-0.010046652,-9.68269e-08,0.00031020655,0.00025643304,1.0,43,0.020231511,1.3466269e-08,0,-6.892451889541472e-08,1.0
69,69,325.10385,686591.5,1525888.2,1673243.2,-65.77407,41.951702045953425,-0.010105956,-8.055049e-08,0.00032083024,0.0002668103,1.0,43,0.020133717,1.203275e-08,0,-6.893940804487266e-08,1.0
70,70,281.3503,757855.4,1728919.2,1887725.2,-66.330215,42.62882423811243,-0.010062694,-9.351207e-08,0.0003271885,0.00027445419,1.0,43,0.02020803,1.0704963e-08,0,-6.895045619011222e-08,1.0
71,71,243.36427,842485.94,1942401.8,2117240.5,-66.55198,43.31209349722485,-0.0100558,-9.867065e-08,0.0003366854,0.0002833753,1.0,43,0.020208824,9.544888e-09,0,-6.898175623726803e-08,1.0
72,72,210.60631,953218.25,2183232.5,2382253.0,-66.4135,43.98918347604922,-0.010053303,-1.2513384e-07,0.00034613762,0.00029071872,1.0,43,0.020216199,8.486168e-09,0,-6.900213333988997e-08,1.0
73,73,182.27473,1088162.9,2474293.8,2703003.5,-66.26072,44.66127996126306,-0.010085555,-1.0582191e-07,0.00035289247,0.00029570024,1.0,43,0.020213839,7.478288e-09,0,-6.902095404007882e-08,1.0
74,74,157.72879,1229321.9,2755246.8,3017054.2,-65.95477,45.34965626068515,-0.009985837,-7.859523e-08,0.00036622558,0.00030542418,1.0,43,0.020198338,6.6947217e-09,0,-6.904553365488021e-08,1.0
75,75,136.52892,1403945.6,3085479.2,3389874.0,-65.53365,46.02153853254276,-0.010051961,-9.084912e-08,0.00037780948,0.0003130048,1.0,43,0.020190513,5.956125e-09,0,-6.905862228385197e-08,1.0
76,76,118.14758,1628260.6,3420858.8,3788602.2,-64.546486,46.709885551943444,-0.010061333,-9.021594e-08,0.00039378591,0.0003210498,1.0,43,0.020153388,5.3194786e-09,0,-6.907306230248168e-08,1.0
77,77,102.25773,1893430.9,3842551.0,4283722.5,-63.76806,47.37636073023896,-0.0100667365,-1.0608268e-07,0.00040504598,0.00032591246,1.0,43,0.020156115,4.7052806e-09,0,-6.909383471364845e-08,1.0
78,78,88.4436,2211906.2,4255635.0,4796140.0,-62.53642,48.06627649636357,-0.010041229,-1.0418316e-07,0.0004228529,0.00033291575,1.0,43,0.020190464,4.209732e-09,0,-6.911664545278206e-08,1.0
79,79,76.54279,2597603.2,4741265.5,5406213.0,-61.28293,48.73372530141205,-0.010090063,-7.2486976e-08,0.00043855244,0.0003373058,1.0,43,0.02019787,3.736048e-09,0,-6.913379191374812e-08,1.0
80,80,66.250786,3048913.0,5150169.5,5984991.0,-59.374363,49.4019998931326,-0.010080822,-6.360386e-08,0.00046645265,0.00034540103,1.0,43,0.020160722,3.3685466e-09,0,-6.915426193547268e-08,1.0
81,81,57.329906,3479686.5,5514936.0,6520946.0,-57.749844,50.05560656420903,-0.010041732,-1.3111192e-07,0.0005033829,0.00036004616,1.0,43,0.02018015,3.094666e-09,0,-6.91667253064897e-08,1.0
82,82,49.60321,4193820.2,6084711.5,7389982.5,-55.423874,50.74135345008108,-0.010058781,-1.14444425e-07,0.0005273153,0.00035748968,1.0,43,0.0201695,2.7293028e-09,0,-6.918664191470993e-08,1.0
83,83,42.92585,4748554.5,6758637.0,8260021.0,-54.908485,51.44941284370725,-0.010142139,-7.8539465e-08,0.0005485827,0.00036728065,1.0,43,0.02022342,2.4483497e-09,0,-6.920496633193985e-08,1.0
84,84,37.1518,5793832.0,6826986.5,8954118.0,-49.679863,52.09318796763546,-0.010100497,-9.3717134e-08,0.00062749645,0.00036477388,1.0,43,0.020163516,2.2518707e-09,0,-6.92200470991847e-08,1.0
85,85,32.150223,6639560.5,7165693.0,9768875.0,-47.182545,52.73235533127445,-0.010084362,-6.904179e-08,0.00069084077,0.00037171083,1.0,43,0.020157292,2.06342e-09,0,-6.923293374226387e-08,1.0
86,86,27.835518,7383225.0,7689463.5,10660200.0,-46.163944,53.46034389923443,-0.01004599,-1.01678445e-07,0.000743575,0.0003868888,1.0,43,0.020219583,1.8967359e-09,0,-6.925121922293573e-08,1.0
87,87,24.082958,8556221.0,7479344.5,11364397.0,-41.15804,54.16238414586405,-0.010067258,-7.623024e-08,0.0008835818,0.0003827199,1.0,43,0.02016897,1.7747506e-09,0,-6.926712453425448e-08,1.0
88,88,20.833313,9504713.0,7625166.0,12185349.0,-38.738365,54.81674529700831,-0.010039665,-7.26174e-08,0.0010018726,0.0003923152,1.0,43,0.020187322,1.656688e-09,0,-6.929057408133904e-08,1.0
89,89,18.021912,10518498.0,7250797.5,12775479.0,-34.57996,55.56274455910898,-0.0100931935,-1.7851659e-07,0.0012179613,0.00039232924,1.0,43,0.020160027,1.5780252e-09,0,-6.930033601772125e-08,1.0
90,90,15.604198,11415560.0,7286188.0,13542657.0,-32.54879,56.21799387020292,-0.010072382,-6.719813e-08,0.0013998398,0.00040520175,1.0,43,0.020168006,1.4892207e-09,0,-6.931725950476735e-08,1.0
91,91,13.500899,12291936.0,7093184.5,14191721.0,-29.987526,56.965983345755376,-0.010059033,-6.684431e-08,0.0016619433,0.0004151725,1.0,43,0.020188209,1.4225342e-09,0,-6.933402328092174e-08,1.0
92,92,11.686608,12822772.0,6746068.5,14489062.0,-27.748886,57.556874333822634,-0.010004041,-1.1047778e-07,0.0020187425,0.00043762475,1.0,43,0.02013819,1.3898891e-09,0,-6.934496212428521e-08,1.0
93,93,10.113269,13731934.0,6262435.5,15092518.0,-24.515312,58.230504419101635,-0.010027815,-1.0360592e-07,0.0025129586,0.0004326617,1.0,43,0.020185824,1.3374722e-09,0,-6.935478342324173e-08,1.0
94,94,8.748621,14184706.0,6001523.5,15402083.0,-22.933136,58.99737858885783,-0.010057225,-8.421949e-08,0.003031231,0.0004602387,1.0,43,0.020166561,1.3093399e-09,0,-6.938013027727042e-08,1.0
95,95,7.570237,14736698.0,5627499.5,15774632.0,-20.900345,59.87301809716155,-0.010052372,-9.095166e-08,0.0037358995,0.00047545304,1.0,43,0.02017109,1.2787043e-09,0,-6.940647405377654e-08,1.0
96,96,6.554112,15211028.0,4622674.0,15897940.0,-16.904173,60.40931622925564,-0.01006137,-7.140691e-08,0.005253068,0.00044413793,1.0,43,0.020158684,1.268006e-09,0,-6.940747520289737e-08,1.0
97,97,5.669445,15825638.0,4620382.0,16486320.0,-16.275455,61.01912081820774,-0.010062265,-7.328783e-08,0.0060757757,0.00047721053,1.0,43,0.02017776,1.2239092e-09,0,-6.943466938885173e-08,1.0
98,98,4.907347,15646515.0,4516226.0,16285261.0,-16.10031,61.7115586111031,-0.010037485,-6.332457e-08,0.0071812104,0.0005522803,1.0,43,0.020120533,1.2355057e-09,0,-6.944272717646843e-08,1.0
99,99,4.245922,16266268.0,4238672.5,16809456.0,-14.605368,62.49933035517461,-0.010011214,-8.397739e-08,0.008843379,0.00056230335,1.0,43,0.020170443,1.1999463e-09,0,-6.94547675161533e-08,1.0
100,100,3.6747382,16594692.0,4038489.5,17079028.0,-13.67764,63.398968957946636,-0.010068805,-7.690999e-08,0.010724443,0.0005996342,1.0,43,0.020165538,1.1807193e-09,0,-6.949747145840303e-08,1.0
101,101,3.180988,16791704.0,4032449.2,17269104.0,-13.503607,64.42716644678148,-0.010055493,-8.088598e-08,0.01240764,0.0006765305,1.0,43,0.020153474,1.1670249e-09,0,-6.951133512290762e-08,1.0
102,102,2.752818,17185304.0,3732778.5,17586026.0,-12.254722,65.6061420761107,-0.010037727,-9.175553e-08,0.015488536,0.0006978136,1.0,43,0.020181961,1.1476136e-09,0,-6.951729248758298e-08,1.0
103,103,2.3804083,17456306.0,3614986.8,17826686.0,-11.699873,66.96099656715523,-0.01005383,-8.1618445e-08,0.018495325,0.00076056115,1.0,43,0.0201649,1.1311636e-09,0,-6.955709835761385e-08,1.0
