True,index,freq,Re(Z),Im(Z),Z,Phase(Z),time,Ewe_meas,I_meas,Cs,Cp,cycle_number,I_Range,Ewe,I,Ns,(QQo),cycle
0,0,7000018.5,199.1398,1347.6967,1362.33,-81.59462,2.467490570532391,-0.02636644,-6.8348822e-06,1.6870534e-05,1.6510054e-05,1.0,40,0.009925716,7.2858384e-06,0,4.477958882053675e-09,1.0
1,1,6057573.0,197.65416,1549.231,1561.7886,-82.72936,3.0194940900837537,-0.026356528,-2.1086724e-05,1.6959199e-05,1.6687572e-05,1.0,40,0.01409356,9.023987e-06,0,6.334905977022724e-09,1.0
2,2,5242039.0,196.86597,1757.7742,1768.764,-83.60966,3.4355024298129138,-0.026317606,-1.124445e-05,1.7272563e-05,1.7058592e-05,1.0,40,0.019511202,1.1030981e-05,0,7.21685799183231e-09,1.0
3,3,4536288.0,173.8152,2034.5244,2041.9357,-85.11691,4.803499908099184,-0.026389152,-2.8534157e-06,1.7244738e-05,1.7119784e-05,1.0,40,0.018896114,9.25402e-06,0,-8.756438154326437e-09,1.0
4,4,3925558.5,226.43193,2316.613,2327.6528,-84.41749,5.220488434570143,-0.026405623,-5.0914616e-07,1.7501094e-05,1.7335475e-05,1.0,40,0.018080773,7.767813e-06,0,-9.842288285628657e-09,1.0
5,5,3397055.0,287.38425,2634.7131,2650.34,-83.77501,5.636482934380183,-0.026413038,-9.756023e-06,1.7782148e-05,1.7573071e-05,1.0,40,0.019081812,7.1997597e-06,0,-8.574313940913373e-09,1.0
6,6,2939708.2,272.08032,2989.2932,3001.65,-84.79937,6.052496047428576,-0.026398094,-1.0425807e-05,1.8111206e-05,1.7962398e-05,1.0,40,0.020817805,6.935454e-06,0,-1.0282493430458493e-08,1.0
7,7,2543924.5,335.25723,3481.8445,3497.9478,-84.5001,6.605501380370697,-0.026439924,-2.3696737e-06,1.7968281e-05,1.7803224e-05,1.0,40,0.020678964,5.9117415e-06,0,-6.008484699691508e-09,1.0
8,8,2201436.2,362.77515,3979.276,3995.778,-84.79096,7.1574982866004575,-0.026436774,1.7235113e-06,1.8168119e-05,1.8018363e-05,1.0,40,0.020677218,5.1747666e-06,0,-9.328275049954174e-09,1.0
9,9,1905053.1,338.0865,4611.2256,4623.603,-85.80669,7.709498739481205,-0.026453227,1.1193653e-05,1.8117433e-05,1.8020562e-05,1.0,40,0.020412898,4.414933e-06,0,-1.2028374410874676e-08,1.0
10,10,1648567.4,432.92087,5255.8125,5273.6123,-85.29118,8.261500179040013,-0.026455443,9.686614e-06,1.8368495e-05,1.8244707e-05,1.0,40,0.019842751,3.7626487e-06,0,-1.3522983095299423e-08,1.0
11,11,1426616.2,363.5941,6129.357,6140.132,-86.60519,8.979502506466815,-0.0264664,-2.4648227e-07,1.8201117e-05,1.8137294e-05,1.0,41,0.01934785,3.151048e-06,0,-2.3020302594024617e-08,1.0
12,12,1234551.2,529.8335,7029.8516,7049.79,-85.68982,9.53150034599821,-0.026403219,-2.3805255e-06,1.8338544e-05,1.823496e-05,1.0,41,0.020718962,2.9389473e-06,0,-2.2585485729299155e-08,1.0
13,13,1068345.5,418.9101,8361.789,8372.275,-87.13199,10.083496292267228,-0.026435638,-2.1294883e-07,1.7815959e-05,1.7771357e-05,1.0,41,0.020709338,2.4735614e-06,0,-2.2673104266080674e-08,1.0
14,14,924510.06,648.8697,9477.07,9499.258,-86.08322,10.635483865131391,-0.026428074,-1.2542658e-07,1.8164958e-05,1.80802e-05,1.0,41,0.020183302,2.1247242e-06,0,-2.2741570506868117e-08,1.0
15,15,800039.0,688.46216,10615.36,10637.662,-86.28926,11.18750423801248,-0.02642677,-7.6601566e-07,1.87402e-05,1.8661705e-05,1.0,41,0.020733077,1.9490258e-06,0,-2.326768032364473e-08,1.0
16,16,692334.1,552.15796,12698.164,12710.163,-87.51016,11.739483090903377,-0.026472026,2.598942e-06,1.8103538e-05,1.8069373e-05,1.0,41,0.020425033,1.6069844e-06,0,-2.3695173774964612e-08,1.0
17,17,599122.25,1075.61,14510.239,14550.051,-85.76055,12.291499703802401,-0.026403572,-3.2501637e-06,1.8307546e-05,1.8207496e-05,1.0,41,0.020501938,1.409063e-06,0,-2.308266514574105e-08,1.0
18,18,518454.94,1366.3611,16879.068,16934.281,-85.371994,12.843485970020993,-0.026436606,2.6305995e-06,1.8186982e-05,1.806858e-05,1.0,41,0.020582262,1.2154198e-06,0,-2.253937941336896e-08,1.0
19,19,448662.03,1537.8015,19133.617,19195.316,-85.404915,13.395503649575403,-0.026434818,2.8112308e-06,1.8539744e-05,1.8420751e-05,1.0,41,0.020223668,1.053573e-06,0,-2.3300363168459627e-08,1.0
20,20,388258.97,1831.3888,21932.895,22009.223,-85.2269,13.947480422415538,-0.026444003,1.2507248e-06,1.8689716e-05,1.8560308e-05,1.0,41,0.02083987,9.468699e-07,0,-2.3812303695273663e-08,1.0
21,21,335983.9,2479.6516,25057.262,25179.654,-84.34844,14.499479328660527,-0.026426584,6.362045e-07,1.8904624e-05,1.8721288e-05,1.0,41,0.0202265,8.032875e-07,0,-2.4615761967103663e-08,1.0
22,22,290751.2,3460.3801,28877.758,29084.346,-83.16691,15.051487381540937,-0.026445048,3.1408356e-06,1.8955496e-05,1.8687168e-05,1.0,41,0.02061014,7.086335e-07,0,-2.553113541938501e-08,1.0
23,23,251605.19,4099.2183,33332.504,33583.617,-82.98899,15.603498954413226,-0.02648231,5.3717263e-06,1.8977222e-05,1.8694487e-05,1.0,41,0.020377975,6.067832e-07,0,-2.53668540553949e-08,1.0
24,24,217729.38,4777.2495,38340.973,38637.445,-82.897606,16.15548751395545,-0.026417304,3.641761e-06,1.9065139e-05,1.877368e-05,1.0,41,0.020184966,5.224198e-07,0,-2.613561769636874e-08,1.0
25,25,188418.58,6783.212,45080.215,45587.69,-81.44291,16.707491913548438,-0.026429024,2.1259473e-06,1.8737448e-05,1.8322604e-05,1.0,41,0.02082404,4.5679084e-07,0,-2.636420428408807e-08,1.0
26,26,163051.14,7461.7607,49443.805,50003.676,-81.41803,17.259487246425124,-0.026464218,5.6789854e-06,1.9741694e-05,1.930209e-05,1.0,41,0.020374928,4.074686e-07,0,-2.6514443645775524e-08,1.0
27,27,141098.2,7706.703,57041.965,57560.223,-82.305595,17.978481120575452,-0.026474727,8.281557e-08,1.977444e-05,1.9419953e-05,1.0,42,0.0189072,3.2847686e-07,0,-2.6446087669947123e-08,1.0
28,28,122105.11,14957.59,61816.09,63599.99,-76.39764,18.394496713677654,-0.026403684,-2.6323892e-07,2.1085543e-05,1.9919285e-05,1.0,42,0.020305848,3.192744e-07,0,-2.6497257278397986e-08,1.0
29,29,105663.59,12516.72,74989.12,76026.55,-80.5239,18.81048897342407,-0.026450897,4.5192966e-08,2.0086141e-05,1.9541705e-05,1.0,42,0.021924736,2.8838264e-07,0,-2.6486138984333806e-08,1.0
30,30,91439.65,15533.544,85920.57,87313.43,-79.75221,19.362484972953098,-0.026374694,-7.206719e-07,2.0257621e-05,1.961646e-05,1.0,42,0.020435272,2.34045e-07,0,-2.647525493188733e-08,1.0
31,31,79127.08,19259.322,96454.71,98358.695,-78.70813,19.778484672744526,-0.026424812,2.1689528e-09,2.0853144e-05,2.0053627e-05,1.0,42,0.021439666,2.1797428e-07,0,-2.6418270374754096e-08,1.0
32,32,68475.36,26114.297,111784.19,114793.99,-76.85075,20.33050109897158,-0.026458817,2.8713322e-07,2.0792439e-05,1.9716412e-05,1.0,42,0.020252429,1.7642412e-07,0,-2.6350801314103932e-08,1.0
33,33,59252.523,31435.48,125293.305,129176.63,-75.9155,20.746491118712584,-0.026432788,1.9475266e-07,2.1438056e-05,2.0168482e-05,1.0,42,0.02090808,1.6185652e-07,0,-2.6340163391443146e-08,1.0
34,34,51282.285,38173.645,145356.5,150285.53,-75.28522,21.162482338462723,-0.026470516,1.3459359e-07,2.1351005e-05,1.997344e-05,1.0,42,0.021543274,1.4334896e-07,0,-2.6348696367994664e-08,1.0
35,35,44369.8,54479.633,162041.31,170954.44,-71.41693,21.578501798241632,-0.02642295,1.5284621e-07,2.2136393e-05,1.9888299e-05,1.0,42,0.021949746,1.283953e-07,0,-2.6332753980571433e-08,1.0
36,36,38403.727,68875.91,183098.03,195624.08,-69.38523,22.131484197831014,-0.02646053,3.5716366e-07,2.2634093e-05,1.9828316e-05,1.0,42,0.02020717,1.03295925e-07,0,-2.6411466305164418e-08,1.0
37,37,33226.32,83913.375,202146.47,218871.31,-67.456085,22.547479497588938,-0.026425987,4.8731735e-08,2.3695819e-05,2.0212794e-05,1.0,42,0.020389756,9.3158654e-08,0,-2.644191212931979e-08,1.0
38,38,28754.086,106850.9,221351.75,245792.02,-64.232475,22.96350386404083,-0.026436588,6.4376806e-08,2.5005618e-05,2.0280002e-05,1.0,42,0.020494,8.337943e-08,0,-2.6477935057773295e-08,1.0
39,39,24884.947,135022.95,241896.9,277029.44,-60.830452,23.379497510410147,-0.026443165,2.5863676e-07,2.6439491e-05,2.015867e-05,1.0,42,0.020560047,7.421611e-08,0,-2.6427003317642633e-08,1.0
40,40,21553.963,163989.38,264170.06,310931.4,-58.169147,23.79650438358658,-0.026425261,1.2062459e-07,2.7951775e-05,2.0176572e-05,1.0,42,0.020545118,6.607605e-08,0,-2.6441922769347116e-08,1.0
41,41,18631.234,193564.0,277264.12,338145.56,-55.080284,24.21248960334924,-0.02643588,5.0035407e-08,3.080951e-05,2.0714038e-05,1.0,42,0.0204027,6.033703e-08,0,-2.6475408735562113e-08,1.0
42,42,16126.037,233099.7,286828.3,369602.44,-50.89992,24.628491649782518,-0.026426788,-5.8921536e-08,3.4408873e-05,2.0722628e-05,1.0,42,0.020182025,5.4604683e-08,0,-2.653777746314153e-08,1.0
43,43,13954.87,262855.5,302908.28,401056.66,-49.04945,25.044494869507616,-0.026393494,-4.8655426e-07,3.7651578e-05,2.147801e-05,1.0,42,0.019899849,4.961855e-08,0,-2.6570860515064174e-08,1.0
44,44,12080.609,283126.0,308589.38,418793.2,-47.464096,25.460503395966953,-0.026468411,6.549424e-08,4.2692376e-05,2.3179979e-05,1.0,42,0.019454971,4.645484e-08,0,-2.6590654632377112e-08,1.0
45,45,10447.592,364083.16,318723.1,483881.12,-41.19932,26.042498836904997,-0.026433626,-1.4271394e-07,4.779587e-05,2.0736721e-05,1.0,43,0.018781463,3.8814207e-08,0,-2.660695888743921e-08,1.0
46,46,9045.586,390535.72,312000.75,499862.6,-38.621517,26.474258804082638,-0.026422484,-1.04834925e-07,5.6393335e-05,2.197039e-05,1.0,43,0.021336606,4.2684942e-08,0,-2.6619762399034396e-08,1.0
47,47,7827.7437,437877.75,306514.8,534498.1,-34.992054,26.95494146697456,-0.026448196,-6.373417e-08,6.633337e-05,2.1814367e-05,1.0,43,0.021308506,3.9866382e-08,0,-2.6633328338259844e-08,1.0
48,48,6770.8345,483474.47,295964.56,566870.9,-31.473372,27.493392985867104,-0.026459655,-6.878096e-08,7.942152e-05,2.1649576e-05,1.0,43,0.021355765,3.7673068e-08,0,-2.6651467932969216e-08,1.0
49,49,5860.798,514928.44,275737.22,584108.1,-28.168446,28.100982614734676,-0.026429303,-6.904168e-08,9.8484525e-05,2.1946853e-05,1.0,43,0.021346712,3.6545824e-08,0,-2.6673434766577032e-08,1.0
50,50,5071.625,550717.56,257640.45,608003.6,-25.071455,28.781690060415713,-0.026348162,-1.0215321e-07,0.00012180327,2.1871307e-05,1.0,43,0.021377308,3.5159836e-08,0,-2.6697322777664024e-08,1.0
51,51,4388.5933,575142.4,238023.05,622449.75,-22.48225,29.461825666046934,-0.02642226,-1.09155394e-07,0.00015236171,2.227949e-05,1.0,43,0.02137292,3.433678e-08,0,-2.6709647528302455e-08,1.0
52,52,3798.7827,599079.25,217863.97,637464.25,-19.984539,30.14180143167323,-0.026426062,-7.5392045e-08,0.00019230487,2.2462053e-05,1.0,43,0.021375502,3.353208e-08,0,-2.671885615537538e-08,1.0
53,53,3286.0488,617598.2,199696.52,649081.06,-17.91829,30.821677570638712,-0.026553335,-3.2726916e-08,0.0002425357,2.295719e-05,1.0,43,0.02135993,3.2907955e-08,0,-2.6722536293972057e-08,1.0
54,54,2844.088,633609.06,180964.88,658945.2,-15.939854,31.501814189599827,-0.026448326,-7.7068044e-08,0.00030923088,2.3322376e-05,1.0,43,0.021322722,3.235887e-08,0,-2.6739799410573607e-08,1.0
55,55,2460.7852,648197.7,161916.84,668114.75,-14.025214,32.18169632856734,-0.02650413,-5.2150572e-08,0.00039944262,2.346045e-05,1.0,43,0.021375762,3.1994148e-08,0,-2.6745667833348048e-08,1.0
56,56,2129.3164,662020.06,144524.33,677611.9,-12.31492,32.86180838753353,-0.026472809,-5.7569807e-08,0.0005171767,2.3526583e-05,1.0,43,0.021405833,3.159011e-08,0,-2.6765133054247078e-08,1.0
57,57,1843.2289,668669.25,128231.65,680853.8,-10.855893,33.541941406496335,-0.026482645,-4.3248775e-08,0.0006733574,2.388517e-05,1.0,43,0.021394653,3.142327e-08,0,-2.676346568016753e-08,1.0
58,58,1594.4913,677279.2,112073.68,686489.3,-9.395952,34.22184533212567,-0.026415367,-8.326936e-08,0.00089062395,2.373745e-05,1.0,43,0.021415705,3.1195977e-08,0,-2.676555458507184e-08,1.0
59,59,1380.4436,686186.5,100233.87,693468.6,-8.310636,34.901682351097406,-0.026447544,-3.196318e-08,0.001150236,2.4030473e-05,1.0,43,0.021452978,3.093576e-08,0,-2.6774578828560715e-08,1.0
60,60,1194.6187,689047.9,87954.38,694638.7,-7.274255,35.58184027673269,-0.026426397,-8.377203e-08,0.0015147234,2.4284569e-05,1.0,43,0.021474488,3.0914617e-08,0,-2.677890436965945e-08,1.0
61,61,1033.3434,693396.94,76308.78,697583.2,-6.280166,36.262076842365786,-0.026411565,-7.369701e-08,0.002018371,2.415227e-05,1.0,43,0.021459414,3.0762514e-08,0,-2.6783431230722935e-08,1.0
62,62,894.71045,692812.0,63786.016,695742.1,-5.260295,36.9418042346515,-0.02642293,-7.1443594e-08,0.0027887668,2.3440482e-05,1.0,43,0.021437382,3.0812252e-08,0,-2.6813000822590144e-08,1.0
63,63,774.2569,696405.75,58534.63,698861.44,-4.8045588,37.62197597362683,-0.026402678,-1.0410813e-07,0.0035117387,2.463575e-05,1.0,43,0.021477578,3.073224e-08,0,-2.6829587242073453e-08,1.0
64,64,669.7856,696176.75,51390.258,698070.94,-4.2217927,38.301803419250064,-0.026438527,-8.291527e-08,0.004623848,2.5059133e-05,1.0,43,0.021472687,3.0760035e-08,0,-2.682269323249711e-08,1.0
65,65,579.81464,696765.06,42366.375,698051.9,-3.479551,38.98183422489092,-0.026436215,-7.481428e-08,0.0064790254,2.3865849e-05,1.0,43,0.021512209,3.0817493e-08,0,-2.6857594966739562e-08,1.0
66,66,501.44418,695038.06,37356.92,696041.25,-3.0765746,39.65917057704064,-0.026422447,-1.0016005e-07,0.008496233,2.4473646e-05,1.0,43,0.021467522,3.0842312e-08,0,-2.6897513769478515e-08,1.0
67,67,434.02762,697891.7,34394.613,698738.7,-2.8214593,40.33919420934399,-0.02637503,-8.233791e-08,0.010661353,2.5832333e-05,1.0,43,0.021517301,3.079449e-08,0,-2.6898090600809905e-08,1.0
68,68,375.6009,697272.9,30881.1,697956.4,-2.5358813,41.017465068172896,-0.026411528,-8.5541075e-08,0.0137214735,2.6861466e-05,1.0,43,0.021553801,3.0881303e-08,0,-2.6885890562325266e-08,1.0
69,69,325.10385,695727.06,28184.666,696297.75,-2.3198462,41.69670667384344,-0.026309613,-1.1500249e-07,0.017369412,2.8459084e-05,1.0,43,0.02153139,3.0922678e-08,0,-2.6930330751377122e-08,1.0
70,70,281.3503,697655.25,30114.621,698304.9,-2.4716654,42.37382438599889,-0.026509847,-4.917054e-08,0.018784314,3.493494e-05,1.0,43,0.021591218,3.0919473e-08,0,-2.6974500497811743e-08,1.0
71,71,243.36427,695292.06,27809.451,695848.0,-2.2904265,43.05712636510725,-0.026411863,-8.9787086e-08,0.023516404,3.756012e-05,1.0,43,0.02155359,3.097457e-08,0,-2.6963779596273163e-08,1.0
72,72,210.60631,695325.6,27126.727,695854.56,-2.2341464,43.734165117231896,-0.026483763,-5.1274913e-08,0.027858092,4.2335938e-05,1.0,43,0.021542287,3.095803e-08,0,-2.694489087359485e-08,1.0
73,73,182.27473,698372.0,32058.172,699107.44,-2.6282687,44.40628832249786,-0.02644365,-5.2950956e-08,0.027236724,5.727229e-05,1.0,43,0.02159258,3.0885925e-08,0,-2.698788296321977e-08,1.0
74,74,157.72879,694341.5,32901.887,695120.6,-2.7129736,45.09464088857203,-0.026380563,-1.06249736e-07,0.030668205,6.870836e-05,1.0,43,0.021502538,3.0933535e-08,0,-2.696920154832859e-08,1.0
75,75,136.52892,706399.94,35446.48,707288.7,-2.8726387,45.76652348044445,-0.026411789,-1.0928526e-07,0.03288686,8.259907e-05,1.0,43,0.021723686,3.071403e-08,0,-2.7023248111637847e-08,1.0
76,76,118.14758,700291.9,36496.723,701242.25,-2.9833531,46.45491561983363,-0.02643588,-5.995318e-08,0.036909778,9.9979974e-05,1.0,43,0.02157023,3.0760027e-08,0,-2.7025289406767838e-08,1.0
77,77,102.25773,700116.56,39038.504,701204.1,-3.1915078,47.12133973147138,-0.026412107,-6.092157e-08,0.039868586,0.00012357431,1.0,43,0.021525228,3.069752e-08,0,-2.704608698634993e-08,1.0
78,78,88.4436,704687.25,43474.28,706027.0,-3.530275,47.81130237758043,-0.026417304,-9.6938294e-08,0.041392464,0.00015694356,1.0,43,0.02157663,3.056063e-08,0,-2.706061355027837e-08,1.0
79,79,76.54279,707305.4,44937.355,708731.44,-3.6352968,48.4787331293046,-0.026425054,-8.773855e-08,0.046270937,0.00018602013,1.0,43,0.021572063,3.043757e-08,0,-2.7083780148198577e-08,1.0
80,80,66.250786,708743.25,50397.79,710532.9,-4.0673804,49.14696484102751,-0.026446203,-8.658394e-08,0.047666978,0.00023981273,1.0,43,0.021556124,3.033797e-08,0,-2.7098071844461952e-08,1.0
81,81,57.329906,712937.94,60788.043,715524.75,-4.8734884,49.80164753881036,-0.026418926,-6.075399e-08,0.045668922,0.0003296156,1.0,43,0.021566512,3.0140832e-08,0,-2.7093695919720378e-08,1.0
82,82,49.60321,716507.75,59548.65,718978.0,-4.7509093,50.48635058462969,-0.02638647,-8.349255e-08,0.053881343,0.00036961623,1.0,43,0.02156354,2.999193e-08,0,-2.7091247737839948e-08,1.0
83,83,42.92585,718994.44,67559.86,722161.56,-5.368,51.194451124902116,-0.026366198,-1.1753524e-07,0.054879796,0.00048030957,1.0,43,0.021513795,2.9790835e-08,0,-2.7132327698935476e-08,1.0
84,84,37.1518,724120.6,70144.1,727510.06,-5.5328636,51.83817763547995,-0.02635159,-8.259866e-08,0.061072987,0.0005677452,1.0,43,0.021538043,2.9605149e-08,0,-2.717413558667999e-08,1.0
85,85,32.150223,730541.06,76009.234,734484.6,-5.939974,52.47739499920863,-0.026409386,-1.1192973e-07,0.065128304,0.00069748855,1.0,43,0.021569366,2.9366667e-08,0,-2.7140483775230115e-08,1.0
86,86,27.835518,739302.2,81478.266,743778.5,-6.289169,53.20531684710295,-0.026441367,-6.573559e-08,0.070174456,0.00084212265,1.0,43,0.02161928,2.9066827e-08,0,-2.7194512526212597e-08,1.0
87,87,24.082958,737699.4,86144.55,742712.06,-6.660526,53.90739477376337,-0.026414063,-6.142438e-08,0.076715395,0.0010320415,1.0,43,0.021490673,2.8935402e-08,0,-2.7186179556966412e-08,1.0
88,88,20.833313,747844.7,96062.19,753989.1,-7.3196783,54.56176381823025,-0.02641546,-1.0070013e-07,0.07952603,0.0012908748,1.0,43,0.021561434,2.859648e-08,0,-2.709985269776194e-08,1.0
89,89,18.021912,753445.3,102413.88,760373.9,-7.740628,55.30772614698799,-0.026527548,-2.0565732e-08,0.08623041,0.0015643133,1.0,43,0.02154093,2.8329394e-08,0,-2.7237545923171564e-08,1.0
90,90,15.604198,760550.94,111226.22,768641.0,-8.320198,55.96402105814195,-0.026448624,-1.0494613e-07,0.09170046,0.001920166,1.0,43,0.021540955,2.8024727e-08,0,-2.7227688832467104e-08,1.0
91,91,13.500899,769288.2,120284.3,778635.1,-8.886694,56.71199706700281,-0.026437137,-9.5597436e-08,0.09800506,0.0023388285,1.0,43,0.021538123,2.766138e-08,0,-2.7216963233646947e-08,1.0
92,92,11.686608,781131.9,132618.88,792309.75,-9.6356735,57.30289773509139,-0.026433067,-3.278237e-08,0.102689564,0.0028770473,1.0,43,0.021633355,2.7304162e-08,0,-2.7292954666661374e-08,1.0
93,93,10.113269,786120.7,141376.31,798732.1,-10.19512,57.97653880706639,-0.026427086,-7.4497656e-08,0.11131454,0.0034874093,1.0,43,0.021551125,2.6981668e-08,0,-2.7411187814151095e-08,1.0
94,94,8.748621,797292.44,151797.67,811614.3,-10.779613,58.74238020341727,-0.026423583,-6.28025e-08,0.11984375,0.004192241,1.0,43,0.02156207,2.6566893e-08,0,-2.727339666986158e-08,1.0
95,95,7.570237,806388.06,165041.75,823104.2,-11.566864,59.61799400503514,-0.026399447,-9.679861e-08,0.12738457,0.0051214723,1.0,43,0.02156266,2.6196757e-08,0,-2.7235852322352347e-08,1.0
96,96,6.554112,815611.56,177074.3,834612.2,-12.249173,60.15429163046065,-0.026422465,-8.358568e-08,0.13713577,0.0061729443,1.0,43,0.021531085,2.5797712e-08,0,-2.7466964523842933e-08,1.0
97,97,5.669445,827259.8,191628.81,849164.5,-13.042131,60.76414240614395,-0.026400276,-1.0084911e-07,0.14649364,0.007460308,1.0,43,0.021520369,2.5342992e-08,0,-2.722230307775221e-08,1.0
98,98,4.907347,839545.3,207501.94,864808.3,-13.882988,61.456518465682166,-0.026423676,-9.747839e-08,0.15629719,0.008998203,1.0,43,0.021531941,2.4897934e-08,0,-2.7382553599535738e-08,1.0
99,99,4.245922,852225.4,227939.31,882181.6,-14.974041,62.24431122306851,-0.026415665,-9.5550945e-08,0.1644481,0.01097871,1.0,43,0.021560328,2.4439784e-08,0,-2.756120653541928e-08,1.0
100,100,3.6747382,863473.6,246271.1,897906.56,-15.918666,63.14395654585678,-0.026428241,-6.7365136e-08,0.17586534,0.013229543,1.0,43,0.021531396,2.397955e-08,0,-2.7140003534600134e-08,1.0
101,101,3.180988,880134.5,269971.12,920609.1,-17.052792,64.17217976800748,-0.026435181,-6.7290664e-08,0.18532789,0.015937671,1.0,43,0.021546392,2.3404494e-08,0,-2.7346176152212858e-08,1.0
102,102,2.752818,894761.9,292481.22,941352.25,-18.101618,65.35112481066608,-0.026403274,-1.06000805e-07,0.19767176,0.019082543,1.0,43,0.021561945,2.2905288e-08,0,-2.7791045926399744e-08,1.0
103,103,2.3804083,911044.9,322707.75,966510.75,-19.50502,66.70599802170182,-0.026416298,-7.36901e-08,0.20718546,0.023097485,1.0,43,0.021555187,2.2302066e-08,0,-2.7591680145754032e-08,1.0
104,104,2.060257,927507.2,352448.75,992214.56,-20.806576,68.26233460227377,-0.026413914,-8.1825874e-08,0.21918094,0.02765563,1.0,43,0.021569813,2.173906e-08,0,-2.7110348846745185e-08,1.0
