True,index,freq,Re(Z),Im(Z),Z,Phase(Z),time,Ewe_meas,I_meas,Cs,Cp,cycle_number,I_Range,Ewe,I,Ns,(QQo),cycle
0,0,7000018.5,141.0122,1481.487,1488.1829,-84.562805,2.467491983814398,0.003062272,1.6477672e-05,1.5346986e-05,1.5209195e-05,1.0,40,0.009968149,6.6982016e-06,0,1.2444122632119716e-08,1.0
1,1,6057573.0,213.71806,1736.2941,1749.3977,-82.982834,3.0195033434138168,0.0031262722,-4.3431795e-05,1.5132066e-05,1.4906225e-05,1.0,40,0.014211276,8.123525e-06,0,1.442213526574834e-08,1.0
2,2,5242039.0,235.7106,1982.2382,1996.2032,-83.21873,3.4355033097963315,0.0031066344,-1.9988984e-05,1.531666e-05,1.5103104e-05,1.0,40,0.01965359,9.845486e-06,0,1.1882119637536763e-08,1.0
3,3,4536288.0,173.8363,2344.8738,2351.3086,-85.760155,4.667484061646974,0.0030860465,-6.072145e-06,1.4962358e-05,1.4880576e-05,1.0,40,0.021693645,9.226201e-06,0,-2.4032606172315556e-09,1.0
4,4,3925558.5,270.30655,2614.6855,2628.6206,-84.097725,5.083482454734622,0.0030388895,-2.7542765e-05,1.5505979e-05,1.5342011e-05,1.0,40,0.019881925,7.563634e-06,0,-5.612866382888468e-09,1.0
5,5,3397055.0,286.71997,2955.2698,2969.146,-84.45851,5.49949260786525,0.0030383305,-1.6068536e-06,1.5853328e-05,1.5705493e-05,1.0,40,0.021093996,7.1043983e-06,0,-5.139907606172124e-09,1.0
6,6,2939708.2,313.80185,3483.0942,3497.2014,-84.85196,6.051496047381079,0.0030094513,1.1095306e-06,1.5543566e-05,1.5418418e-05,1.0,40,0.0208401,5.959079e-06,0,-5.2645576175286304e-09,1.0
7,7,2543924.5,344.1389,3916.3745,3931.4656,-84.97822,6.603503166959854,0.0030237606,-5.5698033e-06,1.5974663e-05,1.585226e-05,1.0,40,0.020556066,5.2286014e-06,0,-7.656160524687846e-09,1.0
8,8,2201436.2,432.67105,4499.5264,4520.2812,-84.50737,7.155493673199089,0.0030469757,-3.0389392e-05,1.6067459e-05,1.592025e-05,1.0,40,0.020970194,4.6391347e-06,0,-1.2088997996455772e-08,1.0
9,9,1905053.1,461.43393,5178.468,5198.9854,-84.908035,7.707481539371656,0.002997173,-3.3185543e-06,1.6132873e-05,1.600579e-05,1.0,40,0.02023803,3.8926887e-06,0,-1.4202513913637125e-08,1.0
10,10,1648567.4,388.1645,6164.0127,6176.2227,-86.39669,8.426486773561919,0.0030453734,-4.1123685e-06,1.5662097e-05,1.5600233e-05,1.0,41,0.018899547,3.0600495e-06,0,-1.6006949478123843e-08,1.0
11,11,1426616.2,262.50922,7035.517,7040.4126,-87.863174,8.842500153317815,0.003063651,-3.941032e-06,1.5856851e-05,1.5834807e-05,1.0,41,0.02178895,3.0948397e-06,0,-1.6251644842962303e-08,1.0
12,12,1234551.2,368.94064,8054.1343,8062.58,-87.37725,9.394492046179948,0.0030335793,-2.2632094e-06,1.6006343e-05,1.5972826e-05,1.0,41,0.020774627,2.5766724e-06,0,-1.6112704133503382e-08,1.0
13,13,1068345.5,282.1136,9412.664,9416.891,-88.283264,9.946504045714391,0.003014426,1.0198129e-06,1.58269e-05,1.5812697e-05,1.0,41,0.020805378,2.2093682e-06,0,-1.572444237291077e-08,1.0
14,14,924510.06,214.8586,11184.637,11186.7,-88.899475,10.498480711976299,0.0029928505,3.4257494e-06,1.53917e-05,1.5386024e-05,1.0,41,0.020491092,1.8317369e-06,0,-1.577753584729496e-08,1.0
15,15,800039.0,1339.8462,12886.115,12955.584,-84.06395,11.050490364868892,0.0030211334,-3.0419645e-07,1.5437854e-05,1.527274e-05,1.0,41,0.020841913,1.6087205e-06,0,-1.6149503892535222e-08,1.0
16,16,692334.1,1134.1973,14199.971,14245.194,-85.4333,11.602490711054998,0.0029978997,2.323338e-06,1.6188886e-05,1.608626e-05,1.0,41,0.02036853,1.4298527e-06,0,-1.4941065195916142e-08,1.0
17,17,599122.25,1022.785,16698.123,16729.418,-86.49493,12.154483537276974,0.002985938,2.5300399e-06,1.5908787e-05,1.5849322e-05,1.0,41,0.02046853,1.2235051e-06,0,-1.3831904044781456e-08,1.0
18,18,518454.94,1167.4888,18876.889,18912.957,-86.46091,12.706500256812433,0.0030036755,1.3531426e-06,1.6262178e-05,1.620021e-05,1.0,41,0.020539856,1.0860203e-06,0,-1.3504908550616948e-08,1.0
19,19,448662.03,1294.2262,22071.006,22108.92,-86.644066,13.258500016381731,0.0030459138,-8.870588e-07,1.6072323e-05,1.6017248e-05,1.0,41,0.020231113,9.1506564e-07,0,-1.4429180470282669e-08,1.0
20,20,388258.97,1729.48,24874.6,24934.65,-86.02274,13.81049697592971,0.00297066,1.6976464e-06,1.6479444e-05,1.6400163e-05,1.0,41,0.0207686,8.329212e-07,0,-1.4696520507890732e-08,1.0
21,21,335983.9,3044.326,28837.285,28997.533,-83.973656,14.36250268216827,0.003075389,-3.5667351e-06,1.6426584e-05,1.624553e-05,1.0,41,0.020268138,6.989608e-07,0,-1.4302710008956233e-08,1.0
22,22,290751.2,2847.0518,34492.95,34610.246,-85.281494,14.914503321720986,0.002988733,4.2763895e-07,1.5869686e-05,1.57623e-05,1.0,41,0.020459184,5.9113086e-07,0,-1.4777247381630727e-08,1.0
23,23,251605.19,3417.081,38677.03,38827.688,-84.95108,15.466482201270992,0.0030382,-1.3712261e-06,1.6354881e-05,1.622821e-05,1.0,41,0.020549942,5.2926e-07,0,-1.525007047965548e-08,1.0
24,24,217729.38,4376.9487,44633.21,44847.31,-84.39921,16.018501027458115,0.0029775165,3.818667e-06,1.63774e-05,1.6221406e-05,1.0,41,0.020160945,4.4954638e-07,0,-1.5175330931122568e-08,1.0
25,25,188418.58,6487.8877,50817.316,51229.8,-82.724365,16.57048140038387,0.0029954216,2.3959626e-06,1.6622052e-05,1.6355461e-05,1.0,41,0.020839026,4.0677546e-07,0,-1.3973937488600541e-08,1.0
26,26,163051.14,4864.9585,59231.47,59430.926,-85.304565,17.288500101160025,0.0029904284,4.2771603e-08,1.6479491e-05,1.6369062e-05,1.0,42,0.01930898,3.2489785e-07,0,-1.376280452159663e-08,1.0
27,27,141098.2,7330.8486,66872.57,67273.19,-83.74398,17.70448625422432,0.0030445722,-2.6919906e-07,1.6867496e-05,1.66672e-05,1.0,42,0.021018097,3.1242902e-07,0,-1.376712998878481e-08,1.0
28,28,122105.11,4473.4556,74142.04,74276.875,-86.54717,18.256492253771285,0.0029771812,9.007931e-08,1.7580118e-05,1.751635e-05,1.0,42,0.020313662,2.7348568e-07,0,-1.376139976374407e-08,1.0
29,29,105663.59,10029.1875,86999.88,87576.05,-83.42407,18.672495580191026,0.0029815224,1.9903639e-07,1.731315e-05,1.7086093e-05,1.0,42,0.021731975,2.4814975e-07,0,-1.3760596393583155e-08,1.0
30,30,91439.65,12973.002,100298.8,101134.305,-82.63008,19.224495099770138,0.0029669895,1.8320496e-07,1.7353612e-05,1.7068067e-05,1.0,42,0.02031737,2.0089495e-07,0,-1.37497285642202e-08,1.0
31,31,79127.08,20785.547,115455.23,117311.33,-79.7943,19.64048511951114,0.0030555276,-5.128155e-07,1.7421333e-05,1.6874414e-05,1.0,42,0.021396816,1.8239344e-07,0,-1.3747313930194287e-08,1.0
32,32,68475.36,21849.354,133026.73,134809.14,-80.67258,20.192498879070627,0.0030404173,-2.1127495e-07,1.7472172e-05,1.7013203e-05,1.0,42,0.020234033,1.5009392e-07,0,-1.3776057719935608e-08,1.0
33,33,59252.523,28168.828,151297.22,153897.14,-79.45331,20.60848487218027,0.0030064143,-1.8892486e-07,1.7753433e-05,1.715865e-05,1.0,42,0.020935096,1.3603304e-07,0,-1.3749395926402267e-08,1.0
34,34,51282.285,29388.924,172971.05,175449.97,-80.357155,21.02448969191755,0.0030558445,-5.843361e-07,1.7942351e-05,1.743892e-05,1.0,42,0.021468947,1.2236507e-07,0,-1.3765718973018754e-08,1.0
35,35,44369.8,43356.52,201007.33,205630.1,-77.827995,21.44049003170221,0.0030063398,-1.3602943e-07,1.7845174e-05,1.7051838e-05,1.0,42,0.021882787,1.0641821e-07,0,-1.3723367380541203e-08,1.0
36,36,38403.727,60541.59,226106.84,234071.77,-75.0103,21.992503657907946,0.0030011043,-4.141397e-08,1.8328758e-05,1.710261e-05,1.0,42,0.020143848,8.605843e-08,0,-1.3674861029401025e-08,1.0
37,37,33226.32,74925.195,254645.03,265439.03,-73.60433,22.40849378434359,0.0030339893,-3.1073316e-07,1.88106e-05,1.7311851e-05,1.0,42,0.02033074,7.659288e-08,0,-1.3672438583841595e-08,1.0
38,38,28754.086,95644.91,284744.97,300379.16,-71.43297,22.824493190768408,0.0030145564,1.1969334e-07,1.943858e-05,1.7467753e-05,1.0,42,0.020410962,6.795066e-08,0,-1.36553718634147e-08,1.0
39,39,24884.947,113684.586,314967.66,334856.4,-70.153435,23.240487477189163,0.0029652382,4.2607644e-07,2.0305677e-05,1.7965203e-05,1.0,42,0.02042929,6.100911e-08,0,-1.369471577563096e-08,1.0
40,40,21553.963,151132.7,354065.3,384971.88,-66.884796,23.657503176975297,0.0030369333,-1.03100195e-08,2.0854972e-05,1.7640803e-05,1.0,42,0.020439629,5.3093824e-08,0,-1.3697935293500447e-08,1.0
41,41,18631.234,191388.45,388455.6,433044.22,-63.77096,24.0734918100934,0.003057633,-4.176414e-07,2.1990601e-05,1.7695196e-05,1.0,42,0.020310368,4.6901373e-08,0,-1.3708017550339828e-08,1.0
42,42,16126.037,233214.25,438930.2,497039.84,-62.01721,24.655496424384182,0.0030409575,-7.256146e-08,2.2485214e-05,1.7534989e-05,1.0,43,0.019885536,4.0007933e-08,0,-1.3686487582318878e-08,1.0
43,43,13954.87,303798.72,466432.6,556644.44,-56.922836,25.071495430805953,0.0030083149,-9.053256e-08,2.4451498e-05,1.7168308e-05,1.0,43,0.01961267,3.5233747e-08,0,-1.3687615358357213e-08,1.0
44,44,12080.609,355573.1,528411.56,636907.4,-56.06302,25.487484943907475,0.0030622163,-1.2049681e-07,2.4932106e-05,1.7161334e-05,1.0,43,0.019285774,3.0280344e-08,0,-1.3688732245825872e-08,1.0
45,45,10447.592,428607.84,527286.8,679511.6,-50.893883,25.903480830340413,0.0029776283,-2.6804972e-08,2.8890632e-05,1.7396307e-05,1.0,43,0.018726744,2.7559123e-08,0,-1.3689132465210863e-08,1.0
46,46,9045.586,470051.4,539290.44,715389.75,-48.92424,26.33526946415077,0.0030348278,2.645656e-08,3.2625765e-05,1.854047e-05,1.0,43,0.021247221,2.9700203e-08,0,-1.3704327460047165e-08,1.0
47,47,7827.7437,570111.44,558359.1,797992.44,-44.403324,26.815932367026107,0.0030326291,2.8933412e-08,3.6414127e-05,1.7827875e-05,1.0,43,0.02127105,2.6655703e-08,0,-1.3707642733203092e-08,1.0
48,48,6770.8345,651343.3,557361.4,857263.0,-40.553955,27.3544128992653,0.0030149291,-2.0547656e-08,4.217364e-05,1.7827344e-05,1.0,43,0.021283604,2.4827392e-08,0,-1.3707701702761612e-08,1.0
49,49,5860.798,727918.7,543337.5,908339.8,-36.73862,27.960975968075218,0.0029286456,6.130002e-08,4.9979706e-05,1.7882834e-05,1.0,43,0.021317476,2.3468614e-08,0,-1.3708692097728342e-08,1.0
50,50,5071.625,800088.5,523012.38,955867.94,-33.17237,28.641710613766918,0.0030785564,-4.1386684e-08,6.000135e-05,1.7963426e-05,1.0,43,0.021304533,2.2288155e-08,0,-1.3719271990700592e-08,1.0
51,51,4388.5933,855826.5,499890.34,991125.3,-30.289303,29.321804566061473,0.003032033,-4.3084656e-09,7.25471e-05,1.8454932e-05,1.0,43,0.02127573,2.1466237e-08,0,-1.3719410328060936e-08,1.0
52,52,3798.7827,922999.8,460317.34,1031416.9,-26.506294,30.001847638341133,0.002995869,-5.425841e-09,9.101613e-05,1.8128612e-05,1.0,43,0.021304032,2.0655113e-08,0,-1.3714635757174686e-08,1.0
53,53,3286.0488,969140.9,422593.84,1057269.9,-23.559607,30.681684123992454,0.0029761007,-9.004606e-10,0.00011461011,1.831039e-05,1.0,43,0.021305347,2.0151285e-08,0,-1.3709648593697733e-08,1.0
54,54,2844.088,1017607.1,379164.7,1085951.2,-20.435604,31.36180308961775,0.0030074392,-8.163396e-09,0.00014758739,1.7992203e-05,1.0,43,0.021349033,1.9659293e-08,0,-1.3709040865797224e-08,1.0
55,55,2460.7852,1045139.0,355608.44,1103980.5,-18.790867,32.041694775252836,0.0029892547,-9.376876e-10,0.00018187557,1.8871033e-05,1.0,43,0.021301704,1.9295362e-08,0,-1.3703418980153604e-08,1.0
56,56,2129.3164,1080548.2,304635.1,1122669.6,-15.744546,32.721844167550444,0.002993987,-6.397059e-10,0.00024535786,1.8065746e-05,1.0,43,0.021339389,1.9007718e-08,0,-1.370417015190263e-08,1.0
57,57,1843.2289,1088364.1,271759.44,1121779.6,-14.019814,33.40193443984026,0.0029549536,5.306878e-08,0.00031772853,1.864706e-05,1.0,43,0.021267673,1.8958868e-08,0,-1.3690539088337432e-08,1.0
58,58,1594.4913,1110367.9,239688.81,1135943.5,-12.181205,34.08184844546486,0.0030080352,9.863669e-09,0.00041643786,1.8540963e-05,1.0,43,0.021272039,1.8726318e-08,0,-1.3679908977105508e-08,1.0
59,59,1380.4436,1133213.6,212275.97,1152924.2,-10.609808,34.76167466444895,0.0029885652,1.8486102e-08,0.000543126,1.841199e-05,1.0,43,0.021330716,1.8501403e-08,0,-1.367188113574411e-08,1.0
60,60,1194.6187,1139756.8,190221.58,1155521.4,-9.4751425,35.44181989674689,0.0030257355,-4.848389e-09,0.00070037565,1.8979932e-05,1.0,43,0.021334253,1.8462881e-08,0,-1.3669399569718206e-08,1.0
61,61,1033.3434,1151966.0,159372.39,1162938.1,-7.876766,36.12208067570464,0.00301519,1.5765399e-09,0.00096641213,1.8149945e-05,1.0,43,0.02135215,1.836052e-08,0,-1.366387682144168e-08,1.0
62,62,894.71045,1157806.9,138629.61,1166076.8,-6.827786,36.80184060134343,0.00299231,-2.4850197e-10,0.0012831624,1.813591e-05,1.0,43,0.021348557,1.830802e-08,0,-1.367146221421504e-08,1.0
63,63,774.2569,1159894.8,122761.61,1166373.1,-6.0416117,37.481937966978876,0.0029919376,2.116618e-09,0.0016744513,1.8549092e-05,1.0,43,0.021368412,1.8320392e-08,0,-1.3664814129519056e-08,1.0
64,64,669.7856,1162725.9,101136.72,1167116.1,-4.971214,38.16184103926935,0.003001365,3.083315e-08,0.0023495003,1.7642702e-05,1.0,43,0.021379068,1.831786e-08,0,-1.36536677458396e-08,1.0
65,65,579.81464,1161362.5,89885.86,1164835.8,-4.4256926,38.84181893823552,0.0029972848,6.772402e-09,0.0030537928,1.8184148e-05,1.0,43,0.02136965,1.8345633e-08,0,-1.3667355474871092e-08,1.0
66,66,501.44418,1164137.9,75026.805,1166553.0,-3.6875205,39.519169797044015,0.0030113144,9.770721e-09,0.0042303964,1.7498669e-05,1.0,43,0.021425797,1.8366759e-08,0,-1.3679849990201208e-08,1.0
67,67,434.02762,1164015.5,64659.656,1165810.0,-3.1794438,40.19918598936056,0.003112224,-2.2893841e-08,0.0056711272,1.7445387e-05,1.0,43,0.021404894,1.8360534e-08,0,-1.367094507005357e-08,1.0
68,68,375.6009,1160079.5,60045.902,1161632.5,-2.9629946,40.87744631487294,0.0030122648,8.429906e-09,0.007056838,1.8855559e-05,1.0,43,0.021382896,1.8407626e-08,0,-1.3654727935078122e-08,1.0
69,69,325.10385,1161588.9,52444.777,1162772.2,-2.5851014,41.5567099205291,0.0030925488,-1.8927135e-08,0.009334601,1.8989387e-05,1.0,43,0.021397917,1.84025e-08,0,-1.366849506832023e-08,1.0
70,70,281.3503,1157111.9,50311.13,1158205.1,-2.4896476,42.233779872680316,0.003049435,-1.1496576e-08,0.011243685,2.1216114e-05,1.0,43,0.021359185,1.8441625e-08,0,-1.369166293264036e-08,1.0
71,71,243.36427,1161026.9,46841.402,1161971.4,-2.3103342,42.9171304651245,0.002948656,2.0609326e-08,0.013961543,2.268832e-05,1.0,43,0.021375945,1.8396275e-08,0,-1.367015105576044e-08,1.0
72,72,210.60631,1158458.4,43103.14,1159260.0,-2.1308398,43.594199110608315,0.002981634,2.1354254e-09,0.01753234,2.4237956e-05,1.0,43,0.02138109,1.8443739e-08,0,-1.365025771158754e-08,1.0
73,73,182.27473,1161876.2,38632.465,1162518.4,-1.904387,44.26525786248385,0.0029640459,3.1224396e-08,0.022601705,2.4960105e-05,1.0,43,0.021396121,1.8404975e-08,0,-1.3660956869438949e-08,1.0
74,74,157.72879,1160263.9,42426.074,1161039.2,-2.094138,44.95363320187607,0.0030063584,-1.697168e-08,0.02378353,3.1757638e-05,1.0,43,0.021384848,1.8418712e-08,0,-1.3655311607094595e-08,1.0
75,75,136.52892,1165678.5,46318.71,1166598.4,-2.275474,45.62550280705909,0.0029897762,-7.548487e-09,0.02516744,3.9674294e-05,1.0,43,0.021429425,1.8369153e-08,0,-1.3672337586271535e-08,1.0
76,76,118.14758,1163645.1,39810.77,1164325.9,-1.9594462,46.31387705312227,0.0029763242,2.1428766e-08,0.033837225,3.9559134e-05,1.0,43,0.02141314,1.839102e-08,0,-1.3659025498694552e-08,1.0
77,77,102.25773,1162692.6,37473.664,1163296.4,-1.8460078,46.980320738075534,0.0030365232,1.47245025e-08,0.04153343,4.309922e-05,1.0,43,0.021408727,1.8403503e-08,0,-1.3666011341273186e-08,1.0
78,78,88.4436,1162274.5,45456.258,1163163.0,-2.239682,47.67029845088837,0.0030115568,-5.8724186e-09,0.039587677,6.045973e-05,1.0,43,0.021359518,1.8363306e-08,0,-1.3673469331436156e-08,1.0
79,79,76.54279,1169240.0,43935.324,1170065.1,-2.151932,48.337726349273,0.0030735445,-1.5705345e-08,0.047326237,6.672823e-05,1.0,43,0.02143723,1.8321398e-08,0,-1.3676301339606646e-08,1.0
80,80,66.250786,1166825.2,50675.836,1167925.1,-2.4868233,49.00598339433782,0.0030296855,-3.391854e-08,0.04740544,8.9248315e-05,1.0,43,0.021412933,1.8334166e-08,0,-1.3688019922810312e-08,1.0
81,81,57.329906,1179988.1,62306.562,1181632.0,-3.022565,49.66062817211423,0.0030303749,-1.19249055e-08,0.04455589,0.000123882,1.0,43,0.021450596,1.8153365e-08,0,-1.3668205798109629e-08,1.0
82,82,49.60321,1173898.2,57487.586,1175305.0,-2.803622,50.34638673797599,0.0030140348,1.2880844e-08,0.05581312,0.00013353136,1.0,43,0.021426024,1.8230182e-08,0,-1.366110039862778e-08,1.0
83,83,42.92585,1181977.9,73619.125,1184268.4,-3.5640457,51.05440759824705,0.003020947,-2.1199073e-08,0.050362885,0.00019462187,1.0,43,0.021437436,1.810184e-08,0,-1.3687783727347938e-08,1.0
84,84,37.1518,1174895.5,72673.38,1177141.0,-3.5395315,51.698152748838766,0.003028139,1.9659584e-08,0.058947437,0.00022467705,1.0,43,0.021411529,1.8189434e-08,0,-1.369863262084286e-08,1.0
85,85,32.150223,1184116.1,76115.414,1186560.0,-3.677933,52.33737293918966,0.0030308405,-3.9505426e-08,0.06503745,0.00026762663,1.0,43,0.021455621,1.8082206e-08,0,-1.3657967832321624e-08,1.0
86,86,27.835518,1181973.5,83523.54,1184920.9,-4.0420575,53.0653245470894,0.0030111095,2.1279773e-08,0.06845607,0.00034013475,1.0,43,0.021398164,1.8058728e-08,0,-1.3678402505760085e-08,1.0
87,87,24.082958,1183270.8,93764.67,1186980.0,-4.5307612,53.76738828714588,0.0030098986,1.904501e-08,0.07048084,0.0004398076,1.0,43,0.021380497,1.8012518e-08,0,-1.3653224265432362e-08,1.0
88,88,20.833313,1193181.1,104045.37,1197708.9,-4.983585,54.42175175824377,0.0030116872,-3.7438262e-08,0.07342417,0.00055409217,1.0,43,0.021401152,1.7868409e-08,0,-1.3628772919091887e-08,1.0
89,89,18.021912,1196027.4,116734.12,1201710.6,-5.5745,55.16771294034697,0.0027760703,2.1173625e-07,0.07565219,0.00071386696,1.0,43,0.021420358,1.7824888e-08,0,-1.3658278266733752e-08,1.0
90,90,15.604198,1202021.8,131085.72,1209148.4,-6.2237597,55.82302838479518,0.003011743,-3.2782545e-08,0.07780783,0.00091448135,1.0,43,0.021407245,1.7704398e-08,0,-1.3683151805510793e-08,1.0
91,91,13.500899,1210364.8,138293.06,1218239.6,-6.518197,56.57099972697324,0.002996111,-1.8312583e-08,0.085242674,0.0010984805,1.0,43,0.02138684,1.7555527e-08,0,-1.3674343806823912e-08,1.0
92,92,11.686608,1217677.4,157542.45,1227826.5,-7.3719463,57.161900821723975,0.0030285488,1.1931016e-08,0.08644384,0.001423165,1.0,43,0.021391066,1.7421897e-08,0,-1.370636744288308e-08,1.0
93,93,10.113269,1225968.9,172274.28,1238013.8,-7.9988813,57.83553800036316,0.002968089,2.9101333e-08,0.091349915,0.0017688789,1.0,43,0.02136565,1.7258007e-08,0,-1.370323054533129e-08,1.0
94,94,8.748621,1242965.9,192421.25,1257771.9,-8.799998,58.60240915676695,0.0030240773,-3.0424188e-10,0.094542585,0.002212737,1.0,43,0.021423332,1.7032765e-08,0,-1.3568224652320944e-08,1.0
95,95,7.570237,1249958.8,211282.05,1267689.6,-9.594089,59.4780132517335,0.0030055013,-8.6286995e-09,0.099505715,0.0027640592,1.0,43,0.021390712,1.6873777e-08,0,-1.3654972757591891e-08,1.0
96,96,6.554112,1263527.0,234304.4,1285067.8,-10.505415,60.014294423832325,0.0030455969,-1.3172667e-08,0.103639625,0.0034453608,1.0,43,0.021417608,1.666652e-08,0,-1.3662741562889824e-08,1.0
97,97,5.669445,1279854.6,260485.33,1306093.6,-11.504126,60.624137866165256,0.0030015702,-9.8950785e-09,0.10776961,0.0042866124,1.0,43,0.021410508,1.6392782e-08,0,-1.3643082927264781e-08,1.0
98,98,4.907347,1294616.5,287219.2,1326094.5,-12.508842,61.316554325661855,0.0030375852,-2.4812012e-08,0.11291714,0.005297096,1.0,43,0.02142047,1.6153049e-08,0,-1.3559945071353249e-08,1.0
99,99,4.245922,1310088.9,310549.2,1346392.9,-13.335504,62.1043225764588,0.0030126467,-1.0667945e-08,0.1207029,0.0064214766,1.0,43,0.021408273,1.5900465e-08,0,-1.3803124486236378e-08,1.0
100,100,3.6747382,1332094.4,345550.7,1376183.4,-14.54223,63.00392085919157,0.003058397,-2.9951977e-08,0.12533776,0.007902288,1.0,43,0.021425232,1.5568588e-08,0,-1.35583772884065e-08,1.0
101,101,3.180988,1353963.5,373332.22,1404490.8,-15.415281,64.03219682801864,0.0030161494,8.578815e-09,0.13401784,0.009469254,1.0,43,0.021414472,1.5247144e-08,0,-1.3470448546703428e-08,1.0
102,102,2.752818,1373664.5,414973.2,1434976.2,-16.809153,65.21111261736951,0.003023842,-3.5939778e-09,0.13932292,0.011651268,1.0,43,0.021410951,1.492077e-08,0,-1.3778128163719558e-08,1.0
103,103,2.3804083,1400586.6,452155.3,1471763.4,-17.89178,66.56597174837952,0.0030186311,1.1949921e-08,0.14787033,0.013956622,1.0,43,0.02140134,1.4541292e-08,0,-1.3854537663125437e-08,1.0
104,104,2.060257,1428144.6,497162.84,1512206.4,-19.193926,68.1222864089359,0.0029918118,8.774315e-09,0.15538178,0.016794818,1.0,43,0.021416584,1.4162475e-08,0,-1.3534200180292425e-08,1.0
