True,index,freq,Re(Z),Im(Z),Z,Phase(Z),time,Ewe_meas,I_meas,Cs,Cp,cycle_number,I_Range,Ewe,I,Ns,(QQo),cycle
0,0,7000018.5,187.97835,1328.9784,1342.2069,-81.949165,2.4694836372800637,0.0057498068,-6.8720888e-06,1.710815e-05,1.6772583e-05,1.0,40,0.0099225035,7.392678e-06,0,4.46112101089587e-09,1.0
1,1,6057573.0,211.61823,1569.6127,1583.8138,-82.32157,3.021491210180102,0.0057191574,1.2868114e-05,1.673898e-05,1.6440148e-05,1.0,40,0.014067336,8.881938e-06,0,3.563231893748606e-09,1.0
2,2,5242039.0,210.54936,1797.4869,1809.7764,-83.31908,3.4374834699265193,0.0057419813,5.593428e-06,1.6890952e-05,1.6662332e-05,1.0,40,0.019360555,1.0697761e-05,0,4.057859581798261e-09,1.0
3,3,4536288.0,192.47163,2065.9822,2074.9285,-84.67756,4.805489748221589,0.0057401927,9.7796465e-06,1.698216e-05,1.6836035e-05,1.0,40,0.021543585,1.0382809e-05,0,4.013474620731945e-09,1.0
4,4,3925558.5,176.70798,2384.8127,2391.3506,-85.76228,5.221479634667048,0.005688285,8.905191e-06,1.7000606e-05,1.6907774e-05,1.0,40,0.019092686,7.98406e-06,0,2.3079212494457758e-09,1.0
5,5,3397055.0,254.74655,2695.8118,2707.8215,-84.601746,5.6375033877266105,0.005701159,1.3705379e-05,1.7379129e-05,1.722531e-05,1.0,40,0.019951591,7.3681335e-06,0,8.456801362462506e-09,1.0
6,6,2939708.2,243.02815,3108.226,3117.7126,-85.52921,6.05348431415041,0.005742466,-1.43143325e-05,1.74182e-05,1.7312363e-05,1.0,40,0.021761669,6.980011e-06,0,4.895858359595372e-09,1.0
7,7,2543924.5,297.03925,3584.3508,3596.6377,-85.26266,6.605494260409614,0.0057103075,-8.193159e-06,1.7454418e-05,1.7335367e-05,1.0,40,0.020726258,5.762676e-06,0,2.1153172874556328e-09,1.0
8,8,2201436.2,282.13293,4147.9175,4157.5015,-86.10885,7.15749692657846,0.0057065627,4.5701345e-06,1.7429458e-05,1.7349194e-05,1.0,40,0.020372754,4.9002397e-06,0,5.707333889404254e-11,1.0
9,9,1905053.1,295.9615,4671.136,4680.503,-86.3746,7.709481832833262,0.0056949365,8.979615e-06,1.7885064e-05,1.7813552e-05,1.0,40,0.020634558,4.40862e-06,0,-1.7066643812692442e-09,1.0
10,10,1648567.4,133.47548,5525.1035,5526.7153,-88.61612,8.427500586927636,0.0056848195,-1.4345535e-06,1.7473223e-05,1.7463033e-05,1.0,41,0.019030286,3.4433267e-06,0,3.551727729646675e-09,1.0
11,11,1426616.2,227.17334,6376.629,6380.6743,-87.95965,8.843491086707218,0.0057715126,-8.200182e-07,1.7495318e-05,1.747314e-05,1.0,41,0.021915374,3.4346488e-06,0,4.0442522784410865e-09,1.0
12,12,1234551.2,140.93579,7420.968,7422.306,-88.911995,9.3954932995548,0.0057341005,-2.3544542e-06,1.7372025e-05,1.736576e-05,1.0,41,0.021020249,2.8320374e-06,0,4.969420952344687e-09,1.0
13,13,1068345.5,160.6411,8530.109,8531.622,-88.92112,9.947480045811972,0.0056676595,3.0197953e-06,1.7464406e-05,1.7458213e-05,1.0,41,0.020752273,2.432395e-06,0,5.010893687616165e-09,1.0
14,14,924510.06,145.45184,9761.897,9762.981,-89.14636,10.499481698643649,0.005642544,5.9899703e-06,1.7634951e-05,1.7631035e-05,1.0,41,0.020323832,2.0817238e-06,0,6.338305179037699e-09,1.0
15,15,800039.0,-1339.0625,12395.755,12467.872,-96.16552,11.051493724895408,0.0056246575,5.200407e-06,1.6048556e-05,1.5863436e-05,1.0,41,0.020894675,1.6758814e-06,0,6.387141776179482e-09,1.0
16,16,692334.1,534.4946,13106.798,13117.691,-87.66477,11.604496417829068,0.005736541,-2.0211248e-06,1.753912e-05,1.7510001e-05,1.0,41,0.020438727,1.5581039e-06,0,6.4915404801505855e-09,1.0
17,17,599122.25,385.0842,15405.785,15410.598,-88.56813,12.156499324046308,0.005695663,3.7032148e-06,1.724332e-05,1.723255e-05,1.0,41,0.020418756,1.3249814e-06,0,6.302033410463537e-09,1.0
18,18,518454.94,473.5757,17659.043,17665.393,-88.46382,12.70850300361053,0.0056096218,8.340042e-06,1.7383689e-05,1.7371194e-05,1.0,41,0.020628812,1.1677528e-06,0,6.997095457244029e-09,1.0
19,19,448662.03,399.56375,20234.844,20238.79,-88.86877,13.260481136472663,0.005664939,7.2711496e-06,1.7530769e-05,1.7523935e-05,1.0,41,0.020145617,9.953964e-07,0,7.021449266577267e-09,1.0
20,20,388258.97,417.43066,23217.203,23220.955,-88.96997,13.81249902935815,0.0057379385,2.179952e-06,1.7655855e-05,1.7650149e-05,1.0,41,0.020836966,8.973346e-07,0,6.920963309962897e-09,1.0
21,21,335983.9,3779.0679,27161.898,27423.531,-82.079216,14.364503188902745,0.0057808473,-7.3994556e-07,1.7439801e-05,1.7108621e-05,1.0,41,0.020218007,7.3725033e-07,0,7.488167201659716e-09,1.0
22,22,290751.2,619.88617,31273.496,31279.639,-88.86446,14.916490548494039,0.00561005,7.4629543e-06,1.7503391e-05,1.7496517e-05,1.0,41,0.020563468,6.574075e-07,0,6.633296718782668e-09,1.0
23,23,251605.19,1505.8315,35781.605,35813.277,-87.59019,15.468489294667961,0.0056041065,5.140816e-06,1.7678309e-05,1.7647055e-05,1.0,41,0.020423068,5.7026523e-07,0,6.884283296469581e-09,1.0
24,24,217729.38,1508.056,41100.96,41128.617,-87.898674,16.020494787575444,0.005703004,-8.237454e-07,1.7784889e-05,1.7760978e-05,1.0,41,0.02014641,4.8983924e-07,0,6.950293449549684e-09,1.0
25,25,188418.58,1193.7605,49065.598,49080.117,-88.60628,16.57249977378524,0.0056739943,-1.9619026e-07,1.7215487e-05,1.7205302e-05,1.0,41,0.020866262,4.2514694e-07,0,6.471076186612221e-09,1.0
26,26,163051.14,1332.8384,53538.82,53555.406,-88.57393,17.29150324795046,0.0056680506,6.305802e-07,1.8231714e-05,1.8220424e-05,1.0,42,0.019235503,3.5917014e-07,0,7.193707448008328e-09,1.0
27,27,141098.2,1523.8044,63087.797,63106.195,-88.61636,17.707486361061456,0.005745801,-2.8376261e-08,1.7879414e-05,1.786899e-05,1.0,42,0.021022888,3.331351e-07,0,7.17033078740275e-09,1.0
28,28,122105.11,3006.3972,71450.25,71513.47,-87.5906,18.259499480569502,0.0056473883,3.711324e-07,1.8242425e-05,1.8210185e-05,1.0,42,0.020231903,2.8291038e-07,0,7.199575732616697e-09,1.0
29,29,105663.59,660.5708,83147.266,83149.89,-89.544815,18.67548939367407,0.0056518787,4.5513184e-07,1.8115352e-05,1.8114208e-05,1.0,42,0.021708945,2.6108205e-07,0,7.231119378741497e-09,1.0
30,30,91439.65,1178.8273,95043.664,95050.98,-89.2894,19.227481553243706,0.005728641,-1.00455495e-07,1.8313123e-05,1.8310306e-05,1.0,42,0.020250868,2.1305272e-07,0,7.246285145124265e-09,1.0
31,31,79127.08,1909.445,110578.95,110595.44,-89.010735,19.64349775968003,0.005763203,-5.8228727e-07,1.8189574e-05,1.8184151e-05,1.0,42,0.021322325,1.927957e-07,0,7.24489083507571e-09,1.0
32,32,68475.36,4142.8184,130980.266,131045.766,-88.18838,20.195480639202287,0.0057411618,-4.2531333e-08,1.7745162e-05,1.7727427e-05,1.0,42,0.020210598,1.5422549e-07,0,7.289387601877066e-09,1.0
33,33,59252.523,3165.778,147653.92,147687.86,-88.771736,20.61148145896732,0.005731138,-3.0868435e-07,1.819149e-05,1.8183131e-05,1.0,42,0.020907534,1.4156569e-07,0,7.272794854313005e-09,1.0
34,34,51282.285,-493.93127,171708.31,171709.02,-90.16482,21.02749774538097,0.0056401775,4.437705e-07,1.8074297e-05,1.807415e-05,1.0,42,0.02151456,1.2529662e-07,0,7.226007667409353e-09,1.0
35,35,44369.8,3772.3792,195681.81,195718.17,-88.895584,21.44349024517578,0.005688974,2.2771914e-07,1.8330831e-05,1.8324023e-05,1.0,42,0.02185447,1.11662956e-07,0,7.19192319582978e-09,1.0
36,36,38403.727,10197.663,231589.19,231813.6,-87.4787,21.99548469801084,0.0056668585,7.7734614e-07,1.7894867e-05,1.7860239e-05,1.0,42,0.020273974,8.745809e-08,0,7.071675983946769e-09,1.0
37,37,33226.32,11001.405,263403.1,263632.75,-87.60835,22.411485677788733,0.0057790587,-2.4293772e-07,1.8185156e-05,1.8153487e-05,1.0,42,0.02045442,7.758679e-08,0,7.109862196509899e-09,1.0
38,38,28754.086,14286.53,304166.66,304502.0,-87.31083,22.827484284207458,0.005679938,8.821694e-08,1.8197385e-05,1.8157325e-05,1.0,42,0.020551987,6.7493765e-08,0,7.111576665103758e-09,1.0
39,39,24884.947,21268.676,355038.03,355674.5,-86.57177,23.243481557321502,0.005746416,-5.6124094e-07,1.8013932e-05,1.794952e-05,1.0,42,0.020617306,5.7966783e-08,0,7.0661401839999805e-09,1.0
40,40,21553.963,28479.42,407978.25,408971.06,-86.006874,23.66049189711339,0.005731585,-2.4092465e-08,1.809906e-05,1.8011291e-05,1.0,42,0.020579008,5.0318985e-08,0,7.077152309469259e-09,1.0
41,41,18631.234,30613.88,472857.7,473847.66,-86.29571,24.242500884778565,0.005740174,4.3511568e-09,1.8065419e-05,1.7990013e-05,1.0,43,0.020183252,4.259439e-08,0,7.136197473963373e-09,1.0
42,42,16126.037,38891.84,548215.3,549593.1,-85.942085,24.65948733125697,0.005667641,1.28119e-07,1.8002851e-05,1.79127e-05,1.0,43,0.020046502,3.647517e-08,0,7.150441686895616e-09,1.0
43,43,13954.87,57798.93,562276.5,565239.4,-84.13092,25.075482150976313,0.0055838167,1.30391e-07,2.028357e-05,2.0071484e-05,1.0,43,0.019513182,3.452198e-08,0,7.161112088877215e-09,1.0
44,44,12080.609,69696.74,708390.9,711811.25,-84.380905,25.491496704082238,0.0057141082,3.083293e-08,1.859766e-05,1.841936e-05,1.0,43,0.019293768,2.7105175e-08,0,7.1721794910366814e-09,1.0
45,45,10447.592,71044.59,851258.06,854217.56,-85.22925,25.90748603051179,0.0057966844,-7.3812765e-09,1.7895452e-05,1.7771667e-05,1.0,43,0.018898066,2.2123247e-08,0,7.186221236673981e-09,1.0
46,46,9045.586,81697.82,930742.75,934321.44,-84.983604,26.339254397695186,0.005713065,1.4720749e-07,1.8904002e-05,1.8759465e-05,1.0,43,0.021393925,2.289782e-08,0,7.196031660725626e-09,1.0
47,47,7827.7437,104129.78,1091139.8,1096097.1,-84.54865,26.819933567225235,0.005750291,1.1908689e-07,1.8633873e-05,1.8465702e-05,1.0,43,0.021358384,1.948585e-08,0,7.203856888479921e-09,1.0
48,48,6770.8345,139090.5,1262605.1,1270243.2,-83.713554,27.358392846101196,0.0057121147,7.871244e-08,1.861703e-05,1.839381e-05,1.0,43,0.02141703,1.6860573e-08,0,7.221239873289055e-09,1.0
49,49,5860.798,176647.98,1473309.0,1483861.1,-83.16294,27.964976261602715,0.0053199166,3.6399675e-07,1.8431876e-05,1.817066e-05,1.0,43,0.021448823,1.4454738e-08,0,7.261482856268289e-09,1.0
50,50,5071.625,243300.27,1659358.4,1677100.2,-81.658554,28.645713493955554,0.005732908,1.222714e-07,1.8911798e-05,1.8513781e-05,1.0,43,0.021392532,1.2755667e-08,0,7.281134025415476e-09,1.0
51,51,4388.5933,310486.8,1938711.8,1963416.8,-80.90128,29.325807179586263,0.00570537,1.2076295e-07,1.8706029e-05,1.8238246e-05,1.0,43,0.02144956,1.0924609e-08,0,7.300490607939593e-09,1.0
52,52,3798.7827,349922.38,2168057.0,2196114.0,-80.83158,30.005846731888596,0.00570796,1.294226e-07,1.9324354e-05,1.8833742e-05,1.0,43,0.021405322,9.746908e-09,0,7.329302985828e-09,1.0
53,53,3286.0488,485391.84,2386819.8,2435675.2,-78.50489,30.685713057515386,0.005635296,9.7856784e-08,2.0292078e-05,1.9486191e-05,1.0,43,0.021374062,8.775415e-09,0,7.352765152731891e-09,1.0
54,54,2844.088,582767.94,2802128.8,2862087.2,-78.25148,31.36580404981214,0.005693241,1.1679628e-07,1.9970505e-05,1.9142535e-05,1.0,43,0.021418199,7.483419e-09,0,7.371478067470639e-09,1.0
55,55,2460.7852,686092.06,3213626.2,3286048.8,-77.948586,32.045677362111746,0.0056575425,1.5521533e-07,2.0125703e-05,1.9248362e-05,1.0,43,0.02142646,6.5204326e-09,0,7.396377246128664e-09,1.0
56,56,2129.3164,880734.06,3615679.8,3721402.0,-76.310074,32.725815421072184,0.0057457266,7.6868766e-08,2.0672356e-05,1.9514468e-05,1.0,43,0.021414725,5.754478e-09,0,7.414853172451805e-09,1.0
57,57,1843.2289,1112202.0,3992510.5,4144530.5,-74.43365,33.40594932003296,0.005707252,1.1886342e-07,2.1626925e-05,2.0069487e-05,1.0,43,0.021369949,5.156181e-09,0,7.439540709199684e-09,1.0
58,58,1594.4913,1355563.8,4660637.0,4853770.5,-73.78273,34.08584161900217,0.005700358,1.2074432e-07,2.1416707e-05,1.9746256e-05,1.0,43,0.021424165,4.413922e-09,0,7.464053674737435e-09,1.0
59,59,1380.4436,1522446.1,5233515.5,5450461.0,-73.78012,34.76571455797239,0.0057142763,1.2577252e-07,2.2029668e-05,2.0310868e-05,1.0,43,0.021442207,3.934017e-09,0,7.484819066328906e-09,1.0
60,60,1194.6187,1991881.9,5717897.0,6054910.5,-70.79375,35.44581728360208,0.0056873346,1.2670364e-07,2.3299925e-05,2.0778381e-05,1.0,43,0.021410974,3.5361338e-09,0,7.508354379119798e-09,1.0
61,61,1033.3434,2481954.2,6532073.5,6987709.5,-69.195,36.12608931589057,0.005704196,1.2392883e-07,2.3578947e-05,2.0604251e-05,1.0,43,0.021408075,3.0636758e-09,0,7.533836725742038e-09,1.0
62,62,894.71045,3150896.2,7224444.0,7881671.0,-66.435875,36.80583697486145,0.0057137357,1.2418954e-07,2.462256e-05,2.068738e-05,1.0,43,0.021446645,2.7210785e-09,0,7.554396482273222e-09,1.0
63,63,774.2569,3949353.0,6891406.5,7942850.5,-60.183678,37.48595836714958,0.005687968,1.1998077e-07,2.9828212e-05,2.2453816e-05,1.0,43,0.021119284,2.6589049e-09,0,7.575544444541017e-09,1.0
64,64,669.7856,4400721.0,8602811.0,9663059.0,-62.908234,38.165835119463736,0.005663654,1.2901286e-07,2.762129e-05,2.1892505e-05,1.0,43,0.021383112,2.2128719e-09,0,7.597893499278567e-09,1.0
65,65,579.81464,5291790.5,9512680.0,10885501.0,-60.913334,38.845842831753544,0.0057567004,9.599445e-08,2.8855466e-05,2.2036214e-05,1.0,43,0.021421896,1.9679294e-09,0,7.616244000530193e-09,1.0
66,66,501.44418,6138050.0,10293255.0,11984438.0,-59.191628,39.52319713056204,0.0057065254,9.776362e-08,3.083506e-05,2.2746517e-05,1.0,43,0.021381408,1.7840976e-09,0,7.632752369178918e-09,1.0
67,67,434.02762,7750243.0,11610891.0,13959909.0,-56.27698,40.20320388287655,0.0057944856,9.428112e-08,3.1581825e-05,2.184757e-05,1.0,43,0.021414347,1.533989e-09,0,7.65556079279074e-09,1.0
68,68,375.6009,8709328.0,11504344.0,14429218.0,-52.87257,40.88245412844117,0.0057187476,1.3217873e-07,3.6832538e-05,2.3413686e-05,1.0,43,0.021397218,1.482909e-09,0,7.677016771589903e-09,1.0
69,69,325.10385,10264191.0,12284499.0,16008202.0,-50.119892,41.56169130743365,0.005756123,8.038843e-08,3.9851122e-05,2.346769e-05,1.0,43,0.021405673,1.337169e-09,0,7.696451475737115e-09,1.0
70,70,281.3503,12450456.0,12695922.0,17782022.0,-45.559273,42.238810992916115,0.005666989,1.1057616e-07,4.4556236e-05,2.271301e-05,1.0,43,0.021449737,1.2062598e-09,0,7.717728984966439e-09,1.0
71,71,243.36427,14194060.0,13098488.0,19314288.0,-42.70128,42.92211683865753,0.0056850244,1.227369e-07,4.992777e-05,2.2962919e-05,1.0,43,0.021455646,1.1108691e-09,0,7.737290509293887e-09,1.0
72,72,210.60631,16068201.0,12758060.0,20517192.0,-38.449375,43.59919503083802,0.005650649,1.3202974e-07,5.9233058e-05,2.2903274e-05,1.0,43,0.02143873,1.0449155e-09,0,7.758297898491874e-09,1.0
73,73,182.27473,20381260.0,14689029.0,25122964.0,-35.780766,44.27125047610025,0.005704774,9.383416e-08,5.9442977e-05,2.0320995e-05,1.0,43,0.02160617,8.600167e-10,0,7.77732863666605e-09,1.0
74,74,157.72879,18129982.0,8436998.0,19996980.0,-24.955462,44.95965458882711,0.0057435464,1.0234482e-07,0.00011959724,2.1289638e-05,1.0,43,0.021245403,1.0624306e-09,0,7.796846923610958e-09,1.0
75,75,136.52892,21875776.0,11981780.0,24942186.0,-28.710361,45.63154126066365,0.005625421,1.5947991e-07,9.729133e-05,2.2451626e-05,1.0,43,0.021465195,8.60598e-10,0,7.822040154891753e-09,1.0
76,76,118.14758,19247060.0,11981064.0,22671462.0,-31.901768,46.31992033342249,0.0056842603,9.7540116e-08,0.00011243459,3.1400145e-05,1.0,43,0.02136249,9.422634e-10,0,7.838276638547254e-09,1.0
77,77,102.25773,23684216.0,10989766.0,26109712.0,-24.891876,46.98635289838421,0.0057556015,1.3147105e-07,0.00014162356,2.509044e-05,1.0,43,0.021422,8.20461e-10,0,7.858641753817169e-09,1.0
78,78,88.4436,24611048.0,10039251.0,26579884.0,-22.191355,47.67626789116184,0.005710084,9.970037e-08,0.0001792472,2.5571066e-05,1.0,43,0.021433467,8.0637924e-10,0,7.875987851718009e-09,1.0
79,79,76.54279,25240564.0,9756614.0,27060628.0,-21.13376,48.343712136222166,0.0056903344,9.286577e-08,0.0002131163,2.770379e-05,1.0,43,0.021374136,7.8986107e-10,0,7.895599038336451e-09,1.0
80,80,66.250786,25151274.0,7662420.5,26292570.0,-16.943535,49.011977714602835,0.005768252,5.8376134e-08,0.00031351848,2.6627415e-05,1.0,43,0.02140262,8.140178e-10,0,7.9127550200109e-09,1.0
81,81,57.329906,16978810.0,-720148.8,16994076.0,2.4287198,49.666650519066025,0.0057166796,1.3208562e-07,-0.0038549313,-6.9225493e-06,1.0,43,0.021398097,1.2591505e-09,0,7.930424656249195e-09,1.0
82,82,49.60321,27415400.0,7529559.5,28430590.0,-15.35745,50.35138633821043,0.0057010474,1.1348132e-07,0.00042612868,2.9888779e-05,1.0,43,0.021482015,7.5559514e-10,0,7.948644689800745e-09,1.0
83,83,42.92585,25155170.0,7473146.0,26241770.0,-16.545732,51.05945093181799,0.0057493597,4.8394263e-08,0.00049613265,4.023634e-05,1.0,43,0.021411836,8.159448e-10,0,7.965847921848488e-09,1.0
84,84,37.1518,27029392.0,5540032.0,27591302.0,-11.583106,51.70318317573401,0.00565635,1.5407926e-07,0.00077326444,3.1175125e-05,1.0,43,0.021366684,7.7439927e-10,0,7.987155837344328e-09,1.0
85,85,32.150223,27955072.0,5212828.0,28436942.0,-10.562724,52.342369206104195,0.0057525085,6.390714e-08,0.00094964815,3.1911244e-05,1.0,43,0.021417266,7.531494e-10,0,8.001141529713478e-09,1.0
86,86,27.835518,30948282.0,4262793.5,31240480.0,-7.84253,53.06932660061284,0.005681093,1.1486872e-07,0.0013413018,2.4973517e-05,1.0,43,0.021468334,6.87196e-10,0,8.028756457666455e-09,1.0
87,87,24.082958,30596168.0,2858644.2,30729422.0,-5.337732,53.771362793951994,0.0056717773,1.281748e-07,0.0023117997,2.0006062e-05,1.0,43,0.02131219,6.935435e-10,0,8.04798948195831e-09,1.0
88,88,20.833313,28710706.0,2987239.8,28865694.0,-5.9400344,54.42577821176383,0.005734715,1.10743755e-07,0.0025573592,2.7388476e-05,1.0,43,0.021420987,7.4209155e-10,0,8.067967767404458e-09,1.0
89,89,18.021912,31634298.0,4054872.8,31893116.0,-7.3043222,55.1717260338628,0.005550643,2.5035035e-07,0.0021779207,3.520486e-05,1.0,43,0.021396605,6.7088474e-10,0,8.10316137204661e-09,1.0
90,90,15.604198,30036926.0,1593333.0,30079156.0,-3.036455,55.82700545163243,0.0056627407,1.0932841e-07,0.0064013586,1.796197e-05,1.0,43,0.021424027,7.122549e-10,0,8.123290931918017e-09,1.0
91,91,13.500899,29847002.0,1098882.8,29867224.0,-2.1085172,56.57499319384806,0.005723946,9.6301676e-08,0.010727687,1.4521754e-05,1.0,43,0.021463504,7.186307e-10,0,8.143702937949268e-09,1.0
92,92,11.686608,29833700.0,1657926.1,29879732.0,-3.1807842,57.16588463523658,0.0057237223,5.9288656e-08,0.008214223,2.5289686e-05,1.0,43,0.021378586,7.154879e-10,0,8.158310953613807e-09,1.0
93,93,10.113269,29305886.0,325752.06,29307696.0,-0.6368499,57.83951384053216,0.005715748,8.230657e-08,0.048310485,5.9683243e-06,1.0,43,0.02139409,7.29982e-10,0,8.172855085007116e-09,1.0
94,94,8.748621,30825276.0,1446014.4,30859174.0,-2.6857774,58.606401290307986,0.0057066,1.1187043e-07,0.01258079,2.7623872e-05,1.0,43,0.02142331,6.9422823e-10,0,8.189923978550857e-09,1.0
95,95,7.570237,30006108.0,1398099.5,30038662.0,-2.6677005,59.48199482524069,0.0057142666,9.1971856e-08,0.015037394,3.2575233e-05,1.0,43,0.021366877,7.1131256e-10,0,8.21739442024236e-09,1.0
96,96,6.554112,29165370.0,1588854.9,29208616.0,-3.1182454,60.018308877333766,0.0056298184,1.1990622e-07,0.015283474,4.522396e-05,1.0,43,0.02138804,7.322511e-10,0,8.223178273148335e-09,1.0
97,97,5.669445,31277338.0,317435.03,31278948.0,-0.58147734,60.62811285300995,0.005690595,1.2009244e-07,0.08843511,9.10815e-06,1.0,43,0.021426303,6.8500716e-10,0,8.247099678217548e-09,1.0
98,98,4.907347,29360108.0,333640.0,29362004.0,-0.65106505,61.320551819197135,0.005741348,7.901031e-08,0.09720648,1.255105e-05,1.0,43,0.021386623,7.283775e-10,0,8.249369918741638e-09,1.0
99,99,4.245922,29616302.0,1757759.1,29668418.0,-3.3965814,62.108333083306206,0.005723238,1.0169301e-07,0.021324987,7.485464e-05,1.0,43,0.021401033,7.2134054e-10,0,8.281150377477786e-09,1.0
100,100,3.6747382,32469632.0,-278920.34,32470830.0,0.49216962,63.00792595272651,0.0057159066,9.058445e-08,-0.15527928,-1.1457428e-05,1.0,43,0.021431753,6.60031e-10,0,8.301775328437356e-09,1.0
101,101,3.180988,29571664.0,514222.62,29576134.0,-0.9962178,64.0362300282286,0.0056595732,1.0355531e-07,0.097298674,2.9412127e-05,1.0,43,0.021399988,7.2355594e-10,0,8.31567609395023e-09,1.0
102,102,2.752818,30054968.0,1731506.0,30104804.0,-3.29724,65.21510227085673,0.0056972103,1.14232485e-07,0.033390168,0.00011045745,1.0,43,0.021405121,7.1102013e-10,0,8.34699786177584e-09,1.0
103,103,2.3804083,30123646.0,1528232.2,30162386.0,-2.9042385,66.57003313524183,0.0057083457,8.118304e-08,0.043750126,0.000112312126,1.0,43,0.021401055,7.0952794e-10,0,8.39494913000871e-09,1.0
104,104,2.060257,29708602.0,1151801.4,29730922.0,-2.2202432,68.1263001691259,0.005723862,9.1082605e-08,0.0670689,0.00010066062,1.0,43,0.021388901,7.19416e-10,0,8.435788829550909e-09,1.0
