True,index,freq,Re(Z),Im(Z),Z,Phase(Z),time,Ewe_meas,I_meas,Cs,Cp,cycle_number,I_Range,Ewe,I,Ns,(QQo),cycle
110,110,7000018.5,195.09904,1490.9933,1503.7036,-82.545105,82.56848872176488,-0.03984216,5.407466e-06,1.5249137e-05,1.4992434e-05,2.0,40,0.009919145,6.5964764e-06,0,2.052777718356137e-08,2.0
111,111,6057573.0,285.69604,1780.9501,1803.7198,-80.88638,83.12048184129526,-0.039710358,-4.3227134e-05,1.4752641e-05,1.4382523e-05,2.0,40,0.014079968,7.806073e-06,0,2.3461761520010882e-08,2.0
112,112,5242039.0,243.19717,2006.3608,2021.0464,-83.08872,83.53649738107924,-0.03978412,6.002742e-06,1.5132507e-05,1.4913389e-05,2.0,40,0.019442042,9.61979e-06,0,2.110949365761577e-08,2.0
113,113,4536288.0,232.17586,2311.2493,2322.8816,-84.26361,84.90448968604323,-0.03973072,-4.7022608e-05,1.5180033e-05,1.50283795e-05,2.0,40,0.02157075,9.286203e-06,0,7.389224291069831e-09,2.0
114,114,3925558.5,247.37346,2654.813,2666.3132,-84.6766,85.32048546583974,-0.039835412,-1.896569e-05,1.5271606e-05,1.5140153e-05,2.0,40,0.019260816,7.2237635e-06,0,3.7215624752065955e-09,2.0
115,115,3397055.0,263.59525,3085.001,3096.242,-85.11627,85.73648980559665,-0.03978058,-2.6761343e-05,1.518666e-05,1.5076588e-05,2.0,40,0.020136377,6.5034897e-06,0,3.401082003492305e-09,2.0
116,116,2939708.2,326.1758,3477.2434,3492.508,-84.64117,86.15248563865316,-0.039826136,-3.18034e-05,1.556972e-05,1.5433916e-05,2.0,40,0.021874232,6.2631875e-06,0,1.4680412457801495e-09,2.0
117,117,2543924.5,225.93788,3972.9187,3979.338,-86.745125,86.70448750487412,-0.03980903,-4.7990092e-05,1.5747304e-05,1.5696542e-05,2.0,40,0.020712644,5.2050477e-06,0,-2.076843504711749e-09,2.0
118,118,2201436.2,325.06085,4630.1895,4641.586,-85.98416,87.25649427776807,-0.03977866,-3.092895e-05,1.5614038e-05,1.5537458e-05,2.0,40,0.020788038,4.4786498e-06,0,-3.241401172154903e-09,2.0
119,119,1905053.1,210.26982,5329.7344,5333.8804,-87.74072,87.97548332522274,-0.03984162,-2.2650852e-06,1.5674997e-05,1.5650638e-05,2.0,41,0.019500494,3.6559677e-06,0,-2.7741736530561864e-09,2.0
120,120,1648567.4,145.7676,6236.632,6238.335,-88.66108,88.52749988480355,-0.03982528,-3.281822e-06,1.5479729e-05,1.5471278e-05,2.0,41,0.019999366,3.2058822e-06,0,-3.455374002627545e-09,2.0
121,121,1426616.2,259.89102,7316.887,7321.5015,-87.965744,89.07950516437995,-0.039919462,4.4182902e-06,1.5247078e-05,1.5227865e-05,2.0,41,0.020217452,2.7613805e-06,0,-2.6988303757743043e-09,2.0
122,122,1234551.2,210.00433,8435.225,8437.838,-88.57385,89.63149692388834,-0.039886408,5.600775e-06,1.5283202e-05,1.5273736e-05,2.0,41,0.02077517,2.4621436e-06,0,-3.750889930259306e-09,2.0
123,123,1068345.5,270.22943,9732.537,9736.288,-88.40956,90.1835054034309,-0.03978235,-3.3469976e-06,1.5306729e-05,1.5294936e-05,2.0,41,0.020611525,2.1169797e-06,0,-4.580249966629325e-09,2.0
124,124,924510.06,71.593864,11229.364,11229.593,-89.63471,90.73550484303269,-0.03982086,-4.6374885e-06,1.5330394e-05,1.532977e-05,2.0,41,0.020388981,1.8156475e-06,0,-4.5658533757421e-09,2.0
125,125,800039.0,-771.0697,12354.706,12378.744,-93.57126,91.28749169586808,-0.039895743,5.0905373e-06,1.6101878e-05,1.6039403e-05,2.0,41,0.020809477,1.6810653e-06,0,-3.6483617534737906e-09,2.0
126,126,692334.1,103.88226,14555.9,14556.271,-89.5911,91.83950409546378,-0.039849665,4.6473383e-06,1.5793026e-05,1.579222e-05,2.0,41,0.020200653,1.3877628e-06,0,-2.092233304750736e-09,2.0
127,127,599122.25,213.2349,17039.209,17040.543,-89.28302,92.39150204168982,-0.039802138,-2.8404843e-06,1.5590329e-05,1.5587888e-05,2.0,41,0.020849237,1.2235078e-06,0,-1.985448587694548e-09,2.0
128,128,518454.94,245.0361,19763.023,19764.543,-89.28964,92.94350638790638,-0.03977745,-3.3842418e-06,1.5533014e-05,1.5530626e-05,2.0,41,0.020317603,1.0279824e-06,0,-2.076438923650158e-09,2.0
129,129,448662.03,565.0575,22805.77,22812.77,-88.58067,93.49550646744319,-0.039904296,5.894999e-06,1.55545e-05,1.5544956e-05,2.0,41,0.020238891,8.871738e-07,0,-1.8150960781262684e-09,2.0
130,130,388258.97,411.19907,26263.568,26266.787,-89.10301,94.0474977469712,-0.03992313,3.1147651e-06,1.5607915e-05,1.5604091e-05,2.0,41,0.020798035,7.917997e-07,0,-1.83414117951851e-09,2.0
131,131,335983.9,2526.0105,32109.273,32208.48,-85.501854,94.59949875986786,-0.039820805,-2.0676805e-06,1.4752688e-05,1.4661947e-05,2.0,41,0.020672321,6.4182854e-07,0,-1.1074514640463877e-09,2.0
132,132,290751.2,712.6376,34262.062,34269.473,-88.80844,95.15150574609288,-0.0398086,-2.9578027e-06,1.5976628e-05,1.596972e-05,2.0,41,0.020405091,5.9543055e-07,0,-7.84949450859804e-10,2.0
133,133,251605.19,1195.3983,40949.027,40966.473,-88.32787,95.7034972923284,-0.039837558,-3.8702715e-06,1.5447455e-05,1.5434302e-05,2.0,41,0.020417979,4.984071e-07,0,-1.500660676750994e-09,2.0
134,134,217729.38,1988.3488,46828.86,46871.055,-87.56869,96.2554932118801,-0.03977363,-3.8144053e-06,1.560952e-05,1.5581427e-05,2.0,41,0.020403884,4.3531952e-07,0,-1.7002098305390036e-09,2.0
135,135,188418.58,-84.1457,52296.477,52296.543,-90.092186,96.97549596606405,-0.03981449,-8.8721734e-08,1.6151913e-05,1.6151873e-05,2.0,42,0.01966166,3.759648e-07,0,-1.055462476221594e-09,2.0
136,136,163051.14,1025.445,61586.426,61594.96,-89.04608,97.39150134581723,-0.039877597,7.164421e-07,1.5849344e-05,1.5844953e-05,2.0,42,0.021644345,3.5139797e-07,0,-1.0386976664880582e-09,2.0
137,137,141098.2,1747.8252,69375.73,69397.74,-88.556816,97.94348345205071,-0.03976409,-6.5753284e-07,1.6258897e-05,1.6248583e-05,2.0,42,0.020394048,2.9387192e-07,0,-1.0263689263911858e-09,2.0
138,138,122105.11,1610.3892,82020.01,82035.81,-88.87519,98.49549729158753,-0.039881006,3.1767834e-07,1.5891559e-05,1.5885436e-05,2.0,42,0.020384606,2.4848424e-07,0,-1.0342923288111866e-09,2.0
139,139,105663.59,2765.2502,94474.58,94515.04,-88.32344,98.91148573803366,-0.03976791,-8.8848407e-07,1.5943358e-05,1.592971e-05,2.0,42,0.021796828,2.3061756e-07,0,-1.0476469658115858e-09,2.0
140,140,91439.65,3234.385,109374.11,109421.92,-88.30616,99.46350749759586,-0.0398416,1.1671329e-07,1.5913696e-05,1.5899792e-05,2.0,42,0.020375904,1.862141e-07,0,-1.0641864944333317e-09,2.0
141,141,79127.08,5401.411,124815.29,124932.11,-87.52206,99.87948954399326,-0.039873756,3.8063123e-07,1.6114886e-05,1.6084763e-05,2.0,42,0.021373553,1.7108134e-07,0,-1.1249146977293142e-09,2.0
142,142,68475.36,3300.4976,144416.06,144453.77,-88.69079,100.43150879690074,-0.039878212,5.878916e-08,1.6094235e-05,1.6085834e-05,2.0,42,0.020203508,1.3986141e-07,0,-1.103481573876112e-09,2.0
143,143,59252.523,3300.485,165867.08,165899.9,-88.860054,100.84748817663058,-0.039822575,-6.413654e-08,1.619396e-05,1.6187552e-05,2.0,42,0.020861259,1.2574606e-07,0,-1.0773169005754547e-09,2.0
144,144,51282.285,59.713886,193133.06,193133.08,-89.982285,101.26350624972838,-0.03975198,-5.4205697e-07,1.6069269e-05,1.6069267e-05,2.0,42,0.021495027,1.1129646e-07,0,-1.0162067070727964e-09,2.0
145,145,44369.8,9503.533,225301.48,225501.83,-87.58462,101.67949000283261,-0.039925404,7.613285e-07,1.5920936e-05,1.589266e-05,2.0,42,0.0218703,9.6985026e-08,0,-9.875958820755314e-10,2.0
146,146,38403.727,6449.729,260465.86,260545.7,-88.58151,102.23150661573163,-0.039821792,-6.879291e-08,1.5910944e-05,1.5901194e-05,2.0,42,0.020209193,7.756487e-08,0,-9.650454426584076e-10,2.0
147,147,33226.32,13271.761,298303.72,298598.8,-87.452545,102.6475080754899,-0.03989889,8.240951e-07,1.605755e-05,1.6025826e-05,2.0,42,0.020393774,6.829824e-08,0,-9.706444911037338e-10,2.0
148,148,28754.086,15453.498,345129.9,345475.72,-87.43624,103.06350769524579,-0.039841432,1.07028214e-07,1.6037548e-05,1.6005457e-05,2.0,42,0.02049366,5.9320115e-08,0,-9.772248066603792e-10,2.0
149,149,24884.947,21462.402,397697.25,398275.97,-86.910934,103.48049430167885,-0.039792076,-2.4182026e-07,1.6081658e-05,1.6034957e-05,2.0,42,0.020527717,5.1541438e-08,0,-9.020641760839609e-10,2.0
150,150,21553.963,38509.027,453750.66,455381.8,-85.14903,103.89750493483734,-0.039776333,-2.1388257e-07,1.6273303e-05,1.6156931e-05,2.0,42,0.020492613,4.500095e-08,0,-9.50659835944951e-10,2.0
151,151,18631.234,46382.33,545971.56,547938.2,-85.144165,104.47948658917448,-0.03982062,2.8486443e-08,1.5646185e-05,1.5534075e-05,2.0,43,0.020194305,3.685508e-08,0,-9.109187418019206e-10,2.0
152,152,16126.037,46976.914,616860.25,618646.44,-85.64505,104.89550490226247,-0.03982623,9.751799e-09,1.5999472e-05,1.5907217e-05,2.0,43,0.019985978,3.2305977e-08,0,-9.060631454108255e-10,2.0
153,153,13954.87,29561.031,757021.2,757598.1,-87.76379,105.3115007886372,-0.03983491,-4.159516e-09,1.5065596e-05,1.5042659e-05,2.0,43,0.019756611,2.6077958e-08,0,-9.015247238860245e-10,2.0
154,154,12080.609,59145.336,763073.0,765361.75,-85.5679,105.72748696841882,-0.03981723,9.826292e-09,1.7264943e-05,1.716184e-05,2.0,43,0.01916993,2.5046889e-08,0,-8.943392591046361e-10,2.0
155,155,10447.592,102230.26,951460.4,956936.7,-83.86735,106.14350128153455,-0.039789617,-3.5297024e-08,1.6010807e-05,1.582808e-05,2.0,43,0.018813545,1.9660177e-08,0,-8.935329779543465e-10,2.0
156,156,9045.586,112211.695,1044083.75,1050096.4,-83.865746,106.575263195351,-0.039881676,-1.4085517e-08,1.6851869e-05,1.6659442e-05,2.0,43,0.021291146,2.027542e-08,0,-8.941603572351384e-10,2.0
157,157,7827.7437,150131.69,1233958.6,1243058.1,-83.0631,107.05592831154354,-0.039800853,1.2489371e-08,1.6477183e-05,1.623683e-05,2.0,43,0.021326542,1.7156513e-08,0,-8.923033853290944e-10,2.0
158,158,6770.8345,201816.16,1436252.5,1450362.4,-82.0014,107.59441377708572,-0.039923374,1.045424e-07,1.6366173e-05,1.6049285e-05,2.0,43,0.021356704,1.4725081e-08,0,-8.9125987926524e-10,2.0
159,159,5860.798,260591.55,1613439.4,1634348.4,-80.82521,108.20196191265131,-0.039855406,2.6624155e-08,1.683103e-05,1.6403132e-05,2.0,43,0.021317163,1.3043219e-08,0,-8.957006757939663e-10,2.0
160,160,5071.625,308118.97,1841385.6,1866986.4,-80.5007,108.88267815834115,-0.039814882,1.2042423e-08,1.7042303e-05,1.6578128e-05,2.0,43,0.021311104,1.1414708e-08,0,-8.936151613625426e-10,2.0
161,161,4388.5933,468453.94,1974444.9,2029256.4,-76.65288,109.56281891063554,-0.03984661,5.4092947e-08,1.836749e-05,1.7388655e-05,2.0,43,0.021211686,1.0452935e-08,0,-8.894755890285643e-10,2.0
162,162,3798.7827,514144.62,2403476.0,2457853.0,-77.92544,110.24280726294091,-0.039826993,1.9975781e-08,1.7431546e-05,1.6668775e-05,2.0,43,0.021345234,8.684504e-09,0,-8.818068596615553e-10,2.0
163,163,3286.0488,593712.6,2688255.2,2753036.8,-77.545906,110.9226947085699,-0.03986668,5.6048354e-08,1.8016715e-05,1.717879e-05,2.0,43,0.021324344,7.745753e-09,0,-8.703844830493924e-10,2.0
164,164,2844.088,697817.75,3056910.2,3135546.2,-77.14111,111.6028092475317,-0.039856877,2.7108353e-08,1.830604e-05,1.7399365e-05,2.0,43,0.02132417,6.8007835e-09,0,-8.63327490625343e-10,2.0
165,165,2460.7852,896327.1,3401067.8,3517195.5,-75.23581,112.2827104264943,-0.039857026,2.5841997e-08,1.9016525e-05,1.7781513e-05,2.0,43,0.021316936,6.0607768e-09,0,-8.562436415017749e-10,2.0
166,166,2129.3164,1062652.4,3858613.0,4002265.0,-74.60258,112.96285064544645,-0.039823115,-8.200678e-09,1.9370851e-05,1.8005263e-05,2.0,43,0.021325922,5.328463e-09,0,-8.590629798063934e-10,2.0
167,167,1843.2289,1398377.4,4358681.5,4577506.5,-72.21242,113.642976331088,-0.039760534,6.8093766e-09,1.9810057e-05,1.7961313e-05,2.0,43,0.02137471,4.6695092e-09,0,-8.54314864286597e-10,2.0
168,168,1594.4913,1727006.9,4900800.5,5196190.5,-70.587906,114.32281065672578,-0.039821327,-1.4625586e-08,2.0367183e-05,1.8117358e-05,2.0,43,0.021360392,4.1107793e-09,0,-8.470689562540021e-10,2.0
169,169,1380.4436,2084227.5,5337193.5,5729715.5,-68.66885,115.00267938235629,-0.039815422,-1.1105859e-08,2.1601729e-05,1.8743396e-05,2.0,43,0.021378601,3.7311803e-09,0,-8.441379383441657e-10,2.0
170,170,1194.6187,2202737.5,5944571.0,6339556.5,-69.668015,115.68284845465678,-0.0398176,4.835344e-09,2.2411468e-05,1.970578e-05,2.0,43,0.021295873,3.3592056e-09,0,-8.539533211118161e-10,2.0
171,171,1033.3434,2832899.5,6573936.5,7158349.0,-66.68739,116.36307427362772,-0.039881676,2.6810373e-08,2.3428795e-05,1.9759467e-05,2.0,43,0.021302572,2.9759057e-09,0,-8.514274918633003e-10,2.0
172,172,894.71045,3413611.5,7473820.0,8216491.5,-65.451805,117.04281686591276,-0.039829414,1.4370265e-08,2.3800989e-05,1.96928e-05,2.0,43,0.0213376,2.5969236e-09,0,-8.494403139066884e-10,2.0
173,173,774.2569,3523080.5,7838255.0,8593622.0,-65.79739,117.72295148487319,-0.039856225,2.7108328e-08,2.622501e-05,2.1817348e-05,2.0,43,0.021258695,2.4737759e-09,0,-8.404325241456672e-10,2.0
174,174,669.7856,4827569.5,8847424.0,10078806.0,-61.381046,118.40282458384172,-0.039860025,2.8337436e-08,2.6857619e-05,2.069584e-05,2.0,43,0.021322057,2.115534e-09,0,-8.349152370722979e-10,2.0
175,175,579.81464,5250778.5,9627028.0,10965872.0,-61.391045,119.08280984281737,-0.03991372,3.155919e-08,2.8512726e-05,2.1975404e-05,2.0,43,0.021310432,1.9433413e-09,0,-8.363234941171946e-10,2.0
176,176,501.44418,6602266.5,10637298.0,12519666.0,-58.17331,119.76017307493021,-0.03984795,5.8096823e-08,2.9837758e-05,2.1539885e-05,2.0,43,0.021328704,1.703616e-09,0,-8.302806093628792e-10,2.0
177,177,434.02762,7777195.5,10901640.0,13391435.0,-54.49606,120.44019308060524,-0.039839476,1.857901e-08,3.3636512e-05,2.2291555e-05,2.0,43,0.02135302,1.5945281e-09,0,-8.236417013472812e-10,2.0
178,178,375.6009,8853047.0,12504022.0,15320803.0,-54.700893,121.1184384727676,-0.039764762,-2.6860885e-08,3.388783e-05,2.2572527e-05,2.0,43,0.021418666,1.398012e-09,0,-8.19467341308512e-10,2.0
179,179,325.10385,10098330.0,13413172.0,16789564.0,-53.025127,121.79770133177226,-0.039833605,1.0682892e-08,3.6497786e-05,2.3294355e-05,2.0,43,0.021358766,1.2721454e-09,0,-8.156267868485815e-10,2.0
180,180,281.3503,11845654.0,13519696.0,17975030.0,-48.775883,122.47479963059595,-0.03991732,5.0722143e-08,4.1841362e-05,2.3670118e-05,2.0,43,0.021295264,1.1847137e-09,0,-8.103656920368087e-10,2.0
181,181,243.36427,13295982.0,13336310.0,18831896.0,-45.08676,123.15812891637324,-0.03993025,8.3703306e-08,4.9037426e-05,2.4592966e-05,2.0,43,0.021261105,1.1289945e-09,0,-8.040070736387325e-10,2.0
182,182,210.60631,15612393.0,14821751.0,21527450.0,-43.51186,123.83516774847521,-0.0398187,-8.610451e-09,5.0985804e-05,2.4169245e-05,2.0,43,0.021343028,9.914332e-10,0,-8.042880094607087e-10,2.0
183,183,182.27473,17534014.0,15926516.0,23687456.0,-42.24953,124.5062742337177,-0.039841395,9.193045e-09,5.4824268e-05,2.4784353e-05,2.0,43,0.02134938,9.0129476e-10,0,-8.005021897086739e-10,2.0
184,184,157.72879,19757516.0,16788438.0,25927034.0,-40.35536,125.1946561064542,-0.039763477,7.442491e-09,6.010338e-05,2.5200767e-05,2.0,43,0.021377737,8.245346e-10,0,-7.95235459263509e-10,2.0
185,185,136.52892,21120404.0,16564156.0,26841064.0,-38.10612,125.86751035167254,-0.039768226,-8.386978e-09,7.037626e-05,2.6801885e-05,2.0,43,0.02137245,7.9625945e-10,0,-7.916271348381884e-10,2.0
186,186,118.14758,22222752.0,14933109.0,26774026.0,-33.90007,126.55591313110199,-0.03983832,2.2638778e-08,9.0208e-05,2.8061972e-05,2.0,43,0.021340957,7.9707685e-10,0,-7.879914693852531e-10,2.0
187,187,102.25773,25545098.0,15928446.0,30104276.0,-31.94528,127.22235854939208,-0.039759696,-4.14054e-08,9.77126e-05,2.735527e-05,2.0,43,0.021320375,7.082175e-10,0,-7.744382758097524e-10,2.0
188,188,88.4436,25234284.0,13314499.0,28531474.0,-27.81771,127.91226831547101,-0.039829917,3.1577773e-08,0.00013515398,2.9432698e-05,2.0,43,0.021293834,7.4632783e-10,0,-7.661974396755915e-10,2.0
189,189,76.54279,26582190.0,14172734.0,30124396.0,-28.065046,128.5797196272324,-0.03981574,4.6476103e-08,0.00014671082,3.2473774e-05,2.0,43,0.021341024,7.084299e-10,0,-7.590360580196662e-10,2.0
190,190,66.250786,30182288.0,12258087.0,32576544.0,-22.103798,129.24798811229994,-0.039898295,7.13563e-08,0.00019597758,2.7748645e-05,2.0,43,0.021341829,6.551287e-10,0,-7.545019692351058e-10,2.0
191,191,57.329906,15587816.0,8402043.0,17708030.0,-28.325268,129.9026500367363,-0.03981261,-1.2092942e-08,0.0003304106,7.438465e-05,2.0,43,0.02130601,1.2031836e-09,0,-7.503100265484804e-10,2.0
192,192,49.60321,31465600.0,8136431.0,32500546.0,-14.498077,130.58838081589784,-0.03986435,2.8896075e-08,0.00039434503,2.4715135e-05,2.0,43,0.021327874,6.5623124e-10,0,-7.469565290875477e-10,2.0
193,193,42.92585,28885144.0,6544707.5,29617304.0,-12.766353,131.2964396229072,-0.03990001,6.642124e-08,0.00056651444,2.7663074e-05,2.0,43,0.021343984,7.2065925e-10,0,-7.391078463333595e-10,2.0
194,194,37.1518,33513112.0,8591127.0,34596764.0,-14.378221,131.94017304011504,-0.03983754,-1.7512209e-08,0.0004986435,3.0748186e-05,2.0,43,0.02127304,6.1488525e-10,0,-7.374716850667336e-10,2.0
195,195,32.150223,33087518.0,7796040.0,33993560.0,-13.258143,132.57937869717716,-0.039814845,3.8710347e-08,0.00063498295,3.3397726e-05,2.0,43,0.021294085,6.264153e-10,0,-7.340249838284074e-10,2.0
196,196,27.835518,34790944.0,6356846.5,35366924.0,-10.354609,133.30633454505005,-0.039857604,2.4826958e-08,0.00089945423,2.905815e-05,2.0,43,0.021349393,6.0365424e-10,0,-7.315012254715166e-10,2.0
197,197,24.082958,38217256.0,9020912.0,39267490.0,-13.281163,134.00840617835638,-0.039859,1.8895575e-08,0.0007325881,3.8662907e-05,2.0,43,0.021307899,5.426346e-10,0,-7.245355624226408e-10,2.0
198,198,20.833313,37863650.0,3170539.0,37996160.0,-4.7865357,134.6627635161567,-0.039862204,9.9007105e-09,0.0024095098,1.6777045e-05,2.0,43,0.021330306,5.613806e-10,0,-7.198772944041291e-10,2.0
199,199,18.021912,36984428.0,6875284.0,37618050.0,-10.530889,135.4087594449229,-0.039816167,3.2201637e-08,0.0012844838,4.290594e-05,2.0,43,0.021323746,5.668488e-10,0,-6.881576961985597e-10,2.0
200,200,15.604198,37595116.0,5463809.0,37990076.0,-8.26907,136.0650210494059,-0.0398664,6.5545954e-08,0.0018667373,3.8613027e-05,2.0,43,0.021309746,5.609293e-10,0,-6.848053415905503e-10,2.0
201,201,13.500899,35090652.0,2494856.2,35179228.0,-4.0667415,136.8129982316168,-0.03986157,3.8998998e-08,0.00472511,2.376459e-05,2.0,43,0.021321692,6.0608757e-10,0,-6.842022104239972e-10,2.0
202,202,11.686608,37874836.0,2330667.0,37946480.0,-3.5213144,137.40388367301784,-0.039917096,4.6215384e-08,0.005843209,2.2042908e-05,2.0,43,0.021283133,5.608724e-10,0,-6.778462499984421e-10,2.0
203,203,10.113269,36073496.0,2324627.5,36148320.0,-3.6871235,138.0775257049536,-0.039719526,-6.308247e-08,0.006769791,2.7996628e-05,2.0,43,0.021315554,5.896693e-10,0,-6.719123150118745e-10,2.0
204,204,8.748621,36867228.0,5187525.5,37230404.0,-8.009409,138.84441184808384,-0.03984403,-6.8785386e-09,0.003506875,6.808403e-05,2.0,43,0.021341244,5.7322086e-10,0,-6.654307722371978e-10,2.0
205,205,7.570237,37240410.0,5076365.5,37584804.0,-7.762338,139.72001375633408,-0.03986174,3.324452e-08,0.0041415007,7.555078e-05,2.0,43,0.021316493,5.671572e-10,0,-6.624486686317124e-10,2.0
206,206,6.554112,36390780.0,3235927.2,36534370.0,-5.0814686,140.25631570178666,-0.039713375,-5.0512e-08,0.007504254,5.8871057e-05,2.0,43,0.021295309,5.828843e-10,0,-6.566889013317541e-10,2.0
207,207,5.669445,35413028.0,1775072.6,35457490.0,-2.8695405,140.8661525841162,-0.039805975,-1.1161798e-08,0.01581479,3.9635084e-05,2.0,43,0.021326913,6.0147837e-10,0,-6.549744116953316e-10,2.0
208,208,4.907347,37272536.0,4094003.2,37496704.0,-6.2682223,141.55854336361517,-0.039828017,-3.485014e-08,0.007921823,9.443551e-05,2.0,43,0.021355279,5.6952415e-10,0,-6.462298496884104e-10,2.0
209,209,4.245922,35787588.0,2711119.8,35890132.0,-4.3322167,142.34632606772357,-0.039826833,2.3812012e-08,0.01382609,7.8894496e-05,2.0,43,0.021303637,5.9357924e-10,0,-6.520459824387129e-10,2.0
210,210,3.6747382,32447774.0,5099703.5,32846080.0,-8.931912,143.24595579048037,-0.03981858,-1.0030097e-09,0.0084927585,0.00020472532,2.0,43,0.021299256,6.4845657e-10,0,-6.386445318537801e-10,2.0
211,211,3.180988,37963096.0,2437155.5,38041244.0,-3.6732347,144.27417135928408,-0.03982942,9.695854e-09,0.020529334,8.426203e-05,2.0,43,0.021333678,5.608039e-10,0,-6.299547565030644e-10,2.0
212,212,2.752818,38599620.0,3600270.8,38767160.0,-5.3286853,145.45314000194776,-0.039836638,1.1790221e-09,0.01605859,0.0001385,2.0,43,0.021354793,5.508475e-10,0,-6.375707009993151e-10,2.0
