True,index,freq,Re(Z),Im(Z),Z,Phase(Z),time,Ewe_meas,I_meas,Cs,Cp,cycle_number,I_Range,Ewe,I,Ns,(QQo),cycle
110,110,7000018.5,251.6783,1551.9705,1572.245,-80.788704,82.83350142769632,-0.07677769,2.0328986e-05,1.4649995e-05,1.42746e-05,2.0,40,0.009933587,6.318091e-06,0,2.532404834691467e-08,2.0
111,111,6057573.0,292.8015,1856.0657,1879.019,-81.03525,83.38549326724024,-0.07672995,-1.490973e-05,1.4155597e-05,1.3811869e-05,2.0,40,0.014095253,7.501389e-06,0,2.0731330064458732e-08,2.0
112,112,5242039.0,226.90192,2139.608,2151.6055,-83.9465,83.8014914203377,-0.07675255,9.978909e-07,1.4190108e-05,1.4032298e-05,2.0,40,0.019515024,9.069983e-06,0,2.1642151642199772e-08,2.0
113,113,4536288.0,186.08542,2441.4912,2448.5725,-85.641464,85.16950636528782,-0.07677554,-2.3468197e-05,1.437025e-05,1.4287253e-05,2.0,40,0.01832768,7.4850464e-06,0,3.600800543753656e-08,2.0
114,114,3925558.5,294.3117,2764.9778,2780.5974,-83.92416,85.72150473817601,-0.076743536,-2.9105624e-05,1.4663141e-05,1.4498868e-05,2.0,40,0.020491205,7.3693536e-06,0,3.7121027961467076e-08,2.0
115,115,3397055.0,298.46667,3135.623,3149.796,-84.56264,86.13748889128328,-0.076778956,-1.6137665e-05,1.4941484e-05,1.4807324e-05,2.0,40,0.021268802,6.752438e-06,0,3.866247076600615e-08,2.0
116,116,2939708.2,304.82883,3607.0566,3619.914,-85.169464,86.68949894417892,-0.076754585,-5.604623e-05,1.50093865e-05,1.4902953e-05,2.0,40,0.020300535,5.6080157e-06,0,3.602915463323026e-08,2.0
117,117,2543924.5,283.646,4180.7627,4190.3735,-86.11868,87.24148329035961,-0.076914854,3.10642e-05,1.4964437e-05,1.48958725e-05,2.0,40,0.020579077,4.9110367e-06,0,2.972763022183658e-08,2.0
118,118,2201436.2,340.04413,4740.2593,4752.4404,-85.8969,87.79349254324916,-0.07679701,-9.495542e-06,1.5251477e-05,1.5173395e-05,2.0,40,0.02081188,4.3791983e-06,0,2.9142522571642675e-08,2.0
119,119,1905053.1,162.43758,5584.8403,5587.202,-88.334,88.51248900408973,-0.07673714,-8.8572015e-06,1.49589905e-05,1.4946346e-05,2.0,41,0.019503806,3.4908e-06,0,3.0682141094586434e-08,2.0
120,120,1648567.4,216.7317,6618.585,6622.1323,-88.124466,89.06450151032186,-0.07683953,-3.186851e-06,1.4586406e-05,1.4570783e-05,2.0,41,0.019903403,3.0055883e-06,0,3.050387512323264e-08,2.0
121,121,1426616.2,193.15424,7348.6646,7351.2026,-88.49437,89.61649612316978,-0.076874614,2.900614e-06,1.5181146e-05,1.51706645e-05,2.0,41,0.020199746,2.7478152e-06,0,3.0343488362251016e-08,2.0
122,122,1234551.2,137.60225,8668.466,8669.558,-89.09057,90.16848156272317,-0.07686863,6.7158544e-07,1.4871979e-05,1.4868233e-05,2.0,41,0.020829774,2.402634e-06,0,2.983161687553822e-08,2.0
123,123,1068345.5,202.9739,9945.006,9947.077,-88.83078,90.7204885489482,-0.076943696,7.077482e-06,1.497971e-05,1.49734715e-05,2.0,41,0.020514876,2.0624025e-06,0,3.049296582270008e-08,2.0
124,124,924510.06,271.60242,11474.464,11477.678,-88.64405,91.27249116185703,-0.07686024,5.855893e-06,1.500293e-05,1.4994529e-05,2.0,41,0.020275546,1.7665199e-06,0,3.144301389819206e-08,2.0
125,125,800039.0,-2008.5808,10941.292,11124.13,-100.40242,91.82448449471849,-0.07685553,1.0328486e-06,1.8181945e-05,1.7589175e-05,2.0,41,0.01967816,1.7689617e-06,0,3.118306860369794e-08,2.0
126,126,692334.1,35.519966,15414.008,15414.049,-89.867966,92.3764884142729,-0.07683843,2.6473579e-06,1.4913818e-05,1.4913739e-05,2.0,41,0.020486582,1.3290851e-06,0,3.0887285160846526e-08,2.0
127,127,599122.25,223.77283,17674.992,17676.408,-89.27465,92.92849524048506,-0.07684564,2.2190568e-06,1.5029532e-05,1.5027124e-05,2.0,41,0.020816013,1.1776156e-06,0,3.052787238660986e-08,2.0
128,128,518454.94,444.91342,20101.066,20105.99,-88.73203,93.48050822669757,-0.076769285,-4.730597e-06,1.5271793e-05,1.5264313e-05,2.0,41,0.020382226,1.0137389e-06,0,3.077333990925387e-08,2.0
129,129,448662.03,823.41876,23571.977,23586.354,-87.99935,94.03250459962874,-0.076775156,-4.68963e-06,1.5048902e-05,1.5030561e-05,2.0,41,0.020201547,8.56493e-07,0,3.0260176091471655e-08,2.0
130,130,388258.97,718.9804,27011.137,27020.703,-88.475266,94.58449142580503,-0.07683136,4.3508888e-07,1.5175946e-05,1.5165202e-05,2.0,41,0.020923266,7.74342e-07,0,2.906438394618347e-08,2.0
131,131,335983.9,2027.087,31698.256,31763.006,-86.34095,95.13650665202294,-0.07683375,-5.406936e-07,1.494398e-05,1.4883114e-05,2.0,41,0.020112075,6.331918e-07,0,2.9129545210191547e-08,2.0
132,132,290751.2,1570.7078,36024.734,36058.96,-87.50344,95.68848998492467,-0.07680988,6.511009e-07,1.51949e-05,1.5166068e-05,2.0,41,0.020638885,5.723649e-07,0,2.9373365972199553e-08,2.0
133,133,251605.19,2060.9883,42085.17,42135.605,-87.19636,96.2405044111365,-0.07686749,1.2153411e-06,1.5030432e-05,1.4994472e-05,2.0,41,0.020353615,4.8305026e-07,0,2.921339633422409e-08,2.0
134,134,217729.38,2861.7314,48023.79,48108.98,-86.58978,96.79250451739063,-0.07675729,-6.3097264e-06,1.5221121e-05,1.5167263e-05,2.0,41,0.020404834,4.2413774e-07,0,2.9968549311717317e-08,2.0
135,135,188418.58,2888.5637,54534.414,54610.86,-86.96801,97.51148276487947,-0.07686859,-4.4766495e-08,1.5489084e-05,1.544575e-05,2.0,42,0.019751165,3.6167103e-07,0,3.000391823881523e-08,2.0
136,136,163051.14,2697.916,63478.016,63535.324,-87.56631,97.92748374459916,-0.07676362,-7.71891e-07,1.5377047e-05,1.534932e-05,2.0,42,0.021711921,3.4172993e-07,0,2.9945896142752854e-08,2.0
137,137,141098.2,2059.0923,72590.72,72619.914,-88.3752,98.47949939747923,-0.076769754,-9.445459e-07,1.5538802e-05,1.552631e-05,2.0,42,0.020259965,2.7898636e-07,0,2.9786254784635998e-08,2.0
138,138,122105.11,6222.2383,82282.44,82517.37,-85.6755,98.89550136393518,-0.076782554,-5.927173e-07,1.5840875e-05,1.5750804e-05,2.0,42,0.021886246,2.65232e-07,0,2.975884459086251e-08,2.0
139,139,105663.59,4376.5176,94578.35,94679.555,-87.350586,99.4474984301196,-0.076840736,-4.9307306e-07,1.5925863e-05,1.5891836e-05,2.0,42,0.020457838,2.1607451e-07,0,2.97638487974642e-08,2.0
140,140,91439.65,3686.6287,110062.21,110123.94,-88.08154,99.86348831656505,-0.07675205,-1.1730759e-06,1.5814205e-05,1.579648e-05,2.0,42,0.021715226,1.9718897e-07,0,2.9737954759559514e-08,2.0
141,141,79127.08,5218.268,125022.96,125131.81,-87.60995,100.4154882094299,-0.076800734,-1.0976812e-07,1.6088117e-05,1.606014e-05,2.0,42,0.02026175,1.6192325e-07,0,2.9771636895909855e-08,2.0
142,142,68475.36,4873.7764,146803.08,146883.95,-88.09851,100.8314859358652,-0.076856725,1.3459348e-07,1.5832542e-05,1.5815112e-05,2.0,42,0.021158671,1.4405026e-07,0,2.977519337397874e-08,2.0
143,143,59252.523,4945.8716,170155.86,170227.72,-88.33507,101.2474863822863,-0.07680053,-1.2988315e-07,1.5785792e-05,1.5772466e-05,2.0,42,0.021904081,1.2867517e-07,0,2.9769910789298532e-08,2.0
144,144,51282.285,-281.85602,193115.02,193115.22,-90.083626,101.79949720852892,-0.07679526,-5.5565346e-07,1.6070771e-05,1.6070739e-05,2.0,42,0.020208232,1.046434e-07,0,2.9666915486694103e-08,2.0
145,145,44369.8,9858.931,228510.4,228722.98,-87.52954,102.21550085497438,-0.07687946,1.5992353e-07,1.5697362e-05,1.5668196e-05,2.0,42,0.020596059,9.0048054e-08,0,2.9704187428297898e-08,2.0
146,146,38403.727,12201.837,259251.11,259538.1,-87.30532,102.6315044213843,-0.076892234,1.6551108e-07,1.5985495e-05,1.5950165e-05,2.0,42,0.020861432,8.0379074e-08,0,2.9683322645675956e-08,2.0
147,147,33226.32,13908.069,303204.88,303523.7,-87.37367,103.04749422779423,-0.07684992,1.6364862e-07,1.5797985e-05,1.5764816e-05,2.0,42,0.021081544,6.945601e-08,0,2.9648545883528202e-08,2.0
148,148,28754.086,21941.273,346576.88,347270.72,-86.377525,103.46349256756366,-0.07677279,-6.7299163e-07,1.597059e-05,1.5906837e-05,2.0,42,0.021179162,6.098747e-08,0,2.962862748850201e-08,2.0
149,149,24884.947,36039.45,406026.0,407622.3,-84.927635,103.87950890729553,-0.07677953,-5.4596836e-07,1.5751777e-05,1.5628646e-05,2.0,42,0.021228058,5.2077763e-08,0,2.9615930296768726e-08,2.0
150,150,21553.963,26366.643,478896.3,479621.6,-86.84864,104.4625082416751,-0.07679485,-2.75756e-07,1.5418833e-05,1.5372236e-05,2.0,43,0.020979917,4.3742645e-08,0,2.9626881116697807e-08,2.0
151,151,18631.234,29730.514,551193.1,551994.4,-86.912544,104.87849434142117,-0.0768301,-2.4111742e-07,1.5497966e-05,1.5453006e-05,2.0,43,0.020875715,3.7818708e-08,0,2.960453982402811e-08,2.0
152,152,16126.037,44609.543,617762.0,619370.56,-85.86975,105.29450345449732,-0.076829374,-2.6711498e-07,1.5976118e-05,1.5893243e-05,2.0,43,0.020616455,3.328614e-08,0,2.958094744652505e-08,2.0
153,153,13954.87,10947.819,725145.56,725228.2,-89.13505,105.71050259427284,-0.07685007,-2.3627545e-07,1.5727843e-05,1.572426e-05,2.0,43,0.020342946,2.8050406e-08,0,2.955630293177553e-08,2.0
154,154,12080.609,30778.55,811744.9,812328.2,-87.82858,106.12649368072744,-0.07677625,-2.843598e-07,1.6229746e-05,1.6206446e-05,2.0,43,0.019935858,2.454163e-08,0,2.953582049637286e-08,2.0
155,155,10447.592,68236.25,962572.8,964988.4,-85.945114,106.54249530044035,-0.07682596,-1.9470912e-07,1.582597e-05,1.5746838e-05,2.0,43,0.01943008,2.013504e-08,0,2.951481209429543e-08,2.0
156,156,9045.586,63211.562,1056619.2,1058508.4,-86.5764,106.97426222762442,-0.076793484,-1.6774314e-07,1.6651942e-05,1.6592558e-05,2.0,43,0.022000045,2.0784006e-08,0,2.9491832087453514e-08,2.0
157,157,7827.7437,109419.2,1254130.8,1258895.0,-85.01374,107.61092367125093,-0.07685208,-1.9167358e-07,1.6212154e-05,1.6089678e-05,2.0,43,0.0201554,1.601039e-08,0,2.945164774370933e-08,2.0
158,158,6770.8345,145036.7,1469730.0,1476869.0,-84.36415,108.14942279012757,-0.07685726,-1.3450125e-07,1.5993384e-05,1.583914e-05,2.0,43,0.020231232,1.3698731e-08,0,2.942483438540893e-08,2.0
159,159,5860.798,156530.34,1673829.6,1681132.8,-84.65745,108.75598545896355,-0.07653944,-3.5927977e-07,1.6223783e-05,1.6083131e-05,2.0,43,0.020175472,1.2001117e-08,0,2.9398220918223258e-08,2.0
160,160,5071.625,189080.27,1938064.0,1947265.6,-84.42778,109.43670319798548,-0.07688327,-1.2809497e-07,1.6192163e-05,1.6039496e-05,2.0,43,0.020192144,1.0369487e-08,0,2.9365607271818226e-08,2.0
161,161,4388.5933,205509.14,2230480.8,2239928.2,-84.73582,110.11685253694304,-0.076946415,-1.3347699e-07,1.6259093e-05,1.6122229e-05,2.0,43,0.020225517,9.029538e-09,0,2.9332630068079624e-08,2.0
162,162,3798.7827,291830.38,2609056.8,2625327.0,-83.617836,110.796824889243,-0.0768007,-1.9848956e-07,1.6058028e-05,1.5859607e-05,2.0,43,0.0203031,7.733551e-09,0,2.9298238909403787e-08,2.0
163,163,3286.0488,428704.94,2903705.2,2935181.8,-81.60149,111.47667990821355,-0.07690133,-1.5148535e-07,1.6679905e-05,1.6324078e-05,2.0,43,0.020204302,6.883493e-09,0,2.9269359705166507e-08,2.0
164,164,2844.088,464579.03,3292930.2,3325541.0,-81.9695,112.15684018051252,-0.0768187,-1.813565e-07,1.699396e-05,1.6662303e-05,2.0,43,0.020177525,6.067441e-09,0,2.9235529884849577e-08,2.0
165,165,2460.7852,623476.2,3824368.0,3874856.5,-80.740685,112.83668455947918,-0.07686816,-1.342219e-07,1.691168e-05,1.6473841e-05,2.0,43,0.020259833,5.2285376e-09,0,2.9201143943807425e-08,2.0
166,166,2129.3164,772360.8,4363201.0,4431034.0,-79.96166,113.5158061117254,-0.07689786,-1.3018075e-07,1.7130684e-05,1.6610205e-05,2.0,43,0.02023952,4.5676742e-09,0,2.916611944067012e-08,2.0
167,167,1843.2289,831730.25,4781070.0,4852876.0,-80.1314,114.1959414773446,-0.0768277,-1.8470861e-07,1.8059918e-05,1.752942e-05,2.0,43,0.020168781,4.156047e-09,0,2.9137412194381856e-08,2.0
168,168,1594.4913,1223375.1,5640385.5,5771533.0,-77.762344,114.87581470965233,-0.07677893,-2.0429994e-07,1.7696573e-05,1.6901467e-05,2.0,43,0.020262154,3.5107057e-09,0,2.9104859492908886e-08,2.0
169,169,1380.4436,1590704.0,6385685.5,6580829.5,-76.01205,115.55569380862289,-0.07688208,-1.4213666e-07,1.8054852e-05,1.6999953e-05,2.0,43,0.020251695,3.0773772e-09,0,2.9075354101305055e-08,2.0
170,170,1194.6187,1757424.5,7245063.5,7455165.0,-76.3652,116.23584794758062,-0.07682138,-1.7571377e-07,1.83886e-05,1.7366749e-05,2.0,43,0.020228768,2.7133897e-09,0,2.904388980467913e-08,2.0
171,171,1033.3434,2428905.5,8119145.0,8474674.0,-73.34504,116.91609741988941,-0.0768235,-1.93629e-07,1.8969906e-05,1.7411643e-05,2.0,43,0.020241018,2.3884126e-09,0,2.9012270148302607e-08,2.0
172,172,894.71045,2752946.5,9188419.0,9591963.0,-73.321236,117.5958474255167,-0.07680662,-2.0225141e-07,1.935962e-05,1.7764927e-05,2.0,43,0.020208945,2.1068622e-09,0,2.8976405549917415e-08,2.0
173,173,774.2569,2269507.2,11593643.0,11813688.0,-78.92416,118.27597079114639,-0.07677072,-2.198687e-07,1.7730263e-05,1.7075916e-05,2.0,43,0.020502247,1.7354654e-09,0,2.8940860318886764e-08,2.0
174,174,669.7856,3752600.0,11472813.0,12070934.0,-71.88779,118.95585351675982,-0.07675497,-1.9847099e-07,2.0711637e-05,1.8709945e-05,2.0,43,0.02022793,1.6757551e-09,0,2.8905753720527136e-08,2.0
175,175,579.81464,4855407.0,12797282.0,13687418.0,-69.22279,119.63580866907432,-0.076875545,-1.632923e-07,2.1449305e-05,1.8750188e-05,2.0,43,0.020195123,1.4754516e-09,0,2.8868978979686074e-08,2.0
176,176,501.44418,6279307.5,14280791.0,15600343.0,-66.26476,120.31318032791023,-0.076830804,-1.7711051e-07,2.222518e-05,1.8624367e-05,2.0,43,0.02021895,1.296058e-09,0,2.8830606597492864e-08,2.0
177,177,434.02762,7299300.5,15423097.0,17063168.0,-64.67318,120.99322553354432,-0.076813124,-1.9247442e-07,2.3775583e-05,1.9424731e-05,2.0,43,0.020209407,1.1843877e-09,0,2.8796654565273905e-08,2.0
178,178,375.6009,8434924.0,17327882.0,19271830.0,-64.04395,121.67142460573814,-0.07685676,-1.689723e-07,2.4453895e-05,1.9769383e-05,2.0,43,0.020202901,1.0483125e-09,0,2.8763942882664434e-08,2.0
179,179,325.10385,9463826.0,19361084.0,21550304.0,-63.95031,122.35072546470474,-0.07691163,-1.5161577e-07,2.5285313e-05,2.0408961e-05,2.0,43,0.020215202,9.380472e-10,0,2.8730552069839002e-08,2.0
180,180,281.3503,12185087.0,20674470.0,23998126.0,-59.485817,123.0277941635286,-0.07684195,-1.6809705e-07,2.73614e-05,2.0307312e-05,2.0,43,0.020222723,8.4267926e-10,0,2.86973465240982e-08,2.0
181,181,243.36427,14290620.0,23047810.0,27118690.0,-58.199333,123.71109211596195,-0.076796114,-2.0076162e-07,2.8374856e-05,2.0495361e-05,2.0,43,0.020232733,7.4608075e-10,0,2.8662510819994047e-08,2.0
182,182,210.60631,16360683.0,24989734.0,29869026.0,-56.787384,124.3881696681201,-0.076808,-2.0402064e-07,3.0240373e-05,2.1167438e-05,2.0,43,0.020256404,6.7817424e-10,0,2.8626038763942813e-08,2.0
183,183,182.27473,15275091.0,22782448.0,27429334.0,-56.159084,125.05925492665847,-0.076847784,-1.9429949e-07,3.832598e-05,2.6440124e-05,2.0,43,0.020195562,7.362761e-10,0,2.8589609958029615e-08,2.0
184,184,157.72879,21972382.0,24438486.0,32863736.0,-48.04163,125.74766029271996,-0.07683244,-1.9299587e-07,4.1289048e-05,2.2832295e-05,2.0,43,0.020191956,6.144145e-10,0,2.8552706860452798e-08,2.0
185,185,136.52892,29558274.0,28882984.0,41326970.0,-44.337975,126.41951376458746,-0.076893054,-1.7271553e-07,4.0360213e-05,1.9713805e-05,2.0,43,0.020255985,4.9013965e-10,0,2.8519476932569572e-08,2.0
186,186,118.14758,31434624.0,27060704.0,41477910.0,-40.723732,127.1078931306256,-0.076812066,-1.8787459e-07,4.9780152e-05,2.118852e-05,2.0,43,0.020210326,4.872551e-10,0,2.8483828962408235e-08,2.0
187,187,102.25773,37034610.0,28229808.0,46566988.0,-37.316635,127.77433521559578,-0.07677877,-2.3337033e-07,5.5133565e-05,2.0261687e-05,2.0,43,0.020192906,4.3363135e-10,0,2.84452195489339e-08,2.0
188,188,88.4436,32742722.0,29045388.0,43768944.0,-41.575565,128.4642919683538,-0.076775044,-2.0297776e-07,6.195502e-05,2.7283415e-05,2.0,43,0.020228595,4.6216775e-10,0,2.8409373694860642e-08,2.0
189,189,76.54279,41833744.0,32663750.0,53075256.0,-37.982685,129.13173016010842,-0.07683079,-1.9187851e-07,6.365753e-05,2.4110026e-05,2.0,43,0.02024131,3.8137002e-10,0,2.8376351823232997e-08,2.0
190,190,66.250786,39359260.0,18964708.0,43689948.0,-25.72644,129.79999048516038,-0.07677378,-1.8550946e-07,0.00012667268,2.386779e-05,2.0,43,0.020217057,4.6273932e-10,0,2.834566038137925e-08,2.0
191,191,57.329906,18671830.0,2568786.0,18847702.0,-7.833321,130.45463854295667,-0.07682468,-1.9979323e-07,0.0010807145,2.0074744e-05,2.0,43,0.02022662,1.0731611e-09,0,2.831069736037565e-08,2.0
192,192,49.60321,44883910.0,23204494.0,50527360.0,-27.33847,131.13936748207198,-0.07685063,-1.827719e-07,0.00013827327,2.91628e-05,2.0,43,0.020233896,4.0045425e-10,0,2.8274714804714958e-08,2.0
193,193,42.92585,42859750.0,25938166.0,50097372.0,-31.181784,131.84742004904547,-0.07687506,-1.534967e-07,0.0001429427,3.831869e-05,2.0,43,0.020209067,4.0339573e-10,0,2.824202173751992e-08,2.0
194,194,37.1518,50411348.0,16315726.0,52985910.0,-17.93427,132.4911905863264,-0.07686816,-2.0288465e-07,0.00026256323,2.4895788e-05,2.0,43,0.020207256,3.8137035e-10,0,2.8216804108458603e-08,2.0
195,195,32.150223,62056764.0,21865020.0,65796056.0,-19.40935,133.13038288333337,-0.07681808,-1.5077775e-07,0.00022640511,2.5002664e-05,2.0,43,0.020229597,3.074591e-10,0,2.8185946303269798e-08,2.0
196,196,27.835518,55990330.0,17706272.0,58723324.0,-17.548937,133.85733678450924,-0.07678081,-2.0179522e-07,0.00032291905,2.9358014e-05,2.0,43,0.02019374,3.438794e-10,0,2.814996807524148e-08,2.0
197,197,24.082958,70091384.0,6039904.0,70351140.0,-4.9251165,134.55937028452172,-0.07683975,-2.0912333e-07,0.0010941585,8.064883e-06,2.0,43,0.020171123,2.8672065e-10,0,2.811490591924384e-08,2.0
198,198,20.833313,53745172.0,12904248.0,55272624.0,-13.5011835,135.21377271566598,-0.076816626,-1.7718504e-07,0.00059201004,3.226817e-05,2.0,43,0.020190798,3.652947e-10,0,2.8083532407763932e-08,2.0
199,199,18.021912,68988060.0,13938461.0,70382056.0,-11.422366,135.95975277775142,-0.07677605,-2.6150957e-07,0.00063358434,2.4849074e-05,2.0,43,0.020210154,2.8714925e-10,0,2.8039639588215375e-08,2.0
200,200,15.604198,55842840.0,13186074.0,57378530.0,-13.285798,136.61503360886127,-0.0768399,-1.7470819e-07,0.00077350513,4.085031e-05,2.0,43,0.020202637,3.5209402e-10,0,2.8006901736455703e-08,2.0
201,201,13.500899,61925212.0,10347335.0,62783748.0,-9.486147,137.36298076438834,-0.07678501,-1.920275e-07,0.001139276,3.094507e-05,2.0,43,0.020190582,3.215893e-10,0,2.796699138736258e-08,2.0
202,202,11.686608,64523996.0,2480716.5,64571664.0,-2.2017334,137.95387881912757,-0.076847255,-1.5183926e-07,0.005489775,8.102608e-06,2.0,43,0.020188384,3.1265082e-10,0,2.7940429351281615e-08,2.0
203,203,10.113269,45519980.0,30155316.0,54602304.0,-33.523014,138.6275475443981,-0.07671169,-2.5027995e-07,0.00052187283,0.00015917342,2.0,43,0.02012928,3.6865258e-10,0,2.7902044694132735e-08,2.0
204,204,8.748621,66456948.0,10513926.0,67283496.0,-8.990058,139.39441238084692,-0.0768219,-1.819525e-07,0.0017302769,4.2250158e-05,2.0,43,0.020194456,3.001398e-10,0,2.7864736984198915e-08,2.0
205,205,7.570237,67079332.0,10416222.0,67883240.0,-8.826519,140.2700174358033,-0.076792836,-1.712164e-07,0.002018368,4.7522113e-05,2.0,43,0.020181632,2.9729919e-10,0,2.7823633732777914e-08,2.0
206,206,6.554112,70536320.0,6209450.5,70809100.0,-5.030891,140.806314501242,-0.076859,-1.5621565e-07,0.0039106878,3.0073312e-05,2.0,43,0.0202085,2.853941e-10,0,2.7802237574741834e-08,2.0
207,207,5.669445,71157920.0,3168095.0,71228410.0,-2.5492408,141.41612794357934,-0.076817244,-2.088626e-07,0.008860973,1.7529572e-05,2.0,43,0.020212047,2.8376385e-10,0,2.776982960010393e-08,2.0
208,208,4.907347,68038216.0,14999762.0,69672030.0,-12.432601,142.10852885645,-0.07683109,-1.9893659e-07,0.0021621657,0.00010021685,2.0,43,0.020191558,2.8980865e-10,0,2.774009422285505e-08,2.0
209,209,4.245922,67330640.0,15964988.0,69197510.0,-13.339242,142.8963099605462,-0.076815225,-1.9931836e-07,0.0023478996,0.00012497863,2.0,43,0.020180453,2.9163552e-10,0,2.7700725708532313e-08,2.0
210,210,3.6747382,70725336.0,5882701.5,70969570.0,-4.7547297,143.7959303499374,-0.07683136,-1.8682239e-07,0.0073623573,5.0585517e-05,2.0,43,0.02018572,2.8442784e-10,0,2.7654982319376538e-08,2.0
211,211,3.180988,70618680.0,10119229.0,71340010.0,-8.154627,144.82520962550188,-0.07683679,-1.4094486e-07,0.0049443664,9.9480785e-05,2.0,43,0.020213597,2.8334166e-10,0,2.7613967828605998e-08,2.0
212,212,2.752818,71109180.0,8348125.5,71597540.0,-6.6958003,146.00409496147768,-0.076813735,-1.7459641e-07,0.0069255396,9.415327e-05,2.0,43,0.02019791,2.8210342e-10,0,2.756083767103866e-08,2.0
