True,index,freq,Re(Z),Im(Z),Z,Phase(Z),time,Ewe_meas,I_meas,Cs,Cp,cycle_number,I_Range,Ewe,I,Ns,(QQo),cycle
0,0,7000018.5,109.051346,1439.506,1443.6307,-85.66777,2.465491663751891,-0.018639429,3.577146e-05,1.5794558e-05,1.570443e-05,1.0,40,0.009972415,6.907871e-06,0,-1.4468957271055338e-09,1.0
1,1,6057573.0,293.17075,1597.644,1624.3201,-79.6018,3.0174830233154353,-0.018658005,2.4366238e-05,1.6445287e-05,1.5909565e-05,1.0,40,0.014059398,8.655559e-06,0,-4.0459930344114684e-09,1.0
2,2,5242039.0,242.93759,1897.5784,1913.0662,-82.70439,3.4334976563986856,-0.018567547,-1.6007434e-05,1.6000007e-05,1.5741989e-05,1.0,40,0.019477986,1.0181554e-05,0,-1.0779146674622099e-09,1.0
3,3,4536288.0,205.0333,2168.3582,2178.0303,-84.59835,4.8015033213596325,-0.01864921,3.7780745e-05,1.6180371e-05,1.6036984e-05,1.0,40,0.018669445,8.57171e-06,0,-8.197741679421395e-09,1.0
4,4,3925558.5,297.7327,2438.181,2456.292,-83.037926,5.217487367772264,-0.018629609,-1.425852e-05,1.6628488e-05,1.6384176e-05,1.0,40,0.01825221,7.4307986e-06,0,-7.66578660626591e-09,1.0
5,5,3397055.0,406.75488,2792.257,2821.728,-81.71188,5.633495654241415,-0.018627523,-1.1039788e-05,1.677885e-05,1.6430193e-05,1.0,40,0.019371795,6.865224e-06,0,-8.439303720621184e-09,1.0
6,6,2939708.2,401.38388,3143.763,3169.283,-82.72405,6.049483833980048,-0.018712018,5.053873e-06,1.7221308e-05,1.6945081e-05,1.0,40,0.02126961,6.711174e-06,0,-1.058142156321335e-08,1.0
7,7,2543924.5,495.48773,3653.7405,3687.1843,-82.27717,6.601477753516519,-0.018622156,-2.4454277e-05,1.7122935e-05,1.6813725e-05,1.0,40,0.020757424,5.629614e-06,0,-1.514221442360824e-08,1.0
8,8,2201436.2,391.86002,4259.342,4277.3296,-84.743576,7.153489966440247,-0.018701732,1.705435e-05,1.6973505e-05,1.6831045e-05,1.0,40,0.020902826,4.886887e-06,0,-1.5419978284973645e-08,1.0
9,9,1905053.1,687.5404,4812.8325,4861.694,-81.86998,7.705481405981118,-0.018662456,-1.5510412e-06,1.7358503e-05,1.7011342e-05,1.0,40,0.020555314,4.228015e-06,0,-1.571668853300581e-08,1.0
10,10,1648567.4,498.2451,5632.733,5654.726,-84.94504,8.423491440044018,-0.01865465,-5.3749245e-06,1.7139348e-05,1.7006285e-05,1.0,41,0.01897293,3.3552342e-06,0,-1.8652220389703465e-08,1.0
11,11,1426616.2,659.6856,6580.934,6613.9155,-84.27568,8.839484366500983,-0.01867222,-9.987868e-07,1.6952175e-05,1.6783528e-05,1.0,41,0.0219571,3.3198337e-06,0,-1.8809331014532898e-08,1.0
12,12,1234551.2,865.0902,7529.293,7578.828,-83.44565,9.391501059377333,-0.01869005,6.3434413e-07,1.712209e-05,1.6899003e-05,1.0,41,0.021145722,2.7901044e-06,0,-1.857359488517179e-08,1.0
13,13,1068345.5,868.20746,8725.393,8768.481,-84.31757,9.943478232278721,-0.01868815,1.6566788e-06,1.7073535e-05,1.6906146e-05,1.0,41,0.020674277,2.3577945e-06,0,-1.8656460305272225e-08,1.0
14,14,924510.06,1468.5938,9927.098,10035.14,-81.58482,10.495498311793199,-0.018683864,3.3140184e-06,1.7341481e-05,1.6970082e-05,1.0,41,0.02027828,2.0207274e-06,0,-1.8083517200188207e-08,1.0
15,15,800039.0,1668.2583,11540.178,11660.137,-81.774254,11.047484338021604,-0.018666426,-6.211272e-08,1.723838e-05,1.688551e-05,1.0,41,0.02041338,1.7506982e-06,0,-1.7725376913284032e-08,1.0
16,16,692334.1,2482.6462,13396.007,13624.116,-79.50065,11.599502897559432,-0.018630316,-1.352602e-06,1.7160464e-05,1.6590639e-05,1.0,41,0.020441292,1.5003757e-06,0,-1.825256204841392e-08,1.0
17,17,599122.25,2576.0745,15058.95,15277.701,-80.2926,12.151502363820327,-0.018699981,5.0737794e-06,1.7640465e-05,1.7138917e-05,1.0,41,0.020469462,1.3398261e-06,0,-1.7816355249561945e-08,1.0
18,18,518454.94,3221.1714,17134.432,17434.584,-79.353004,12.704497536731651,-0.018634062,2.1371209e-06,1.7915932e-05,1.7304365e-05,1.0,41,0.020530775,1.1775891e-06,0,-1.739460102042282e-08,1.0
19,19,448662.03,4455.9814,19399.922,19905.094,-77.06407,13.256481562944828,-0.018565627,-6.0546054e-06,1.8285247e-05,1.73689e-05,1.0,41,0.02017941,1.0137812e-06,0,-1.8068908444165444e-08,1.0
20,20,388258.97,5837.581,22414.295,23161.994,-75.40217,13.808485482499236,-0.018738791,8.222723e-06,1.828831e-05,1.7126627e-05,1.0,41,0.02076057,8.963205e-07,0,-1.7933082802639116e-08,1.0
21,21,335983.9,7993.899,25850.373,27058.164,-72.816444,14.360495775385061,-0.018652601,9.862955e-07,1.8324614e-05,1.6725218e-05,1.0,41,0.020767584,7.675164e-07,0,-1.770189594629004e-08,1.0
22,22,290751.2,8783.678,27533.605,28900.734,-72.30645,14.912482814950636,-0.018728636,4.6696864e-06,1.9880878e-05,1.8044462e-05,1.0,41,0.020435736,7.071009e-07,0,-1.2771548569380305e-08,1.0
23,23,251605.19,12119.675,31713.49,33950.434,-69.08507,15.464489081146894,-0.018703874,1.4350803e-06,1.9946032e-05,1.7404194e-05,1.0,41,0.020431321,6.0179855e-07,0,-1.2733289433795233e-08,1.0
24,24,217729.38,15434.364,34735.277,38009.99,-66.04238,16.01648289404693,-0.018651707,-3.395414e-06,2.1044196e-05,1.7574315e-05,1.0,41,0.020254243,5.3286635e-07,0,-1.2935991486407043e-08,1.0
25,25,188418.58,18741.318,37999.02,42369.36,-63.747242,16.568502893584082,-0.018738326,3.418301e-06,2.222921e-05,1.7879896e-05,1.0,41,0.020711375,4.888291e-07,0,-1.1768674769598419e-08,1.0
26,26,163051.14,23502.13,41081.688,47329.223,-60.226868,17.12047891979455,-0.018657481,2.7367432e-06,2.3760087e-05,1.7901351e-05,1.0,41,0.020387618,4.3076173e-07,0,-1.192367446428951e-08,1.0
27,27,141098.2,28943.791,43191.65,51992.9,-56.17298,17.672494866041234,-0.018659886,1.3680396e-06,2.6115531e-05,1.8022305e-05,1.0,41,0.020182908,3.8818584e-07,0,-1.2413153187173029e-08,1.0
28,28,122105.11,34616.824,46132.344,57675.973,-53.116142,18.254496013658354,-0.018653383,-2.753453e-07,2.8254057e-05,1.8075985e-05,1.0,42,0.020468164,3.54882e-07,0,-1.2781631987335235e-08,1.0
29,29,105663.59,39717.074,49735.953,63648.34,-51.390583,18.80650462655467,-0.018613176,-3.5319817e-07,3.0284773e-05,1.8492305e-05,1.0,42,0.020178,3.170232e-07,0,-1.2837375946237413e-08,1.0
30,30,91439.65,46671.277,51821.145,69739.8,-47.993095,19.22248971296358,-0.018672593,6.046574e-08,3.358757e-05,1.8545188e-05,1.0,42,0.02131752,3.0567224e-07,0,-1.2835969962116975e-08,1.0
31,31,79127.08,54544.727,51375.9,74930.7,-43.286392,19.774489205883583,-0.018650662,-1.0495968e-08,3.915034e-05,1.8404957e-05,1.0,42,0.02045026,2.729223e-07,0,-1.2884210722511903e-08,1.0
32,32,68475.36,61264.918,52087.055,80414.25,-40.370983,20.190504772326676,-0.018550703,-8.067197e-07,4.4622717e-05,1.8721885e-05,1.0,42,0.021187425,2.6347848e-07,0,-1.2914062534346411e-08,1.0
33,33,59252.523,68326.76,51821.57,85755.586,-37.17804,20.60649041875149,-0.018609654,-8.7544623e-07,5.1832565e-05,1.892775e-05,1.0,42,0.02185898,2.5489862e-07,0,-1.2873301179042013e-08,1.0
34,34,51282.285,75447.98,50443.09,90757.38,-33.765938,21.15848983163596,-0.018632367,-8.834889e-08,6.152492e-05,1.900599e-05,1.0,42,0.02031418,2.238295e-07,0,-1.285291372292442e-08,1.0
35,35,44369.8,82188.27,45750.527,94063.93,-29.102726,21.574495078035397,-0.01865737,-5.03535e-08,7.84037e-05,1.8547378e-05,1.0,42,0.020683816,2.1989105e-07,0,-1.2859953997719565e-08,1.0
36,36,38403.727,87023.62,41160.043,96266.6,-25.313005,21.990488671144703,-0.018668959,4.0428546e-07,0.000100686426,1.8406503e-05,1.0,42,0.020945003,2.1757289e-07,0,-1.2802915083257322e-08,1.0
37,37,33226.32,91261.516,39382.56,99396.43,-23.341898,22.406499304197496,-0.018613791,1.669708e-08,0.000121628116,1.9094146e-05,1.0,42,0.021136055,2.1264401e-07,0,-1.282333253145815e-08,1.0
38,38,28754.086,95337.13,35441.0,101711.52,-20.392311,22.822484150674427,-0.01873145,6.352372e-07,0.00015617612,1.896209e-05,1.0,42,0.021261694,2.0903919e-07,0,-1.2797121034667372e-08,1.0
39,39,24884.947,98141.37,32390.574,103348.33,-18.264956,23.238489237061003,-0.018702645,3.132093e-07,0.00019745347,1.939524e-05,1.0,42,0.021274867,2.0585593e-07,0,-1.273898421223052e-08,1.0
40,40,21553.963,100743.14,28392.684,104667.69,-15.739558,23.655488670192426,-0.018637843,1.3124215e-07,0.00026006778,1.9137015e-05,1.0,42,0.021304915,2.0354815e-07,0,-1.2804662792604343e-08,1.0
41,41,18631.234,102757.76,25103.973,105779.8,-13.728591,24.071485409949673,-0.018706987,3.165623e-07,0.00034027972,1.9165294e-05,1.0,42,0.021193178,2.0035185e-07,0,-1.2892959160064364e-08,1.0
42,42,16126.037,104495.97,22407.021,106871.336,-12.102635,24.487504629738396,-0.018652191,-2.464959e-08,0.00044046188,1.9362174e-05,1.0,42,0.021024415,1.9672642e-07,0,-1.286336935085962e-08,1.0
43,43,13954.87,104784.57,20798.652,106828.79,-11.2267,24.903491902834503,-0.018720327,7.6468297e-07,0.0005483516,2.0785139e-05,1.0,42,0.020687677,1.9365264e-07,0,-1.278960775145816e-08,1.0
44,44,12080.609,106483.25,16959.973,107825.43,-9.049692,25.319504615938058,-0.018637508,2.8432321e-08,0.0007767945,1.9218258e-05,1.0,42,0.020437025,1.8953807e-07,0,-1.2656711147131874e-08,1.0
45,45,10447.592,107325.43,14468.956,108296.34,-7.6779737,25.735481168987462,-0.01865167,-5.9664444e-08,0.0010528505,1.8793755e-05,1.0,42,0.019989274,1.845794e-07,0,-1.2568807491058227e-08,1.0
46,46,9045.586,107906.61,12595.256,108639.2,-6.6576476,26.30824866288458,-0.01861774,3.1023493e-09,0.0013969358,1.8776615e-05,1.0,42,0.02037602,1.8755678e-07,0,-1.2888718310423918e-08,1.0
47,47,7827.7437,108800.1,11187.576,109373.78,-5.870913,26.788942552404478,-0.018663611,1.2807708e-07,0.0018173874,1.9014858e-05,1.0,42,0.020466637,1.8712562e-07,0,-1.2784843955477657e-08,1.0
48,48,6770.8345,108544.8,9014.604,108918.484,-4.7474976,27.327415084611857,-0.018713824,4.1769792e-07,0.002607542,1.7861643e-05,1.0,42,0.020525053,1.8844416e-07,0,-1.2802089052851863e-08,1.0
49,49,5860.798,108697.766,8174.6606,109004.72,-4.300857,27.932972313428763,-0.018574795,1.14295034e-07,0.0033219543,1.8682824e-05,1.0,42,0.020612357,1.8909601e-07,0,-1.266220504346865e-08,1.0
50,50,5071.625,108241.28,6889.128,108460.29,-3.641737,28.613717519103375,-0.018666947,1.8022848e-07,0.0045552137,1.8377894e-05,1.0,42,0.02061573,1.900763e-07,0,-1.2547090032993838e-08,1.0
51,51,4388.5933,109825.12,5678.322,109971.81,-2.959746,29.29382485806127,-0.018666128,8.356421e-08,0.0063866745,1.7027545e-05,1.0,42,0.020825215,1.8936866e-07,0,-1.2637618164770715e-08,1.0
52,52,3798.7827,108292.98,5727.7734,108444.34,-3.027636,29.97382827702677,-0.01861653,-7.2514e-08,0.007314588,2.0405521e-05,1.0,42,0.020728257,1.911419e-07,0,-1.271326461453073e-08,1.0
53,53,3286.0488,108420.73,5044.8257,108538.03,-2.664056,30.653674095992756,-0.018626032,-2.1294712e-08,0.009600636,2.074094e-05,1.0,42,0.020762071,1.9128845e-07,0,-1.2703900980635218e-08,1.0
54,54,2844.088,108072.97,3791.2605,108139.445,-2.0091443,31.333838848295272,-0.018696832,3.6629416e-07,0.014760243,1.8142306e-05,1.0,42,0.020776033,1.9212261e-07,0,-1.2765911931593068e-08,1.0
55,55,2460.7852,108666.29,4785.18,108771.59,-2.5214226,32.013703307260585,-0.018662233,1.990406e-07,0.013515998,2.6158554e-05,1.0,42,0.020853965,1.9172252e-07,0,-1.2814653126378614e-08,1.0
56,56,2129.3164,108867.23,4121.8115,108945.23,-2.1682343,32.69384013956005,-0.018576061,-4.1242177e-07,0.018133925,2.595683e-05,1.0,42,0.020885808,1.9170926e-07,0,-1.2951423754318212e-08,1.0
57,57,1843.2289,109749.08,2467.1843,109776.805,-1.2878053,33.373936891846824,-0.018729866,3.7076416e-07,0.03499768,1.7677517e-05,1.0,42,0.020971484,1.9103749e-07,0,-1.2939528077539977e-08,1.0
58,58,1594.4913,108365.89,3830.2542,108433.56,-2.0243092,34.05384431082348,-0.018646229,1.0628758e-07,0.026059758,3.2516076e-05,1.0,42,0.020843433,1.9222308e-07,0,-1.2982575825051e-08,1.0
59,59,1380.4436,108531.664,3199.0312,108578.8,-1.6883363,34.73368562311953,-0.018669406,-7.400362e-08,0.03603985,3.1284548e-05,1.0,42,0.020861752,1.9213468e-07,0,-1.3153595049167738e-08,1.0
60,60,1194.6187,108545.836,2968.7092,108586.42,-1.5666388,35.413808402081486,-0.018603468,-2.360418e-07,0.044876937,3.354343e-05,1.0,42,0.020884437,1.923301e-07,0,-1.3131612721666938e-08,1.0
61,61,1033.3434,109016.62,3473.4316,109071.94,-1.8249115,36.094077501038555,-0.018635646,3.0669614e-08,0.044342145,4.4968478e-05,1.0,42,0.020938545,1.9197005e-07,0,-1.3081025021669746e-08,1.0
62,62,894.71045,109755.7,3435.3696,109809.45,-1.792781,36.773813960011466,-0.01860645,-2.6714582e-07,0.051780254,5.067942e-05,1.0,42,0.020997876,1.9122102e-07,0,-1.3106513020840933e-08,1.0
63,63,774.2569,108030.13,3786.951,108096.484,-2.0076575,37.45393649896141,-0.018702831,3.1004666e-07,0.054280695,6.6619534e-05,1.0,42,0.020822626,1.9263e-07,0,-1.3250682550178015e-08,1.0
64,64,669.7856,108930.57,3961.1128,109002.57,-2.0825658,38.13380362460157,-0.018598828,-2.2915069e-07,0.05998838,7.921877e-05,1.0,42,0.020913115,1.9185892e-07,0,-1.3267863765935238e-08,1.0
65,65,579.81464,108822.96,4273.1216,108906.83,-2.2486625,38.813844563570456,-0.018671531,1.3888163e-07,0.06423707,9.88931e-05,1.0,42,0.020887071,1.9178844e-07,0,-1.3060104644431587e-08,1.0
66,66,501.44418,108769.94,4602.5244,108867.27,-2.4229858,39.49116427570698,-0.018596854,-3.017886e-07,0.06896067,0.00012325341,1.0,42,0.020859547,1.9160531e-07,0,-1.298839092063157e-08,1.0
67,67,434.02762,109433.76,5131.3667,109554.0,-2.6846418,40.17120873465319,-0.018646825,2.090983e-07,0.071461104,0.00015677592,1.0,42,0.020900274,1.9077599e-07,0,-1.3173834931132136e-08,1.0
68,68,375.6009,109598.266,5821.031,109752.74,-3.0402617,40.85043602026417,-0.018596072,-1.323002e-07,0.07279367,0.00020476826,1.0,42,0.020918682,1.9059827e-07,0,-1.3294196177396047e-08,1.0
69,69,325.10385,109428.664,6300.4766,109609.89,-3.2952302,41.52972122591018,-0.018634118,1.4931177e-07,0.077700645,0.00025672722,1.0,42,0.02088058,1.9049905e-07,0,-1.3419820195958307e-08,1.0
70,70,281.3503,109768.85,7325.827,110013.04,-3.818182,42.20677851139044,-0.018650979,1.4651802e-07,0.07721756,0.00034240578,1.0,42,0.020898966,1.8996808e-07,0,-1.3568944174058985e-08,1.0
71,71,243.36427,110605.84,7270.578,110844.55,-3.7608771,42.89012899718364,-0.018627094,1.178352e-07,0.089948595,0.00038699343,1.0,42,0.020951962,1.8902114e-07,0,-1.3354628918226376e-08,1.0
72,72,210.60631,110722.68,8609.004,111056.86,-4.4459653,43.56719148266711,-0.018636707,5.0300264e-07,0.08778006,0.000527486,1.0,42,0.020927362,1.8843826e-07,0,-1.30964825480581e-08,1.0
73,73,182.27473,110288.766,9266.351,110677.36,-4.8026533,44.23926783454954,-0.018652117,3.588463e-08,0.09422907,0.0006605182,1.0,42,0.020822061,1.8813297e-07,0,-1.3251561846809621e-08,1.0
74,74,157.72879,111421.26,10695.967,111933.46,-5.4833493,44.92765258730651,-0.018631995,-1.2596773e-07,0.094338536,0.00086140883,1.0,42,0.020909091,1.867993e-07,0,-1.3060004480448996e-08,1.0
75,75,136.52892,112609.49,12435.583,113294.05,-6.301699,45.59953131250222,-0.018543512,-6.120831e-07,0.09374095,0.0011293992,1.0,42,0.021028457,1.8560955e-07,0,-1.3345769233058622e-08,1.0
76,76,118.14758,112384.14,13404.267,113180.695,-6.8016434,46.28788142523263,-0.01869266,3.6648038e-07,0.100496806,0.0014095927,1.0,42,0.02089327,1.84601e-07,0,-1.3253305845502019e-08,1.0
77,77,102.25773,113086.33,15065.865,114085.484,-7.5885143,46.95434652353288,-0.018614983,2.5063204e-07,0.10330703,0.0018015954,1.0,42,0.020896167,1.8316236e-07,0,-1.3330477815561156e-08,1.0
78,78,88.4436,113616.78,17129.867,114900.85,-8.573841,47.64426311626448,-0.018670859,3.1526102e-07,0.10505087,0.0023348618,1.0,42,0.020846559,1.8143085e-07,0,-1.3318200091115345e-08,1.0
79,79,76.54279,115005.67,18866.125,116542.84,-9.316119,48.311710641370155,-0.018601755,-4.6457245e-07,0.11021307,0.0028882003,1.0,42,0.020910725,1.7942521e-07,0,-1.3357841007674701e-08,1.0
80,80,66.250786,116150.78,20909.824,118017.9,-10.205256,48.97996400643024,-0.018669704,6.698836e-08,0.11488907,0.0036064817,1.0,42,0.020914674,1.7721612e-07,0,-1.3352581163345726e-08,1.0
81,81,57.329906,117331.73,22856.113,119537.17,-11.023119,49.633620677497674,-0.018756827,3.8901632e-07,0.12146091,0.0044405353,1.0,42,0.020884952,1.7471513e-07,0,-1.3193881033961352e-08,1.0
82,82,49.60321,118751.47,25539.848,121466.85,-12.137699,50.31935033670743,-0.018628491,1.4335086e-07,0.12562962,0.005554092,1.0,42,0.020872787,1.7183936e-07,0,-1.30797621117852e-08,1.0
83,83,42.92585,120762.66,28538.398,124088.914,-13.296098,51.02741242366028,-0.018610194,-9.95208e-08,0.1299187,0.006871711,1.0,42,0.02089349,1.6837515e-07,0,-1.3175075284404844e-08,1.0
84,84,37.1518,122850.01,31097.975,126724.93,-14.205323,51.671183120895876,-0.018606655,3.147017e-07,0.13775526,0.00829561,1.0,42,0.020924835,1.6512011e-07,0,-1.3265697353125278e-08,1.0
85,85,32.150223,125210.164,34462.926,129866.38,-15.389069,52.31036381793092,-0.01862266,6.307618e-08,0.14364284,0.010115673,1.0,42,0.020946866,1.6129552e-07,0,-1.3003259634187926e-08,1.0
86,86,27.835518,126603.75,38803.395,132416.81,-17.040031,53.03832038582186,-0.018673869,3.8212403e-07,0.14735033,0.012653314,1.0,42,0.020891542,1.5777107e-07,0,-1.3200483297923165e-08,1.0
87,87,24.082958,130149.22,41343.203,136557.97,-17.622972,53.74036495250766,-0.018619977,6.3261986e-08,0.15984762,0.014651441,1.0,42,0.020938216,1.5332841e-07,0,-1.3109763171903957e-08,1.0
88,88,20.833313,133027.19,46160.887,140808.6,-19.13695,54.39474479696946,-0.018630316,-7.270166e-08,0.16549607,0.017785972,1.0,42,0.020924194,1.4860026e-07,0,-1.2569142253126516e-08,1.0
89,89,18.021912,136333.62,49438.84,145020.88,-19.93223,55.41372340536327,-0.018980846,1.4246271e-07,0.17862861,0.02075996,1.0,43,0.020882828,1.4399878e-07,0,-1.2870562916255669e-08,1.0
90,90,15.604198,139773.4,53552.734,149681.33,-20.963818,56.069000316463644,-0.018622994,-6.905618e-08,0.19045705,0.024379516,1.0,43,0.020839892,1.392284e-07,0,-1.2954464756342975e-08,1.0
91,91,13.500899,144058.58,58672.46,155548.48,-22.160181,56.816997312009335,-0.018665122,-2.6205349e-08,0.20091999,0.028586447,1.0,43,0.020894155,1.3432567e-07,0,-1.2866211000591487e-08,1.0
92,92,11.686608,146918.11,65077.266,160685.97,-23.890913,57.40785995341139,-0.01865109,-9.686097e-08,0.20926778,0.034324564,1.0,43,0.020799298,1.2944066e-07,0,-1.3153154301720852e-08,1.0
93,93,10.113269,153069.28,69316.39,168032.64,-24.363075,58.08152291868464,-0.018587353,-9.7960495e-08,0.22703493,0.038634673,1.0,43,0.02090626,1.2441785e-07,0,-1.337793022691885e-08,1.0
94,94,8.748621,157933.67,75030.08,174850.1,-25.411146,58.84837367510772,-0.01866961,-5.182219e-08,0.24246281,0.044646166,1.0,43,0.020875806,1.193926e-07,0,-1.2492210571728445e-08,1.0
95,95,7.570237,163643.4,80736.24,182476.05,-26.260206,59.723966810066486,-0.018652005,-2.2851396e-09,0.26040065,0.0509762,1.0,43,0.020902477,1.1454916e-07,0,-1.2698719625999752e-08,1.0
96,96,6.554112,169375.95,87231.945,190519.36,-27.249357,60.25931547550135,-0.018637452,-3.3151036e-07,0.27837533,0.058358435,1.0,43,0.020921456,1.0981275e-07,0,-1.31954554099963e-08,1.0
97,97,5.669445,174431.83,92795.95,197579.23,-28.012522,60.869133184460225,-0.018750884,2.5330476e-07,0.30251753,0.06673075,1.0,43,0.020768039,1.05112456e-07,0,-1.263724924400236e-08,1.0
98,98,4.907347,181692.83,101594.945,208167.77,-29.212074,61.56156212397036,-0.018647626,-1.3312058e-07,0.31922817,0.076035865,1.0,43,0.020906864,1.00432764e-07,0,-1.2578087011761231e-08,1.0
99,99,4.245922,187784.62,110244.95,217754.48,-30.416424,62.34931288138614,-0.018692706,-3.6002152e-08,0.3400082,0.08715105,1.0,43,0.020910932,9.602986e-08,0,-1.3777859921053675e-08,1.0
100,100,3.6747382,194114.83,118783.8,227574.52,-31.463522,63.248958177515306,-0.018610371,6.301582e-08,0.36461666,0.09933531,1.0,43,0.02086514,9.1684875e-08,0,-1.2147070634512442e-08,1.0
101,101,3.180988,201722.77,128192.27,239009.06,-32.435444,64.2782036930148,-0.018649042,-6.639489e-08,0.3902979,0.1122771,1.0,43,0.020886058,8.738605e-08,0,-1.218222518563245e-08,1.0
102,102,2.752818,208303.2,139250.08,250560.98,-33.76261,65.45713993572281,-0.018646378,-9.770386e-08,0.41519028,0.12823635,1.0,43,0.020901775,8.341991e-08,0,-1.3946263391822318e-08,1.0
103,103,2.3804083,216381.1,151714.25,264268.78,-35.035976,66.81095485333935,-0.018665232,3.9323083e-08,0.44069925,0.14524572,1.0,43,0.020921303,7.916676e-08,0,-1.3838482293402541e-08,1.0
104,104,2.060257,222718.78,165212.81,277306.56,-36.568027,68.36736199390725,-0.01865656,3.366114e-08,0.46757904,0.16596717,1.0,43,0.020900892,7.537107e-08,0,-1.1986566774273319e-08,1.0
