True,index,freq,Re(Z),Im(Z),Z,Phase(Z),time,Ewe_meas,I_meas,Cs,Cp,cycle_number,I_Range,Ewe,I,Ns,(QQo),cycle
110,110,7000018.5,181.76378,1423.5817,1435.1385,-82.72381,82.71449360871338,0.009204357,2.090575e-05,1.5971238e-05,1.5715046e-05,2.0,40,0.009984754,6.957345e-06,0,1.7283266841710343e-08,2.0
111,111,6057573.0,251.75803,1695.9609,1714.5453,-81.55635,83.26648168827523,0.009234988,2.3374607e-06,1.5491934e-05,1.5157913e-05,2.0,40,0.014121081,8.23605e-06,0,1.7922983961969034e-08,2.0
112,112,5242039.0,245.83334,1877.6399,1893.6646,-82.54088,83.68249000134529,0.009249651,-2.1477415e-05,1.616991e-05,1.58974e-05,2.0,40,0.019462628,1.0277759e-05,0,1.762570757181149e-08,2.0
113,113,4536288.0,156.6064,2187.2566,2192.856,-85.90464,85.05050731965457,0.009158729,-1.103979e-05,1.6040569e-05,1.5958756e-05,2.0,40,0.018692862,8.524436e-06,0,1.617644287594475e-08,2.0
114,114,3925558.5,271.70627,2476.5168,2491.3772,-83.738945,85.46649240606348,0.009199997,-3.00359e-05,1.6371083e-05,1.6176367e-05,2.0,40,0.017982718,7.217983e-06,0,1.684824038281136e-08,2.0
115,115,3397055.0,360.91943,2773.6333,2797.017,-82.58604,85.88249159915722,0.009139165,1.8338114e-05,1.6891512e-05,1.6610256e-05,2.0,40,0.018956527,6.7774085e-06,0,1.663601440935667e-08,2.0
116,116,2939708.2,346.5689,3184.0205,3202.8264,-83.78802,86.29849839225062,0.009142687,-1.7198166e-05,1.7003567e-05,1.6804475e-05,2.0,40,0.020711042,6.466489e-06,0,1.321005833356449e-08,2.0
117,117,2543924.5,392.01218,3656.8916,3677.843,-83.88136,86.85048657850712,0.009151201,-6.4070464e-06,1.7108181e-05,1.6913817e-05,2.0,40,0.020591103,5.5986898e-06,0,8.489863175623786e-09,2.0
118,118,2201436.2,492.2959,4217.6694,4246.303,-83.34243,87.40249137804494,0.009198582,-4.5255096e-05,1.714121e-05,1.6910815e-05,2.0,40,0.020802747,4.8990255e-06,0,1.427338468506672e-09,2.0
119,119,1905053.1,567.182,4956.212,4988.56,-83.47155,87.95449436423951,0.009109578,-6.3512275e-06,1.6856335e-05,1.6638436e-05,2.0,40,0.020379579,4.085263e-06,0,-2.8216068362092944e-09,2.0
120,120,1648567.4,268.28802,5821.5015,5827.68,-87.36135,88.67349346508854,0.009032032,6.894975e-06,1.6583586e-05,1.654844e-05,2.0,41,0.018894639,3.242223e-06,0,-6.715329059382115e-09,2.0
121,121,1426616.2,579.1509,6634.6045,6659.8345,-85.011154,89.08949159146869,0.009083568,2.6883276e-06,1.681504e-05,1.668788e-05,2.0,41,0.021773843,3.269427e-06,0,-6.841177913008916e-09,2.0
122,122,1234551.2,659.3291,7579.3457,7607.969,-85.02834,89.64148681770894,0.009185838,-5.2240734e-06,1.7009019e-05,1.6881273e-05,2.0,41,0.02091181,2.748672e-06,0,-6.8219808541737e-09,2.0
123,123,1068345.5,780.065,8881.545,8915.735,-84.9806,90.19348671057378,0.009125228,1.3196252e-06,1.6773352e-05,1.6644954e-05,2.0,41,0.020901693,2.34436e-06,0,-6.54096765589143e-09,2.0
124,124,924510.06,1074.8887,9780.568,9839.456,-83.72834,90.74549191017286,0.009107472,6.9005764e-06,1.7601285e-05,1.7391234e-05,2.0,41,0.020147499,2.0476232e-06,0,-6.68770135061821e-09,2.0
125,125,800039.0,1198.3119,12380.524,12438.382,-84.47156,91.29748494972591,0.009166144,-2.5853649e-06,1.60683e-05,1.5919162e-05,2.0,41,0.020638343,1.6592465e-06,0,-6.9487673225827605e-09,2.0
126,126,692334.1,1757.9531,13251.837,13367.931,-82.44341,91.84949150923057,0.0091221165,-7.8091307e-07,1.7347158e-05,1.7047163e-05,2.0,41,0.020390285,1.5253135e-06,0,-6.20548424444747e-09,2.0
127,127,599122.25,1934.486,15295.626,15417.471,-82.79189,92.40150217546034,0.009115969,-3.973045e-07,1.7367505e-05,1.7094078e-05,2.0,41,0.020475255,1.3280554e-06,0,-7.067527663467546e-09,2.0
128,128,518454.94,2677.6626,17338.002,17543.55,-81.220665,92.9534974550188,0.009116509,2.30658e-06,1.7705575e-05,1.7293112e-05,2.0,41,0.020547118,1.1712063e-06,0,-7.283735669749467e-09,2.0
129,129,448662.03,3407.648,20138.729,20424.996,-80.39603,93.50550196124823,0.009166051,1.8224134e-06,1.7614437e-05,1.7124145e-05,2.0,41,0.020196736,9.888245e-07,0,-7.486198752060642e-09,2.0
130,130,388258.97,3765.8877,24095.81,24388.316,-81.11721,94.05748332079384,0.00914645,1.0175987e-07,1.7012067e-05,1.660644e-05,2.0,41,0.02077859,8.5198957e-07,0,-7.071160876692042e-09,2.0
131,131,335983.9,8186.2275,28198.139,29362.379,-73.81141,94.60948606699822,0.009211848,-7.3413717e-06,1.6798913e-05,1.5493146e-05,2.0,41,0.020667937,7.0389177e-07,0,-6.990068383345951e-09,2.0
132,132,290751.2,6661.484,29434.29,30178.68,-77.24781,95.16149766658782,0.009179484,-6.803558e-07,1.8597093e-05,1.7690973e-05,2.0,41,0.02048438,6.7876994e-07,0,-6.695715437166171e-09,2.0
133,133,251605.19,9063.365,34034.395,35220.516,-75.08819,95.71348550610128,0.009164597,4.1929666e-06,1.8585853e-05,1.7355102e-05,2.0,41,0.02033664,5.774089e-07,0,-5.96274769773597e-09,2.0
134,134,217729.38,12095.859,38086.957,39961.56,-72.38091,96.26549419903313,0.009132252,7.889033e-07,1.9192292e-05,1.74339e-05,2.0,41,0.020240938,5.065102e-07,0,-5.700276753916908e-09,2.0
135,135,188418.58,15822.897,42339.76,45199.773,-69.50866,96.81748579852865,0.009143022,6.920694e-07,1.9950234e-05,1.750541e-05,2.0,41,0.020774286,4.596104e-07,0,-5.762564350546561e-09,2.0
136,136,163051.14,19525.764,47231.21,51108.15,-67.539406,97.36949206478312,0.009134209,3.6957642e-06,2.0666514e-05,1.7650016e-05,2.0,41,0.02027461,3.9670013e-07,0,-5.31002049583081e-09,2.0
137,137,141098.2,21892.523,53120.62,57455.05,-67.60204,98.08850060557597,0.009138326,-4.0482703e-08,2.123418e-05,1.81512e-05,2.0,42,0.019004803,3.3077688e-07,0,-5.449147285260124e-09,2.0
138,138,122105.11,33187.88,57100.29,66044.516,-59.833954,98.50448574536131,0.009155412,2.4891547e-08,2.2826956e-05,1.7062832e-05,2.0,42,0.020601144,3.1192815e-07,0,-5.5085140298447084e-09,2.0
139,139,105663.59,34498.51,65555.07,74078.44,-62.244305,98.92048352511483,0.009222579,-3.563645e-07,2.2976743e-05,1.7993574e-05,2.0,42,0.022010222,2.971205e-07,0,-5.426731066069735e-09,2.0
140,140,91439.65,42790.016,69116.78,81290.31,-58.23846,99.4724950180098,0.009149282,-3.0238834e-08,2.5182688e-05,1.8205035e-05,2.0,42,0.020409683,2.5107153e-07,0,-5.387430429002471e-09,2.0
141,141,79127.08,51613.184,72761.05,89208.13,-54.649944,99.88849701106665,0.009128898,7.033692e-08,2.7643693e-05,1.8390141e-05,2.0,42,0.021367587,2.395251e-07,0,-5.347222230466168e-09,2.0
142,142,68475.36,61904.734,77038.39,98828.69,-51.21614,100.44049741062918,0.009114496,1.5042481e-07,3.0170228e-05,1.8332723e-05,2.0,42,0.020252949,2.0492986e-07,0,-5.308158146187224e-09,2.0
143,143,59252.523,72903.71,78562.83,107177.74,-47.139698,100.85649911037763,0.00913924,2.8266322e-07,3.418977e-05,1.8370509e-05,2.0,42,0.020909205,1.9508906e-07,0,-5.283667138026872e-09,2.0
144,144,51282.285,83669.11,81146.414,116555.83,-44.12309,101.27248313013115,0.0091456305,4.217774e-09,3.8245773e-05,1.8537627e-05,2.0,42,0.021472238,1.8422277e-07,0,-5.255799347743068e-09,2.0
145,145,44369.8,96486.19,79003.0,124703.88,-39.310654,101.68849765657797,0.009133073,4.985284e-07,4.540347e-05,1.8222849e-05,2.0,42,0.021852896,1.752383e-07,0,-5.210185814914158e-09,2.0
146,146,38403.727,107876.8,77072.6,132580.5,-35.54392,102.24048632281483,0.009049676,9.689987e-07,5.3770833e-05,1.8171362e-05,2.0,42,0.020272,1.5290333e-07,0,-5.1707510349308096e-09,2.0
147,147,33226.32,116164.52,71283.33,136292.0,-31.53499,102.65650196923525,0.009113658,5.303774e-07,6.7197005e-05,1.8381677e-05,2.0,42,0.020393807,1.496332e-07,0,-5.137982848635462e-09,2.0
148,148,28754.086,125806.88,65502.21,141837.62,-27.504047,103.07349009570316,0.009068793,8.8350964e-07,8.450154e-05,1.8021612e-05,2.0,42,0.02054509,1.4484937e-07,0,-5.049372215740829e-09,2.0
149,149,24884.947,133493.28,60017.84,146364.61,-24.208418,103.48948987547192,0.0091445865,-4.5324757e-08,0.00010656217,1.7918086e-05,2.0,42,0.020602183,1.4075933e-07,0,-5.043326921277686e-09,2.0
150,150,21553.963,139924.14,54530.324,150174.3,-21.291534,103.90650706857559,0.009081667,9.317488e-07,0.00013541129,1.7854178e-05,2.0,42,0.020588122,1.3709484e-07,0,-4.986883882085458e-09,2.0
151,151,18631.234,143755.19,48047.566,151572.17,-18.481272,104.32250034171739,0.009236068,-5.6068154e-07,0.0001777899,1.7865326e-05,2.0,42,0.020479072,1.3511102e-07,0,-4.9894971204003846e-09,2.0
152,152,16126.037,149774.62,41973.348,155544.84,-15.655178,104.73848524145433,0.009210021,-2.9247968e-07,0.00023513587,1.7122013e-05,2.0,42,0.020394165,1.3111438e-07,0,-4.924269913209933e-09,2.0
153,153,13954.87,146902.92,35978.547,151244.58,-13.761641,105.15450115452404,0.009078947,7.823758e-07,0.00031699377,1.7938179e-05,2.0,42,0.019940104,1.3184012e-07,0,-4.889729443431554e-09,2.0
154,154,12080.609,153674.97,30140.584,156602.84,-11.096681,105.57049960098811,0.009192377,-3.1725085e-07,0.00043709882,1.6191372e-05,2.0,42,0.019719757,1.2592209e-07,0,-4.827833499850362e-09,2.0
155,155,10447.592,154971.12,27954.09,157472.16,-10.2252035,105.98650236739195,0.009081965,7.376758e-07,0.0005449524,1.7172824e-05,2.0,42,0.019204617,1.2195564e-07,0,-4.761017916898326e-09,2.0
156,156,9045.586,156928.38,24732.607,158865.4,-8.956397,106.41826382788713,0.009101305,2.0145926e-07,0.0007113994,1.7242279e-05,2.0,42,0.021901444,1.3786163e-07,0,-4.7135109829516964e-09,2.0
157,157,7827.7437,153582.8,21523.664,155083.67,-7.977686,107.05494087151601,0.00913924,1.3887902e-07,0.0009446422,1.8195651e-05,2.0,42,0.020038385,1.2921015e-07,0,-4.491195104339694e-09,2.0
158,158,6770.8345,157778.77,17655.105,158763.48,-6.3847146,107.59342783040483,0.009140711,9.993272e-09,0.0013313971,1.6464443e-05,2.0,42,0.020198397,1.2722319e-07,0,-4.578481265733409e-09,2.0
159,159,5860.798,157176.61,14423.128,157836.98,-5.2429967,108.20000031255768,0.009147922,1.2360647e-07,0.0018827987,1.572191e-05,2.0,42,0.020186087,1.27892e-07,0,-4.6371133458987675e-09,2.0
160,160,5071.625,157624.16,13280.41,158182.62,-4.8160043,108.88069965157774,0.009114422,2.502573e-07,0.0023629882,1.6655855e-05,2.0,42,0.020242702,1.2797045e-07,0,-4.532720854745185e-09,2.0
161,161,4388.5933,154233.67,10683.871,154603.27,-3.9625876,109.56082792388042,0.00924626,-4.1223794e-07,0.0033944247,1.6210117e-05,2.0,42,0.020098053,1.299976e-07,0,-4.539764146075696e-09,2.0
162,162,3798.7827,157178.52,9192.98,157447.12,-3.3472743,110.24085179617396,0.009150251,-1.3565489e-07,0.0045574233,1.5536834e-05,2.0,42,0.020285685,1.2884125e-07,0,-4.502750045747344e-09,2.0
163,163,3286.0488,157352.17,8607.274,157587.4,-3.1309993,110.92071550847322,0.009141419,1.3515434e-07,0.005627046,1.6786833e-05,2.0,42,0.020324957,1.2897577e-07,0,-4.608749457873509e-09,2.0
164,164,2844.088,157438.28,8033.156,157643.1,-2.9209356,111.60083628744178,0.009033336,7.296679e-07,0.0069661196,1.8088951e-05,2.0,42,0.020338446,1.2901577e-07,0,-4.447000928717711e-09,2.0
165,165,2460.7852,157975.81,6457.801,158107.75,-2.3408573,112.28067813306552,0.00914604,1.4148682e-07,0.01001525,1.670801e-05,2.0,42,0.020369148,1.288308e-07,0,-4.477881628251011e-09,2.0
166,166,2129.3164,157107.34,6071.6777,157224.62,-2.2131906,112.96085192536702,0.009054987,5.236742e-07,0.012310373,1.8358936e-05,2.0,42,0.020319527,1.2923883e-07,0,-4.312607027820449e-09,2.0
167,167,1843.2289,160568.6,4948.862,160644.84,-1.7653463,113.64093497098656,0.0091482755,-1.3660351e-08,0.017447593,1.655818e-05,2.0,42,0.02055572,1.2795755e-07,0,-4.39996913047865e-09,2.0
168,168,1594.4913,157415.23,4667.1826,157484.4,-1.6982572,114.32084361663146,0.009146133,1.6458205e-07,0.021386672,1.8783549e-05,2.0,42,0.020366188,1.2932193e-07,0,-4.461920553415075e-09,2.0
169,169,1380.4436,157890.62,5217.2563,157976.8,-1.8925637,115.00068844892667,0.0090941135,8.896408e-08,0.02209832,2.4102219e-05,2.0,42,0.020418841,1.2925216e-07,0,-4.409617792779584e-09,2.0
170,170,1194.6187,157490.17,4653.4624,157558.9,-1.6924624,115.68085365454317,0.009034995,7.730643e-07,0.028629558,2.4973599e-05,2.0,42,0.020392422,1.2942729e-07,0,-4.477847018439303e-09,2.0
171,171,1033.3434,157118.86,4407.567,157180.67,-1.6068648,116.36107363351039,0.009096908,3.2047421e-07,0.03494432,2.7477428e-05,2.0,42,0.020358467,1.2952272e-07,0,-4.521381277775127e-09,2.0
172,172,894.71045,157831.81,3945.3816,157881.11,-1.4319462,117.0408316924877,0.009109186,5.281442e-07,0.045086715,2.8155699e-05,2.0,42,0.020419374,1.2933387e-07,0,-4.3787044393388545e-09,2.0
173,173,774.2569,157651.0,5004.3926,157730.4,-1.8181573,117.72094249812653,0.009187607,-2.4870934e-07,0.04107558,4.1348103e-05,2.0,42,0.02037793,1.2919469e-07,0,-4.283161890170639e-09,2.0
174,174,669.7856,157815.2,4733.9966,157886.19,-1.7181913,118.40085189041565,0.0091400035,2.4485627e-07,0.05019453,4.5125707e-05,2.0,42,0.020386627,1.291223e-07,0,-4.2749099202417346e-09,2.0
175,175,579.81464,158143.9,5319.6714,158233.36,-1.9265985,119.08082517604635,0.00907958,5.64277e-07,0.05159958,5.832029e-05,2.0,42,0.020429451,1.2910964e-07,0,-4.237263929741392e-09,2.0
176,176,501.44418,158288.8,5625.936,158388.75,-2.0355628,119.75820712817949,0.009188279,-3.3866849e-07,0.056416057,7.117765e-05,2.0,42,0.020421691,1.2893398e-07,0,-4.1886823080244816e-09,2.0
177,177,434.02762,157866.55,5760.3115,157971.61,-2.0897093,120.43822916047066,0.009113286,1.9829352e-07,0.06365856,8.4642925e-05,2.0,42,0.020410553,1.2920393e-07,0,-4.0647675897625355e-09,2.0
178,178,375.6009,158460.19,5803.2305,158566.42,-2.0973852,121.11742836606572,0.009142426,3.4971555e-07,0.07301695,9.780046e-05,2.0,42,0.020400159,1.2865371e-07,0,-4.043706488054077e-09,2.0
179,179,325.10385,159068.19,6534.199,159202.34,-2.352272,121.79669402505533,0.009134507,1.8860834e-07,0.07492136,0.00012620933,2.0,42,0.020443683,1.284132e-07,0,-4.004577956378085e-09,2.0
180,180,281.3503,158769.6,7395.23,158941.73,-2.666817,122.4728253371577,0.009176149,-4.666232e-07,0.07649289,0.0001655955,2.0,42,0.02040938,1.2840793e-07,0,-3.90798016353866e-09,2.0
181,181,243.36427,158057.4,8079.6157,158263.78,-2.926312,123.1561293162813,0.009089399,-7.700403e-09,0.08094176,0.00021095555,2.0,42,0.020339478,1.2851632e-07,0,-3.9019182350237515e-09,2.0
182,182,210.60631,159778.53,9277.588,160047.66,-3.323165,123.83320830840967,0.009108925,-1.1479471e-07,0.08145424,0.00027370657,2.0,42,0.020438557,1.2770295e-07,0,-3.953414985957594e-09,2.0
183,183,182.27473,159886.45,9815.972,160187.48,-3.5131726,124.50427212697105,0.009181589,-2.1220423e-07,0.08895294,0.0003340179,2.0,42,0.020415228,1.2744583e-07,0,-3.7194148155120663e-09,2.0
184,184,157.72879,160011.66,11423.292,160418.89,-4.0834394,125.19265610635921,0.009086139,6.0543846e-07,0.08833196,0.00044790862,2.0,42,0.020394616,1.271335e-07,0,-3.621499578566044e-09,2.0
185,185,136.52892,161379.39,14017.138,161987.0,-4.9641547,125.86454181824229,0.009070936,-2.732944e-07,0.08316415,0.00062272244,2.0,42,0.020456793,1.2628664e-07,0,-3.56650448974379e-09,2.0
186,186,118.14758,161034.77,13629.205,161610.48,-4.8377094,126.5528828909446,0.0090567,9.1944024e-08,0.09883819,0.0007029538,2.0,42,0.02039528,1.2620023e-07,0,-3.6135723764859012e-09,2.0
187,187,102.25773,162214.6,16426.229,163044.16,-5.7821946,127.21932590924553,0.0091283955,1.494955e-07,0.09475151,0.000961726,2.0,42,0.020410527,1.2518404e-07,0,-3.5617825340572808e-09,2.0
188,188,88.4436,163540.02,19473.588,164695.34,-6.7905426,127.90929231533664,0.009172106,-2.6139114e-08,0.09240761,0.0012919242,2.0,42,0.020494118,1.2443654e-07,0,-3.5028052986975706e-09,2.0
189,189,76.54279,163308.0,20370.205,164573.53,-7.11006,128.57672946708044,0.009155076,4.2086356e-07,0.10207524,0.0015638361,2.0,42,0.020370511,1.2377757e-07,0,-3.5022625028614405e-09,2.0
190,190,66.250786,164529.39,22424.037,166050.47,-7.7611356,129.24501155214966,0.009166423,-1.012148e-08,0.10713104,0.0019537217,2.0,42,0.020391883,1.2280533e-07,0,-3.4137442864885514e-09,2.0
191,191,57.329906,166504.75,24918.672,168359.06,-8.511568,129.89965163659508,0.009120813,1.2025416e-07,0.1114074,0.0024405674,2.0,42,0.020429585,1.2134532e-07,0,-3.4798444007686253e-09,2.0
192,192,49.60321,167294.28,28313.31,169673.28,-9.60586,130.58537865578546,0.009084406,3.0613268e-07,0.11332343,0.0031555428,2.0,42,0.02037817,1.2010241e-07,0,-3.4755094368047346e-09,2.0
193,193,42.92585,170227.64,30562.867,172949.53,-10.178507,131.29345895609003,0.009163759,2.0630206e-07,0.121312946,0.0037884065,2.0,42,0.020455128,1.1827223e-07,0,-3.303344089675993e-09,2.0
194,194,37.1518,171154.12,34983.598,174692.83,-11.552033,131.9371627199871,0.009067396,5.124989e-07,0.12245481,0.0049108267,2.0,42,0.02044237,1.1701895e-07,0,-3.2633049070928244e-09,2.0
195,195,32.150223,173025.1,37992.477,177147.14,-12.384346,132.81437809500494,0.009182298,8.502827e-08,0.13029823,0.005993292,2.0,43,0.020374656,1.1501544e-07,0,-3.2068465154934482e-09,2.0
196,196,27.835518,175586.2,41294.91,180376.78,-13.234494,133.54235439622425,0.009135812,1.129533e-07,0.13846,0.0072569824,2.0,43,0.020367749,1.129178e-07,0,-3.3397321140780336e-09,2.0
197,197,24.082958,178512.02,46819.387,184549.7,-14.696287,134.24438813622692,0.00915189,1.03967785e-07,0.1411512,0.009084674,2.0,43,0.02041243,1.10606685e-07,0,-3.179994344125821e-09,2.0
198,198,20.833313,181568.16,51493.57,188728.86,-15.833582,134.89877571402758,0.009138848,1.0082052e-07,0.14835726,0.011044299,2.0,43,0.020406784,1.0812752e-07,0,-2.9423771944632193e-09,2.0
199,199,18.021912,184788.94,56864.625,193340.47,-17.104568,135.64475126945763,0.008852879,3.1847568e-07,0.15530202,0.013434327,2.0,43,0.0203906,1.0546473e-07,0,-3.2360892061671363e-09,2.0
200,200,15.604198,188996.95,62354.27,199017.34,-18.258865,136.30001063391683,0.009104547,7.493453e-08,0.16357332,0.01605695,2.0,43,0.020418538,1.0259677e-07,0,-3.2949490448693157e-09,2.0
201,201,13.500899,192899.1,68423.734,204675.03,-19.530235,137.0479954961047,0.009120822,9.422781e-08,0.17228627,0.019254599,2.0,43,0.020389693,9.961983e-08,0,-3.211381517248708e-09,2.0
202,202,11.686608,194624.4,76311.41,209050.45,-21.409935,137.63888419084833,0.009102945,5.804357e-08,0.17846054,0.023780385,2.0,43,0.020205412,9.665328e-08,0,-3.3999488993404646e-09,2.0
203,203,10.113269,202338.95,82064.77,218347.61,-22.076525,138.31251150279422,0.00904746,7.582838e-08,0.19176608,0.02708872,2.0,43,0.020364257,9.326531e-08,0,-3.5251704435249487e-09,2.0
204,204,8.748621,208518.33,89604.32,226955.56,-23.254124,139.0793859391997,0.009086531,1.14778096e-07,0.20302597,0.031646654,2.0,43,0.020391777,8.984921e-08,0,-2.8222166698193736e-09,2.0
205,205,7.570237,214626.11,97763.69,235843.39,-24.489595,139.9540157408046,0.0091088135,1.333916e-07,0.21504684,0.036952242,2.0,43,0.020402264,8.6507676e-08,0,-3.0084019464404262e-09,2.0
206,206,6.554112,220561.78,105226.76,244377.11,-25.505117,140.4902957395825,0.009134935,-1.3019722e-07,0.2307704,0.04278696,2.0,43,0.02032243,8.3160124e-08,0,-3.2991833900282645e-09,2.0
207,207,5.669445,228493.02,115002.0,255801.72,-26.716404,141.1001445952279,0.009131526,2.700464e-07,0.24410361,0.049337607,2.0,43,0.020363618,7.960704e-08,0,-2.90917896107818e-09,2.0
208,208,4.907347,236543.16,125006.56,267543.1,-27.85522,141.7925459081016,0.009149096,1.6551253e-08,0.25944215,0.056639403,2.0,43,0.020387847,7.6203975e-08,0,-2.7964450114025634e-09,2.0
209,209,4.245922,243532.77,137693.92,279763.88,-29.483906,142.58028858553735,0.009076022,1.13790676e-07,0.27222833,0.06594466,2.0,43,0.020382397,7.285571e-08,0,-3.711379089349857e-09,2.0
210,210,3.6747382,253179.98,149131.33,293837.12,-30.499483,143.47992988160695,0.009148089,1.7978077e-07,0.29041886,0.07480821,2.0,43,0.020417139,6.948454e-08,0,-2.462919711029225e-09,2.0
211,211,3.180988,262751.8,161101.75,308208.2,-31.513826,144.50921841044328,0.009086996,7.092971e-08,0.3105688,0.084853545,2.0,43,0.020396575,6.617792e-08,0,-2.4077860407276416e-09,2.0
212,212,2.752818,272024.3,174968.64,323436.62,-32.74951,145.6881129197718,0.009086723,7.175665e-08,0.3304322,0.09669954,2.0,43,0.02041135,6.310773e-08,0,-3.7017477474936556e-09,2.0
213,213,2.3804083,281678.1,190732.17,340178.34,-34.103035,147.0430418641772,0.009118987,1.332431e-07,0.35054573,0.110199414,2.0,43,0.020369621,5.987924e-08,0,-3.612915790903257e-09,2.0
214,214,2.060257,291882.88,207519.94,358134.25,-35.41168,148.599373298086,0.009110472,1.6682803e-07,0.37225363,0.12498758,2.0,43,0.020410959,5.699248e-08,0,-2.1661089277049684e-09,2.0
