True,index,freq,Re(Z),Im(Z),Z,Phase(Z),time,Ewe_meas,I_meas,Cs,Cp,cycle_number,I_Range,Ewe,I,Ns,(QQo),cycle
0,0,7000018.5,297.87665,1685.9337,1712.0464,-79.98019,2.4654937170853373,-0.020706246,3.032008e-05,1.34859165e-05,1.3077671e-05,1.0,40,0.010017005,5.850896e-06,0,2.7219817841711346e-08,1.0
1,1,6057573.0,353.0162,1896.3594,1928.9374,-79.45483,3.0175022499461193,-0.020692645,6.709727e-06,1.38548185e-05,1.339078e-05,1.0,40,0.014129165,7.3248434e-06,0,2.571852152697021e-08,1.0
2,2,5242039.0,322.43594,2139.351,2163.513,-81.42908,3.433496323035797,-0.020682547,2.0440517e-05,1.4191811e-05,1.3876596e-05,1.0,40,0.019577127,9.048768e-06,0,3.218561475473002e-08,1.0
3,3,4536288.0,257.55994,2439.152,2452.713,-83.972244,4.8014860413677525,-0.020761061,3.885985e-05,1.4384032e-05,1.4225416e-05,1.0,40,0.01853028,7.555014e-06,0,3.971223447943986e-08,1.0
4,4,3925558.5,345.38235,2806.0637,2827.2395,-82.983086,5.217499287769897,-0.020756757,2.5482574e-05,1.4448447e-05,1.4232822e-05,1.0,40,0.018068386,6.390823e-06,0,4.0526514191823376e-08,1.0
5,5,3397055.0,388.23325,3174.3853,3198.0378,-83.027245,5.633495654241415,-0.020652307,-4.398994e-05,1.4759033e-05,1.4541526e-05,1.0,40,0.019107427,5.9747344e-06,0,4.0883156946127503e-08,1.0
6,6,2939708.2,395.5739,3648.632,3670.013,-83.81233,6.049484767281683,-0.020743528,2.0496342e-05,1.4838357e-05,1.46659695e-05,1.0,40,0.020933973,5.7040597e-06,0,4.276450817930153e-08,1.0
7,7,2543924.5,501.60522,4219.2905,4249.0024,-83.22028,6.601496206858428,-0.020774495,2.0961485e-05,1.4827792e-05,1.4621145e-05,1.0,40,0.021088988,4.9632795e-06,0,4.0064295711608286e-08,1.0
8,8,2201436.2,492.75806,4809.506,4834.6826,-84.15017,7.1535015397530515,-0.02074895,1.0598278e-05,1.5031888e-05,1.4875738e-05,1.0,40,0.020747542,4.291397e-06,0,4.2957551567648506e-08,1.0
9,9,1905053.1,305.37125,5614.593,5622.891,-86.88682,7.87248146723141,-0.020756477,3.3637895e-07,1.4879721e-05,1.4835833e-05,1.0,41,0.019514207,3.4704935e-06,0,4.390607838290903e-08,1.0
10,10,1648567.4,458.1894,6553.3643,6569.3623,-86.00058,8.4244853334676,-0.020705706,-4.4754793e-06,1.4731573e-05,1.465991e-05,1.0,41,0.019909563,3.030669e-06,0,4.3128114855651095e-08,1.0
11,11,1426616.2,695.40717,7450.1147,7482.4995,-84.66736,8.976484319689916,-0.020745764,2.6585312e-06,1.4974421e-05,1.484508e-05,1.0,41,0.02023888,2.7048288e-06,0,4.3789032086020067e-08,1.0
12,12,1234551.2,625.4352,8722.158,8744.554,-85.898544,9.528493732534116,-0.02066984,-5.7845905e-06,1.47804285e-05,1.4704818e-05,1.0,41,0.02092018,2.3923667e-06,0,4.3373856321875024e-08,1.0
13,13,1068345.5,1217.599,10058.432,10131.86,-83.097786,10.080480985430768,-0.020762179,1.7795826e-06,1.4810788e-05,1.4596889e-05,1.0,41,0.02062162,2.035324e-06,0,4.3374347314762456e-08,1.0
14,14,924510.06,892.47156,11788.691,11822.426,-85.67064,10.632483144960133,-0.020758415,-6.189049e-07,1.4603027e-05,1.4519809e-05,1.0,41,0.020417925,1.7270504e-06,0,4.360348211023298e-08,1.0
15,15,800039.0,2748.502,12121.736,12429.431,-77.22467,11.184480851195985,-0.02081811,7.610065e-06,1.6411343e-05,1.5608864e-05,1.0,41,0.020395294,1.6408873e-06,0,4.3953189141441897e-08,1.0
16,16,692334.1,1982.1248,15303.001,15430.835,-82.61984,11.736498850776115,-0.0206625,-6.9149337e-06,1.5022002e-05,1.4774138e-05,1.0,41,0.020336896,1.3179388e-06,0,4.452734353304935e-08,1.0
17,17,599122.25,2417.881,17267.922,17436.377,-82.029175,12.288501570321387,-0.020758228,5.2261265e-07,1.5383835e-05,1.50880205e-05,1.0,41,0.020743934,1.189693e-06,0,4.435454329284659e-08,1.0
18,18,518454.94,2877.1777,20373.785,20575.94,-81.96187,12.840504316525767,-0.020810826,8.274863e-06,1.5067368e-05,1.4772755e-05,1.0,41,0.020535288,9.980243e-07,0,4.486804682678604e-08,1.0
19,19,448662.03,3738.233,23244.707,23543.38,-80.86388,13.392502289410913,-0.020721039,-2.5630206e-06,1.526078e-05,1.4876036e-05,1.0,41,0.020155717,8.561097e-07,0,4.4487190983733094e-08,1.0
20,20,388258.97,4555.933,26255.025,26647.38,-80.155716,13.944482128979871,-0.020753812,2.9676528e-06,1.5612994e-05,1.5156608e-05,1.0,41,0.020742018,7.783886e-07,0,4.531324591027265e-08,1.0
21,21,335983.9,4336.354,28751.646,29076.814,-81.42323,14.49648988849367,-0.02084647,1.0531826e-05,1.6475513e-05,1.610908e-05,1.0,41,0.020190448,6.9438306e-07,0,4.712288479447836e-08,1.0
22,22,290751.2,7700.311,33968.918,34830.766,-77.22765,15.048499034746783,-0.020808367,4.252556e-06,1.6114502e-05,1.53269e-05,1.0,41,0.020616421,5.919026e-07,0,4.6683226483695406e-08,1.0
23,23,251605.19,10629.5205,38880.668,40307.48,-74.70963,15.60048586098128,-0.020802032,9.027184e-06,1.6269223e-05,1.5137807e-05,1.0,41,0.020331878,5.0441946e-07,0,4.755095982631177e-08,1.0
24,24,217729.38,13896.263,44203.418,46336.254,-72.54838,16.152481113822432,-0.020753384,-1.6580015e-06,1.653664e-05,1.5049329e-05,1.0,41,0.02022745,4.3653617e-07,0,4.775486206150327e-08,1.0
25,25,188418.58,18760.111,48044.742,51577.504,-68.67076,16.704492260032566,-0.020795008,3.3493984e-06,1.7581282e-05,1.525533e-05,1.0,41,0.020652767,4.00422e-07,0,4.6645304370598874e-08,1.0
26,26,163051.14,20938.064,55652.18,59460.64,-69.38216,17.423487387568457,-0.020771103,9.6598065e-08,1.7539374e-05,1.536453e-05,1.0,42,0.019292623,3.244604e-07,0,4.5822307884520005e-08,1.0
27,27,141098.2,26440.418,62283.52,67663.375,-66.99795,17.839487300632754,-0.020643868,-7.579221e-07,1.8110293e-05,1.5344915e-05,1.0,42,0.020981507,3.1008662e-07,0,4.5821093483942676e-08,1.0
28,28,122105.11,30238.049,69637.03,75918.74,-66.52837,18.391491486836458,-0.020751502,-3.4556197e-07,1.8717423e-05,1.5748114e-05,1.0,42,0.020096552,2.6471133e-07,0,4.575297798452718e-08,1.0
29,29,105663.59,39870.516,73672.984,83769.73,-61.578533,18.8074862799549,-0.020796144,3.68116e-08,2.044497e-05,1.581353e-05,1.0,42,0.021443509,2.559816e-07,0,4.580321832042156e-08,1.0
30,30,91439.65,48180.453,80286.3,93633.57,-59.031693,19.359482492815005,-0.020811366,4.0354007e-07,2.1679245e-05,1.5939102e-05,1.0,42,0.020318836,2.1700374e-07,0,4.574262117177103e-08,1.0
31,31,79127.08,59957.195,85785.68,104661.586,-55.04959,19.77547893926385,-0.020763949,-4.6256346e-08,2.3446619e-05,1.575198e-05,1.0,42,0.021305231,2.0356305e-07,0,4.569388527662295e-08,1.0
32,32,68475.36,72570.94,87427.7,113622.81,-50.30502,20.32748515214189,-0.02077837,8.5795605e-08,2.6585003e-05,1.5739966e-05,1.0,42,0.020198148,1.777649e-07,0,4.5671092560937354e-08,1.0
33,33,59252.523,85290.41,89337.53,123513.76,-46.327633,20.743481625249842,-0.020793816,1.6532499e-07,3.0066254e-05,1.572956e-05,1.0,42,0.020888189,1.6911629e-07,0,4.567105395231251e-08,1.0
34,34,51282.285,96827.47,92600.836,133979.38,-43.721798,21.159493351675337,-0.020707382,-6.376037e-07,3.3514894e-05,1.6010017e-05,1.0,42,0.021377087,1.5955506e-07,0,4.565002040036662e-08,1.0
35,35,44369.8,113702.65,87590.89,143528.6,-37.608875,21.575492358097108,-0.020713754,-2.0885363e-07,4.0951865e-05,1.5251576e-05,1.0,42,0.021837002,1.5214391e-07,0,4.566004129383473e-08,1.0
36,36,38403.727,122817.66,83615.64,148579.11,-34.247475,21.991491764521925,-0.020756925,-2.0624593e-07,4.956319e-05,1.5697076e-05,1.0,42,0.022051899,1.4841856e-07,0,4.569290728541592e-08,1.0
37,37,33226.32,132988.52,79686.836,155035.28,-30.930079,22.543503977387445,-0.020731157,-7.9222666e-08,6.0110633e-05,1.588047e-05,1.0,42,0.020234339,1.3051441e-07,0,4.55603369997747e-08,1.0
38,38,28754.086,144205.3,72313.59,161320.88,-26.632061,22.959502797137247,-0.020763557,-9.859288e-08,7.654214e-05,1.5380108e-05,1.0,42,0.020396564,1.2643474e-07,0,4.551875615889332e-08,1.0
39,39,24884.947,152205.55,65842.445,165836.53,-23.39278,23.375485270255012,-0.020823328,4.5699448e-07,9.713538e-05,1.5311894e-05,1.0,42,0.020426102,1.231701e-07,0,4.543304703708135e-08,1.0
40,40,21553.963,158344.92,60132.027,169378.2,-20.794445,23.792493716726312,-0.020840842,2.9737734e-07,0.00012279683,1.5476893e-05,1.0,42,0.020359257,1.2019999e-07,0,4.5397218782026235e-08,1.0
41,41,18631.234,163221.34,54216.89,171990.34,-18.37483,24.208489389828173,-0.020810174,2.172893e-07,0.00015755925,1.5656871e-05,1.0,42,0.020260643,1.1780105e-07,0,4.5378940417936975e-08,1.0
42,42,16126.037,166613.73,46669.74,173026.6,-15.647951,24.62448183624656,-0.020810397,3.4356765e-07,0.00021147406,1.5385163e-05,1.0,42,0.02004546,1.158519e-07,0,4.543695976936629e-08,1.0
43,43,13954.87,170349.06,37450.94,174417.25,-12.399124,25.04148662937223,-0.02075003,-6.432229e-08,0.00030453107,1.4040359e-05,1.0,42,0.019883778,1.1400121e-07,0,4.5463394729632e-08,1.0
44,44,12080.609,169306.38,33124.4,172516.3,-11.069955,25.45749531578622,-0.020736448,-7.0095815e-08,0.00039772535,1.4662871e-05,1.0,42,0.019351348,1.12171136e-07,0,4.5500558285178824e-08,1.0
45,45,10447.592,175526.86,30200.562,178106.02,-9.762534,25.87350146888639,-0.020767322,-1.8873773e-07,0.00050441606,1.4503132e-05,1.0,42,0.019037016,1.06885864e-07,0,4.5434528664253115e-08,1.0
46,46,9045.586,175074.36,26515.059,177070.83,-8.612014,26.305263169429963,-0.020759104,8.058194e-08,0.00066357624,1.4879282e-05,1.0,42,0.021545053,1.2167477e-07,0,4.545423800249123e-08,1.0
47,47,7827.7437,178840.27,23299.518,180351.62,-7.4227533,26.785943618946476,-0.02069626,-5.383304e-07,0.000872643,1.4564324e-05,1.0,42,0.021616308,1.1985647e-07,0,4.5390158397524006e-08,1.0
48,48,6770.8345,177386.4,19978.781,178507.95,-6.426062,27.3244143378397,-0.020764861,-1.01571295e-07,0.0011765461,1.47377705e-05,1.0,42,0.021695906,1.2154028e-07,0,4.547313085455191e-08,1.0
49,49,5860.798,176279.22,16715.326,177069.94,-5.416763,27.930974073329708,-0.02073833,-4.7930907e-08,0.0016246077,1.4477333e-05,1.0,42,0.021686397,1.2247362e-07,0,4.546201821527696e-08,1.0
50,50,5071.625,177071.86,13668.192,177598.6,-4.4139137,28.611694665669347,-0.0207363,-6.450721e-08,0.0022959474,1.3598939e-05,1.0,42,0.021784334,1.2266051e-07,0,4.5366231999905475e-08,1.0
51,51,4388.5933,177305.52,16066.07,178031.92,-5.177566,29.512828948470997,-0.020788785,4.761597e-08,0.0022572784,1.8382676e-05,1.0,42,0.019968444,1.12162155e-07,0,4.534087600956334e-08,1.0
52,52,3798.7827,177738.19,11184.91,178089.77,-3.6008258,30.192806447434123,-0.02069244,-4.9586504e-07,0.003745788,1.4775094e-05,1.0,42,0.019996267,1.1228195e-07,0,4.5338047678563915e-08,1.0
53,53,3286.0488,177162.38,8279.459,177355.73,-2.6756988,30.87269991973153,-0.020727392,-2.7629504e-08,0.0058498424,1.2748456e-05,1.0,42,0.020004172,1.12791234e-07,0,4.532768371399302e-08,1.0
54,54,2844.088,177252.08,8392.927,177450.67,-2.7109435,31.552821978693828,-0.020757614,7.1456206e-08,0.0066675097,1.4915412e-05,1.0,42,0.020005003,1.1273557e-07,0,4.527983374191121e-08,1.0
55,55,2460.7852,177483.0,7669.506,177648.62,-2.4743614,32.23271881099208,-0.020791281,1.0721638e-07,0.008432941,1.571774e-05,1.0,42,0.020047015,1.12846436e-07,0,4.535463993125492e-08,1.0
56,56,2129.3164,176325.56,7044.4575,176466.22,-2.2878313,32.912837296622456,-0.020769874,1.8190319e-07,0.010610416,1.690847e-05,1.0,42,0.019996844,1.1331826e-07,0,4.5282902575638004e-08,1.0
57,57,1843.2289,174494.52,4793.4243,174560.34,-1.573539,33.59295980891329,-0.020763502,-1.2597e-07,0.018013371,1.3582996e-05,1.0,42,0.019937009,1.142127e-07,0,4.5314529594026904e-08,1.0
58,58,1594.4913,176895.17,6133.9194,177001.48,-1.9859612,34.27283282788994,-0.020642824,-4.796609e-07,0.01627271,1.9542595e-05,1.0,42,0.020023644,1.1312698e-07,0,4.5282569949497445e-08,1.0
59,59,1380.4436,177104.62,5224.5005,177181.67,-1.6897076,34.95268952685001,-0.020759458,-2.9492004e-08,0.02206768,1.918707e-05,1.0,42,0.020050691,1.13164596e-07,0,4.5249791124104397e-08,1.0
60,60,1194.6187,176633.02,5884.8174,176731.02,-1.9081967,35.632837292476324,-0.020792566,7.611251e-08,0.02263903,2.510142e-05,1.0,42,0.020005722,1.131987e-07,0,4.5307057106466825e-08,1.0
61,61,1033.3434,177307.08,5299.5366,177386.27,-1.7120055,36.31305791143677,-0.020761956,-1.3844878e-07,0.029062808,2.5940204e-05,1.0,42,0.020047447,1.1301577e-07,0,4.5390917928269266e-08,1.0
62,62,894.71045,177461.5,5584.9624,177549.36,-1.8025836,36.992802903740085,-0.020737547,1.3068413e-07,0.031850584,3.151517e-05,1.0,42,0.020045964,1.12903614e-07,0,4.527368451371672e-08,1.0
63,63,774.2569,177072.98,5209.226,177149.6,-1.6850712,37.67296266937046,-0.020880025,1.077585e-06,0.039460436,3.4121487e-05,1.0,42,0.020037204,1.13108946e-07,0,4.5263912740459486e-08,1.0
64,64,669.7856,177563.17,8066.3594,177746.3,-2.6010506,38.35283960834204,-0.020640755,-4.3309817e-07,0.029458238,6.0668157e-05,1.0,42,0.020072207,1.1292616e-07,0,4.534102895706048e-08,1.0
65,65,579.81464,177580.1,5892.143,177677.81,-1.9003882,39.03280809397984,-0.020791933,3.6107673e-07,0.04658624,5.1231593e-05,1.0,42,0.020027593,1.12718595e-07,0,4.539646019065202e-08,1.0
66,66,501.44418,177486.3,6861.1777,177618.86,-2.2138097,39.71018108612043,-0.02079946,3.5660682e-07,0.04625928,6.902685e-05,1.0,42,0.0200148,1.1268398e-07,0,4.538384349663321e-08,1.0
67,67,434.02762,177870.03,8049.814,178052.1,-2.591251,40.39019943840685,-0.020717835,-1.9581422e-07,0.045552995,9.310959e-05,1.0,42,0.020052519,1.1262164e-07,0,4.5334274862792116e-08,1.0
68,68,375.6009,179211.94,8405.153,179408.94,-2.6852405,41.06946035064175,-0.020735312,-1.0361979e-07,0.05041362,0.0001106499,1.0,42,0.02011293,1.1210662e-07,0,4.536399393279606e-08,1.0
69,69,325.10385,180209.08,9950.768,180483.6,-3.1605432,41.748706622980535,-0.02079048,-6.990832e-08,0.04919732,0.0001495475,1.0,42,0.020103112,1.113847e-07,0,4.5372661198463505e-08,1.0
70,70,281.3503,179718.73,9631.157,179976.61,-3.0675561,42.42481300175132,-0.020720629,-5.1281364e-07,0.058734633,0.00016819732,1.0,42,0.020086594,1.1160669e-07,0,4.526755069739686e-08,1.0
71,71,243.36427,179627.39,11010.6455,179964.53,-3.507679,43.10808996751439,-0.020778313,-3.8245684e-08,0.05939509,0.00022233215,1.0,42,0.020066814,1.1150428e-07,0,4.526389556430704e-08,1.0
72,72,210.60631,180516.12,11872.601,180906.14,-3.7629411,43.78517930631642,-0.020848164,4.7301373e-07,0.06365066,0.00027414985,1.0,42,0.020085787,1.11028776e-07,0,4.536138038418455e-08,1.0
73,73,182.27473,179991.84,12411.262,180419.25,-3.9445622,44.45725243157358,-0.020717574,-1.0343368e-07,0.070352204,0.00033292302,1.0,42,0.020010892,1.10913284e-07,0,4.523114916359895e-08,1.0
74,74,157.72879,179957.5,14190.296,180516.11,-4.508649,45.145652890994825,-0.020760128,1.24146196e-08,0.07110787,0.00043940873,1.0,42,0.01998198,1.1069361e-07,0,4.5284260731481196e-08,1.0
75,75,136.52892,182345.97,15865.158,183034.84,-4.9725432,45.81751358954352,-0.02070565,1.4856417e-07,0.07347694,0.0005520423,1.0,42,0.020071477,1.0965932e-07,0,4.521870138491006e-08,1.0
76,76,118.14758,182510.23,17590.783,183356.0,-5.5053024,46.50588338225498,-0.020762924,1.5992555e-07,0.07657908,0.0007048395,1.0,42,0.02002493,1.0921338e-07,0,4.528207158151629e-08,1.0
77,77,102.25773,183875.8,19158.893,184871.23,-5.948455,47.17235474722111,-0.02084181,5.8793063e-07,0.08123694,0.00087248045,1.0,42,0.020087846,1.0865858e-07,0,4.526710188763931e-08,1.0
78,78,88.4436,184190.83,21714.234,185466.36,-6.723559,47.862274273327785,-0.020755192,3.025937e-07,0.08287226,0.0011359727,1.0,42,0.020003162,1.0785332e-07,0,4.53009168052994e-08,1.0
79,79,76.54279,187050.98,24927.014,188704.61,-7.590695,48.52974337172054,-0.020811813,1.5899421e-07,0.08341527,0.0014555297,1.0,42,0.020105502,1.0654484e-07,0,4.531154445838112e-08,1.0
80,80,66.250786,187778.16,27557.947,189789.56,-8.349014,49.19798137678299,-0.020754596,1.4428036e-07,0.087173045,0.00183794,1.0,42,0.020078816,1.0579515e-07,0,4.527905306829918e-08,1.0
81,81,57.329906,189005.23,31106.035,191547.81,-9.345825,49.8526405279008,-0.020738143,4.035211e-08,0.08924713,0.0023535811,1.0,42,0.020076802,1.0481353e-07,0,4.5398112635057774e-08,1.0
82,82,49.60321,191276.36,33022.426,194105.97,-9.795131,50.7913615857542,-0.020694938,-4.5220485e-08,0.097163096,0.0028121697,1.0,43,0.020055486,1.0332236e-07,0,4.5321289916074744e-08,1.0
83,83,42.92585,194042.17,35791.555,197315.48,-10.450881,51.499450552713824,-0.020690316,-1.1161111e-07,0.103590675,0.00340847,1.0,43,0.020104598,1.0189063e-07,0,4.5420108539495534e-08,1.0
84,84,37.1518,195829.38,40235.844,199920.16,-11.610625,52.144158290029736,-0.020718748,-4.198013e-08,0.10646998,0.0043126107,1.0,43,0.020062387,1.00352e-07,0,4.548416002252311e-08,1.0
85,85,32.150223,198321.64,44455.152,203243.05,-12.634394,52.7833874670614,-0.020717015,-6.5873344e-08,0.11135611,0.0053275414,1.0,43,0.020051777,9.865911e-08,0,4.5309637805006534e-08,1.0
86,86,27.835518,200920.02,49623.516,206957.36,-13.87335,53.51133054160164,-0.020770796,-3.1327772e-08,0.11522143,0.0066244006,1.0,43,0.020035947,9.681195e-08,0,4.544555527950648e-08,1.0
87,87,24.082958,204880.25,54153.22,211916.23,-14.805625,54.21339172162698,-0.020687185,-8.110694e-08,0.12203546,0.007969042,1.0,43,0.020082254,9.4765056e-08,0,4.536441737747064e-08,1.0
88,88,20.833313,208614.11,59907.848,217045.61,-16.022512,54.86774817942933,-0.020703861,-5.564943e-08,0.12751994,0.009715015,1.0,43,0.02008982,9.256036e-08,0,4.5053835247739354e-08,1.0
89,89,18.021912,212175.5,65940.19,222185.84,-17.264269,55.6137484281935,-0.02040826,-2.9000944e-07,0.1339273,0.011796053,1.0,43,0.020055356,9.0263875e-08,0,4.541948523781731e-08,1.0
90,90,15.604198,216384.3,72322.445,228150.61,-18.48125,56.26900427264627,-0.020708315,-4.164502e-08,0.14102808,0.014171261,1.0,43,0.02003472,8.781357e-08,0,4.533531368357203e-08,1.0
91,91,13.500899,222131.75,78283.92,235522.58,-19.413536,57.01696017483482,-0.020707652,-6.82107e-08,0.1505861,0.016636614,1.0,43,0.020056967,8.515942e-08,0,4.524037800377576e-08,1.0
92,92,11.686608,227488.69,86486.96,243374.39,-20.81587,57.60789382955409,-0.020817291,1.8804782e-08,0.15746391,0.019885318,1.0,43,0.020069744,8.246449e-08,0,4.5420868609334007e-08,1.0
93,93,10.113269,234160.23,93445.734,252117.28,-21.755335,58.28153794151149,-0.020640085,-8.76811e-08,0.16841048,0.02313571,1.0,43,0.02008252,7.965547e-08,0,4.56980737388671e-08,1.0
94,94,8.748621,240251.92,102583.79,261236.33,-23.12172,59.04737525791279,-0.020710848,-2.4968472e-08,0.177338,0.027345894,1.0,43,0.020054877,7.67691e-08,0,4.525132615407168e-08,1.0
95,95,7.570237,247977.36,111403.26,271851.9,-24.191889,59.92301015285193,-0.020687269,-8.3612186e-08,0.18871775,0.03169157,1.0,43,0.020066816,7.381525e-08,0,4.50535721655718e-08,1.0
96,96,6.554112,256014.28,120874.516,283114.75,-25.273859,60.45931076499983,-0.020686068,1.0413469e-07,0.20089611,0.036619805,1.0,43,0.020068806,7.088576e-08,0,4.568174481198822e-08,1.0
97,97,5.669445,265724.56,132273.08,296826.06,-26.463324,61.069118927262025,-0.02079607,-1.6455681e-07,0.21223067,0.04214509,1.0,43,0.020139145,6.7848305e-08,0,4.4939912604122085e-08,1.0
98,98,4.907347,274631.34,142285.53,309301.72,-27.388514,61.76156072012964,-0.0207815,6.387159e-08,0.22793582,0.048235793,1.0,43,0.02009052,6.495444e-08,0,4.535697587036092e-08,1.0
99,99,4.245922,285854.22,153336.28,324383.5,-28.209743,62.54928963756538,-0.02080955,-4.0528793e-08,0.24445738,0.054622997,1.0,43,0.020127868,6.204961e-08,0,4.570945890096952e-08,1.0
100,100,3.6747382,295742.44,167513.42,339888.72,-29.527935,63.44896130700363,-0.020700283,-1.15932934e-07,0.25854975,0.06280147,1.0,43,0.020145338,5.927039e-08,0,4.460500868430708e-08,1.0
101,101,3.180988,306591.66,179654.84,355350.97,-30.369207,64.47719996914384,-0.02066209,-2.7315808e-08,0.27849612,0.071183935,1.0,43,0.020062549,5.6458404e-08,0,4.509113486016069e-08,1.0
102,102,2.752818,317319.1,193177.69,371495.66,-31.332243,65.65613965180819,-0.020723008,-1.4784244e-08,0.29928547,0.080926746,1.0,43,0.020030223,5.3917784e-08,0,4.6044070559881785e-08,1.0
103,103,2.3804083,330017.34,210025.1,391180.25,-32.472927,67.01097166285035,-0.020674478,-1.1958784e-07,0.3183446,0.09176689,1.0,43,0.020055741,5.1269822e-08,0,4.546369596889556e-08,1.0
104,104,2.060257,342336.53,225673.78,410028.0,-33.393517,68.56736840339727,-0.020733044,-8.0307395e-08,0.34230846,0.10369381,1.0,43,0.020053793,4.890835e-08,0,4.429554742081996e-08,1.0
105,105,1.7836765,355422.06,245390.98,431904.6,-34.62203,70.35557736831834,-0.020746762,-4.1514518e-08,0.36361808,0.117378086,1.0,43,0.020059396,4.6444043e-08,0,4.431229679950081e-08,1.0
