True,index,freq,Re(Z),Im(Z),Z,Phase(Z),time,Ewe_meas,I_meas,Cs,Cp,cycle_number,I_Range,Ewe,I,Ns,(QQo),cycle
110,110,7000018.5,395.66425,2009.8396,2048.4153,-78.86296,82.42849812845816,0.010515107,-8.9777706e-05,1.1312525e-05,1.0890463e-05,2.0,40,0.010191898,4.9755035e-06,0,-3.1465872188487314e-08,2.0
111,111,6057573.0,453.5407,2004.9377,2055.596,-77.25355,82.98049116801121,0.010289476,-7.0210403e-06,1.3104504e-05,1.2466568e-05,2.0,40,0.0143407965,6.976467e-06,0,-3.2303651414415e-08,2.0
112,112,5242039.0,363.1581,2427.2527,2454.2695,-81.4907,83.39649972107145,0.010372239,-1.9858751e-05,1.2508491e-05,1.2234616e-05,2.0,40,0.019993972,8.146608e-06,0,-3.6599487478913655e-08,2.0
113,113,4536288.0,266.2104,2901.777,2913.9626,-84.75833,84.62849713963806,0.010351632,-2.3803092e-05,1.2090813e-05,1.1989901e-05,2.0,40,0.019882737,6.8232644e-06,0,-5.576132126732524e-08,2.0
114,114,3925558.5,345.4115,3149.969,3168.8506,-83.7422,85.04449902605847,0.010377623,-3.788736e-05,1.2871003e-05,1.27180765e-05,2.0,40,0.019009802,5.9989584e-06,0,-5.993803554246727e-08,2.0
115,115,3397055.0,371.9267,3769.1187,3787.4246,-84.36445,85.46048349913326,0.010240718,-1.831449e-05,1.243019e-05,1.2310321e-05,2.0,40,0.020073896,5.300144e-06,0,-6.390411204897598e-08,2.0
116,116,2939708.2,412.95895,4351.6562,4371.2065,-84.57904,86.0125056586985,0.010262498,-1.8054006e-05,1.2441173e-05,1.2330134e-05,2.0,40,0.020218909,4.6254754e-06,0,-6.436626457848386e-08,2.0
117,117,2543924.5,483.82953,4893.291,4917.1523,-84.35317,86.56450389823294,0.010329107,-4.5552788e-05,1.27854155e-05,1.26616305e-05,2.0,40,0.020665046,4.202645e-06,0,-7.364617176130553e-08,2.0
118,118,2201436.2,460.98145,5462.6343,5482.0503,-85.176346,87.11648272446473,0.010242562,6.244628e-06,1.3234632e-05,1.3141052e-05,2.0,40,0.020759441,3.7868024e-06,0,-7.889963291844755e-08,2.0
119,119,1905053.1,298.42886,6483.5347,6490.3994,-87.36461,87.83448334524292,0.010224042,4.3642744e-06,1.2885498e-05,1.2858255e-05,2.0,41,0.019504804,3.0051779e-06,0,-8.126728173782836e-08,2.0
120,120,1648567.4,282.09946,7579.591,7584.839,-87.86853,88.38649534477736,0.010244463,3.4425095e-06,1.2737016e-05,1.2719396e-05,2.0,41,0.020031236,2.6409573e-06,0,-8.18243730599472e-08,2.0
121,121,1426616.2,192.38121,8461.564,8463.751,-88.697556,88.9384966243233,0.010294936,1.6138506e-06,1.3184459e-05,1.3177648e-05,2.0,41,0.0206306,2.4375245e-06,0,-8.141538571452066e-08,2.0
122,122,1234551.2,408.3402,10021.826,10030.142,-87.66677,89.49048278384726,0.010248338,5.2395117e-06,1.2863648e-05,1.2842327e-05,2.0,41,0.020467896,2.0406387e-06,0,-8.121773256819391e-08,2.0
123,123,1068345.5,860.78296,11153.226,11186.393,-85.58678,90.04248190342332,0.010275503,3.909915e-06,1.3356969e-05,1.3277881e-05,2.0,41,0.020578248,1.8395785e-06,0,-8.083716341752023e-08,2.0
124,124,924510.06,446.73486,13637.1875,13644.503,-88.12374,90.59450272962567,0.010299762,-5.7547954e-06,1.2623613e-05,1.261008e-05,2.0,41,0.020348677,1.4913462e-06,0,-8.054861046771182e-08,2.0
125,125,800039.0,3225.5825,13192.847,13581.442,-76.26101,91.14648912919802,0.010303134,-1.9019429e-06,1.50789265e-05,1.4228387e-05,2.0,41,0.020337876,1.4974754e-06,0,-8.014579139294081e-08,2.0
126,126,692334.1,350.17188,18260.785,18264.143,-88.90142,91.69850624873652,0.010344179,-6.3935213e-06,1.2588817e-05,1.258419e-05,2.0,41,0.020355728,1.1145187e-06,0,-8.122267136525115e-08,2.0
127,127,599122.25,695.67126,20823.031,20834.648,-88.08653,92.25048686165246,0.010207963,3.0607646e-06,1.27573585e-05,1.2743135e-05,2.0,41,0.020714419,9.942294e-07,0,-8.113827682989852e-08,2.0
128,128,518454.94,336.6083,23895.742,23898.113,-89.192955,92.80249904785887,0.010313419,-2.272517e-06,1.2846612e-05,1.2844062e-05,2.0,41,0.02034458,8.5130483e-07,0,-8.111885190560978e-08,2.0
129,129,448662.03,793.10803,26814.691,26826.418,-88.30583,93.35450664741802,0.010260505,5.0830895e-06,1.322903e-05,1.3217467e-05,2.0,41,0.020118194,7.499396e-07,0,-8.162483137363965e-08,2.0
130,130,388258.97,3124.7888,30987.396,31144.55,-84.24172,93.90650683364947,0.010308071,-4.67473e-06,1.322859e-05,1.3095425e-05,2.0,41,0.021044364,6.756997e-07,0,-8.199762780958587e-08,2.0
131,131,335983.9,-1271.9318,36711.74,36733.766,-91.9843,94.45848315316834,0.010278484,-2.5928148e-06,1.2903178e-05,1.2887708e-05,2.0,41,0.02012193,5.477775e-07,0,-8.231854937609976e-08,2.0
132,132,290751.2,1909.8503,40848.81,40893.43,-87.323135,95.01049464606331,0.010297321,-3.2594724e-06,1.3400446e-05,1.3371217e-05,2.0,41,0.02059325,5.0358335e-07,0,-8.25959257296639e-08,2.0
133,133,251605.19,1978.3707,48410.543,48450.95,-87.65982,95.56249875228968,0.0102552315,1.7926193e-06,1.3066539e-05,1.3044755e-05,2.0,41,0.020310484,4.1919682e-07,0,-8.253950316041248e-08,2.0
134,134,217729.38,1076.6823,53730.36,53741.145,-88.85203,96.28150625308626,0.010366705,-1.2444102e-06,1.3604524e-05,1.3599064e-05,2.0,42,0.019413397,3.61239e-07,0,-8.196779696634316e-08,2.0
135,135,188418.58,1303.3853,62791.01,62804.54,-88.81085,96.69750504617696,0.010213552,-1.5560108e-09,1.34523725e-05,1.3446579e-05,2.0,42,0.021561192,3.4330628e-07,0,-8.196745017017746e-08,2.0
136,136,163051.14,2487.3552,72774.63,72817.125,-88.04246,97.2494889657537,0.010362737,-4.5861657e-07,1.3412701e-05,1.33970525e-05,2.0,42,0.020814292,2.8584336e-07,0,-8.206546832008746e-08,2.0
137,137,141098.2,1057.7484,84080.54,84087.195,-89.27924,97.80150848531048,0.010228421,8.4346533e-07,1.3415385e-05,1.34132615e-05,2.0,42,0.020367332,2.422168e-07,0,-8.205973922260432e-08,2.0
138,138,122105.11,-1805.8901,93007.77,93025.305,-91.11234,98.2174927717133,0.010196076,4.9368583e-07,1.401416e-05,1.4008878e-05,2.0,42,0.021901505,2.3543599e-07,0,-8.208466565496092e-08,2.0
139,139,105663.59,5425.2456,114092.0,114220.914,-87.27755,98.76949317127583,0.01027323,-2.4651106e-08,1.3201996e-05,1.3172211e-05,2.0,42,0.020540541,1.798317e-07,0,-8.215570839450947e-08,2.0
140,140,91439.65,4227.975,131277.9,131345.97,-88.15535,99.18549508435535,0.010199988,5.288871e-07,1.3258486e-05,1.3244749e-05,2.0,42,0.02174952,1.6558955e-07,0,-8.213902517105136e-08,2.0
141,141,79127.08,7644.664,152283.16,152474.92,-87.126144,99.73748521725065,0.0102878185,1.4763128e-07,1.3208184e-05,1.3174982e-05,2.0,42,0.020423394,1.3394592e-07,0,-8.212440204061346e-08,2.0
142,142,68475.36,7769.368,172258.58,172433.7,-87.41754,100.15350491701975,0.0102683855,-2.6700105e-08,1.349289e-05,1.3465496e-05,2.0,42,0.021126503,1.2251957e-07,0,-8.217559789773234e-08,2.0
143,143,59252.523,6967.1216,195675.97,195799.97,-87.96082,100.56948877676041,0.010227955,3.1395354e-07,1.3727005e-05,1.3709623e-05,2.0,42,0.02182033,1.1144194e-07,0,-8.215001590335044e-08,2.0
144,144,51282.285,11775.067,231074.31,231374.14,-87.08285,101.12148400300066,0.010341347,-7.4060074e-07,1.3430777e-05,1.3395989e-05,2.0,42,0.020283,8.766321e-08,0,-8.220119230871524e-08,2.0
145,145,44369.8,15397.949,268398.28,268839.6,-86.71655,101.53750527606462,0.010351613,-8.659477e-07,1.3364506e-05,1.3320665e-05,2.0,42,0.02062661,7.6724604e-08,0,-8.227071653164784e-08,2.0
146,146,38403.727,23013.043,305848.78,306713.34,-85.69699,101.95349484248436,0.010337081,-2.8968674e-07,1.3550022e-05,1.347374e-05,2.0,42,0.020919701,6.8206035e-08,0,-8.227513531663039e-08,2.0
147,147,33226.32,26803.605,345456.1,346494.38,-85.56336,102.36949438226293,0.010201088,4.886568e-07,1.3865803e-05,1.3782829e-05,2.0,42,0.021088166,6.0861495e-08,0,-8.227920009953483e-08,2.0
148,148,28754.086,39250.0,406199.03,408090.94,-84.48079,102.78549317535362,0.010293259,-5.023854e-07,1.3626418e-05,1.3500367e-05,2.0,42,0.021239093,5.2045e-08,0,-8.233539006358054e-08,2.0
149,149,24884.947,58652.297,490751.53,494244.03,-83.18461,103.36748994965455,0.010215229,-3.2097134e-09,1.3032321e-05,1.2848789e-05,2.0,43,0.021034917,4.255978e-08,0,-8.237402340783796e-08,2.0
150,150,21553.963,56486.13,561384.6,564219.25,-84.25428,103.78450618279749,0.010225663,6.60675e-08,1.31532315e-05,1.30214e-05,2.0,43,0.021007447,3.7232773e-08,0,-8.237892666259643e-08,2.0
151,151,18631.234,84524.41,634601.9,640206.1,-82.41327,104.20048628255608,0.010284856,7.4425595e-09,1.3460994e-05,1.3226356e-05,2.0,43,0.02083228,3.253996e-08,0,-8.238566424173241e-08,2.0
152,152,16126.037,106395.94,698132.44,706193.3,-81.334755,104.61648907567724,0.010151341,9.450465e-08,1.41369155e-05,1.3816024e-05,2.0,43,0.020590967,2.9157691e-08,0,-8.238182841316504e-08,2.0
153,153,13954.87,194225.61,856066.4,877823.0,-77.21705,105.03250850873883,0.010220484,6.213803e-08,1.3322537e-05,1.2670329e-05,2.0,43,0.020484246,2.333528e-08,0,-8.238724114523974e-08,2.0
154,154,12080.609,275449.4,1045269.25,1080953.4,-75.23703,105.44848836850724,0.01032769,-5.7160296e-08,1.2603847e-05,1.1785432e-05,2.0,43,0.02017839,1.8667217e-08,0,-8.239079646343208e-08,2.0
155,155,10447.592,197751.56,1116856.1,1134228.0,-79.95922,105.86449110825197,0.010307028,-9.891287e-08,1.3639759e-05,1.3225144e-05,2.0,43,0.019488648,1.7182302e-08,0,-8.239453515131719e-08,2.0
156,156,9045.586,250544.7,1231378.6,1256608.9,-78.4992,106.43726756217075,0.010194604,4.5861626e-08,1.4288669e-05,1.3720653e-05,2.0,43,0.02025735,1.6120648e-08,0,-8.240562059449443e-08,2.0
157,157,7827.7437,481055.28,1468058.5,1544865.6,-71.856995,106.91794819833012,0.010292756,-3.2987757e-08,1.38496935e-05,1.2506779e-05,2.0,43,0.020376202,1.3189627e-08,0,-8.240792556307551e-08,2.0
158,158,6770.8345,565404.8,1728281.5,1818416.8,-71.88457,107.45642753053107,0.01027964,-5.0493302e-08,1.360077e-05,1.2285861e-05,2.0,43,0.020453049,1.1247724e-08,0,-8.241344674982374e-08,2.0
159,159,5860.798,520337.44,1898626.6,1968637.6,-74.673836,108.06300027939142,0.010522429,-1.7087179e-07,1.430289e-05,1.3303667e-05,2.0,43,0.020272639,1.0297801e-08,0,-8.24303702157318e-08,2.0
160,160,5071.625,598250.44,2126522.0,2209072.0,-74.28722,108.74372553840658,0.0103089465,-4.457121e-08,1.4757171e-05,1.3674868e-05,2.0,43,0.020262761,9.172522e-09,0,-8.243316216605577e-08,2.0
161,161,4388.5933,824716.25,2166667.2,2318319.2,-69.16126,109.42380959737056,0.010229501,-1.2428073e-08,1.6737964e-05,1.461977e-05,2.0,43,0.020175649,8.702705e-09,0,-8.244002310643555e-08,2.0
162,162,3798.7827,1109541.6,2531019.0,2763537.5,-66.32844,110.10383696299687,0.010318076,-6.488881e-08,1.6553136e-05,1.3884824e-05,2.0,43,0.020264514,7.3328166e-09,0,-8.244583306945468e-08,2.0
163,163,3286.0488,1125575.6,2834122.5,3049454.2,-68.33943,110.78370475529664,0.010371363,-5.9953734e-08,1.7089427e-05,1.476116e-05,2.0,43,0.020222189,6.6314123e-09,0,-8.245285493931851e-08,2.0
164,164,2844.088,1680553.4,3105363.5,3530940.8,-61.57874,111.46382990758866,0.010234532,-8.368284e-09,1.802041e-05,1.3938265e-05,2.0,43,0.020299613,5.7490666e-09,0,-8.246087828255986e-08,2.0
165,165,2460.7852,1959084.2,3134369.5,3696252.5,-57.99326,112.14370833989233,0.010279005,-1.1701785e-08,2.0634609e-05,1.4837931e-05,2.0,43,0.02016777,5.456275e-09,0,-8.246382570476266e-08,2.0
166,166,2129.3164,2427085.8,3494304.0,4254516.0,-55.216797,112.82385290550883,0.010257095,-4.3643555e-09,2.1390417e-05,1.4429135e-05,2.0,43,0.02024553,4.7585975e-09,0,-8.246583014115395e-08,2.0
167,167,1843.2289,3011552.8,3798048.2,4847125.0,-51.588356,113.50396789782098,0.010186369,1.8281096e-08,2.2734237e-05,1.3958312e-05,2.0,43,0.020348433,4.198042e-09,0,-8.247277513879305e-08,2.0
168,168,1594.4913,3408393.2,3965653.8,5229106.5,-49.321655,114.18384798345505,0.010278782,-4.624729e-08,2.5169998e-05,1.4476307e-05,2.0,43,0.020346701,3.8910475e-09,0,-8.247573315541956e-08,2.0
169,169,1380.4436,3822873.8,4160193.5,5649918.0,-47.41956,114.86368457575736,0.010256293,5.5243974e-09,2.7713279e-05,1.5025561e-05,2.0,43,0.020285495,3.590405e-09,0,-8.248357384384085e-08,2.0
170,170,1194.6187,4448905.5,4072904.2,6031692.0,-42.47362,115.54381018137792,0.010235426,-1.0122428e-09,3.2710457e-05,1.4914776e-05,2.0,43,0.020345941,3.373173e-09,0,-8.248174903447571e-08,2.0
171,171,1033.3434,4933157.5,4106440.8,6418637.0,-39.774548,116.22410696031875,0.010193951,-8.1634415e-09,3.750679e-05,1.5351661e-05,2.0,43,0.020259522,3.156359e-09,0,-8.248270520909548e-08,2.0
172,172,894.71045,5576285.0,3813145.2,6755370.5,-34.36489,116.9038460059819,0.010245524,-1.3288359e-09,4.6650282e-05,1.4863554e-05,2.0,43,0.020323077,3.0084326e-09,0,-8.248664743699644e-08,2.0
173,173,774.2569,6054839.0,3844751.0,7172390.5,-32.415062,117.58396145160077,0.010181134,1.710784e-08,5.3464668e-05,1.5362979e-05,2.0,43,0.020280136,2.8275282e-09,0,-8.249624868027776e-08,2.0
174,174,669.7856,6462425.5,3863892.8,7529449.5,-30.87526,118.26380604390579,0.010268777,-3.1814547e-08,6.149776e-05,1.6195076e-05,2.0,43,0.020242319,2.6884195e-09,0,-8.250076652688027e-08,2.0
175,175,579.81464,6998517.5,3650392.5,7893327.0,-27.546326,118.94385319619323,0.010292738,-7.9586e-09,7.519542e-05,1.608238e-05,2.0,43,0.020338329,2.5766485e-09,0,-8.250035491678136e-08,2.0
176,176,501.44418,7278340.5,3727808.0,8177456.5,-27.120539,119.62119608165813,0.010266989,-3.170282e-08,8.514203e-05,1.7693534e-05,2.0,43,0.020273566,2.479202e-09,0,-8.250282008184031e-08,2.0
177,177,434.02762,7454060.5,3229921.8,8123756.0,-23.427586,120.30120747399633,0.010234774,-1.6767244e-08,0.00011353003,1.7946551e-05,2.0,43,0.02028362,2.4968279e-09,0,-8.251330917396437e-08,2.0
178,178,375.6009,7880659.5,3263153.8,8529535.0,-22.493036,120.98045241288492,0.010226799,-1.9285003e-10,0.00012985419,1.9005545e-05,2.0,43,0.020222705,2.3709035e-09,0,-8.251985103858357e-08,2.0
179,179,325.10385,8475630.0,3030365.8,9001079.0,-19.673937,121.65971401854767,0.010221192,-1.172044e-08,0.00016154852,1.8310657e-05,2.0,43,0.020368993,2.26295e-09,0,-8.252373702289282e-08,2.0
180,180,281.3503,8382765.5,2681479.0,8801198.0,-17.738436,122.33678447737475,0.010290185,-5.7905257e-08,0.00021095914,1.9582294e-05,2.0,43,0.020254081,2.3012867e-09,0,-8.25294512161911e-08,2.0
181,181,243.36427,8595226.0,2685753.8,9005064.0,-17.35248,123.02011946981656,0.010314853,-1.1496965e-08,0.00024349897,2.1659873e-05,2.0,43,0.02027794,2.2518374e-09,0,-8.252392329501705e-08,2.0
182,182,210.60631,8818406.0,2356463.0,9127826.0,-14.961063,123.69720448859152,0.0103584705,-2.801549e-08,0.00032069202,2.1373453e-05,2.0,43,0.02031536,2.2256517e-09,0,-8.252935405214876e-08,2.0
183,183,182.27473,9512712.0,2146825.5,9751951.0,-12.717443,124.36927558717434,0.010379543,-8.487123e-08,0.00040672126,1.971094e-05,2.0,43,0.020382782,2.0901236e-09,0,-8.254111142566876e-08,2.0
184,184,157.72879,9152984.0,1543503.1,9282215.0,-9.571954,125.05764287327838,0.010224434,-1.5561338e-10,0.0006537349,1.8076462e-05,2.0,43,0.020305172,2.187535e-09,0,-8.254176173863373e-08,2.0
185,185,136.52892,9122112.0,1861705.8,9310149.0,-11.534924,125.72952538516256,0.010243139,-2.2786417e-09,0.0006261588,2.5037632e-05,2.0,43,0.020226749,2.1725484e-09,0,-8.254885472758764e-08,2.0
186,186,118.14758,8961581.0,1568649.0,9097835.0,-9.9285555,126.41789811119088,0.010229128,-3.2284055e-09,0.0008587555,2.5529656e-05,2.0,43,0.020211093,2.2215279e-09,0,-8.254288302454663e-08,2.0
187,187,102.25773,9305432.0,1815714.9,9480922.0,-11.041064,127.08432758282288,0.010160731,-2.3192168e-08,0.0008571884,3.143913e-05,2.0,43,0.020218965,2.1325948e-09,0,-8.254498354427594e-08,2.0
188,188,88.4436,9367579.0,1576643.0,9499334.0,-9.553824,127.77427881557378,0.010230657,5.6361005e-09,0.0011413539,3.1441316e-05,2.0,43,0.020251509,2.1318873e-09,0,-8.254565109250765e-08,2.0
189,189,76.54279,9372571.0,1398508.8,9476334.0,-8.486657,128.44171895401087,0.010278838,1.9566038e-08,0.0014867935,3.2381748e-05,2.0,43,0.02022196,2.1339432e-09,0,-8.254527821845848e-08,2.0
190,190,66.250786,9928065.0,1360176.9,10020806.0,-7.80114,129.1099716257304,0.01035316,-4.3807724e-08,0.001766175,3.2540123e-05,2.0,43,0.02035389,2.0311628e-09,0,-8.255270589215434e-08,2.0
191,191,57.329906,9379087.0,922526.9,9424348.0,-5.6175423,129.76464880351705,0.010216272,-6.187193e-08,0.003009261,2.8834691e-05,2.0,43,0.020370154,2.161439e-09,0,-8.256094969608746e-08,2.0
192,192,49.60321,9817118.0,1212343.6,9891693.0,-7.039974,130.4503869160253,0.010291209,-1.7102472e-08,0.0026465773,3.975528e-05,2.0,43,0.02028189,2.0503963e-09,0,-8.256535263264435e-08,2.0
193,193,42.92585,9529634.0,1407189.2,9632970.0,-8.399855,131.1584223896789,0.010356756,-7.083348e-09,0.0026348066,5.62255e-05,2.0,43,0.020224515,2.09951e-09,0,-8.258858449503315e-08,2.0
194,194,37.1518,9973741.0,1224493.5,10048626.0,-6.9992766,131.8021914602432,0.010135802,1.3029391e-08,0.0034985156,5.1949744e-05,2.0,43,0.020329863,2.0231485e-09,0,-8.259259304656632e-08,2.0
195,195,32.150223,10180132.0,1291033.0,10261669.0,-7.2276044,132.44136402392178,0.010282713,-1.144111e-08,0.0038344122,6.069284e-05,2.0,43,0.02029345,1.9775974e-09,0,-8.259494079545387e-08,2.0
196,196,27.835518,10034913.0,2186962.2,10270457.0,-12.294536,133.16830800511525,0.010251291,-6.161534e-09,0.0026144453,0.00011854481,2.0,43,0.020335164,1.9799669e-09,0,-8.259835626166239e-08,2.0
197,197,24.082958,10336776.0,1292424.4,10417260.0,-7.126803,133.87039774513687,0.010134777,-3.3900342e-08,0.005113346,7.870611e-05,2.0,43,0.02027835,1.9466107e-09,0,-8.260190875148391e-08,2.0
198,198,20.833313,10173955.0,1298402.4,10256472.0,-7.272786,134.52476868293888,0.010305985,-2.4551639e-08,0.0058837268,9.429205e-05,2.0,43,0.020265844,1.9759079e-09,0,-8.259789065556215e-08,2.0
199,199,18.021912,10585887.0,1315733.4,10667341.0,-7.0850306,135.27071634503955,0.009544571,5.076445e-07,0.0067119915,0.00010211154,2.0,43,0.020284789,1.9015787e-09,0,-8.257343434229735e-08,2.0
200,200,15.604198,10524963.0,1569941.2,10641408.0,-8.4838915,135.9260206161416,0.010238184,1.634426e-08,0.006496737,0.00014140471,2.0,43,0.020335928,1.9110185e-09,0,-8.257703563745386e-08,2.0
201,201,13.500899,10653912.0,1710757.0,10790391.0,-9.122423,136.67297969161882,0.010318346,1.2889707e-08,0.006890791,0.00017320938,2.0,43,0.020312838,1.8824933e-09,0,-8.257674796970467e-08,2.0
202,202,11.686608,10473535.0,2016020.9,10665799.0,-10.895443,137.26389571969048,0.010319735,-2.3005938e-08,0.006755176,0.00024134589,2.0,43,0.020234434,1.8971325e-09,0,-8.25886860402522e-08,2.0
203,203,10.113269,10755917.0,1620997.6,10877379.0,-8.570408,137.93753529831883,0.01027759,-5.0549218e-08,0.009708367,0.0002156068,2.0,43,0.020225853,1.8594418e-09,0,-8.259729652216496e-08,2.0
204,204,8.748621,10756538.0,1457159.6,10854788.0,-7.714744,138.7044025347277,0.010283319,-2.2465887e-08,0.012484564,0.00022498054,2.0,43,0.02020489,1.8613805e-09,0,-8.258806209666532e-08,2.0
205,205,7.570237,11200721.0,1714568.5,11331191.0,-8.703086,139.57996865635505,0.010268302,-7.548936e-09,0.012261844,0.0002807465,2.0,43,0.020279884,1.7897399e-09,0,-8.259590939637305e-08,2.0
206,206,6.554112,11466772.0,1647358.1,11584500.0,-8.175382,140.1163115084928,0.010365029,-6.066146e-08,0.014740706,0.00029808472,2.0,43,0.020285763,1.7511125e-09,0,-8.260524694065098e-08,2.0
207,207,5.669445,10830622.0,1040729.06,10880510.0,-5.488776,140.72613164412905,0.010157024,1.3039094e-07,0.026973784,0.000246785,2.0,43,0.02021026,1.8574736e-09,0,-8.258957741920803e-08,2.0
208,208,4.907347,11468500.0,2175145.0,11672949.0,-10.7393055,141.41854199700174,0.010246269,1.8597639e-08,0.014910257,0.00051772647,2.0,43,0.020279633,1.7373187e-09,0,-8.259199906567085e-08,2.0
209,209,4.245922,11874865.0,2344873.2,12104167.0,-11.170219,142.20629936773912,0.010281912,-1.5296072e-08,0.015985591,0.000599926,2.0,43,0.020293087,1.6765372e-09,0,-8.261265021932415e-08,2.0
210,210,3.6747382,11902981.0,2160184.5,12097411.0,-10.286236,143.10592439718312,0.010347375,-1.8396777e-08,0.02004947,0.00063929264,2.0,43,0.020274054,1.6759003e-09,0,-8.258546991617344e-08,2.0
211,211,3.180988,12102772.0,2270557.8,12313916.0,-10.6255455,144.13417079267674,0.010329591,-1.9551399e-08,0.022035632,0.0007492008,2.0,43,0.020281555,1.6470435e-09,0,-8.25935963863894e-08,2.0
212,212,2.752818,12265273.0,2360080.5,12490272.0,-10.891718,145.31315695532248,0.010279299,-8.343457e-09,0.024497164,0.0008746325,2.0,43,0.020254899,1.6216539e-09,0,-8.26263841407152e-08,2.0
