True,index,freq,Re(Z),Im(Z),Z,Phase(Z),time,Ewe_meas,I_meas,Cs,Cp,cycle_number,I_Range,Ewe,I,Ns,(QQo),cycle
110,110,7000018.5,251.44435,1916.3198,1932.7457,-82.5248,82.55449928107555,0.013092398,-1.6807371e-05,1.1864597e-05,1.1663785e-05,2.0,40,0.010178872,5.2665346e-06,0,-1.3796330162709116e-08,2.0
111,111,6057573.0,523.29425,2140.2874,2203.3308,-76.26088,83.1065002673131,0.01300794,6.0771463e-06,1.2275788e-05,1.158335e-05,2.0,40,0.014382602,6.527663e-06,0,-8.608779428675156e-09,2.0
112,112,5242039.0,343.72733,2520.4207,2543.751,-82.234085,83.52249290040345,0.013184792,-4.5738845e-05,1.2046111e-05,1.182616e-05,2.0,40,0.020020667,7.87053e-06,0,-4.5013137460620834e-09,2.0
113,113,4536288.0,249.0104,2794.9626,2806.0332,-84.90881,84.75449194558314,0.012956815,8.421455e-06,1.2552884e-05,1.245403e-05,2.0,40,0.019905832,7.0939404e-06,0,-3.0089287218724416e-09,2.0
114,114,3925558.5,325.27148,3222.755,3239.1282,-84.23667,85.17049748534919,0.012998866,1.6831085e-05,1.2580312e-05,1.245345e-05,2.0,40,0.019101735,5.897184e-06,0,-4.287091620231356e-09,2.0
115,115,3397055.0,365.68033,3699.45,3717.4792,-84.35481,85.58649433180108,0.0129271345,8.272597e-06,1.2664277e-05,1.2541735e-05,2.0,40,0.020180698,5.4285974e-06,0,-3.817651712353796e-09,2.0
116,116,2939708.2,381.4334,4081.6777,4099.4614,-84.66121,86.13848491801764,0.013085765,-7.961927e-05,1.3264081e-05,1.3149251e-05,2.0,40,0.020108923,4.9052596e-06,0,-1.112657086230293e-08,2.0
117,117,2543924.5,412.46655,4815.2183,4832.8516,-85.10406,86.69050646419055,0.012971235,-1.4500385e-05,1.2992716e-05,1.2898077e-05,2.0,40,0.020533886,4.2488136e-06,0,-1.1481889920472425e-08,2.0
118,118,2201436.2,263.47104,5830.8013,5836.751,-87.41279,87.40948233837844,0.0130441785,-6.970812e-06,1.2398975e-05,1.237371e-05,2.0,41,0.019816129,3.3950616e-06,0,-9.027036228956348e-09,2.0
119,119,1905053.1,167.85428,6269.1147,6271.3613,-88.466286,87.96150479125208,0.01293142,1.0794032e-06,1.3326215e-05,1.3316669e-05,2.0,41,0.02059196,3.2834912e-06,0,-9.523910264095381e-09,2.0
120,120,1648567.4,340.45233,7226.7295,7234.7446,-87.30278,88.51350689746323,0.012912974,-3.0454938e-08,1.3358929e-05,1.3329346e-05,2.0,41,0.019732555,2.727471e-06,0,-1.2633981936901437e-08,2.0
121,121,1426616.2,236.60931,8664.489,8667.72,-88.43576,89.06548695036327,0.013067636,-2.8162767e-06,1.2875676e-05,1.28660795e-05,2.0,41,0.02060312,2.3769944e-06,0,-1.2970904731739107e-08,2.0
122,122,1234551.2,318.98038,9975.66,9980.759,-88.16854,89.61748692326364,0.012997953,-2.7957906e-06,1.29231785e-05,1.2909979e-05,2.0,41,0.02033538,2.0374582e-06,0,-1.4106151570793054e-08,2.0
123,123,1068345.5,165.59746,12389.657,12390.764,-89.234245,90.16949316280079,0.013013697,-2.9764226e-06,1.2024005e-05,1.2021857e-05,2.0,41,0.020931864,1.6893118e-06,0,-1.4609725905675467e-08,2.0
124,124,924510.06,438.57993,13206.863,13214.144,-88.09799,90.72149913568865,0.013020777,-5.847906e-06,1.30349335e-05,1.3020574e-05,2.0,41,0.020228337,1.5308095e-06,0,-1.4798600986397848e-08,2.0
125,125,800039.0,-3694.5974,16748.19,17150.857,-102.44003,91.27348748189979,0.0131117,-9.447499e-06,1.1877939e-05,1.1326746e-05,2.0,41,0.020549132,1.1981402e-06,0,-1.4674166123491113e-08,2.0
126,126,692334.1,278.29752,17856.787,17858.955,-89.10712,91.82550028144033,0.01300099,-2.5350876e-06,1.2873632e-05,1.2870506e-05,2.0,41,0.020478811,1.1466971e-06,0,-1.47569103184101e-08,2.0
127,127,599122.25,690.8583,20541.822,20553.436,-88.07377,92.37748358768295,0.012938108,4.0104737e-06,1.2932001e-05,1.2917391e-05,2.0,41,0.020713437,1.0077847e-06,0,-1.4845830459060454e-08,2.0
128,128,518454.94,233.24037,23139.383,23140.559,-89.42249,92.92950500056031,0.01296831,-1.1496262e-06,1.3266529e-05,1.3265182e-05,2.0,41,0.020472355,8.846958e-07,0,-1.4005838055422536e-08,2.0
129,129,448662.03,608.0823,27463.67,27470.4,-88.731606,93.48148305344512,0.012927023,8.917315e-06,1.2916422e-05,1.2910094e-05,2.0,41,0.020334402,7.4022955e-07,0,-1.4374241817794539e-08,2.0
130,130,388258.97,1113.9523,32294.572,32313.78,-88.02445,94.03348433299107,0.013026795,-7.939483e-07,1.2693142e-05,1.2678056e-05,2.0,41,0.020923404,6.475072e-07,0,-1.483283531387336e-08,2.0
131,131,335983.9,-4901.8706,30539.848,30930.738,-99.11862,94.58549070588197,0.012906863,6.386616e-06,1.5510821e-05,1.5121258e-05,2.0,41,0.020317389,6.5686726e-07,0,-1.449343085136117e-08,2.0
132,132,290751.2,1430.4471,42882.42,42906.273,-88.08947,95.13750758543028,0.013105216,-7.1886734e-06,1.2764956e-05,1.2750768e-05,2.0,41,0.020813484,4.8509185e-07,0,-1.5573555949159337e-08,2.0
133,133,251605.19,2433.1665,47380.918,47443.35,-87.06026,95.68948577166884,0.012989271,-1.846081e-06,1.3350486e-05,1.3315372e-05,2.0,41,0.02023703,4.2655145e-07,0,-1.6193273918377612e-08,2.0
134,134,217729.38,1980.8129,54647.31,54683.195,-87.924095,96.4084822057921,0.013110507,-9.20892e-07,1.3376249e-05,1.3358697e-05,2.0,42,0.019510593,3.567932e-07,0,-1.569594775662031e-08,2.0
135,135,188418.58,1415.6086,63829.21,63844.906,-88.7295,96.82449737223214,0.012977477,-2.1648981e-07,1.3233567e-05,1.3227062e-05,2.0,42,0.021724118,3.402639e-07,0,-1.565819606288896e-08,2.0
136,136,163051.14,2635.442,72870.125,72917.766,-87.92873,97.3764871051244,0.012870233,5.380134e-07,1.3395125e-05,1.33776275e-05,2.0,42,0.020887831,2.8645738e-07,0,-1.5631306003114253e-08,2.0
137,137,141098.2,4188.4,82825.805,82931.64,-87.10509,97.92949745137594,0.0128615135,8.7773566e-07,1.3618616e-05,1.3583878e-05,2.0,42,0.02022655,2.4389425e-07,0,-1.5645142659371558e-08,2.0
138,138,122105.11,4110.502,101140.94,101224.43,-87.67271,98.34550312443753,0.012935965,3.404011e-07,1.2887223e-05,1.2865972e-05,2.0,42,0.021941217,2.1675811e-07,0,-1.5702534934559273e-08,2.0
139,139,105663.59,3880.4075,113436.07,113502.42,-88.040794,98.89750544403796,0.012899503,5.609224e-07,1.3278333e-05,1.3262814e-05,2.0,42,0.02053241,1.8089844e-07,0,-1.5769964616975626e-08,2.0
140,140,91439.65,5032.4507,129405.35,129503.17,-87.77294,99.31349895711173,0.012871016,3.657311e-07,1.34503425e-05,1.3430031e-05,2.0,42,0.021717936,1.6770196e-07,0,-1.581777039288844e-08,2.0
141,141,79127.08,7596.953,147151.08,147347.05,-87.044624,99.86548959664651,0.012997245,1.5657105e-07,1.3668836e-05,1.36325025e-05,2.0,42,0.020355724,1.3814817e-07,0,-1.5790387944363815e-08,2.0
142,142,68475.36,2486.0928,170899.1,170917.17,-89.16657,100.28149190972908,0.013014796,-1.7104448e-07,1.3600224e-05,1.3597347e-05,2.0,42,0.021190329,1.239801e-07,0,-1.5764724229582663e-08,2.0
143,143,59252.523,9611.572,200316.25,200546.7,-87.252945,100.69749456949648,0.012930004,5.942615e-07,1.3409021e-05,1.3378222e-05,2.0,42,0.021924935,1.0932583e-07,0,-1.5749435856538183e-08,2.0
144,144,51282.285,7038.5693,227893.56,228002.23,-88.230965,101.24948958240566,0.013067468,-5.854537e-07,1.3618231e-05,1.3605253e-05,2.0,42,0.02019382,8.856852e-08,0,-1.5734208941205707e-08,2.0
145,145,44369.8,8556.718,266735.22,266872.44,-88.16261,101.665507788799,0.012978837,2.6627305e-07,1.3447831e-05,1.3434007e-05,2.0,42,0.020564836,7.705867e-08,0,-1.5773559141972884e-08,2.0
146,146,38403.727,22402.658,305788.03,306607.56,-85.80988,102.08148287524818,0.013059848,-4.08515e-07,1.3552713e-05,1.348036e-05,2.0,42,0.020854563,6.8017115e-08,0,-1.5785650559673255e-08,2.0
147,147,33226.32,31239.398,355906.16,357274.53,-84.983765,102.49749841503217,0.012971738,3.6517233e-07,1.3458677e-05,1.33557805e-05,2.0,42,0.02106222,5.895248e-08,0,-1.5777867681364812e-08,2.0
148,148,28754.086,42104.883,403679.94,405869.8,-84.04543,102.91349640811677,0.013042353,-5.690635e-07,1.3711451e-05,1.3563889e-05,2.0,42,0.021119284,5.2034625e-08,0,-1.5772695615805374e-08,2.0
149,149,24884.947,45285.965,484823.53,486933.97,-84.66365,103.49549910242786,0.013010865,4.8636444e-08,1.3191669e-05,1.3077567e-05,2.0,43,0.02094836,4.3020947e-08,0,-1.57910623313402e-08,2.0
150,150,21553.963,72856.4,559193.1,563919.3,-82.576836,103.91248744222685,0.01304062,2.660553e-08,1.3204779e-05,1.298437e-05,2.0,43,0.02092792,3.7111548e-08,0,-1.5783739569723218e-08,2.0
151,151,18631.234,92148.56,631753.9,638438.94,-81.70127,104.32850863531348,0.012933991,9.917901e-08,1.3521678e-05,1.3239991e-05,2.0,43,0.020839773,3.2641765e-08,0,-1.5784188067595788e-08,2.0
152,152,16126.037,89131.76,743254.3,748579.6,-83.16169,104.74450094837812,0.012995532,6.332991e-08,1.3278684e-05,1.3090429e-05,2.0,43,0.020712782,2.7669444e-08,0,-1.5780169260659074e-08,2.0
153,153,13954.87,129190.516,662140.6,674626.1,-78.9597,105.1605016081885,0.012976974,1.137235e-07,1.7224402e-05,1.6592747e-05,2.0,43,0.019936569,2.9552027e-08,0,-1.5772476094971568e-08,2.0
154,154,12080.609,151045.6,973560.3,985207.8,-81.18101,105.57748954798444,0.013008947,4.0889294e-08,1.3532201e-05,1.3214126e-05,2.0,43,0.019947194,2.0246686e-08,0,-1.5768297362058143e-08,2.0
155,155,10447.592,224989.47,1117700.6,1140120.6,-78.618645,105.99350263437373,0.012999277,7.621694e-08,1.3629453e-05,1.3098688e-05,2.0,43,0.019435527,1.7046904e-08,0,-1.5757277827586612e-08,2.0
156,156,9045.586,247126.02,1176761.1,1202430.0,-78.13993,106.56625439491472,0.012998549,6.180283e-08,1.4951856e-05,1.4320301e-05,2.0,43,0.020145996,1.6754402e-08,0,-1.574609417733392e-08,2.0
157,157,7827.7437,295029.97,1437254.5,1467223.0,-78.39985,107.04592697773478,0.013005331,8.312607e-08,1.4146527e-05,1.3574535e-05,2.0,43,0.020157192,1.3738329e-08,0,-1.5742727642719925e-08,2.0
158,158,6770.8345,478079.47,1626063.0,1694886.6,-73.61611,107.58442956328508,0.013044999,8.857902e-09,1.4455748e-05,1.3305586e-05,2.0,43,0.020220343,1.19302035e-08,0,-1.5733013489558627e-08,2.0
159,159,5860.798,517680.56,1782415.8,1856070.9,-73.80472,108.18999415208236,0.012949716,1.2759754e-07,1.5235418e-05,1.4050224e-05,2.0,43,0.020211,1.0889131e-08,0,-1.5723643544381125e-08,2.0
160,160,5071.625,704558.1,1946883.9,2070449.0,-70.10531,108.87070570443757,0.012938257,9.621797e-08,1.6118809e-05,1.4252268e-05,2.0,43,0.02010969,9.7127195e-09,0,-1.57131127220299e-08,2.0
161,161,4388.5933,991767.2,2035713.5,2264449.5,-64.02539,109.55084480339428,0.013016511,8.0928544e-08,1.7814686e-05,1.439747e-05,2.0,43,0.02010018,8.876409e-09,0,-1.569883774591712e-08,2.0
162,162,3798.7827,1111992.8,2461785.2,2701280.2,-65.69122,110.23083638236858,0.012960224,7.3609755e-08,1.7018667e-05,1.4134699e-05,2.0,43,0.020201787,7.478597e-09,0,-1.5682424232032983e-08,2.0
163,163,3286.0488,1485892.0,2635065.5,3025135.5,-60.581703,110.91070428133389,0.0129493615,6.375823e-08,1.838039e-05,1.3945943e-05,2.0,43,0.020232622,6.6881705e-09,0,-1.56670013454158e-08,2.0
164,164,2844.088,1725915.0,2970466.0,3435469.5,-59.84234,111.58981428691186,0.012959236,5.9810176e-08,1.883877e-05,1.4084113e-05,2.0,43,0.020239193,5.8912453e-09,0,-1.565237375897372e-08,2.0
165,165,2460.7852,2015515.2,3122806.8,3716749.0,-57.16108,112.26971130588208,0.013041813,4.3664116e-08,2.0711012e-05,1.4620596e-05,2.0,43,0.020232636,5.443638e-09,0,-1.5643658254484896e-08,2.0
166,166,2129.3164,2377987.2,3310176.0,4075793.0,-54.307026,112.94881824479671,0.012997823,5.2584486e-08,2.2580254e-05,1.4893843e-05,2.0,43,0.020207956,4.958043e-09,0,-1.5630269353491123e-08,2.0
167,167,1843.2289,3056470.2,4089929.0,5105833.0,-53.22864,113.62895702375681,0.012883089,1.5799014e-07,2.1111791e-05,1.3546385e-05,2.0,43,0.020438239,4.0029198e-09,0,-1.5609466061165497e-08,2.0
168,168,1594.4913,3350564.5,3572785.8,4898069.0,-46.838413,114.30882684272365,0.013021075,5.9270114e-08,2.7937722e-05,1.4864666e-05,2.0,43,0.02021245,4.126616e-09,0,-1.559310720276357e-08,2.0
169,169,1380.4436,3857261.0,3598320.8,5275071.0,-43.010857,114.98868436835619,0.013017181,5.044285e-08,3.204067e-05,1.4908869e-05,2.0,43,0.020235982,3.8361536e-09,0,-1.5579401174237174e-08,2.0
170,170,1194.6187,4241860.0,3670402.8,5609388.0,-40.869026,115.6688181606587,0.013053588,2.9268607e-08,3.6297533e-05,1.5540809e-05,2.0,43,0.02021232,3.6033023e-09,0,-1.5566558050715705e-08,2.0
171,171,1033.3434,4782849.5,3721893.2,6060374.5,-37.889156,116.34907867293805,0.012916943,8.4243425e-08,4.1382005e-05,1.5607755e-05,2.0,43,0.02026533,3.3439072e-09,0,-1.5552912455124456e-08,2.0
172,172,894.71045,5053157.0,3633364.2,6223803.5,-35.717213,117.02883478524745,0.013008424,6.871192e-08,4.895857e-05,1.6685332e-05,2.0,43,0.020195257,3.2448417e-09,0,-1.5542846514554052e-08,2.0
173,173,774.2569,5141414.5,3338449.5,6130203.0,-32.996674,117.70894036421669,0.013164335,-1.08615424e-07,6.1572995e-05,1.8261237e-05,2.0,43,0.02004024,3.269099e-09,0,-1.55352715878492e-08,2.0
174,174,669.7856,5894021.5,3181627.5,6697928.5,-28.360434,118.38882114317676,0.01300086,5.474473e-08,7.468528e-05,1.6852047e-05,2.0,43,0.020185241,3.0136544e-09,0,-1.5524138834686163e-08,2.0
175,175,579.81464,6310638.0,2975015.2,6976737.5,-25.24053,119.06883480215038,0.012959442,7.3181404e-08,9.226602e-05,1.6777041e-05,2.0,43,0.020223962,2.8987708e-09,0,-1.5514611621740095e-08,2.0
176,176,501.44418,6655985.0,2750372.2,7201853.0,-22.45129,119.7461811809626,0.012981222,7.686874e-08,0.00011540006,1.6830634e-05,2.0,43,0.020244358,2.810993e-09,0,-1.549485266377193e-08,2.0
177,177,434.02762,6865841.5,2461577.0,7293774.0,-19.724035,120.42619555993588,0.012960504,6.504319e-08,0.00014896675,1.6967255e-05,2.0,43,0.020234378,2.7741986e-09,0,-1.547930242553244e-08,2.0
178,178,375.6009,7153353.0,2247618.2,7498149.5,-17.442972,121.10543932553264,0.0130206095,3.2453098e-08,0.00018852588,1.6939784e-05,2.0,43,0.020171035,2.690135e-09,0,-1.54547876753507e-08,2.0
179,179,325.10385,7279970.5,2220121.8,7610973.0,-16.959768,121.78469090448198,0.012920744,1.07801384e-07,0.00022050641,1.8762661e-05,2.0,43,0.020171316,2.650294e-09,0,-1.544213236776315e-08,2.0
180,180,281.3503,7494644.0,2033385.9,7765587.5,-15.179608,122.46179682997172,0.012985955,8.036983e-08,0.00027819732,1.9074094e-05,2.0,43,0.020192942,2.6003109e-09,0,-1.5426946642743565e-08,2.0
181,181,243.36427,7377234.5,2036411.9,7653140.5,-15.431636,123.1450921423966,0.012968496,6.5415634e-08,0.00032114243,2.2737859e-05,2.0,43,0.02020459,2.640039e-09,0,-1.5416499105722772e-08,2.0
182,182,210.60631,7755565.0,1597610.0,7918405.5,-11.639843,123.82220046789735,0.01299596,6.4149276e-08,0.0004730184,1.9255023e-05,2.0,43,0.020251006,2.55746e-09,0,-1.540530396197104e-08,2.0
183,183,182.27473,7571510.5,2024124.4,7837401.0,-14.967123,124.49427932649269,0.013080473,-2.9863036e-09,0.00043137645,2.8773102e-05,2.0,43,0.020140389,2.569779e-09,0,-1.539704267219275e-08,2.0
184,184,157.72879,8096981.5,1462176.8,8227944.5,-10.236322,125.1826481592143,0.012966392,7.87124e-08,0.0006900956,2.1793467e-05,2.0,43,0.020281103,2.4649052e-09,0,-1.5386024978873732e-08,2.0
185,185,136.52892,7882378.0,1340706.6,7995585.0,-9.6530075,125.85452635106049,0.013039279,3.9287702e-08,0.00086948427,2.444718e-05,2.0,43,0.02016563,2.5220956e-09,0,-1.5372134045655036e-08,2.0
186,186,118.14758,8102020.5,1284845.0,8203265.5,-9.011114,126.54291937046219,0.012984464,3.763026e-08,0.0010484423,2.5720092e-05,2.0,43,0.020219568,2.4648195e-09,0,-1.5364168165756117e-08,2.0
187,187,102.25773,8158992.5,1202671.5,8247155.5,-8.385267,127.20932766873739,0.012976918,5.679323e-08,0.0012941272,2.75209e-05,2.0,43,0.020211253,2.4506939e-09,0,-1.5353440329297048e-08,2.0
188,188,88.4436,8021080.0,1213912.8,8112417.0,-8.605855,127.8992896481941,0.013045781,-1.1124513e-08,0.0014824028,3.319255e-05,2.0,43,0.020183738,2.4880056e-09,0,-1.5342236901162603e-08,2.0
189,189,76.54279,8250923.0,1127741.4,8327636.5,-7.782996,128.56672810661257,0.0129190665,9.731667e-08,0.001843768,3.3812852e-05,2.0,43,0.02020637,2.426423e-09,0,-1.5332336664837933e-08,2.0
190,190,66.250786,8311437.5,1135246.0,8388610.0,-7.7778087,129.23498997834395,0.01289438,7.657075e-08,0.0021161144,3.875601e-05,2.0,43,0.020144079,2.4013607e-09,0,-1.5318214303153116e-08,2.0
191,191,57.329906,7835483.5,940757.9,7891757.0,-6.846377,129.8886198494065,0.012957336,8.5006945e-08,0.0029509447,4.1934298e-05,2.0,43,0.02012894,2.5506284e-09,0,-1.5306833363027047e-08,2.0
192,192,49.60321,8587746.0,1081691.9,8655602.0,-7.179032,130.5753891353088,0.013009487,3.56376e-08,0.0029662433,4.632542e-05,2.0,43,0.020289365,2.3440732e-09,0,-1.5297734010095882e-08,2.0
193,193,42.92585,8302655.5,832058.06,8344244.0,-5.7228403,131.28343162228703,0.012966932,4.8803994e-08,0.0044560246,4.430787e-05,2.0,43,0.02021196,2.4222637e-09,0,-1.528850465869505e-08,2.0
194,194,37.1518,8615417.0,1298730.5,8712756.0,-8.572503,131.92719487953582,0.012878636,1.4914421e-07,0.0032985364,7.32906e-05,2.0,43,0.020238906,2.3229052e-09,0,-1.527532457472875e-08,2.0
195,195,32.150223,8762061.0,960590.7,8814559.0,-6.25639,132.56636701655225,0.012934568,4.4949058e-08,0.0051534465,6.1203085e-05,2.0,43,0.020205006,2.292231e-09,0,-1.5273070270268956e-08,2.0
196,196,27.835518,8515314.0,1086152.0,8584305.0,-7.2689843,133.29434819778544,0.01299432,4.04423e-08,0.0052641737,8.427546e-05,2.0,43,0.020148933,2.347183e-09,0,-1.526230692515086e-08,2.0
197,197,24.082958,8922892.0,1255657.1,9010809.0,-8.010241,133.9964047377871,0.012907366,3.1764035e-08,0.005263071,0.00010220068,2.0,43,0.020185847,2.2401814e-09,0,-1.525426382953284e-08,2.0
198,198,20.833313,8833209.0,1381336.6,8940563.0,-8.887926,134.6507599955803,0.012980384,3.0739777e-08,0.005530473,0.00013201752,2.0,43,0.020163827,2.2553195e-09,0,-1.524806235429901e-08,2.0
199,199,18.021912,9115246.0,1454849.8,9230617.0,-9.068275,135.39673883101204,0.0129985865,1.1452422e-07,0.006070174,0.0001507912,2.0,43,0.02021944,2.1904754e-09,0,-1.5222245561754703e-08,2.0
200,200,15.604198,9098167.0,1563073.0,9231459.0,-9.7483,136.05101504875347,0.013015412,4.064716e-08,0.006525284,0.00018707564,2.0,43,0.020174233,2.1853785e-09,0,-1.5210679560933272e-08,2.0
201,201,13.500899,9270015.0,1743042.0,9432464.0,-10.648994,136.7989964709268,0.012896624,6.195175e-08,0.0067631584,0.00023094841,2.0,43,0.020255815,2.1474575e-09,0,-1.5201921906483838e-08,2.0
202,202,11.686608,9772221.0,1940802.1,9963083.0,-11.233003,137.38988079235423,0.0130530475,5.356745e-09,0.0070169824,0.00026627196,2.0,43,0.020343676,2.0419058e-09,0,-1.5189708316919828e-08,2.0
203,203,10.113269,9508303.0,1871484.2,9690732.0,-11.134981,138.06352463763324,0.012983849,5.7705744e-08,0.008408962,0.00031361845,2.0,43,0.020189844,2.0834179e-09,0,-1.5185347187546592e-08,2.0
204,204,8.748621,9602075.0,2078494.1,9824458.0,-12.213978,138.83037086072727,0.013016595,4.578707e-08,0.008752492,0.0003917528,2.0,43,0.020204272,2.0565278e-09,0,-1.5193629760537557e-08,2.0
205,205,7.570237,9842349.0,2030686.6,10049653.0,-11.657761,139.706019222358,0.012991767,1.676327e-08,0.010353035,0.00042271864,2.0,43,0.020212395,2.011253e-09,0,-1.5169456936162798e-08,2.0
206,206,6.554112,9971237.0,2219790.8,10215334.0,-12.550491,140.24232330112136,0.013002109,6.750139e-08,0.010939418,0.00051655096,2.0,43,0.020200592,1.9774773e-09,0,-1.5164341853674115e-08,2.0
207,207,5.669445,9737925.0,2401733.0,10029731.0,-13.854752,140.85213573012152,0.012982918,6.1989006e-08,0.0116883945,0.0006702329,2.0,43,0.020089712,2.003016e-09,0,-1.5146844353000904e-08,2.0
208,208,4.907347,10405796.0,2523583.2,10707430.0,-13.632019,141.5445504829695,0.012984855,6.643989e-08,0.012851556,0.0007138722,2.0,43,0.02021836,1.888255e-09,0,-1.5141320904550583e-08,2.0
209,209,4.245922,10816979.0,2652745.5,11137508.0,-13.779222,142.33229401372955,0.012990082,6.657954e-08,0.014130337,0.0008016183,2.0,43,0.020249682,1.8181519e-09,0,-1.5099459784448736e-08,2.0
210,210,3.6747382,10899972.0,2748293.5,11241108.0,-14.151461,143.23191218983266,0.012981725,5.2686854e-08,0.015759071,0.0009419733,2.0,43,0.020236857,1.8002546e-09,0,-1.510815885959977e-08,2.0
211,211,3.180988,11215663.0,2856736.5,11573765.0,-14.289926,144.26017610527924,0.012973686,5.271479e-08,0.017514102,0.0010670357,2.0,43,0.020219984,1.7470533e-09,0,-1.5108005824323958e-08,2.0
212,212,2.752818,11334587.0,3033156.8,11733410.0,-14.981431,145.43910957462504,0.012975882,5.008281e-08,0.01906109,0.001273764,2.0,43,0.020202972,1.7218329e-09,0,-1.5058452304328698e-08,2.0
