True,index,freq,Re(Z),Im(Z),Z,Phase(Z),time,Ewe_meas,I_meas,Cs,Cp,cycle_number,I_Range,Ewe,I,Ns,(QQo),cycle
110,110,7000018.5,226.80632,1883.0878,1896.6973,-83.13216,82.48848007796914,-0.005449439,7.6033546e-05,1.2073979e-05,1.1901329e-05,2.0,40,0.010219919,5.388271e-06,0,-4.1829710332960495e-09,2.0
111,111,6057573.0,306.08475,2403.9563,2423.3643,-82.743835,83.0405066908279,-0.005134041,-9.828047e-05,1.0929365e-05,1.0755006e-05,2.0,40,0.014545427,6.0021625e-06,0,-3.8653664716644785e-09,2.0
112,112,5242039.0,456.42258,2384.437,2427.7275,-79.16367,83.45648455058108,-0.005308583,1.2068124e-05,1.2733097e-05,1.228304e-05,2.0,40,0.020073785,8.268549e-06,0,-3.736288969670746e-09,2.0
113,113,4536288.0,327.86356,2791.7751,2810.9612,-83.30192,84.68849154244526,-0.005288032,-2.4640316e-05,1.2567216e-05,1.2396248e-05,2.0,40,0.019418892,6.9082744e-06,0,-1.8857077690188628e-09,2.0
114,114,3925558.5,412.2379,3113.2703,3140.4446,-82.45717,85.10450564222992,-0.005336549,-2.7859045e-05,1.3022724e-05,1.2798328e-05,2.0,40,0.018787727,5.9825056e-06,0,-2.4943345161894857e-09,2.0
115,115,3397055.0,432.73264,3524.4675,3550.9336,-83.00028,85.5205021953152,-0.0052244603,-7.076309e-05,1.3293032e-05,1.3095617e-05,2.0,40,0.019887174,5.600548e-06,0,-3.7504251011096904e-09,2.0
116,116,2939708.2,367.5322,3970.5696,3987.5435,-84.71154,85.93649629506399,-0.0052941246,-4.8213344e-05,1.3635249e-05,1.3519413e-05,2.0,40,0.021813676,5.4704547e-06,0,-3.297320484567903e-10,2.0
117,117,2543924.5,509.66257,4566.8403,4595.192,-83.6321,86.48849533460452,-0.005373887,-4.685515e-05,1.3699354e-05,1.353083e-05,2.0,40,0.02064436,4.4926e-06,0,3.084255067737734e-09,2.0
118,118,2201436.2,597.1989,5126.408,5161.076,-83.3553,87.04050528086373,-0.0053130356,-2.9552146e-05,1.4102654e-05,1.3913829e-05,2.0,40,0.020743884,4.0192945e-06,0,5.19131520852799e-09,2.0
119,119,1905053.1,613.99426,6177.2144,6207.654,-84.32364,87.7584951549361,-0.0053457343,-2.9969208e-06,1.3524474e-05,1.3392163e-05,2.0,41,0.019876515,3.2019368e-06,0,6.982970084908767e-10,2.0
120,120,1648567.4,558.20245,7495.0654,7515.823,-85.7407,88.31049126115977,-0.0053424365,-2.4866704e-06,1.2880658e-05,1.2809605e-05,2.0,41,0.02007823,2.6714613e-06,0,4.2413210596979765e-10,2.0
121,121,1426616.2,918.8057,8206.562,8257.836,-83.61177,88.86249704737565,-0.005449122,1.1222384e-06,1.359414e-05,1.3425847e-05,2.0,41,0.020372987,2.4671097e-06,0,-2.395855467662337e-09,2.0
122,122,1234551.2,864.5621,9327.726,9367.707,-84.70454,89.41450648693717,-0.0053832773,2.016084e-06,1.3820866e-05,1.3703142e-05,2.0,41,0.020650707,2.204457e-06,0,-1.7774936194353676e-09,2.0
123,123,1068345.5,1666.1708,10527.088,10658.129,-81.00614,89.96648933980032,-0.005357174,-3.6356303e-06,1.4151424e-05,1.3805582e-05,2.0,41,0.020709408,1.9430622e-06,0,-1.5524571168493582e-09,2.0
124,124,924510.06,1173.5901,12400.298,12455.71,-84.59351,90.51850365937571,-0.005449457,4.192971e-06,1.3882777e-05,1.3759531e-05,2.0,41,0.020399218,1.6377403e-06,0,-1.7391497048327122e-09,2.0
125,125,800039.0,3925.0796,13322.55,13888.722,-73.584015,91.07048595228116,-0.0053453804,1.2358258e-06,1.4932125e-05,1.3739526e-05,2.0,41,0.019942768,1.4358966e-06,0,-1.7654413527883575e-09,2.0
126,126,692334.1,2707.6775,16015.021,16242.304,-80.40369,91.62250795183354,-0.005366602,1.7255817e-06,1.435413e-05,1.3955219e-05,2.0,41,0.0204567,1.2594703e-06,0,-1.4486242097756877e-09,2.0
127,127,599122.25,2279.3452,18299.926,18441.332,-82.90009,92.17450659137103,-0.005483013,1.2632369e-05,1.4516282e-05,1.42945155e-05,2.0,41,0.020699253,1.1224381e-06,0,-2.4746130379077963e-09,2.0
128,128,518454.94,3122.534,20972.066,21203.25,-81.53143,92.72648288423079,-0.0053433124,2.1352591e-06,1.4637533e-05,1.43200805e-05,2.0,41,0.020417053,9.629209e-07,0,-2.278472294728489e-09,2.0
129,129,448662.03,3268.2473,24404.81,24622.678,-82.37244,93.27849621712812,-0.0053297486,-3.8795765e-06,1.4535346e-05,1.427926e-05,2.0,41,0.02031573,8.2508205e-07,0,-2.708195225357689e-09,2.0
130,130,388258.97,3887.7207,27894.742,28164.357,-82.065735,93.83049771000515,-0.005364478,-4.0527584e-06,1.4695227e-05,1.4415221e-05,2.0,41,0.020856036,7.4051167e-07,0,-3.805624502072483e-09,2.0
131,131,335983.9,13115.584,25573.65,28740.74,-62.848736,94.38250677622273,-0.0053500384,-1.637513e-06,1.8522898e-05,1.4665554e-05,2.0,41,0.019873131,6.9146205e-07,0,-3.465673402481976e-09,2.0
132,132,290751.2,5567.898,35809.062,36239.348,-81.161934,94.93448488242575,-0.005292988,-6.760368e-06,1.5286416e-05,1.4925567e-05,2.0,41,0.020532925,5.66592e-07,0,-3.504395377269666e-09,2.0
133,133,251605.19,8010.058,41869.91,42629.22,-79.16971,95.48650421531056,-0.0051240353,-1.7676468e-05,1.5107705e-05,1.4574304e-05,2.0,41,0.020251896,4.7507078e-07,0,-3.8756093685734024e-09,2.0
134,134,217729.38,10634.096,46319.555,47524.574,-77.07003,96.03949152163113,-0.005305639,-2.7455114e-06,1.5781154e-05,1.4991014e-05,2.0,41,0.020342702,4.2804595e-07,0,-3.903276945386514e-09,2.0
135,135,188418.58,11193.134,52661.043,53837.457,-78.00033,96.75948726249044,-0.0052085677,-1.6359098e-06,1.6040096e-05,1.5346763e-05,2.0,42,0.019847834,3.6866217e-07,0,-2.927309565569377e-09,2.0
136,136,163051.14,13130.457,59734.727,61160.824,-77.60281,97.17549157558824,-0.005484932,9.788704e-07,1.6340653e-05,1.5587502e-05,2.0,42,0.021760633,3.5579365e-07,0,-2.9850426801829093e-09,2.0
137,137,141098.2,16972.102,68070.34,70154.29,-75.999794,97.72748384179431,-0.005093703,-2.8582765e-06,1.6570693e-05,1.5600845e-05,2.0,42,0.020389706,2.906409e-07,0,-2.9556953678207235e-09,2.0
138,138,122105.11,17622.549,82254.57,84121.16,-77.90753,98.27948565463885,-0.005461512,3.595852e-07,1.5846243e-05,1.5150811e-05,2.0,42,0.02016531,2.3971745e-07,0,-2.8284046564725064e-09,2.0
139,139,105663.59,24579.07,90740.79,94010.75,-74.84391,98.69549860773259,-0.0054103495,3.757888e-07,1.6599393e-05,1.5464728e-05,2.0,42,0.021578655,2.2953391e-07,0,-2.7803323405805664e-09,2.0
140,140,91439.65,28487.912,100649.55,104603.5,-74.196335,99.24749996731407,-0.0053622792,-2.4200622e-07,1.7293136e-05,1.6010503e-05,2.0,42,0.020494135,1.9592208e-07,0,-2.941228635530196e-09,2.0
141,141,79127.08,45480.645,108166.086,117338.79,-67.19469,99.663499400398,-0.005489012,8.840686e-07,1.859533e-05,1.5801666e-05,2.0,42,0.021640413,1.8442675e-07,0,-2.932558541625552e-09,2.0
142,142,68475.36,44149.484,126509.8,133992.19,-70.76199,100.21550393328653,-0.0054463646,6.465982e-07,1.837222e-05,1.6377628e-05,2.0,42,0.02026696,1.5125478e-07,0,-3.0818932769692956e-09,2.0
143,143,59252.523,62678.934,140878.67,154192.89,-66.01504,100.63149256640463,-0.0054378496,2.4708956e-07,1.906637e-05,1.591585e-05,2.0,42,0.02098825,1.3611685e-07,0,-3.026972066418739e-09,2.0
144,144,51282.285,72424.84,151080.6,167543.14,-64.387924,101.04749069278478,-0.0053681857,-2.3679081e-07,2.0542066e-05,1.6703525e-05,2.0,42,0.021435454,1.2793991e-07,0,-3.020597881536697e-09,2.0
145,145,44369.8,98438.81,169394.31,195919.97,-59.838173,101.4635027658951,-0.0053490694,1.6253121e-07,2.1175507e-05,1.582975e-05,2.0,42,0.021924512,1.1190545e-07,0,-3.0721425916092243e-09,2.0
146,146,38403.727,117859.2,185037.83,219385.03,-57.505043,102.01549985879683,-0.0051907185,-1.5815245e-06,2.2396815e-05,1.5932843e-05,2.0,42,0.020268865,9.238946e-08,0,-3.1672978150535503e-09,2.0
147,147,33226.32,137421.53,193089.66,236998.52,-54.560616,102.43149369189632,-0.005525773,1.1984604e-06,2.4807265e-05,1.6466665e-05,2.0,42,0.020414757,8.6138755e-08,0,-3.1080377672085084e-09,2.0
148,148,28754.086,167003.73,200322.94,260805.53,-50.18296,102.84748784496333,-0.0054186964,2.9216235e-07,2.7630573e-05,1.6301128e-05,2.0,42,0.020548644,7.878914e-08,0,-3.1129976160015153e-09,2.0
149,149,24884.947,199849.86,204618.05,286021.88,-45.67542,103.2634995180706,-0.0054488424,9.2783756e-07,3.1256437e-05,1.5996642e-05,2.0,42,0.020517796,7.173506e-08,0,-3.1559014744214756e-09,2.0
150,150,21553.963,224738.75,206201.86,305002.8,-42.53694,103.68049191121827,-0.0054536867,1.1416537e-06,3.5809677e-05,1.6367332e-05,2.0,42,0.020553451,6.7387745e-08,0,-3.1617597682236376e-09,2.0
151,151,18631.234,246451.88,211706.44,324897.12,-40.66315,104.09649435759638,-0.005381116,-3.7107796e-07,4.0350085e-05,1.7132503e-05,2.0,42,0.020407304,6.281159e-08,0,-3.1800095131629833e-09,2.0
152,152,16126.037,278966.78,202500.64,344715.78,-35.975716,104.51248827073141,-0.0053901337,9.548084e-08,4.8737813e-05,1.681886e-05,2.0,42,0.020214323,5.864055e-08,0,-3.173749077991925e-09,2.0
153,153,13954.87,298363.25,205189.86,362109.8,-34.517014,104.92848511712509,-0.005399189,4.6202322e-07,5.558255e-05,1.7847182e-05,2.0,42,0.019912194,5.4989382e-08,0,-3.221335194473651e-09,2.0
154,154,12080.609,314644.94,186984.02,366011.56,-30.72174,105.3444831102097,-0.0052902866,-3.068216e-07,7.045743e-05,1.8388493e-05,2.0,42,0.019457057,5.3159678e-08,0,-3.139817510060218e-09,2.0
155,155,10447.592,343108.22,159103.75,378202.66,-24.877771,105.76049531667377,-0.0053997664,-4.5324743e-08,9.574663e-05,1.694475e-05,2.0,42,0.018999802,5.0237094e-08,0,-3.154451772589908e-09,2.0
156,156,9045.586,372552.53,147567.33,400713.75,-21.60842,106.19225704381824,-0.005263978,-8.692998e-07,0.00011923211,1.6169819e-05,2.0,42,0.021686157,5.4118825e-08,0,-3.2498750458284467e-09,2.0
157,157,7827.7437,376380.38,128045.164,397564.78,-18.78838,106.67291914668749,-0.005318588,-5.1356017e-07,0.00015878897,1.6471415e-05,2.0,42,0.0216086,5.43524e-08,0,-3.334733824293279e-09,2.0
158,158,6770.8345,382748.88,123460.13,402168.0,-17.877714,107.21142234557192,-0.005406865,5.4714025e-07,0.00019039311,1.7942777e-05,2.0,42,0.021523744,5.3519287e-08,0,-3.311574938764784e-09,2.0
159,159,5860.798,416956.25,112695.58,431917.6,-15.124609,108.04599313190556,-0.0053722286,-3.7047457e-08,0.0002409664,1.6404707e-05,2.0,43,0.021354763,4.9441752e-08,0,-3.3084697536840773e-09,2.0
160,160,5071.625,427586.4,99545.54,439021.0,-13.105475,108.72668135092681,-0.0054306765,-4.768111e-08,0.0003152472,1.6207805e-05,2.0,43,0.021376679,4.86917e-08,0,-3.3306326805627604e-09,2.0
161,161,4388.5933,438736.6,85477.33,446985.66,-11.024609,109.40682063656277,-0.0052525573,-9.060688e-08,0.0004242715,1.5515243e-05,2.0,43,0.02151376,4.813076e-08,0,-3.3285872547137933e-09,2.0
162,162,3798.7827,442102.12,76088.8,448602.03,-9.7653265,110.08682800219685,-0.0053563733,-3.717773e-08,0.0005506238,1.5840684e-05,2.0,43,0.021423409,4.7755933e-08,0,-3.3283783244035063e-09,2.0
163,163,3286.0488,446619.1,64520.58,451255.5,-8.220331,110.76672318115743,-0.005371558,-3.7457042e-08,0.00075066794,1.5346148e-05,2.0,43,0.021476885,4.7593627e-08,0,-3.335333308860587e-09,2.0
164,164,2844.088,445682.03,58429.76,449495.84,-7.4689884,111.44680892012548,-0.0053406293,-5.4981154e-08,0.00095772976,1.618303e-05,2.0,43,0.021350145,4.749798e-08,0,-3.345029665584661e-09,2.0
165,165,2460.7852,447099.03,49804.367,449864.44,-6.3562293,112.12671439241967,-0.005333773,-8.8390614e-08,0.0012986108,1.5916608e-05,2.0,43,0.021359162,4.747911e-08,0,-3.3431835268153962e-09,2.0
166,166,2129.3164,448117.88,41156.81,450003.9,-5.247535,112.8058332780056,-0.005312868,-5.8277273e-08,0.0018160937,1.51910945e-05,2.0,43,0.021340588,4.7423118e-08,0,-3.341077183167155e-09,2.0
167,167,1843.2289,433458.94,43456.734,435631.88,-5.725099,113.48598037695047,-0.00533245,-9.4405635e-08,0.0019869355,1.9772366e-05,2.0,43,0.020859793,4.788399e-08,0,-3.3332118446908323e-09,2.0
168,168,1594.4913,451660.0,26446.475,452433.62,-3.3510675,114.16580808926665,-0.0054465136,-2.9597878e-08,0.003774246,1.2896029e-05,2.0,43,0.021483136,4.748351e-08,0,-3.3195089954043656e-09,2.0
169,169,1380.4436,450716.2,19502.104,451137.9,-2.477594,114.84570956156676,-0.0054013315,-2.186932e-08,0.005911804,1.1047507e-05,2.0,43,0.02149035,4.763588e-08,0,-3.325778625426428e-09,2.0
170,170,1194.6187,449142.88,14244.258,449368.7,-1.8164876,115.52584167386522,-0.005459183,-1.3191032e-08,0.0093530025,9.397775e-06,2.0,43,0.021538578,4.793075e-08,0,-3.34449462169073e-09,2.0
171,171,1033.3434,448800.44,11079.765,448937.2,-1.4142027,116.20607183949323,-0.005430751,-5.9094343e-09,0.0139009645,8.467103e-06,2.0,43,0.021533823,4.7966225e-08,0,-3.3461335515564282e-09,2.0
172,172,894.71045,449503.5,10082.76,449616.56,-1.2849793,116.88581021846039,-0.005378824,-6.6601324e-08,0.017642424,8.872223e-06,2.0,43,0.02162535,4.8097316e-08,0,-3.3813924379348937e-09,2.0
173,173,774.2569,443647.6,7342.0986,443708.34,-0.9481239,117.56596582409111,-0.005417951,-2.218557e-08,0.027997214,7.665846e-06,2.0,43,0.021478908,4.8407717e-08,0,-3.3811945412985316e-09,2.0
174,174,669.7856,445419.44,2726.9038,445427.78,-0.35076627,118.24583284305118,-0.0053826813,-9.989886e-08,0.0871394,3.2658752e-06,2.0,43,0.0216648,4.863819e-08,0,-3.3662849674808025e-09,2.0
175,175,579.81464,441867.47,1066.0897,441868.75,-0.13823675,118.92584444869135,-0.005334928,-4.7158753e-08,0.25747627,1.4987809e-06,2.0,43,0.021621691,4.893238e-08,0,-3.4119053558125943e-09,2.0
176,176,501.44418,438598.72,1548.7448,438601.47,-0.20231743,119.60319984084344,-0.0053753587,-6.626584e-08,0.20493573,2.5552724e-06,2.0,43,0.021577613,4.91964e-08,0,-3.4625691063348255e-09,2.0
177,177,434.02762,440239.72,-321.43546,440239.84,0.041833777,120.2832358997839,-0.005403511,-8.419964e-08,-1.1407987,-6.0816e-07,2.0,43,0.021713257,4.9321425e-08,0,-3.4411889093965727e-09,2.0
178,178,375.6009,434614.53,2459.2078,434621.5,-0.324197,120.96244134535664,-0.0053953133,-7.194581e-08,0.17230517,5.516534e-06,2.0,43,0.02156643,4.9621175e-08,0,-3.4121189172400996e-09,2.0
179,179,325.10385,433260.38,246.31479,433260.44,-0.032573476,121.6416807910282,-0.005420578,-7.088419e-08,1.9875017,6.423777e-07,2.0,43,0.021577837,4.9803386e-08,0,-3.373317516345632e-09,2.0
180,180,281.3503,432286.66,4159.439,432306.66,-0.5512799,122.31880127651675,-0.00539727,-4.6059903e-08,0.13599971,1.258994e-05,2.0,43,0.021592394,4.9946937e-08,0,-3.346692728284263e-09,2.0
181,181,243.36427,435143.8,17780.525,435506.94,-2.3398762,123.22408649281715,-0.00540925,-2.0490695e-08,0.036780592,6.1308085e-05,2.0,43,0.01981305,4.549422e-08,0,-3.355632805982451e-09,2.0
182,182,210.60631,434882.7,5104.6704,434912.66,-0.6725093,123.90120359163848,-0.005151536,-2.0275313e-07,0.14804067,2.0394467e-05,2.0,43,0.019853435,4.5649248e-08,0,-3.4125511292650844e-09,2.0
183,183,182.27473,432288.84,4721.4014,432314.62,-0.62575203,124.5732848769112,-0.005402971,-7.211335e-08,0.18493654,2.2057928e-05,2.0,43,0.019770505,4.5731753e-08,0,-3.3797584716509635e-09,2.0
184,184,157.72879,434449.75,9399.68,434551.44,-1.2394482,125.2616565896351,-0.0053344993,-9.6472164e-08,0.107348524,5.02273e-05,2.0,43,0.019869985,4.5725276e-08,0,-3.440566160171151e-09,2.0
185,185,136.52892,432203.9,9755.93,432314.0,-1.2930903,125.93351000818075,-0.0054031573,-7.2690675e-08,0.119488694,6.0850696e-05,2.0,43,0.01977558,4.574356e-08,0,-3.3990830951017168e-09,2.0
186,186,118.14758,432817.34,9442.254,432920.3,-1.2497547,126.62191705423174,-0.005307409,-1.0390264e-07,0.14266571,6.786644e-05,2.0,43,0.019796684,4.5728243e-08,0,-3.4341034088525537e-09,2.0
187,187,102.25773,432117.0,15098.18,432380.7,-2.001102,127.28832668586983,-0.0052439678,-1.2535627e-07,0.103085935,0.00012569442,2.0,43,0.019739721,4.5653568e-08,0,-3.434977904783433e-09,2.0
188,188,88.4436,432763.47,16890.023,433092.94,-2.2350228,127.97831253198092,-0.0053037014,-1.05783634e-07,0.10654264,0.00016203981,2.0,43,0.019769572,4.564741e-08,0,-3.454772166183679e-09,2.0
189,189,76.54279,439151.8,16266.913,439453.0,-2.121361,128.6457433370233,-0.0053647016,-7.6061426e-08,0.12782349,0.00017514433,2.0,43,0.020010386,4.5534758e-08,0,-3.459777008251767e-09,2.0
190,190,66.250786,435628.47,22111.162,436189.25,-2.905664,129.31398003542563,-0.0053664157,-6.3453705e-08,0.108646944,0.00027918414,2.0,43,0.019836936,4.547782e-08,0,-3.457844933551341e-09,2.0
191,191,57.329906,435707.28,24954.559,436421.3,-3.277959,129.9686308132059,-0.005337816,-4.6469648e-08,0.11124718,0.00036372815,2.0,43,0.019836567,4.5452794e-08,0,-3.5001786060788248e-09,2.0
192,192,49.60321,434083.6,27782.043,434971.72,-3.662027,130.6533748456568,-0.0055054273,5.860753e-09,0.115490474,0.0004711427,2.0,43,0.019694965,4.5278725e-08,0,-3.5399484477432402e-09,2.0
193,193,42.92585,441404.5,31560.883,442531.38,-4.0897484,131.3614282659546,-0.005397866,-7.6154556e-08,0.11747679,0.0005975335,2.0,43,0.019923847,4.502245e-08,0,-3.500650258781299e-09,2.0
194,194,37.1518,437411.2,38621.176,439112.9,-5.04584,132.00515957656899,-0.005437738,-3.419718e-08,0.11092126,0.0008580516,2.0,43,0.019740405,4.495519e-08,0,-3.4771032047954767e-09,2.0
195,195,32.150223,441032.66,44854.9,443307.75,-5.8072567,132.6443971268891,-0.005484038,6.3449366e-09,0.1103637,0.0011298879,2.0,43,0.019793436,4.4649425e-08,0,-3.5821385521632967e-09,2.0
196,196,27.835518,437084.94,52928.85,440278.0,-6.9046197,133.37131678810692,-0.0053202556,-1.1436873e-07,0.10802601,0.0015612028,2.0,43,0.019620866,4.4564718e-08,0,-3.542962105264305e-09,2.0
197,197,24.082958,444669.5,53175.074,447837.66,-6.8192396,134.07340647481033,-0.0053198924,-1.2027223e-07,0.12428027,0.0017521739,2.0,43,0.01976484,4.413394e-08,0,-3.6136340017390733e-09,2.0
198,198,20.833313,447102.75,60537.49,451182.5,-7.7109265,134.72776007924404,-0.0054152682,-6.743907e-08,0.12619361,0.0022718606,2.0,43,0.019768517,4.3814904e-08,0,-3.720825094319899e-09,2.0
199,199,18.021912,451886.34,68416.4,457036.2,-8.609298,135.4737301946734,-0.00492666,-5.0292647e-07,0.12908004,0.0028925329,2.0,43,0.019805796,4.333529e-08,0,-3.6074000311114604e-09,2.0
200,200,15.604198,456633.97,76092.875,462930.56,-9.460761,136.12900102577987,-0.005340145,-7.142435e-08,0.13404009,0.0036215207,2.0,43,0.019849235,4.287735e-08,0,-3.566745681110644e-09,2.0
201,201,13.500899,458238.3,87280.016,466476.3,-10.783879,136.87701527465833,-0.005349936,-8.14807e-08,0.13506494,0.0047283876,2.0,43,0.019790018,4.2424485e-08,0,-3.6080748802642178e-09,2.0
202,202,11.686608,460909.16,105549.2,472840.22,-12.898455,137.46789079604787,-0.0053764954,-2.7101855e-08,0.12902585,0.0064292126,2.0,43,0.019797865,4.1870095e-08,0,-3.528551446794327e-09,2.0
203,203,10.113269,467274.3,106086.484,479165.56,-12.791181,138.14154704133398,-0.0054590525,5.2833653e-09,0.1483435,0.0072713904,2.0,43,0.019742806,4.1202473e-08,0,-3.4658371866532386e-09,2.0
204,204,8.748621,476273.9,120733.52,491338.4,-14.22461,138.90837790441583,-0.005466915,2.5954774e-08,0.15067896,0.009098021,2.0,43,0.019869663,4.0439872e-08,0,-3.779499856204207e-09,2.0
205,205,7.570237,479205.97,132530.72,497194.88,-15.459484,139.78400562604656,-0.0053520505,-9.278492e-08,0.1586332,0.011271297,2.0,43,0.019744977,3.9712752e-08,0,-3.730676630902356e-09,2.0
206,206,6.554112,487828.9,145825.75,509158.3,-16.642881,140.32029711818905,-0.0054333783,7.930932e-08,0.16652218,0.013659501,2.0,43,0.019776996,3.884253e-08,0,-3.5504711655015194e-09,2.0
207,207,5.669445,497987.38,149131.31,519838.03,-16.671278,140.93012005378841,-0.005558155,-2.469957e-08,0.1882395,0.015492173,2.0,43,0.019735962,3.79656e-08,0,-3.7805392698676926e-09,2.0
208,208,4.907347,505750.47,180791.66,537093.25,-19.670551,141.622562620003,-0.0053741294,-4.097608e-08,0.17938866,0.020326018,2.0,43,0.01983463,3.6929585e-08,0,-3.7817946450003296e-09,2.0
209,209,4.245922,513946.1,198479.11,550939.7,-21.115894,142.410287270759,-0.005403269,-4.6255686e-08,0.1888571,0.024510648,2.0,43,0.01981081,3.595822e-08,0,-3.3847641592560992e-09,2.0
210,210,3.6747382,522207.94,220908.47,567011.2,-22.929712,143.30991352687124,-0.0053653163,-1.2082187e-07,0.19605654,0.029759308,2.0,43,0.019763786,3.485608e-08,0,-4.033757376985574e-09,2.0
211,211,3.180988,534842.44,243657.62,587729.06,-24.492538,144.33819984234287,-0.0053691547,-3.1767193e-08,0.20534213,0.035292607,2.0,43,0.019784406,3.366246e-08,0,-3.982557946933128e-09,2.0
212,212,2.752818,544919.75,270347.4,608297.0,-26.387083,145.51712059168494,-0.0053237486,-3.9721485e-08,0.21385549,0.04224093,2.0,43,0.01980939,3.2565325e-08,0,-3.3188589049281e-09,2.0
