True,index,freq,Re(Z),Im(Z),Z,Phase(Z),time,Ewe_meas,I_meas,Cs,Cp,cycle_number,I_Range,Ewe,I,Ns,(QQo),cycle
0,0,7000018.5,144.00185,2300.6653,2305.1675,-86.41845,2.466494623775361,-0.02612556,3.3631884e-05,9.882516e-06,9.8439505e-06,1.0,40,0.00972335,4.218067e-06,0,-3.892139140589279e-09,1.0
1,1,6057573.0,246.3475,2467.3088,2479.5767,-84.298225,3.0184780900308397,-0.026032923,-1.8487111e-06,1.0648734e-05,1.0543625e-05,1.0,40,0.013662681,5.510086e-06,0,-4.643766108680817e-09,1.0
2,2,5242039.0,239.26424,2648.0305,2658.8179,-84.83703,3.4344972297840286,-0.026063144,8.309825e-06,1.1465603e-05,1.1372756e-05,1.0,40,0.018845618,7.0879687e-06,0,-6.0434575954483686e-09,1.0
3,3,4536288.0,479.43573,3148.1096,3184.4077,-81.340775,4.802483214734821,-0.026034506,9.500589e-06,1.1144733e-05,1.089211e-05,1.0,40,0.02135584,6.706377e-06,0,-3.724779808357602e-09,1.0
4,4,3925558.5,440.5935,3598.2756,3625.1497,-83.01913,5.218484327808255,-0.026143465,5.7372257e-05,1.1267414e-05,1.1100978e-05,1.0,40,0.019480757,5.3737804e-06,0,-2.1971571715969023e-09,1.0
5,5,3397055.0,388.86765,3795.7637,3815.631,-84.15058,5.634482214256423,-0.026069162,-6.266971e-05,1.2342934e-05,1.2214732e-05,1.0,40,0.020631516,5.4071047e-06,0,-6.7896634277404806e-09,1.0
6,6,2939708.2,313.49518,4710.724,4721.144,-86.19262,6.186486187129049,-0.02599102,-3.796175e-05,1.14928625e-05,1.1442187e-05,1.0,40,0.020649962,4.373932e-06,0,-1.0265662234903378e-08,1.0
7,7,2543924.5,453.16248,5004.296,5024.772,-84.825714,6.7384808266942855,-0.026015613,-2.3914708e-05,1.25018105e-05,1.2400128e-05,1.0,40,0.02035309,4.05055e-06,0,-9.525656209941897e-09,1.0
8,8,2201436.2,898.4725,6833.6,6892.412,-82.50979,7.457491874200059,-0.025916567,-1.962432e-05,1.05794825e-05,1.0399707e-05,1.0,41,0.020269576,2.9408538e-06,0,-1.1280299421222316e-08,1.0
9,9,1905053.1,-16.640072,7705.4375,7705.4556,-90.12373,8.009483233763603,-0.026240854,7.692009e-06,1.0842158e-05,1.0842107e-05,1.0,41,0.020639174,2.6785144e-06,0,-1.0713633398834884e-08,1.0
10,10,1648567.4,474.34982,8240.371,8254.013,-86.70545,8.562488246680005,-0.026055412,1.0533374e-06,1.1715657e-05,1.1676964e-05,1.0,41,0.019791184,2.3977652e-06,0,-1.0850266729758258e-08,1.0
11,11,1426616.2,255.37268,9730.993,9734.344,-88.49672,9.11449853956583,-0.026103761,2.8652362e-06,1.1464518e-05,1.1456627e-05,1.0,41,0.02065431,2.121798e-06,0,-9.90097137381459e-09,1.0
12,12,1234551.2,441.66452,10570.672,10579.895,-87.60745,9.666502912441501,-0.025961395,-1.5691381e-05,1.2195747e-05,1.2174493e-05,1.0,41,0.020531181,1.9405848e-06,0,-1.0302835020038654e-08,1.0
13,13,1068345.5,1702.9304,11630.15,11754.164,-81.66973,10.218495418637758,-0.02605733,-4.4009876e-06,1.28092315e-05,1.2540368e-05,1.0,41,0.021053867,1.7911838e-06,0,-1.1999429167196417e-08,1.0
14,14,924510.06,657.7509,14132.577,14147.875,-87.3353,10.770482751569944,-0.026214471,6.7162277e-06,1.2181117e-05,1.2154789e-05,1.0,41,0.020346817,1.4381535e-06,0,-1.1522499176506212e-08,1.0
15,15,800039.0,2101.2273,10670.928,10875.838,-78.86033,11.322499391069869,-0.026140371,2.5970828e-06,1.8642613e-05,1.7946744e-05,1.0,41,0.019725297,1.8136807e-06,0,-1.1943905478410165e-08,1.0
16,16,692334.1,1864.3684,18681.215,18774.016,-84.300804,11.87448280400713,-0.02607393,-4.391674e-06,1.2305501e-05,1.2184148e-05,1.0,41,0.020247387,1.0784793e-06,0,-1.3752659313722246e-08,1.0
17,17,599122.25,86.32438,21477.158,21477.332,-89.76971,12.427492030226858,-0.026349382,1.31742645e-05,1.2368809e-05,1.2368609e-05,1.0,41,0.020614605,9.598308e-07,0,-1.3368665610357767e-08,1.0
18,18,518454.94,1407.9624,25492.047,25530.898,-86.838684,12.979500403132988,-0.02601608,-6.339517e-06,1.204216e-05,1.2005537e-05,1.0,41,0.020466069,8.016196e-07,0,-1.3504580044384163e-08,1.0
19,19,448662.03,1420.2594,30204.16,30237.533,-87.30782,13.531500162702287,-0.026323,1.5971256e-05,1.1744487e-05,1.1718576e-05,1.0,41,0.020126125,6.6560074e-07,0,-1.3236757383815245e-08,1.0
20,20,388258.97,3652.8408,37749.215,37925.54,-84.47292,14.083484295551898,-0.02597878,-1.4963265e-05,1.0859022e-05,1.0758285e-05,1.0,41,0.021421663,5.6483475e-07,0,-1.3873968262228371e-08,1.0
21,21,335983.9,4242.6226,36513.723,36759.375,-83.372375,14.635484188474948,-0.026031563,-6.8981713e-06,1.29731525e-05,1.280034e-05,1.0,41,0.020220634,5.50081e-07,0,-1.3063816020222577e-08,1.0
22,22,290751.2,1842.8961,43512.996,43552.004,-87.574814,15.187502134678653,-0.02610581,-2.2334066e-06,1.2579972e-05,1.2557446e-05,1.0,41,0.020498985,4.7067837e-07,0,-1.1832150349360089e-08,1.0
23,23,251605.19,3684.0159,49491.95,49628.87,-85.74294,15.739494747569552,-0.02615593,-1.1238928e-07,1.27810345e-05,1.2710608e-05,1.0,41,0.020478982,4.1264252e-07,0,-1.3228156900673583e-08,1.0
24,24,217729.38,5857.047,57196.723,57495.83,-84.15319,16.458502115070587,-0.026299488,-8.186396e-07,1.2780032e-05,1.264741e-05,1.0,42,0.019488819,3.3896058e-07,0,-1.4054330233825457e-08,1.0
25,25,188418.58,4434.894,67207.16,67353.32,-86.22462,16.87449613478384,-0.026025992,-3.1747163e-06,1.25684255e-05,1.2513935e-05,1.0,42,0.021649294,3.2142876e-07,0,-1.4342758174884038e-08,1.0
26,26,163051.14,5568.2695,74239.0,74447.53,-85.71058,17.426495921012247,-0.026291698,-7.398554e-07,1.31481365e-05,1.3074582e-05,1.0,42,0.0206232,2.7701657e-07,0,-1.4691991198174314e-08,1.0
27,27,141098.2,6686.9272,87980.52,88234.27,-85.65361,17.978485573927173,-0.02634616,-8.646435e-07,1.282071e-05,1.2747075e-05,1.0,42,0.0203216,2.3031413e-07,0,-1.4980604384545417e-08,1.0
28,28,122105.11,9035.709,95106.055,95534.32,-84.57281,18.39448516702396,-0.02613357,-2.4602575e-06,1.3704972e-05,1.3582373e-05,1.0,42,0.021816447,2.2836241e-07,0,-1.5289150229238344e-08,1.0
29,29,105663.59,1284.8076,114822.34,114829.53,-89.35892,18.94648108657566,-0.026085557,-2.7059227e-06,1.3118021e-05,1.311638e-05,1.0,42,0.020177342,1.7571561e-07,0,-1.570756468721542e-08,1.0
30,30,91439.65,10799.872,127785.875,128241.44,-85.169106,19.362502119649434,-0.02636209,-3.5208032e-07,1.3620804e-05,1.35242035e-05,1.0,42,0.021389142,1.6678807e-07,0,-1.6090538274090842e-08,1.0
31,31,79127.08,16210.055,152529.33,153388.27,-83.93366,19.914487559202826,-0.025790002,-5.025122e-06,1.3186867e-05,1.3039595e-05,1.0,42,0.02015604,1.3140536e-07,0,-1.6476909408818162e-08,1.0
32,32,68475.36,26431.898,169419.08,171468.56,-81.13249,20.330479738971917,-0.02605653,-2.9318448e-06,1.3719033e-05,1.3393038e-05,1.0,42,0.02098761,1.2239917e-07,0,-1.674897089158403e-08,1.0
33,33,59252.523,31465.248,197473.03,199964.14,-80.946625,20.746487492026063,-0.02624158,-1.4105453e-06,1.3602085e-05,1.3265292e-05,1.0,42,0.021712298,1.08580956e-07,0,-1.7024452307981788e-08,1.0
34,34,51282.285,29515.482,227887.61,229791.05,-82.62026,21.29850370492204,-0.026027892,-3.3730744e-06,1.3618587e-05,1.3393907e-05,1.0,42,0.020208083,8.7941125e-08,0,-1.7394408022112008e-08,1.0
35,35,44369.8,54476.68,263077.78,268658.94,-78.30086,21.71450057803304,-0.02632341,-7.730079e-07,1.363479e-05,1.3074173e-05,1.0,42,0.020607922,7.6706634e-08,0,-1.766520794504246e-08,1.0
36,36,38403.727,57324.94,290361.0,295965.62,-78.83192,22.130482357781148,-0.026087886,-2.7129997e-06,1.4272777e-05,1.3737335e-05,1.0,42,0.02077341,7.018859e-08,0,-1.795555537606239e-08,1.0
37,37,33226.32,90743.74,354222.03,365660.6,-75.63112,22.5465019508556,-0.026039593,-3.0320484e-06,1.3522666e-05,1.2689869e-05,1.0,42,0.021111049,5.7734e-08,0,-1.8136615129701105e-08,1.0
38,38,28754.086,118126.21,400395.75,417457.25,-73.5627,22.96248765065684,-0.02615334,-1.6081581e-06,1.3823917e-05,1.2717039e-05,1.0,42,0.021259554,5.0926303e-08,0,-1.860434343785099e-08,1.0
39,39,24884.947,121911.914,436187.1,452903.62,-74.38461,23.378488470363664,-0.026139775,-2.844493e-06,1.4662587e-05,1.3600179e-05,1.0,42,0.021205956,4.6822226e-08,0,-1.881381815506986e-08,1.0
40,40,21553.963,200545.97,452098.94,494582.78,-66.07847,23.961494524759473,-0.026071696,-2.5464471e-06,1.6332757e-05,1.3647355e-05,1.0,43,0.020812433,4.208079e-08,0,-1.917246420370712e-08,1.0
41,41,18631.234,194822.75,552610.0,585946.9,-70.57989,24.377499504509615,-0.026139757,-2.4307617e-06,1.545823e-05,1.3749305e-05,1.0,43,0.020751223,3.5414853e-08,0,-1.9450547878406016e-08,1.0
42,42,16126.037,242407.03,609016.0,655485.8,-68.29593,24.79348861760809,-0.02596624,-2.5784414e-06,1.620555e-05,1.39892545e-05,1.0,43,0.020439586,3.1182346e-08,0,-1.9722516459894694e-08,1.0
43,43,13954.87,394363.56,685871.75,791165.4,-60.101894,25.209493197355187,-0.025921337,-2.6322057e-06,1.6628437e-05,1.2496912e-05,1.0,43,0.020515412,2.5930625e-08,0,-2.0004990643481305e-08,1.0
44,44,12080.609,410906.44,726899.44,835001.1,-60.52111,25.625487297103973,-0.025993386,-2.531102e-06,1.8124121e-05,1.3735089e-05,1.0,43,0.019976173,2.3923528e-08,0,-2.0284117226549152e-08,1.0
45,45,10447.592,498404.4,817149.9,957152.5,-58.619724,26.04150083687273,-0.026142124,-2.4748235e-06,1.8642417e-05,1.3587619e-05,1.0,43,0.0194074,2.0276184e-08,0,-2.0555243948696283e-08,1.0
46,46,9045.586,555917.6,894725.6,1053365.2,-58.14618,26.473259684076766,-0.026119746,-2.399047e-06,1.9664982e-05,1.4187809e-05,1.0,43,0.021966597,2.0853731e-08,0,-2.0864196597653584e-08,1.0
47,47,7827.7437,696458.4,864186.94,1109897.9,-51.13425,27.109927154320758,-0.026015446,-2.4870403e-06,2.3527502e-05,1.426347e-05,1.0,43,0.020125333,1.81326e-08,0,-2.1299574586473766e-08,1.0
48,48,6770.8345,747528.7,952597.9,1210884.8,-51.877785,27.648393553186907,-0.02605884,-2.4565359e-06,2.4675635e-05,1.527151e-05,1.0,43,0.019993931,1.6511837e-08,0,-2.1662494959792532e-08,1.0
49,49,5860.798,1041593.75,931357.06,1397262.9,-41.80198,28.254979395365808,-0.02614065,-2.4060118e-06,2.9157292e-05,1.2954581e-05,1.0,43,0.020346299,1.45615395e-08,0,-2.2075654298694897e-08,1.0
50,50,5071.625,1142642.8,947730.5,1484528.8,-39.67298,28.935696707725583,-0.026145756,-2.4291974e-06,3.3112206e-05,1.3495241e-05,1.0,43,0.02032857,1.3693618e-08,0,-2.2528683192619396e-08,1.0
51,51,4388.5933,1169029.4,567043.3,1299295.1,-25.875925,29.615837380028097,-0.026202695,-2.431637e-06,6.39556e-05,1.218135e-05,1.0,43,0.020069044,1.5446101e-08,0,-2.2976064465814646e-08,1.0
52,52,3798.7827,1329610.5,935777.56,1625897.9,-35.137817,30.29580186564999,-0.02620534,-2.3583746e-06,4.477165e-05,1.48307045e-05,1.0,43,0.020197924,1.2422628e-08,0,-2.3428301522900232e-08,1.0
53,53,3286.0488,1511524.8,836693.6,1727646.8,-28.966406,30.97571587128914,-0.026161669,-2.3887671e-06,5.788682e-05,1.3576965e-05,1.0,43,0.020363705,1.1786962e-08,0,-2.3884949330268018e-08,1.0
54,54,2844.088,1555651.8,798028.75,1748399.9,-27.157223,31.65583801025059,-0.026178008,-2.3436066e-06,7.0122696e-05,1.4608786e-05,1.0,43,0.020226361,1.1568498e-08,0,-2.4326432354075698e-08,1.0
55,55,2460.7852,1663993.9,734123.25,1818739.2,-23.806183,32.335685295882286,-0.026042221,-2.4623832e-06,8.8100314e-05,1.4354053e-05,1.0,43,0.02034571,1.1186711e-08,0,-2.4775485776562474e-08,1.0
56,56,2129.3164,1670766.5,736964.2,1826082.4,-23.801962,33.01584394150996,-0.026047008,-2.4602975e-06,0.000101422316,1.651907e-05,1.0,43,0.02006664,1.0988901e-08,0,-2.5229060257928616e-08,1.0
57,57,1843.2289,1892268.5,558874.44,1973073.9,-16.45431,33.69593136047479,-0.025980884,-2.4580443e-06,0.00015449934,1.2395624e-05,1.0,43,0.020515673,1.0397823e-08,0,-2.5688823053515226e-08,1.0
58,58,1594.4913,1884171.5,550400.1,1962916.9,-16.284027,34.37584339277237,-0.02610978,-2.4631656e-06,0.00018135078,1.4258462e-05,1.0,43,0.020395055,1.0390178e-08,0,-2.613902174641187e-08,1.0
59,59,1380.4436,1874552.6,548358.2,1953111.4,-16.305649,35.05569889174512,-0.026087644,-2.425808e-06,0.00021025054,1.6573405e-05,1.0,43,0.020266382,1.037646e-08,0,-2.6588152070009998e-08,1.0
60,60,1194.6187,1891834.8,421284.75,1938174.2,-12.554117,35.735831884041545,-0.026050158,-2.4021754e-06,0.00031623876,1.4941044e-05,1.0,43,0.020286046,1.0466575e-08,0,-2.704271979599154e-08,1.0
61,61,1033.3434,1926985.1,411896.78,1970515.4,-12.065512,36.41607890301384,-0.026254026,-2.3049638e-06,0.0003739272,1.63382e-05,1.0,43,0.020210162,1.0256282e-08,0,-2.748667629573899e-08,1.0
62,62,894.71045,2118522.0,471169.6,2170284.8,-12.53878,37.095846988639096,-0.0259951,-2.4586773e-06,0.00037753777,1.7794322e-05,1.0,43,0.020580228,9.482732e-09,0,-2.7941687852515605e-08,1.0
63,63,774.2569,1870779.9,511750.25,1939511.8,-15.298939,37.775974300922826,-0.026140988,-2.4082838e-06,0.00040167704,2.7964581e-05,1.0,43,0.019876286,1.0248088e-08,0,-2.8383853068844622e-08,1.0
64,64,669.7856,2033624.8,285297.56,2053539.5,-7.985915,38.45583747990895,-0.026128616,-2.4202025e-06,0.0008328874,1.6075937e-05,1.0,43,0.020405857,9.93692e-09,0,-2.8838733671920617e-08,1.0
65,65,579.81464,2003329.4,282208.9,2023109.1,-8.018491,39.13582231219334,-0.02595411,-2.4774492e-06,0.0009726582,1.8926185e-05,1.0,43,0.020193402,9.98137e-09,0,-2.9299306057182673e-08,1.0
66,66,501.44418,2037201.9,242093.1,2051536.1,-6.777024,39.81317941102316,-0.02627398,-2.2150712e-06,0.0013110376,1.8256671e-05,1.0,43,0.02027777,9.884189e-09,0,-2.9747507424714216e-08,1.0
67,67,434.02762,2055146.9,239835.1,2069093.9,-6.6562943,40.4931969899626,-0.02605735,-2.4075016e-06,0.0015289385,2.0542586e-05,1.0,43,0.02032679,9.824006e-09,0,-3.015207359413393e-08,1.0
68,68,375.6009,2069193.0,231943.14,2082152.1,-6.3957872,41.17243696891819,-0.026160307,-2.352955e-06,0.0018268883,2.2669929e-05,1.0,43,0.020363543,9.780046e-09,0,-3.058983094353509e-08,1.0
69,69,325.10385,2054528.6,239114.47,2068396.4,-6.638452,41.85168577453442,-0.026176052,-2.352266e-06,0.0020473504,2.7361275e-05,1.0,43,0.020222474,9.776885e-09,0,-3.102190482092255e-08,1.0
70,70,281.3503,2066129.4,215736.53,2077362.0,-5.9609833,42.528789273361326,-0.026110617,-2.3714476e-06,0.0026220987,2.8279523e-05,1.0,43,0.020259395,9.752463e-09,0,-3.146075593003318e-08,1.0
71,71,243.36427,2005428.1,174981.08,2013047.5,-4.9866414,43.21210725247511,-0.02619677,-2.3554692e-06,0.0037374229,2.8238808e-05,1.0,43,0.02002598,9.948091e-09,0,-3.191658881443546e-08,1.0
72,72,210.60631,2086090.5,188926.28,2094628.0,-5.1748614,43.889167684625136,-0.026123734,-2.4364604e-06,0.0039999667,3.2540735e-05,1.0,43,0.020290127,9.686745e-09,0,-3.2380403453241635e-08,1.0
73,73,182.27473,2071906.9,197907.2,2081337.4,-5.4563017,44.561266223172424,-0.026015893,-2.4317487e-06,0.0044119647,3.9890572e-05,1.0,43,0.020200048,9.705321e-09,0,-3.2818877106629095e-08,1.0
74,74,157.72879,2082083.1,199016.44,2091573.0,-5.460043,45.24962694926944,-0.026128989,-2.4050807e-06,0.005070143,4.590416e-05,1.0,43,0.02018524,9.650746e-09,0,-3.3279389428369785e-08,1.0
75,75,136.52892,2098313.2,172212.19,2105368.2,-4.691848,45.921510847780155,-0.026141044,-2.343923e-06,0.00676911,4.5290093e-05,1.0,43,0.020250613,9.618561e-09,0,-3.371799510677399e-08,1.0
76,76,118.14758,2093316.0,207843.44,2103609.0,-5.6702614,46.6099251738633,-0.026112834,-2.3436437e-06,0.006481253,6.327055e-05,1.0,43,0.0201949,9.60012e-09,0,-3.418865651890061e-08,1.0
77,77,102.25773,2080098.6,182717.34,2088108.2,-5.020017,47.276331952161854,-0.026187008,-2.2864713e-06,0.008518129,6.522254e-05,1.0,43,0.020026138,9.590565e-09,0,-3.461782553995442e-08,1.0
78,78,88.4436,2129784.8,207450.53,2139864.2,-5.563314,47.96526766489842,-0.026074117,-2.347033e-06,0.008674394,8.152593e-05,1.0,43,0.020207139,9.443188e-09,0,-3.507157315358445e-08,1.0
79,79,76.54279,2160315.2,178926.42,2167712.2,-4.7346716,48.63174108324165,-0.026102606,-2.3597152e-06,0.011620942,7.917481e-05,1.0,43,0.020337708,9.3821075e-09,0,-3.5507539741324875e-08,1.0
80,80,66.250786,2170489.5,225941.03,2182217.8,-5.942903,49.29999879497336,-0.026107598,-2.377202e-06,0.010632466,0.00011397984,1.0,43,0.02033832,9.320023e-09,0,-3.594109395300816e-08,1.0
81,81,57.329906,2193196.0,227452.88,2204958.8,-5.920888,49.95462858607789,-0.02612025,-2.3912996e-06,0.012205273,0.00012987615,1.0,43,0.02036574,9.236335e-09,0,-3.63815358661439e-08,1.0
82,82,49.60321,2186819.8,224453.73,2198308.5,-5.860279,50.640385231905384,-0.025995715,-2.3822677e-06,0.014294978,0.00014902526,1.0,43,0.020250628,9.211913e-09,0,-3.6832074194500184e-08,1.0
83,83,42.92585,2157265.8,211132.11,2167573.0,-5.5897493,51.348409905534936,-0.026083006,-2.409904e-06,0.017560909,0.00016661269,1.0,43,0.020152833,9.297419e-09,0,-3.728432810125919e-08,1.0
84,84,37.1518,2186845.0,222201.3,2198104.8,-5.801807,51.99217633614899,-0.026158612,-2.3498264e-06,0.01927941,0.00019701084,1.0,43,0.020153176,9.168433e-09,0,-3.770107019903716e-08,1.0
85,85,32.150223,2225921.5,305831.94,2246833.2,-7.823209,52.63139727318776,-0.026058616,-2.427931e-06,0.016186513,0.00029990057,1.0,43,0.020198245,8.98965e-09,0,-3.8140628578710106e-08,1.0
86,86,27.835518,2257569.2,365787.0,2287011.0,-9.203476,53.359300614421954,-0.026117697,-2.3356918e-06,0.015631208,0.00039986425,1.0,43,0.02033709,8.892432e-09,0,-3.860494151545406e-08,1.0
87,87,24.082958,2311314.5,319887.38,2333345.8,-7.879715,54.06138248773641,-0.025900228,-2.4779706e-06,0.020659186,0.00038828375,1.0,43,0.020417891,8.750479e-09,0,-3.908169603413247e-08,1.0
88,88,20.833313,2297863.5,312484.1,2319013.2,-7.7440906,54.71574227887322,-0.026093923,-2.373943e-06,0.024447467,0.00044389805,1.0,43,0.020213608,8.716469e-09,0,-3.9522373979155725e-08,1.0
89,89,18.021912,2358771.8,377734.44,2388825.5,-9.098115,55.46171471431444,-0.026167594,-2.4637613e-06,0.023379365,0.00058457063,1.0,43,0.020413354,8.545352e-09,0,-4.0051964804855625e-08,1.0
90,90,15.604198,2363432.8,391670.0,2395666.8,-9.409586,56.11703010540805,-0.026067521,-2.360367e-06,0.026041042,0.0006960592,1.0,43,0.020341186,8.490824e-09,0,-4.0464752108510736e-08,1.0
91,91,13.500899,2377320.2,425791.12,2415150.0,-10.154324,56.863990247569745,-0.02615076,-2.3319485e-06,0.02768604,0.0008605296,1.0,43,0.020291498,8.401755e-09,0,-4.094659731310212e-08,1.0
92,92,11.686608,2381418.5,680771.0,2476813.0,-15.95353,57.4548944356211,-0.026185628,-2.3601435e-06,0.020004634,0.0015112846,1.0,43,0.020393252,8.233666e-09,0,-4.1328657823297296e-08,1.0
93,93,10.113269,2418604.5,502871.03,2470329.2,-11.745472,58.12854140091804,-0.026146427,-2.3462321e-06,0.031294785,0.0012968075,1.0,43,0.020244168,8.194927e-09,0,-4.1765233248873376e-08,1.0
94,94,8.748621,2473370.0,526979.0,2528886.2,-12.0276575,58.89641119740554,-0.026020281,-2.4246626e-06,0.034521304,0.0014990469,1.0,43,0.020269873,8.015336e-09,0,-4.232611765290548e-08,1.0
95,95,7.570237,2531874.5,544127.56,2589684.0,-12.129004,59.77198134569335,-0.026133329,-2.3248624e-06,0.03863758,0.0017057596,1.0,43,0.02029719,7.837709e-09,0,-4.2848976325499284e-08,1.0
96,96,6.554112,2553483.5,626617.94,2629244.8,-13.787772,60.307301957771415,-0.025996275,-2.3793623e-06,0.038752835,0.0022011371,1.0,43,0.020298509,7.720281e-09,0,-4.321190026096991e-08,1.0
97,97,5.669445,2394402.2,808333.4,2527165.5,-18.65432,60.91714334671269,-0.02582352,-2.6033401e-06,0.034728743,0.0035530615,1.0,43,0.019842803,7.851802e-09,0,-4.36232186450223e-08,1.0
98,98,4.907347,2634649.5,712497.8,2729291.2,-15.13273,61.609526286280015,-0.026189914,-2.3220225e-06,0.045518693,0.0031021093,1.0,43,0.020253427,7.4207644e-09,0,-4.41238910315509e-08,1.0
99,99,4.245922,2702195.2,751324.75,2804701.0,-15.538183,62.39730315035558,-0.026172064,-2.3171247e-06,0.049890794,0.0035801618,1.0,43,0.020287812,7.2335027e-09,0,-4.450716725025019e-08,1.0
100,100,3.6747382,2771439.5,815545.7,2888943.0,-16.397465,63.296966473106295,-0.026133869,-2.3358314e-06,0.053106222,0.0042321794,1.0,43,0.02030213,7.027529e-09,0,-4.519248013092043e-08,1.0
101,101,3.180988,2816725.2,890979.5,2954282.5,-17.553076,64.3262015353248,-0.026138052,-2.300336e-06,0.05615525,0.005107657,1.0,43,0.02028791,6.8672885e-09,0,-4.5916613723052396e-08,1.0
102,102,2.752818,2883153.2,953987.0,3036884.0,-18.308512,65.50513356467127,-0.02616273,-2.3100727e-06,0.06060384,0.005980378,1.0,43,0.02027592,6.6765544e-09,0,-4.6537899603673824e-08,1.0
103,103,2.3804083,2987052.0,1055822.4,3168160.5,-19.466787,66.85999568234547,-0.026038487,-2.3448665e-06,0.063325375,0.007033074,1.0,43,0.020346465,6.42217e-09,0,-4.734765419054559e-08,1.0
