True,index,freq,Re(Z),Im(Z),Z,Phase(Z),time,Ewe_meas,I_meas,Cs,Cp,cycle_number,I_Range,Ewe,I,Ns,(QQo),THD_Ewe,NSD_Ewe,NSR_Ewe,Ewe_h2,Ewe_h3,Ewe_h4,Ewe_h5,Ewe_h6,Ewe_h7,THD_I,NSD_I,NSR_I,I_h2,I_h3,I_h4,I_h5,I_h6,I_h7,cycle
0,0,7000018.5,178.9264,668.7403,692.2631,-75.02095,2.6124761507089715,-0.17104939,-5.135566e-05,3.3998793e-05,3.1727515e-05,1.0,40,0.011581145,1.6729398e-05,0,-1.5864565779035426e-08,6.4182944,0.14890604,5.2511673,0.00023251478,4.5087796e-05,0.0002638326,0.00065314973,5.676129e-06,7.1906634e-06,22.230257,0.6377701,20.230854,9.549253e-07,2.0465384e-07,6.868962e-07,3.5209712e-06,4.1468045e-08,6.9067625e-08,1.0
1,1,4765894.0,332.11008,903.0004,962.1366,-69.80723,4.0534917391778436,-0.17099315,-6.3896296e-05,3.698178e-05,3.2575434e-05,1.0,40,0.021562554,2.2411115e-05,0,-4.842530758874217e-08,3.1156197,0.10296699,1.6216725,0.00066063524,8.373005e-05,8.1491535e-06,1.7566628e-05,7.8735255e-05,3.555714e-05,10.395909,0.10325895,8.29291,2.2332283e-06,4.362069e-07,4.162072e-08,1.0903768e-07,4.148583e-07,2.2924776e-07,1.0
2,2,3244822.5,505.34314,1225.9395,1326.0088,-67.59811,4.86747567114071,-0.17105882,-6.2983236e-05,4.0009225e-05,3.419837e-05,1.0,40,0.020800991,1.5686917e-05,0,-6.162635076824093e-08,3.90246,0.084244855,1.6221266,0.0007930848,0.0001721677,6.8925606e-06,1.1507327e-05,7.4196373e-06,4.1292915e-06,13.599449,0.27279827,8.158073,2.0984908e-06,3.3293196e-07,1.0562329e-07,8.40892e-08,8.378521e-08,8.4125865e-08,1.0
3,3,2209211.8,764.3833,1587.0133,1761.503,-64.28226,5.681484723143512,-0.17106505,-5.8660124e-05,4.5394394e-05,3.6846526e-05,1.0,40,0.02121797,1.2045378e-05,0,-7.307313316406945e-08,2.1155875,0.061864793,1.5575033,0.00038938862,0.00021157003,6.7910834e-05,1.674039e-05,1.1883897e-05,6.0523716e-06,5.0663624,0.20255525,7.4113216,4.169143e-07,3.5153556e-07,2.4962085e-07,2.4758004e-08,6.7941016e-08,3.9485755e-08,1.0
4,4,1504119.6,1127.8809,2020.9028,2314.3386,-60.83379,6.495482628495665,-0.17107196,-6.188381e-05,5.2359122e-05,3.9923572e-05,1.0,40,0.020909686,9.034843e-06,0,-8.303831828701252e-08,1.1661241,0.07043512,1.5666684,0.00019684948,0.00010153891,9.346825e-05,2.3697206e-05,3.0990668e-05,6.5857084e-06,2.8000932,0.18095659,6.1159134,1.4292878e-07,1.6929991e-07,1.0004279e-07,1.0157911e-07,4.7280892e-08,7.9932725e-08,1.0
5,5,1024068.44,1612.1392,2514.2314,2986.6958,-57.331783,7.309493120497791,-0.17106539,-6.3374515e-05,6.1813866e-05,4.3804062e-05,1.0,40,0.021265525,7.120084e-06,0,-9.001492026120812e-08,0.73743,0.05545957,1.5294924,0.0001268148,5.2228752e-05,6.410521e-05,2.1520867e-05,3.0900123e-05,1.4958568e-05,2.47797,0.1388893,5.5341663,9.5622084e-08,4.7641382e-08,9.1011174e-08,2.519162e-08,1.191489e-07,4.575685e-08,1.0
6,6,697233.1,2243.191,3055.4246,3790.452,-53.715126,8.123489639168838,-0.17106736,-6.589012e-05,7.470859e-05,4.8543567e-05,1.0,40,0.02135273,5.633294e-06,0,-1.0392240248789777e-07,0.45812246,0.096405186,1.5214859,8.2549195e-05,3.4099885e-05,3.4092558e-05,1.2340895e-05,1.5124894e-05,6.3739385e-06,1.8865776,0.16092074,5.767472,5.7345694e-08,3.3677715e-08,4.7823313e-08,3.7853738e-08,3.0935436e-08,3.954204e-08,1.0
7,7,474706.8,3058.706,3654.5876,4765.6787,-50.07236,8.937490691168932,-0.1710819,-6.512613e-05,9.173949e-05,5.3949017e-05,1.0,40,0.021403203,4.491113e-06,0,-1.1151123440269355e-07,0.34432158,0.041893087,1.4973981,5.8553935e-05,2.4270345e-05,2.449578e-05,1.4609394e-05,2.0676653e-05,8.571812e-06,1.4916974,0.15493117,5.7108917,2.7420409e-08,1.3726737e-08,1.5957331e-08,1.991763e-08,2.4775959e-08,4.1334182e-08,1.0
8,8,323198.12,4187.679,4255.016,5970.077,-45.456966,10.052483517414657,-0.1710858,-8.460802e-06,0.0001157311,5.8788533e-05,1.0,41,0.019676184,3.2958008e-06,0,-1.1685414323337935e-07,0.25305587,0.06810713,1.6058606,4.190568e-05,1.4796823e-05,1.6456677e-05,5.214071e-06,1.1496429e-05,6.425089e-06,0.67681664,0.059518125,2.552291,1.063411e-08,9.451177e-09,4.5533817e-09,6.0008856e-09,8.453269e-09,6.004415e-09,1.0
9,9,220049.0,5542.334,4750.534,7299.66,-40.60107,10.86650086278678,-0.17107905,-8.498098e-06,0.00015225034,6.448191e-05,1.0,41,0.020616928,2.8243683e-06,0,-1.1877895084125435e-07,0.19053392,0.06262343,1.551614,3.352235e-05,1.15167195e-05,1.3095644e-05,7.455411e-06,4.724843e-06,4.9202854e-06,0.5030038,0.0822603,2.16265,3.9698835e-09,7.311072e-09,3.8721364e-09,4.0911594e-09,4.3043005e-09,5.62015e-09,1.0
10,10,149820.0,7104.7773,4964.8955,8667.644,-34.946266,11.681478981481632,-0.17107855,-8.015103e-06,0.00021396377,7.020344e-05,1.0,41,0.020813568,2.4012948e-06,0,-1.1877289275808305e-07,0.10552827,0.05170668,1.4992641,1.6499256e-05,8.011647e-06,1.0331956e-05,2.4765966e-06,2.5774384e-06,4.680495e-06,0.48942634,0.06295513,1.8334714,2.0445754e-09,5.31044e-09,2.666432e-09,3.2431369e-09,6.7316903e-09,5.084172e-09,1.0
11,11,101998.59,8741.245,4840.7925,9992.129,-28.977135,12.495482566795545,-0.17106391,-8.34518e-06,0.00032233648,7.5653035e-05,1.0,41,0.020831002,2.084741e-06,0,-1.2177265643560986e-07,0.115419,0.060193293,1.5121199,8.322864e-06,1.27089315e-05,9.185068e-06,3.2306348e-06,6.7821798e-06,1.0883152e-05,0.46903193,0.036004823,1.6135552,2.8739167e-09,2.7027114e-09,1.8773079e-09,4.705678e-09,5.0985416e-09,4.001912e-09,1.0
12,12,69449.59,10157.21,4352.649,11050.541,-23.19649,13.310498445498524,-0.17107967,-8.678985e-06,0.0005264981,8.1684e-05,1.0,41,0.020628842,1.8667721e-06,0,-1.2521098061335403e-07,0.11277582,0.19308966,1.5387557,9.504736e-06,1.1828672e-05,1.2800482e-05,7.884507e-06,5.196251e-06,7.2676376e-06,0.16659398,0.43217143,1.56714,1.1034808e-09,1.1809574e-09,2.152942e-09,8.731034e-10,6.0498245e-10,5.7901695e-10,1.0
13,13,47283.254,11406.119,3921.1353,12061.296,-18.971674,14.124488564179046,-0.17106925,-9.113495e-06,0.00085842225,9.072702e-05,1.0,41,0.020360518,1.6880871e-06,0,-1.2842777511529058e-07,0.10394808,0.023559587,1.5625726,1.26430095e-05,1.0486087e-05,4.8490524e-06,6.075739e-06,6.662085e-06,6.320858e-06,0.19181934,0.07102222,1.4725931,6.5578565e-10,1.6301877e-09,4.985229e-10,1.793667e-09,1.1414162e-09,1.1756892e-09,1.0
14,14,32196.41,12270.864,3416.7573,12737.674,-15.559581,14.93749132278026,-0.17110698,-8.8300385e-06,0.0014467668,0.000104099,1.0,41,0.02021563,1.5870739e-06,0,-1.3106732892551538e-07,0.115243435,0.09777791,1.5717872,5.265996e-06,1.469601e-05,8.639631e-06,1.1461459e-05,3.3180022e-06,6.1252813e-06,0.16905688,0.12669216,1.41134,3.820598e-10,1.2584728e-09,1.0750184e-09,9.420537e-10,1.161792e-09,1.2576465e-09,1.0
15,15,21915.822,12799.312,2998.851,13145.931,-13.1864195,15.616493541718228,-0.17110401,-8.62677e-06,0.0024216282,0.00012601858,1.0,41,0.020872721,1.5877705e-06,0,-1.3336735419197668e-07,0.13107648,0.07818567,1.508909,3.5897397e-06,1.4124439e-05,1.2403678e-05,1.6853088e-05,4.9247074e-06,7.476457e-06,0.13597077,0.11669771,1.3964969,4.3620174e-10,1.1665774e-09,1.0056842e-09,7.3773576e-10,9.661885e-10,3.4615083e-10,1.0
16,16,14919.832,13119.203,2799.478,13414.565,-12.045561,16.295486693939893,-0.17108227,-8.244477e-06,0.0038104749,0.00016595106,1.0,41,0.020653293,1.539617e-06,0,-1.354808485694687e-07,0.15440898,0.06848497,1.5078386,6.5534227e-06,2.0887097e-05,1.4994316e-05,1.1263283e-05,9.14611e-06,6.436769e-06,0.16995914,0.17120215,1.4281536,9.452349e-10,1.3376746e-09,5.8553246e-10,1.0993897e-09,1.3772636e-09,6.213378e-10,1.0
17,17,10159.962,13457.784,2820.7104,13750.213,-11.83766,16.974487526196754,-0.1710855,-8.567099e-06,0.0055535357,0.00023370485,1.0,41,0.019573258,1.4234877e-06,0,-1.3614373187903084e-07,0.16186796,0.04731824,1.6136624,6.6497937e-06,2.0145833e-05,1.7921202e-05,1.0879183e-05,3.966936e-06,8.239006e-06,0.17365296,0.06685474,1.5263555,1.0362089e-09,1.2258945e-09,9.826128e-10,1.0330381e-09,9.36504e-10,3.6541076e-10,1.0
18,18,6916.754,13827.391,3125.2168,14176.167,-12.7358,17.867222795292037,-0.17113397,-6.8141426e-06,0.0073627094,0.00035783293,1.0,41,0.020286294,1.431014e-06,0,-1.3728223046779122e-07,0.12606259,0.080495246,1.5647895,1.0085513e-05,1.6144608e-05,4.4144253e-06,1.2465057e-05,5.313358e-06,4.0285877e-06,0.15251766,0.103166185,1.5110773,8.308271e-10,1.3164285e-09,6.9451783e-10,1.0895734e-09,4.1515505e-10,6.251981e-10,1.0
19,19,4708.491,14349.264,3778.6042,14838.4375,-14.752831,18.63082584492804,-0.17115407,-8.680854e-06,0.008945548,0.0005800874,1.0,41,0.020306425,1.3685016e-06,0,-1.3868910099104268e-07,0.15665725,0.07562345,1.5669738,3.6106997e-06,1.9419835e-05,7.694358e-06,2.1090262e-05,5.32275e-06,8.781324e-06,0.14290532,0.11313329,1.5605364,5.881209e-10,1.1781496e-09,6.1469174e-10,1.0954858e-09,4.5382426e-10,4.496703e-10,1.0
20,20,3206.0295,14827.791,4563.493,15514.15,-17.106596,19.372675320177223,-0.17114973,-8.606259e-06,0.010878154,0.0009412262,1.0,41,0.020300478,1.3085137e-06,0,-1.414346197987268e-07,0.14978296,0.1297982,1.5561266,6.7805554e-06,1.8583303e-05,4.670086e-06,1.6582238e-05,8.534589e-06,9.80581e-06,0.16763975,0.14819363,1.6308409,7.285561e-10,1.2890792e-09,6.7700284e-10,1.285844e-09,5.3234545e-10,4.1240994e-10,1.0
21,21,2182.901,15562.256,5767.531,16596.633,-20.33522,20.116961595515022,-0.17115003,-7.925591e-06,0.01264143,0.001526638,1.0,41,0.020288607,1.2224532e-06,0,-1.4423782535151176e-07,0.15766408,0.11104311,1.5670102,7.5875887e-06,2.125591e-05,6.7799274e-06,1.8990379e-05,6.3454363e-06,6.7597452e-06,0.16210744,0.075609684,1.7553957,5.398429e-10,9.498023e-10,4.720938e-10,1.5183166e-09,2.2553265e-10,3.1426442e-10,1.0
22,22,1486.4281,16556.107,7348.324,18113.602,-23.93374,20.858571924007265,-0.1711558,-7.787591e-06,0.014570952,0.0023980318,1.0,41,0.020278692,1.1195284e-06,0,-1.4487263931556526e-07,0.1477507,0.03493379,1.5780972,5.810349e-06,1.5346626e-05,6.2164886e-06,2.0126467e-05,7.485595e-06,8.560963e-06,0.16839728,0.10614423,1.9338831,2.8760336e-10,7.7563445e-10,2.6198216e-10,1.4577269e-09,4.002428e-10,4.7320087e-10,1.0
23,23,1012.2657,17956.29,9516.074,20322.008,-27.921698,21.60128809264279,-0.17114662,-8.4346975e-06,0.016522197,0.0036228488,1.0,41,0.02026714,9.973e-07,0,-1.4640349181454187e-07,0.16957235,0.08374548,1.5600477,3.0778644e-06,2.1125707e-05,4.648454e-06,2.43162e-05,3.984115e-06,9.628592e-06,0.2336451,0.090602,2.1878707,7.4107187e-10,1.410912e-09,4.3488987e-10,1.4385912e-09,3.3415765e-10,5.308399e-10,1.0
24,24,688.8978,19971.658,12308.195,23459.727,-31.644827,22.34606871471624,-0.17113253,-8.490647e-06,0.018770289,0.0051667066,1.0,41,0.020257257,8.6349075e-07,0,-1.4759692835334842e-07,0.16684632,0.04662547,1.5509247,4.5450633e-06,2.0448135e-05,9.867112e-06,2.0640357e-05,1.1426822e-05,5.660089e-06,0.17150743,0.18814844,2.4773767,4.0305928e-10,9.489868e-10,4.981957e-10,8.133424e-10,1.0870906e-10,3.142116e-10,1.0
25,25,468.94922,22755.598,15068.811,27292.605,-33.51262,23.091205336764688,-0.17113304,-7.808122e-06,0.022522435,0.0068656756,1.0,41,0.020249486,7.4194037e-07,0,-1.4934888665032355e-07,0.1491666,0.034496784,1.5781661,5.163397e-06,2.1719614e-05,2.616433e-06,1.7546778e-05,4.017942e-06,7.05283e-06,0.28781518,0.31495133,2.9373796,5.8594757e-10,1.3809521e-09,6.0513017e-10,1.2384178e-09,2.8319794e-10,4.415135e-10,1.0
26,26,319.28494,26853.201,18703.547,32724.87,-34.85763,24.08918815749348,-0.17112929,-1.0143276e-06,0.02665126,0.008705823,1.0,42,0.02030603,6.205076e-07,0,-1.4959785936883918e-07,0.13350002,0.044055615,1.5666102,3.6578003e-06,1.8305123e-05,4.0985337e-06,1.7608269e-05,1.2704139e-06,6.78453e-06,0.22699279,0.90304554,0.78904206,3.4377134e-10,9.486232e-10,5.438204e-11,9.689206e-10,9.720232e-11,9.382377e-11,1.0
27,27,217.43552,33251.164,25227.893,41738.31,-37.18785,24.829510112671414,-0.17113866,-1.0781106e-06,0.029014071,0.01059988,1.0,42,0.020278197,4.858414e-07,0,-1.5017108033810525e-07,0.1709237,0.028893212,1.5460314,6.8590352e-06,2.481943e-05,4.484748e-06,1.6807497e-05,8.950972e-06,9.583455e-06,0.24424136,0.54164416,0.7940077,3.454129e-10,7.8536494e-10,6.821259e-11,7.885155e-10,8.584719e-11,8.964895e-11,1.0
28,28,148.05719,40085.93,26827.648,48234.887,-33.792557,25.579381268267753,-0.17112537,-1.0833324e-06,0.040068958,0.012395119,1.0,42,0.020255798,4.1994085e-07,0,-1.500650239665491e-07,0.12984371,0.041327998,1.5563112,5.729432e-06,1.8479643e-05,5.344808e-06,1.2813196e-05,6.080729e-06,5.4993525e-06,0.24707505,0.78224,1.1474233,2.403901e-10,6.721599e-10,1.181522e-10,7.2629897e-10,7.8801535e-11,6.517454e-11,1.0
29,29,100.80636,49033.22,30704.53,57853.477,-32.054737,26.319164263404673,-0.17114624,-1.221713e-06,0.051419728,0.014483574,1.0,42,0.020241434,3.498741e-07,0,-1.5055359671459376e-07,0.15586257,0.061265074,1.5597045,8.225074e-06,1.8781027e-05,8.31147e-06,2.0238609e-05,6.6283187e-06,6.812403e-06,0.2773542,0.6507306,1.2408187,2.990873e-10,7.27534e-10,1.2223435e-10,5.069365e-10,1.321684e-10,1.6249965e-10,1.0
30,30,68.616714,57391.52,32561.688,65985.23,-29.568869,27.070775125816,-0.17113279,-9.790873e-07,0.07123334,0.017346174,1.0,42,0.020241417,3.067568e-07,0,-1.5074823958158057e-07,0.17440258,0.052382812,1.5514171,5.315385e-06,2.4409426e-05,6.832089e-06,2.0007203e-05,4.1369613e-06,1.1543598e-05,0.37697262,1.4968175,1.9779167,6.1475613e-10,7.9640416e-10,1.8681179e-10,4.2003256e-10,2.2364531e-10,1.7288912e-10,1.0
31,31,46.71924,71336.07,39816.664,81695.79,-29.168337,27.800376840430545,-0.1711309,-8.864011e-07,0.08555778,0.020323098,1.0,42,0.020239212,2.4773874e-07,0,-1.5111163914671976e-07,0.15220433,0.04213616,1.5644395,3.0316417e-06,1.6355183e-05,8.728658e-06,1.9130235e-05,1.14733775e-05,7.153081e-06,0.42088208,2.100253,1.832873,3.30023e-10,8.3593044e-10,1.6684434e-10,3.4908929e-10,1.9914902e-10,1.0901675e-10,1.0
32,32,31.801239,81317.31,43879.812,92400.99,-28.351841,28.52641031492385,-0.17113613,-1.2963143e-06,0.11405421,0.025720984,1.0,42,0.020232571,2.1896487e-07,0,-1.5135725194190443e-07,0.17307924,0.020089831,1.5903169,4.5637958e-06,2.4734663e-05,1.0831175e-05,1.9763449e-05,2.4540934e-06,8.324326e-06,0.39459726,1.2260106,2.1855524,1.8310428e-10,6.9950695e-10,2.9437938e-10,1.1596277e-10,1.9799719e-10,1.6318195e-10,1.0
33,33,21.656305,101411.64,55505.016,115607.65,-28.692942,29.246470882411813,-0.17112982,-1.643381e-06,0.13240474,0.030520728,1.0,42,0.020236382,1.7504362e-07,0,-1.5206067820345916e-07,0.16349137,0.038254235,1.5451806,2.7234312e-06,2.3557792e-05,4.8294305e-06,1.9804113e-05,8.409448e-06,5.0563253e-06,0.6131059,2.9840543,3.267794,4.455048e-10,4.952467e-10,1.7866453e-10,4.7283094e-10,2.6904867e-10,2.9340566e-10,1.0
34,34,14.74984,99382.305,60906.758,116561.04,-31.502182,30.00014667827054,-0.17113099,-1.0941559e-06,0.17716068,0.048371714,1.0,42,0.02023586,1.7360742e-07,0,-1.5237519701006382e-07,0.15482433,0.03392881,1.5635598,8.048185e-06,2.0429106e-05,4.0404802e-06,1.9091396e-05,4.2753645e-06,6.336256e-06,2.3046749,5.2870274,4.9509478,2.9283898e-09,1.9142938e-09,1.0455673e-09,8.9748536e-10,4.604965e-10,4.614166e-10,1.0
35,35,10.041743,104322.97,74199.984,128019.22,-35.42244,30.99395155214006,-0.17114563,-4.9589386e-07,0.21360292,0.07175703,1.0,43,0.02022576,1.5799003e-07,0,-1.5160922457238178e-07,0.16080292,0.03355342,1.5788798,4.4541903e-06,2.2714088e-05,7.3922015e-06,2.0271988e-05,4.412361e-06,1.9614074e-06,1.760425,2.775043,1.9155761,2.3123454e-09,5.114472e-10,9.951749e-10,7.752831e-10,4.9368937e-10,3.6455963e-10,1.0
36,36,6.8350806,129032.16,97751.27,161878.38,-37.146584,31.901398261863505,-0.17111903,-8.597235e-07,0.23820676,0.086860284,1.0,43,0.02022845,1.2496079e-07,0,-1.5169467580659715e-07,0.1536597,0.03294129,1.0923177,3.2893604e-06,1.7921142e-05,4.4278254e-06,2.3443978e-05,3.9313736e-06,6.2271233e-06,2.1081805,2.1248782,2.3891773,1.8160966e-09,1.3323495e-09,8.586372e-10,6.3825945e-10,5.380205e-10,2.5855673e-10,1.0
37,37,4.6544523,150083.3,130957.98,199185.81,-41.10693,33.05359692990896,-0.17111668,-3.9179386e-07,0.26110762,0.11286692,1.0,43,0.020226507,1.0154592e-07,0,-1.5200826428035125e-07,0.15009727,0.014770428,0.9039027,1.5182047e-06,2.0916581e-05,3.7490786e-06,2.0780575e-05,1.3896465e-06,5.647259e-06,1.1738918,2.573575,1.6696033,7.931117e-10,6.116091e-10,4.5522527e-10,1.4905321e-10,1.8471373e-10,3.472264e-10,1.0
38,38,3.1693728,165412.39,172049.44,238667.69,-46.126724,34.60512687030132,-0.1711103,-3.7518495e-07,0.29187274,0.15167458,1.0,43,0.020229269,8.4759144e-08,0,-1.5152968685773357e-07,0.13174114,0.0313039,0.69825166,2.3541515e-06,1.7947119e-05,4.54753e-06,1.8127053e-05,2.9797664e-06,4.406005e-06,2.3036475,3.1177113,1.9212114,1.4415003e-09,9.986643e-10,3.9068593e-10,6.088296e-10,2.9983283e-10,4.0048478e-10,1.0
39,39,2.1581502,220185.3,232835.58,320459.0,-46.59953,36.755906625825446,-0.17113426,-3.7653209e-07,0.31672996,0.16720253,1.0,43,0.020228771,6.312437e-08,0,-1.5218232113749587e-07,0.13426243,0.036617972,0.54212064,1.780132e-06,1.8685932e-05,2.975291e-06,1.8007968e-05,1.0305284e-06,6.6289094e-06,0.82737744,1.1348357,1.2503438,3.5270098e-10,3.4776815e-10,1.1100207e-10,4.6100807e-11,1.0050301e-10,4.353846e-11,1.0
40,40,1.4679656,280155.5,312071.44,419375.34,-48.084766,39.79586645020754,-0.1711285,-4.429671e-07,0.3474163,0.1923767,1.0,43,0.020233557,4.8246893e-08,0,-1.5277097134068482e-07,0.13353051,0.019949785,0.4488558,1.829674e-06,1.828179e-05,1.766602e-06,1.916831e-05,2.3197608e-06,4.0099117e-06,1.5444261,2.7071257,2.1369424,5.304724e-10,3.8383824e-10,1.07977634e-10,2.3618718e-10,1.0481473e-10,1.9827703e-10,1.0
41,41,1.0000616,346460.16,414736.03,540407.8,-50.125458,44.13898684317246,-0.1711301,-4.0536693e-07,0.38372633,0.226007,1.0,43,0.02023569,3.744522e-08,0,-1.5444651341798338e-07,0.13737594,0.014708314,0.38675454,1.5423827e-06,1.9250134e-05,1.4103276e-06,1.940141e-05,8.141174e-07,4.442484e-06,1.142742,0.987058,2.1066163,2.0892532e-10,2.884687e-10,1.7564632e-10,5.987238e-11,9.070177e-11,5.784694e-11,1.0
