True,index,freq,Re(Z),Im(Z),Z,Phase(Z),time,Ewe_meas,I_meas,Cs,Cp,cycle_number,I_Range,Ewe,I,Ns,(QQo),cycle
110,110,7000018.5,330.3732,1587.5996,1621.61,-78.24474,83.13950154886697,0.0068692556,2.7343269e-05,1.4321218e-05,1.3726794e-05,2.0,40,0.0099962205,6.16438e-06,0,3.150227227631605e-08,2.0
111,111,6057573.0,230.3511,1913.4257,1927.2413,-83.13538,83.69148274845793,0.006804976,4.5502e-05,1.37312445e-05,1.3535082e-05,2.0,40,0.014253681,7.395898e-06,0,4.941901469307799e-08,2.0
112,112,5242039.0,457.68286,2208.8665,2255.7847,-78.293816,84.10750095485128,0.00678137,5.193949e-05,1.3745181e-05,1.3179352e-05,2.0,40,0.019734474,8.748386e-06,0,5.0765679256352966e-08,2.0
113,113,4536288.0,254.0654,2656.3125,2668.435,-84.536514,85.339487413381,0.0069877165,-3.7645437e-05,1.32080995e-05,1.3088365e-05,2.0,40,0.021915436,8.212842e-06,0,4.806923581869318e-08,2.0
114,114,3925558.5,369.64044,2999.127,3021.82,-82.97377,85.75549655311625,0.0068281353,5.742807e-05,1.35183545e-05,1.33160775e-05,2.0,40,0.019915462,6.5905515e-06,0,3.777920318044073e-08,2.0
115,115,3397055.0,494.41406,3346.6763,3382.9998,-81.59631,86.17150118623977,0.006896719,-6.862342e-05,1.3999221e-05,1.37002135e-05,2.0,40,0.020936564,6.188757e-06,0,3.656219095574394e-08,2.0
116,116,2939708.2,658.94025,3852.6472,3908.5923,-80.29429,86.72349323911476,0.007005752,-5.783231e-05,1.40526e-05,1.3653198e-05,2.0,40,0.020186976,5.164769e-06,0,3.860488868648293e-08,2.0
117,117,2543924.5,675.5394,4375.7256,4427.5645,-81.22377,87.27550702533335,0.006815075,7.54567e-05,1.4297689e-05,1.3964848e-05,2.0,40,0.020578027,4.647708e-06,0,4.4409018991543964e-08,2.0
118,118,2201436.2,694.2647,4943.285,4991.8003,-82.005325,87.82749635822256,0.007050766,-0.00010669006,1.4625083e-05,1.4342184e-05,2.0,40,0.020914754,4.189822e-06,0,3.973439006644843e-08,2.0
119,119,1905053.1,828.25275,5901.8647,5959.6987,-82.01143,88.54548855233588,0.0069691776,-1.3616924e-05,1.4155453e-05,1.3882052e-05,2.0,41,0.019725375,3.309794e-06,0,4.440534307769707e-08,2.0
120,120,1648567.4,679.24506,6690.1416,6724.5347,-84.20267,89.09749588518753,0.006877025,-2.512737e-06,1.4430392e-05,1.42831595e-05,2.0,41,0.019861925,2.9536504e-06,0,4.282751288125978e-08,2.0
121,121,1426616.2,621.4,7511.8794,7537.5376,-85.271126,89.64949836474261,0.006771309,7.1147333e-06,1.4851296e-05,1.475036e-05,2.0,41,0.020241834,2.6854705e-06,0,4.247186853605347e-08,2.0
122,122,1234551.2,1029.6658,9027.92,9086.448,-83.49333,90.20150204430684,0.006876839,-2.522047e-06,1.4279838e-05,1.409647e-05,2.0,41,0.020555733,2.2622407e-06,0,4.121652086225887e-08,2.0
123,123,1068345.5,1834.4257,10030.44,10196.806,-79.63595,90.75349033719976,0.006846395,-1.3991528e-06,1.48521185e-05,1.4371435e-05,2.0,41,0.020938566,2.0534437e-06,0,4.4059749713958124e-08,2.0
124,124,924510.06,1857.9749,11876.802,12021.252,-81.108864,91.3054863633879,0.006983673,-1.0633698e-05,1.4494692e-05,1.4148442e-05,2.0,41,0.0203871,1.6959215e-06,0,4.457315117939833e-08,2.0
125,125,800039.0,9129.3955,11571.772,14739.464,-51.728798,91.85748894963763,0.0067994427,7.658489e-06,1.7191314e-05,1.0596086e-05,2.0,41,0.02117856,1.436861e-06,0,4.493953287931923e-08,2.0
126,126,692334.1,2037.2313,14791.666,14931.299,-82.15808,92.40950289586908,0.0070089754,-1.1289185e-05,1.5541298e-05,1.5251983e-05,2.0,41,0.020390797,1.3656412e-06,0,4.482774730084217e-08,2.0
127,127,599122.25,3377.4365,17579.209,17900.717,-79.12447,92.96150470871362,0.0067051477,1.5036445e-05,1.5111424e-05,1.45734775e-05,2.0,41,0.020639654,1.1530071e-06,0,4.547365274416373e-08,2.0
128,128,518454.94,4788.779,19795.65,20366.645,-76.4008,93.5134848683083,0.007051884,-1.5832906e-05,1.5507412e-05,1.4650077e-05,2.0,41,0.020410363,1.0021465e-06,0,4.4486812367295925e-08,2.0
129,129,448662.03,5902.8525,23260.96,23998.25,-75.760826,94.06549846785492,0.0068054795,9.269275e-06,1.5250115e-05,1.4327464e-05,2.0,41,0.020327406,8.4703703e-07,0,4.4828038206553936e-08,2.0
130,130,388258.97,7725.3013,27435.932,28502.818,-74.274055,94.61750444074278,0.0067517827,1.1537408e-05,1.4940974e-05,1.3843399e-05,2.0,41,0.020695537,7.260874e-07,0,4.467554960625029e-08,2.0
131,131,335983.9,10766.356,28837.436,30781.686,-69.527054,95.16950233359239,0.00677347,4.077522e-06,1.6426498e-05,1.4416953e-05,2.0,41,0.020941101,6.803104e-07,0,4.5006849025404426e-08,2.0
132,132,290751.2,11946.704,33744.832,35797.17,-70.50448,95.72149097317015,0.0071909325,-2.091479e-05,1.6221513e-05,1.4414794e-05,2.0,41,0.02065809,5.7708723e-07,0,4.343938981997593e-08,2.0
133,133,251605.19,13479.438,34991.836,37498.316,-68.93248,96.27350110604311,0.0069883685,-7.760355e-06,1.807731e-05,1.5741414e-05,2.0,41,0.020209134,5.3893444e-07,0,4.38580672897534e-08,2.0
134,134,217729.38,17092.621,43540.52,46775.363,-68.56661,96.82548243892961,0.007044785,-1.5138312e-05,1.6788408e-05,1.4546629e-05,2.0,41,0.020287946,4.3373143e-07,0,4.422786174955995e-08,2.0
135,135,188418.58,21776.715,47778.37,52507.125,-65.49716,97.37749275847455,0.006867076,2.18927e-06,1.76793e-05,1.4638321e-05,2.0,41,0.020888261,3.9781764e-07,0,4.226880481060766e-08,2.0
136,136,163051.14,25608.1,49188.9,55455.59,-62.498184,98.09650831265026,0.0068478105,2.314447e-07,1.9844e-05,1.561251e-05,2.0,42,0.019237753,3.4690376e-07,0,4.3209779619017005e-08,2.0
137,137,141098.2,31727.11,57238.29,65443.344,-61.000454,98.51249225242645,0.0068105473,3.0743516e-07,1.9706613e-05,1.5074896e-05,2.0,42,0.021009589,3.2103478e-07,0,4.322431439809421e-08,2.0
138,138,122105.11,36244.008,51612.945,63067.617,-54.92243,98.92848752546706,0.0068697403,1.1373402e-07,2.5253854e-05,1.6913446e-05,2.0,42,0.02226983,3.5311038e-07,0,4.3175638933957334e-08,2.0
139,139,105663.59,45430.32,58495.69,74065.24,-52.16552,99.48049869839451,0.006928896,-3.008608e-07,2.5749623e-05,1.6061635e-05,2.0,42,0.020586401,2.7794957e-07,0,4.3195710761853294e-08,2.0
140,140,91439.65,51621.59,63487.266,81825.555,-50.885387,99.8965018648014,0.006729145,1.159162e-06,2.7415677e-05,1.6504193e-05,2.0,42,0.021703603,2.6524236e-07,0,4.329249838980183e-08,2.0
141,141,79127.08,61810.81,64428.055,89283.54,-46.187714,100.44850733099156,0.0067726504,2.1393726e-07,3.121907e-05,1.6256507e-05,2.0,42,0.020271543,2.2704681e-07,0,4.331804732849953e-08,2.0
142,142,68475.36,74641.914,64306.44,98522.76,-40.74597,100.8644996174553,0.0071578613,-2.5494714e-06,3.6143596e-05,1.5398102e-05,2.0,42,0.021167994,2.1485386e-07,0,4.3269137591184914e-08,2.0
143,143,59252.523,83730.48,61783.883,104057.875,-36.423244,101.28148577056709,0.006903128,-1.8203235e-07,4.347485e-05,1.5326345e-05,2.0,42,0.021820143,2.0969237e-07,0,4.3187877132945474e-08,2.0
144,144,51282.285,88047.96,62220.71,107814.01,-35.247643,101.83348811682663,0.006744684,1.2507973e-06,4.987901e-05,1.661259e-05,2.0,42,0.020124242,1.8665702e-07,0,4.3294363144481094e-08,2.0
145,145,44369.8,97042.82,58712.2,113421.48,-31.174496,102.24949200320407,0.0068071564,6.978178e-07,6.109481e-05,1.637082e-05,2.0,42,0.020480677,1.8057142e-07,0,4.3398819034985434e-08,2.0
146,146,38403.727,103956.91,55259.47,117731.25,-27.993383,102.66549348967965,0.006792512,1.3353559e-06,7.499634e-05,1.652228e-05,2.0,42,0.020786326,1.7655742e-07,0,4.3393159100456676e-08,2.0
147,147,33226.32,110280.74,50538.582,121309.484,-24.620663,103.08150569608551,0.006907544,-2.5671915e-07,9.4779585e-05,1.6450209e-05,2.0,42,0.02100498,1.73152e-07,0,4.3405174259653734e-08,2.0
148,148,28754.086,115288.3,44974.668,123750.2,-21.31106,103.49748891583295,0.006909612,-2.7795136e-07,0.00012307012,1.6255364e-05,2.0,42,0.021132289,1.7076569e-07,0,4.3460259680914996e-08,2.0
149,149,24884.947,119765.03,40324.27,126371.31,-18.608114,103.91349000224727,0.006988499,-9.598172e-07,0.000158605,1.6149272e-05,2.0,42,0.0211459,1.6733149e-07,0,4.3443844900148363e-08,2.0
150,150,21553.963,121401.73,37592.695,127088.91,-17.20542,104.33048932874226,0.006746771,1.1662404e-06,0.00019642172,1.7186252e-05,2.0,42,0.02107594,1.6583618e-07,0,4.330863561762261e-08,2.0
151,151,18631.234,127174.36,33124.203,131417.39,-14.599056,104.74649572183262,0.0070391214,-1.6619836e-06,0.00025788913,1.6383936e-05,2.0,42,0.021139195,1.608554e-07,0,4.325474305753454e-08,2.0
152,152,16126.037,128997.98,31870.3,132876.61,-13.87762,105.16248296826961,0.0070001995,-1.2103243e-06,0.00030967512,1.7814824e-05,2.0,42,0.020948341,1.5765258e-07,0,4.329211631603967e-08,2.0
153,153,13954.87,124738.55,37130.484,130147.52,-16.576504,105.57848920134711,0.0069705937,-7.2923774e-07,0.00030715935,2.5000756e-05,2.0,42,0.020211363,1.552958e-07,0,4.3501025831443364e-08,2.0
154,154,12080.609,120364.47,24883.748,122909.75,-11.680583,105.99448322111857,0.007125852,-2.0382101e-06,0.00052943843,2.1700733e-05,2.0,42,0.01966279,1.5997746e-07,0,4.3580736201803323e-08,2.0
155,155,10447.592,129813.23,21294.387,131548.19,-9.315756,106.41049745419878,0.0069562285,-1.106582e-06,0.00071538327,1.8745599e-05,2.0,42,0.019673906,1.4955666e-07,0,4.368094712524615e-08,2.0
156,156,9045.586,129613.46,19501.436,131072.33,-8.556451,106.98326582807931,0.0070505426,-1.0251902e-06,0.00090222905,1.9972294e-05,2.0,42,0.020274857,1.546845e-07,0,4.3674725571518243e-08,2.0
157,157,7827.7437,133517.73,16861.396,134578.2,-7.197543,107.46393281093333,0.006958893,-6.307101e-07,0.0012058408,1.8928999e-05,2.0,42,0.020589586,1.5299347e-07,0,4.352859345968124e-08,2.0
158,158,6770.8345,131069.06,14669.712,131887.45,-6.386168,108.00241787647246,0.0069108047,-2.5038486e-07,0.0016023462,1.9824058e-05,2.0,42,0.02049645,1.5540864e-07,0,4.359472097691169e-08,2.0
159,159,5860.798,132721.27,15653.563,133641.19,-6.726569,108.6079781986191,0.0067436593,1.110366e-06,0.001734803,2.380104e-05,2.0,42,0.020648243,1.5450509e-07,0,4.368686419460513e-08,2.0
160,160,5071.625,132383.55,14307.16,133154.42,-6.168218,109.28868327095552,0.0068023307,3.7318398e-07,0.0021934088,2.5323006e-05,2.0,42,0.020641305,1.550178e-07,0,4.3694098134372525e-08,2.0
161,161,4388.5933,130394.67,12025.286,130948.0,-5.26904,109.96881140992627,0.0068591572,4.5252716e-07,0.003015778,2.5432702e-05,2.0,42,0.020535234,1.5681977e-07,0,4.368946034116804e-08,2.0
162,162,3798.7827,134275.42,14123.049,135016.11,-6.0042768,110.64882464222319,0.006998597,-1.0093581e-06,0.0029665194,3.245884e-05,2.0,42,0.020795543,1.5402267e-07,0,4.3721346119960124e-08,2.0
163,163,3286.0488,134453.66,12163.701,135002.75,-5.16934,111.32868147451518,0.0067316233,1.3873217e-06,0.0039818087,3.2324115e-05,2.0,42,0.020857774,1.5449888e-07,0,4.386292817418891e-08,2.0
164,164,2844.088,135257.14,15626.268,136156.8,-6.5901694,112.00882025348255,0.0070635662,-9.3821e-07,0.0035811446,4.716868e-05,2.0,42,0.020874284,1.5331062e-07,0,4.372720882711197e-08,2.0
165,165,2460.7852,135957.2,16321.171,136933.34,-6.8453937,112.68868212577945,0.0068445876,1.4782061e-07,0.0039627356,5.629623e-05,2.0,42,0.02089838,1.5261718e-07,0,4.387390222120165e-08,2.0
166,166,2129.3164,135667.31,15838.003,136588.66,-6.658654,113.36881629141863,0.0069062584,-6.796933e-07,0.0047193207,6.345284e-05,2.0,42,0.020863133,1.5274425e-07,0,4.3749825218007347e-08,2.0
167,167,1843.2289,132905.66,13652.827,133605.06,-5.865176,114.0489607770287,0.006846134,3.7653703e-07,0.006324385,6.6041604e-05,2.0,42,0.020597864,1.5416978e-07,0,4.392155740356666e-08,2.0
168,168,1594.4913,137478.0,18705.945,138744.78,-7.7483673,114.72880856934353,0.0068619335,-3.3196253e-07,0.0053360304,9.699388e-05,2.0,42,0.020914229,1.5073886e-07,0,4.399421911569511e-08,2.0
169,169,1380.4436,138545.72,19814.254,139955.42,-8.139022,115.40870308164449,0.0069368333,-8.722842e-08,0.00581867,0.00011662717,2.0,42,0.02092733,1.4952855e-07,0,4.4059891548666743e-08,2.0
170,170,1194.6187,138425.25,21316.24,140056.89,-8.754268,116.08883423393127,0.00693592,1.103842e-07,0.006250003,0.00014477463,2.0,42,0.020818107,1.4864035e-07,0,4.4145219442328926e-08,2.0
171,171,1033.3434,144622.16,26370.771,147006.75,-10.333926,116.76910095955827,0.0069723823,-6.619997e-07,0.005840535,0.00018794196,2.0,42,0.021168577,1.4399731e-07,0,4.4202232242742664e-08,2.0
172,172,894.71045,146365.77,28875.047,149186.81,-11.160007,117.44883931186632,0.0069768354,-9.570216e-07,0.006160485,0.00023078069,2.0,42,0.021177417,1.4195234e-07,0,4.409930640829411e-08,2.0
173,173,774.2569,143057.48,24405.08,145124.27,-9.681249,118.12895553081762,0.007012087,-4.5581956e-07,0.008422768,0.00023819643,2.0,42,0.02073167,1.4285462e-07,0,4.4098043930917346e-08,2.0
174,174,669.7856,146241.72,30567.096,149402.1,-11.80586,118.80883929647098,0.006824223,8.9394246e-07,0.0077737435,0.0003254057,2.0,42,0.020942388,1.4017466e-07,0,4.437488889902635e-08,2.0
175,175,579.81464,147794.64,35264.3,151943.5,-13.420046,119.48881962209998,0.0067625893,6.4026835e-07,0.007783872,0.0004192779,2.0,42,0.020939628,1.3781194e-07,0,4.4267099655164325e-08,2.0
176,176,501.44418,152031.02,36334.594,156312.61,-13.441254,120.1661874675483,0.006746473,1.0965836e-06,0.008735288,0.00047198674,2.0,42,0.021021133,1.3448137e-07,0,4.427196813625834e-08,2.0
177,177,434.02762,152008.97,42011.645,157707.66,-15.449526,120.84620891322265,0.006889546,-2.7050007e-07,0.008728368,0.0006193939,2.0,42,0.02095347,1.3286274e-07,0,4.4272899330780924e-08,2.0
178,178,375.6009,155365.52,46481.965,162169.72,-16.656033,121.52543081212207,0.0067708804,8.1068805e-07,0.009116099,0.00074892526,2.0,42,0.020949816,1.2918451e-07,0,4.450857009683339e-08,2.0
179,179,325.10385,160291.95,49177.992,167666.3,-17.05615,122.20472455109848,0.0068956944,-4.0758104e-07,0.009954678,0.0008564012,2.0,42,0.021021016,1.2537413e-07,0,4.464496021112533e-08,2.0
180,180,281.3503,160038.48,54845.695,169175.55,-18.91675,122.88178884991794,0.006914084,-1.961978e-08,0.0103140725,0.001084027,2.0,42,0.02086097,1.233096e-07,0,4.474397331717918e-08,2.0
181,181,243.36427,163573.2,49298.133,170840.56,-16.771898,123.56510754898773,0.0069204373,-8.7042864e-08,0.013265782,0.0011046173,2.0,42,0.020588227,1.2051134e-07,0,4.4671251712328246e-08,2.0
182,182,210.60631,170529.06,65888.94,182815.52,-21.125513,124.24220459451317,0.007202708,-2.2309803e-06,0.011469283,0.0014898247,2.0,42,0.020992516,1.1482896e-07,0,4.440159877401702e-08,2.0
183,183,182.27473,174102.06,70785.164,187941.66,-22.125322,124.91426681310986,0.006960216,-2.0177372e-07,0.012335348,0.0017498055,2.0,42,0.020933889,1.1138504e-07,0,4.4498726147609823e-08,2.0
184,184,157.72879,178793.2,77902.35,195027.66,-23.543337,125.60265087249718,0.0070439097,-1.5904625e-06,0.012952649,0.0020666518,2.0,42,0.020951882,1.0743031e-07,0,4.4432403222897914e-08,2.0
185,185,136.52892,183865.97,82755.67,201631.34,-24.231888,126.27554815771873,0.0066491407,1.9080792e-06,0.014086325,0.0023728877,2.0,42,0.020879688,1.0355378e-07,0,4.4776371402325786e-08,2.0
186,186,118.14758,196107.14,86621.51,214385.86,-23.831287,126.96390637714649,0.0067423736,1.2606702e-06,0.015551403,0.0025388016,2.0,42,0.020999262,9.795078e-08,0,4.4834077657445524e-08,2.0
187,187,102.25773,197662.58,96172.016,219817.1,-25.94507,127.87736026049242,0.006864505,-2.2053666e-08,0.016183605,0.0030977742,2.0,43,0.020845922,9.4833034e-08,0,4.496007857757315e-08,2.0
188,188,88.4436,204566.69,104227.94,229588.75,-26.999111,128.566295199882,0.0067619183,6.2904014e-08,0.017265119,0.0035582513,2.0,43,0.020818798,9.067865e-08,0,4.492336009057812e-08,2.0
189,189,76.54279,212289.36,115332.85,241595.61,-28.51441,129.23373723162513,0.0068948558,-3.527602e-08,0.018028632,0.004108571,2.0,43,0.020902716,8.6519435e-08,0,4.4937329419880316e-08,2.0
190,190,66.250786,222925.34,121974.28,254113.03,-28.685408,129.90200678334804,0.006850419,1.2805615e-09,0.019695219,0.004537781,2.0,43,0.02093023,8.236583e-08,0,4.488030501575264e-08,2.0
191,191,57.329906,229202.67,135377.55,266197.2,-30.568037,130.5566439077993,0.0069749164,-6.5128795e-08,0.020506535,0.005303696,2.0,43,0.020909736,7.85498e-08,0,4.492406684440632e-08,2.0
192,192,49.60321,239502.31,147751.58,281410.53,-31.670887,131.24238188701565,0.0068838815,5.0981006e-09,0.021715919,0.0059863455,2.0,43,0.020948088,7.44396e-08,0,4.4920650665082696e-08,2.0
193,193,42.92585,249430.89,160569.36,296645.06,-32.771122,131.9504450406239,0.006930573,-9.278923e-09,0.023090778,0.0067653405,2.0,43,0.020941742,7.0595284e-08,0,4.485414707771322e-08,2.0
194,194,37.1518,262644.97,171078.9,313449.16,-33.07899,132.59419795122813,0.006885037,-5.160898e-08,0.025040548,0.007459377,2.0,43,0.02090401,6.6690276e-08,0,4.488487094080145e-08,2.0
195,195,32.150223,274352.8,183012.92,329792.66,-33.70612,133.23336646155803,0.006902979,-1.4959321e-08,0.027049197,0.0083298255,2.0,43,0.02079441,6.305298e-08,0,4.495667332079023e-08,2.0
196,196,27.835518,283308.56,194887.61,343867.6,-34.524036,133.96031212274102,0.0068127457,1.02465885e-08,0.02933841,0.009423723,2.0,43,0.020553533,5.977165e-08,0,4.4973550506708865e-08,2.0
197,197,24.082958,306388.25,219044.88,376635.66,-35.56196,134.6623937561235,0.0068112737,3.8078543e-08,0.030170133,0.010204707,2.0,43,0.021063907,5.592648e-08,0,4.500837124317167e-08,2.0
198,198,20.833313,320532.03,235568.16,397785.28,-36.31323,135.31675842721597,0.006999082,-8.174129e-08,0.03242987,0.011373155,2.0,43,0.020965016,5.270435e-08,0,4.484205589995434e-08,2.0
199,199,18.021912,339175.72,253951.16,423711.4,-36.82331,136.06272320931748,0.0057097655,7.3213556e-07,0.034775157,0.012491919,2.0,43,0.020962225,4.9472884e-08,0,4.5120893576125017e-08,2.0
200,200,15.604198,355518.0,273332.5,448445.88,-37.554123,136.7179989471042,0.0068780687,-3.7046384e-08,0.03731534,0.013862765,2.0,43,0.02088037,4.6561627e-08,0,4.4964232942888515e-08,2.0
201,201,13.500899,380815.16,295000.6,481711.06,-37.763355,137.46598039596574,0.0068883533,-2.8870975e-08,0.039960835,0.014986737,2.0,43,0.0209757,4.354415e-08,0,4.49173869382956e-08,2.0
202,202,11.686608,406795.9,341492.84,531131.1,-40.01244,138.05689690401778,0.0068659396,-7.107059e-08,0.039879534,0.01648579,2.0,43,0.021549636,4.0573102e-08,0,4.4949495125079506e-08,2.0
203,203,10.113269,425853.7,338145.94,543777.56,-38.45107,138.7305268026248,0.007065485,-1.9588134e-07,0.04653979,0.017996589,2.0,43,0.020844052,3.8331944e-08,0,4.513179529064695e-08,2.0
204,204,8.748621,450187.0,368018.75,581468.94,-39.265305,139.49741019905196,0.006883146,-3.6357598e-08,0.049432274,0.01980147,2.0,43,0.020866292,3.5885478e-08,0,4.521563487951773e-08,2.0
205,205,7.570237,479464.28,396487.6,622164.3,-39.588665,140.37301245401613,0.006840414,5.3762177e-09,0.053025045,0.021534264,2.0,43,0.020887597,3.3572476e-08,0,4.4874232234234094e-08,2.0
206,206,6.554112,511915.44,426142.75,666074.4,-39.775608,140.9093058394792,0.0069378205,-4.6823917e-08,0.05698377,0.023324693,2.0,43,0.020931063,3.1424513e-08,0,4.526067448100789e-08,2.0
207,207,5.669445,552102.2,461744.72,719739.56,-39.90706,141.51913360177423,0.0067671537,3.9847027e-08,0.06079637,0.025022505,2.0,43,0.02106724,2.9270643e-08,0,4.484492585925103e-08,2.0
208,208,4.907347,579041.1,486204.66,756097.6,-40.01924,142.21153203464928,0.006782935,5.604896e-08,0.06670436,0.027582696,2.0,43,0.020814126,2.7528358e-08,0,4.528850578913356e-08,2.0
209,209,4.245922,620716.3,529545.2,815908.6,-40.46814,142.9993362587702,0.006875106,-7.387379e-08,0.07078563,0.029817285,2.0,43,0.020952525,2.567999e-08,0,4.499564633279126e-08,2.0
210,210,3.6747382,662381.75,565687.44,871063.6,-40.497997,143.89896840817528,0.006875954,-7.3248554e-09,0.07656269,0.032290183,2.0,43,0.020916516,2.4012616e-08,0,4.48557212401925e-08,2.0
211,211,3.180988,707276.2,601195.25,928264.7,-40.36503,144.92724547031685,0.0068328865,4.2929017e-08,0.08322284,0.034908403,2.0,43,0.02090177,2.2517035e-08,0,4.529624371194549e-08,2.0
212,212,2.752818,757098.75,646002.9,995247.8,-40.472836,146.10609805965214,0.006845793,-1.8454614e-08,0.089496925,0.037706356,2.0,43,0.020922182,2.1022084e-08,0,4.5285802631055145e-08,2.0
213,213,2.3804083,808948.56,688992.9,1062595.4,-40.421505,147.45995831064647,0.0068057594,5.1977132e-08,0.0970407,0.040798817,2.0,43,0.020902479,1.9671155e-08,0,4.4818914118863126e-08,2.0
214,214,2.060257,861251.06,727447.9,1127357.0,-40.185802,149.01535691783647,0.0067972164,2.9655437e-08,0.106193244,0.04421582,2.0,43,0.020818781,1.8466892e-08,0,4.4701594921127156e-08,2.0
