True,index,freq,Re(Z),Im(Z),Z,Phase(Z),time,Ewe_meas,I_meas,Cs,Cp,cycle_number,I_Range,Ewe,I,Ns,(QQo),cycle
0,0,7000018.5,482.31845,2006.3209,2063.4812,-76.48263,2.4674765971431043,-0.029405426,-2.7416963e-06,1.1332365e-05,1.0713227e-05,1.0,40,0.010050589,4.8706956e-06,0,7.654070996295559e-09,1.0
1,1,6057573.0,499.77313,2236.3457,2291.5093,-77.402664,3.019484436750645,-0.029466948,3.018973e-05,1.1748503e-05,1.1189668e-05,1.0,40,0.014336921,6.256541e-06,0,1.0973751925601189e-08,1.0
2,2,5242039.0,577.0308,2632.267,2694.7717,-77.63552,3.4354897364682984,-0.029338483,-1.377479e-05,1.15342655e-05,1.1005402e-05,1.0,40,0.01994825,7.402575e-06,0,9.99761235742527e-09,1.0
3,3,4536288.0,492.054,2980.5242,3020.8677,-80.62561,4.667487448343309,-0.029350631,-8.472247e-06,1.1771366e-05,1.1459054e-05,1.0,40,0.020331986,6.730512e-06,0,8.577797907005585e-09,1.0
4,4,3925558.5,763.2153,3407.846,3492.2646,-77.37644,5.08348712141742,-0.029398495,5.0538683e-06,1.1897034e-05,1.1328811e-05,1.0,40,0.019347938,5.5402265e-06,0,1.005096574232943e-08,1.0
5,5,3397055.0,876.47064,3787.4006,3887.4934,-76.97012,5.499501301179407,-0.029454166,5.4445786e-06,1.23701875e-05,1.1741389e-05,1.0,40,0.02039586,5.2465325e-06,0,7.4398813159051415e-09,1.0
6,6,2939708.2,1020.75916,4313.1973,4432.338,-76.68537,6.051499380759196,-0.029448615,2.3002694e-06,1.2552105e-05,1.1886376e-05,1.0,40,0.02026707,4.572546e-06,0,8.529618943770838e-09,1.0
7,7,2543924.5,1165.7814,4874.5986,5012.061,-76.55009,6.603498793643666,-0.029420573,-2.538455e-05,1.2834444e-05,1.2140094e-05,1.0,40,0.020630633,4.1161975e-06,0,7.669294220565664e-09,1.0
8,8,2201436.2,1225.4907,5722.668,5852.4146,-77.91286,7.32250354779535,-0.029443659,-4.933589e-06,1.2633262e-05,1.20793175e-05,1.0,41,0.019956633,3.4099828e-06,0,5.709138797562395e-09,1.0
9,9,1905053.1,1545.7611,6905.6143,7076.5024,-77.38283,7.874497733981116,-0.02954101,5.354966e-06,1.209792e-05,1.1520678e-05,1.0,41,0.020530276,2.9011896e-06,0,5.902982829518856e-09,1.0
10,10,1648567.4,2098.5173,7613.82,7897.723,-74.59075,8.426495040213922,-0.029495679,4.3586997e-06,1.2679754e-05,1.1784529e-05,1.0,41,0.01981909,2.509469e-06,0,5.487731623310942e-09,1.0
11,11,1426616.2,2643.878,8641.216,9036.631,-72.987915,8.978490613080794,-0.029481202,-7.678796e-07,1.2910354e-05,1.1805238e-05,1.0,41,0.020676212,2.2880445e-06,0,5.788125175502362e-09,1.0
12,12,1234551.2,3104.9773,9789.204,10269.83,-72.40182,9.530495012673782,-0.029442597,-1.7306257e-06,1.3169329e-05,1.1965528e-05,1.0,41,0.02049042,1.9952054e-06,0,4.894267107487119e-09,1.0
13,13,1068345.5,3964.9368,10977.343,11671.451,-70.14065,10.082499518844998,-0.02944923,-1.058379e-06,1.357098e-05,1.2004828e-05,1.0,41,0.02056835,1.7622788e-06,0,4.855106006131236e-09,1.0
14,14,924510.06,5092.895,12189.011,13210.207,-67.323524,10.63447978507611,-0.02944228,-3.8799462e-07,1.4123426e-05,1.2024242e-05,1.0,41,0.020389987,1.5435024e-06,0,4.181351859475374e-09,1.0
15,15,800039.0,7356.307,15957.954,17571.896,-65.25121,11.186481197975809,-0.029434249,-4.475848e-07,1.2466132e-05,1.028132e-05,1.0,41,0.020497447,1.1664903e-06,0,3.4031996956211212e-09,1.0
16,16,692334.1,7916.7544,14840.532,16820.12,-61.922092,11.738498317514313,-0.029451167,8.2056005e-07,1.5490124e-05,1.2058568e-05,1.0,41,0.020334948,1.2089657e-06,0,3.3535313701994103e-09,1.0
17,17,599122.25,9863.125,15983.771,18781.965,-58.32246,12.290488423750503,-0.02950013,2.9899993e-06,1.6619786e-05,1.2036547e-05,1.0,41,0.020726722,1.1035438e-06,0,3.813539055923027e-09,1.0
18,18,518454.94,11831.642,17111.66,20803.766,-55.33857,12.842481196596054,-0.02948953,2.5818082e-07,1.7939774e-05,1.2137168e-05,1.0,41,0.02031278,9.763992e-07,0,3.423474849837602e-09,1.0
19,19,448662.03,14143.669,17649.31,22617.283,-51.29228,13.394490342849167,-0.029494524,3.1240754e-06,2.0098936e-05,1.2239049e-05,1.0,41,0.02021525,8.937966e-07,0,3.6273616396095398e-09,1.0
20,20,388258.97,18014.73,18415.852,25761.873,-45.630833,13.946493649069453,-0.029405091,-5.471745e-06,2.2259062e-05,1.13745855e-05,1.0,41,0.020981267,8.1443096e-07,0,3.0354467038857062e-09,1.0
21,21,335983.9,18482.865,20071.91,27285.488,-47.360126,14.498503355280263,-0.029404644,-4.8143957e-06,2.360005e-05,1.2771058e-05,1.0,41,0.020587752,7.545312e-07,0,2.5579836481328915e-09,1.0
22,22,290751.2,22163.406,17806.643,28430.496,-38.779278,15.05047906152322,-0.029452937,-1.1030714e-06,3.07409e-05,1.2059014e-05,1.0,41,0.020608768,7.2488245e-07,0,2.0874520183029846e-09,1.0
23,23,251605.19,23940.963,17095.123,29417.902,-35.52886,15.602489541022805,-0.029450217,-4.0289154e-07,3.7002264e-05,1.2495378e-05,1.0,41,0.020327073,6.9097626e-07,0,1.5329002098320011e-09,1.0
24,24,217729.38,26627.1,16031.838,31080.898,-31.05161,16.154479700577212,-0.029546374,7.3232904e-06,4.559527e-05,1.2131075e-05,1.0,41,0.020198591,6.4987154e-07,0,9.810404365621948e-10,1.0
25,25,188418.58,28552.482,15088.505,32294.074,-27.854126,16.706487673480297,-0.02951744,1.5762417e-07,5.5982233e-05,1.2220724e-05,1.0,41,0.020188877,6.251573e-07,0,5.207901457487828e-10,1.0
26,26,163051.14,30131.238,13796.153,33139.484,-24.601564,17.258480659715133,-0.029398495,-6.145853e-06,7.075193e-05,1.2262042e-05,1.0,41,0.020540025,6.198052e-07,0,5.508567373845432e-10,1.0
27,27,141098.2,31796.518,12566.493,34189.695,-21.564726,17.810481485939818,-0.029448185,-1.2073518e-06,8.976035e-05,1.2126132e-05,1.0,41,0.020237565,5.9192e-07,0,9.734839368257376e-10,1.0
28,28,122105.11,32886.91,11154.227,34727.016,-18.735352,18.226484172366327,-0.029477308,1.7795859e-06,0.00011685488,1.2055656e-05,1.0,41,0.021820866,6.283542e-07,0,8.643988111916517e-10,1.0
29,29,105663.59,33351.625,9952.934,34805.055,-16.616379,18.778483825240983,-0.029440789,-1.1589347e-06,0.00015133648,1.2375456e-05,1.0,41,0.020411983,5.8646606e-07,0,1.3778078198372316e-09,1.0
30,30,91439.65,34405.023,8835.902,35521.527,-14.403426,19.194500724988757,-0.029466761,-1.1440358e-06,0.0001969857,1.2188583e-05,1.0,41,0.021671109,6.100838e-07,0,1.6399334180887434e-09,1.0
31,31,79127.08,34757.566,7895.8193,35643.125,-12.79858,19.746480404544855,-0.029436113,-2.1105075e-06,0.0002547404,1.2500882e-05,1.0,41,0.020334067,5.7049056e-07,0,2.6216425367617072e-09,1.0
32,32,68475.36,35350.52,7012.4414,36039.332,-11.22004,20.162485677661607,-0.029491859,-3.6936902e-07,0.0003314489,1.2548782e-05,1.0,41,0.021199511,5.8823264e-07,0,3.2622377374372666e-09,1.0
33,33,59252.523,35550.223,6214.7856,36089.36,-9.916076,20.57848849738366,-0.02949225,3.2562941e-06,0.00043220233,1.2816843e-05,1.0,41,0.021925181,6.0752484e-07,0,2.964655659888472e-09,1.0
34,34,51282.285,36070.832,5612.633,36504.883,-8.844319,21.130483456974616,-0.029493982,3.4499622e-06,0.00055295037,1.3071261e-05,1.0,41,0.020292195,5.5587617e-07,0,2.2362971073574855e-09,1.0
35,35,44369.8,36026.633,4729.3027,36335.72,-7.478593,21.546501476695994,-0.029474774,3.0793879e-06,0.0007584649,1.2848791e-05,1.0,41,0.020713637,5.7006264e-07,0,2.8635158889566508e-09,1.0
36,36,38403.727,36137.97,4406.5737,36405.64,-6.9521832,21.962484829797177,-0.029474905,1.6790282e-06,0.00094047165,1.377877e-05,1.0,41,0.021062741,5.785571e-07,0,2.240367820772033e-09,1.0
37,37,33226.32,36328.883,4031.9546,36551.94,-6.333044,22.37849042288144,-0.029451707,-1.3377019e-06,0.0011880159,1.4455483e-05,1.0,41,0.021329872,5.8354965e-07,0,2.3802441786410594e-09,1.0
38,38,28754.086,36320.03,3733.9329,36511.465,-5.869753,22.79548278937,-0.02949484,3.2916762e-06,0.0014823613,1.5503458e-05,1.0,41,0.0214678,5.879742e-07,0,2.672593675498547e-09,1.0
39,39,24884.947,36365.35,3492.649,36532.688,-5.4860497,23.211484702449525,-0.029469967,-4.1033596e-07,0.0018311692,1.6736903e-05,1.0,41,0.021523787,5.8916515e-07,0,2.838272036285616e-09,1.0
40,40,21553.963,36541.96,3052.8103,36669.258,-4.775549,23.62848008229048,-0.029462999,4.2392014e-07,0.0024187623,1.6764421e-05,1.0,41,0.021549324,5.876673e-07,0,3.198469350258569e-09,1.0
41,41,18631.234,36552.93,3157.2676,36689.03,-4.936683,24.044504315330414,-0.029496387,1.952769e-06,0.0027056218,2.0036294e-05,1.0,41,0.02140203,5.833359e-07,0,2.8625398249744193e-09,1.0
42,42,16126.037,36423.285,2968.7063,36544.066,-4.6596346,24.46048841511947,-0.029481668,2.5393558e-06,0.0033244914,2.193946e-05,1.0,41,0.021193223,5.799361e-07,0,2.9782253113050196e-09,1.0
43,43,13954.87,37083.918,2902.6042,37197.34,-4.475487,24.876486434863182,-0.02948707,1.4667402e-06,0.0039292215,2.3925357e-05,1.0,41,0.021021746,5.6514114e-07,0,3.1054001491226146e-09,1.0
44,44,12080.609,37119.227,2799.4849,37224.645,-4.3130097,25.292492747976212,-0.029503597,4.408984e-06,0.004706013,2.6616337e-05,1.0,41,0.020590102,5.531309e-07,0,2.994492717781504e-09,1.0
45,45,10447.592,36927.023,3087.7969,37055.9,-4.7798896,25.708491701079765,-0.02943954,-4.2129072e-06,0.004933501,3.4256103e-05,1.0,41,0.020026892,5.4045086e-07,0,2.1149947211793258e-09,1.0
46,46,9045.586,36999.98,3262.377,37143.527,-5.038875,26.28124695495353,-0.029379733,-4.8404613e-06,0.005393234,4.160555e-05,1.0,41,0.020298313,5.464832e-07,0,1.8899980853603893e-09,1.0
47,47,7827.7437,36901.938,3074.4043,37029.785,-4.762474,26.76193900447106,-0.029425958,7.944938e-07,0.0066133663,4.5587116e-05,1.0,41,0.020242736,5.466609e-07,0,1.7376242278114913e-09,1.0
48,48,6770.8345,37350.215,3316.8718,37497.203,-5.0748177,27.3004262833565,-0.029431902,-2.0360192e-06,0.007086785,5.5450935e-05,1.0,41,0.020321168,5.419382e-07,0,1.2373630094057515e-09,1.0
49,49,5860.798,37409.242,3763.3252,37598.06,-5.7445607,27.906983165506972,-0.02941368,-3.581628e-06,0.007215919,7.229434e-05,1.0,41,0.020312112,5.4024366e-07,0,1.2181177765234628e-09,1.0
50,50,5071.625,37516.887,4084.6687,37738.59,-6.2136307,28.58768485119799,-0.029422754,-9.168484e-07,0.0076827407,9.000332e-05,1.0,41,0.020314036,5.3828285e-07,0,1.4145085695543477e-09,1.0
51,51,4388.5933,37087.016,4079.745,37310.74,-6.2775626,29.2668325901177,-0.029433448,-1.6080416e-07,0.008889182,0.00010628211,1.0,41,0.020220824,5.419572e-07,0,1.0729108918986361e-09,1.0
52,52,3798.7827,37866.164,4983.618,38192.707,-7.497684,29.946805742409197,-0.029400675,-1.8758715e-06,0.008406804,0.00014313952,1.0,41,0.02032622,5.3220157e-07,0,1.2135897985277526e-09,1.0
53,53,3286.0488,38810.305,4845.72,39111.645,-7.116923,30.877698293297726,-0.029439634,-1.1054557e-06,0.009995115,0.00015342365,1.0,42,0.0200571,5.128166e-07,0,9.66744168045529e-10,1.0
54,54,2844.088,38852.28,5441.6445,39231.508,-7.972974,31.55783272559347,-0.029445391,-9.098924e-07,0.010283642,0.00019785056,1.0,42,0.020092541,5.121532e-07,0,6.335887764935914e-10,1.0
55,55,2460.7852,39188.52,6031.0156,39649.883,-8.749037,32.237683584564365,-0.029431231,-1.1700844e-06,0.010723979,0.00024811501,1.0,42,0.02020302,5.095354e-07,0,1.5512881974346883e-11,1.0
56,56,2129.3164,39510.992,6905.412,40109.89,-9.913566,32.91782201685419,-0.029441068,-1.069323e-06,0.010824063,0.0003208238,1.0,42,0.020252664,5.049294e-07,0,-9.449787679235063e-11,1.0
57,57,1843.2289,39971.19,7725.2007,40710.87,-10.938643,33.597968289162964,-0.029481407,-9.750796e-07,0.0111771505,0.0004024666,1.0,42,0.020323299,4.992106e-07,0,-6.589509890520478e-10,1.0
58,58,1594.4913,40393.395,8640.28,41307.152,-12.073806,34.27780482811795,-0.029481221,-1.0976335e-06,0.011552344,0.00050544663,1.0,42,0.02034095,4.9243164e-07,0,-1.3165483624864767e-09,1.0
59,59,1380.4436,40921.48,9547.207,42020.434,-13.13251,34.95769299375388,-0.029473562,-1.0290928e-06,0.012076056,0.00062338554,1.0,42,0.02035675,4.8444883e-07,0,-1.8171714455314083e-09,1.0
60,60,1194.6187,41522.953,10612.736,42857.74,-14.337139,35.636822546002804,-0.02947114,-9.1454797e-07,0.012553461,0.0007697678,1.0,42,0.020369222,4.7527524e-07,0,-2.3957314086797195e-09,1.0
61,61,1033.3434,42250.28,11758.687,43856.047,-15.552431,36.31709364496055,-0.029449938,-9.719134e-07,0.013098352,0.0009416192,1.0,42,0.020391729,4.6496962e-07,0,-2.876253036182182e-09,1.0
62,62,894.71045,43210.23,12752.302,45052.695,-16.442503,36.996839303930756,-0.029482674,-8.8120885e-07,0.013949193,0.0011175956,1.0,42,0.020425705,4.5337364e-07,0,-2.7000019075558155e-09,1.0
63,63,774.2569,43878.707,14570.039,46234.477,-18.368881,37.676949602901004,-0.029421356,-1.3514933e-06,0.014108289,0.0014010831,1.0,42,0.020435274,4.419921e-07,0,-2.756105421708652e-09,1.0
64,64,669.7856,44730.887,15629.348,47382.79,-19.259844,38.356846648530336,-0.029518185,-5.096379e-07,0.015203497,0.0016541845,1.0,42,0.020347599,4.2943017e-07,0,-3.340090803105353e-09,1.0
65,65,579.81464,45827.88,17122.04,48921.965,-20.486506,39.036817027503275,-0.02945452,-1.0415716e-06,0.016031548,0.001963716,1.0,42,0.02035983,4.1616954e-07,0,-3.3928779886544587e-09,1.0
66,66,501.44418,47137.28,18755.822,50731.688,-21.697502,39.71419023294584,-0.029497746,-7.851042e-07,0.016922379,0.0023129967,1.0,42,0.020401282,4.021408e-07,0,-3.266861639619694e-09,1.0
67,67,434.02762,48317.04,20479.71,52478.137,-22.970196,40.39423335858737,-0.029421635,-9.586904e-07,0.01790519,0.0027269037,1.0,42,0.020367598,3.8811586e-07,0,-3.4787953727983577e-09,1.0
68,68,375.6009,49754.4,22642.455,54664.258,-24.469545,41.07342856421019,-0.02943656,-1.0920465e-06,0.018714147,0.003210777,1.0,42,0.020402335,3.7322988e-07,0,-3.902810403069032e-09,1.0
69,69,325.10385,51340.234,24399.146,56843.1,-25.41913,41.752680889832845,-0.029481668,-9.942653e-07,0.020064272,0.0036967248,1.0,42,0.020364013,3.582495e-07,0,-4.2458677676802854e-09,1.0
70,70,281.3503,52957.633,26464.025,59201.82,-26.552248,42.42980913532665,-0.029413307,-1.2313639e-06,0.021375528,0.0042712847,1.0,42,0.020327408,3.433578e-07,0,-4.417370383211821e-09,1.0
71,71,243.36427,54956.574,28890.377,62087.67,-27.730663,43.11309482107754,-0.02940375,-1.2946898e-06,0.022636542,0.004901238,1.0,42,0.020361152,3.2794193e-07,0,-4.8886443414563665e-09,1.0
72,72,210.60631,56941.26,31481.486,65064.516,-28.937176,43.79018213323434,-0.0294638,-8.724594e-07,0.024004549,0.0056197317,1.0,42,0.02036206,3.1295184e-07,0,-4.997157790496784e-09,1.0
73,73,182.27473,58987.555,34414.574,68292.71,-30.260183,44.46126619176357,-0.029438348,-9.834662e-07,0.025371797,0.0064429883,1.0,42,0.020353539,2.9803385e-07,0,-5.392227872409055e-09,1.0
74,74,157.72879,61501.527,37058.355,71803.62,-31.071484,45.14963947785145,-0.029395085,-9.2144455e-07,0.027228456,0.007252749,1.0,42,0.020334724,2.8319917e-07,0,-5.884801107691197e-09,1.0
75,75,136.52892,63846.445,40694.53,75712.7,-32.512672,45.821518523065606,-0.029449807,-1.0868359e-06,0.028645702,0.008275496,1.0,42,0.020337852,2.6861875e-07,0,-5.790185068823758e-09,1.0
76,76,118.14758,66878.03,43969.383,80037.35,-33.32317,46.509917409101035,-0.029440062,-9.81232e-07,0.030636908,0.009246135,1.0,42,0.020342864,2.5416713e-07,0,-5.9902552745418645e-09,1.0
77,77,102.25773,69863.234,47835.957,84670.836,-34.399776,47.17636069408036,-0.029437939,-9.508732e-07,0.032536402,0.010385102,1.0,42,0.020349324,2.4033451e-07,0,-6.1118299908745004e-09,1.0
78,78,88.4436,73276.91,52108.348,89915.43,-35.417225,47.866281100170454,-0.02941817,-1.1114215e-06,0.03453396,0.011598252,1.0,42,0.020366885,2.2651157e-07,0,-6.344475585906808e-09,1.0
79,79,76.54279,76471.26,56475.773,95065.06,-36.446716,48.53372081191628,-0.02947032,-8.7972535e-07,0.036817446,0.012993799,1.0,42,0.02032226,2.1377211e-07,0,-6.447704523840987e-09,1.0
80,80,66.250786,80594.734,61065.36,101116.22,-37.150635,49.20197196363006,-0.029461453,-9.5087364e-07,0.039339986,0.014347703,1.0,42,0.020325426,2.0101054e-07,0,-6.689744596592896e-09,1.0
81,81,57.329906,84099.266,66909.83,107469.12,-38.505947,49.85663220808965,-0.029487703,-5.450329e-07,0.041490532,0.016082793,1.0,42,0.02032492,1.8912336e-07,0,-6.833133860954237e-09,1.0
82,82,49.60321,89478.09,72188.87,114967.66,-38.89579,50.54135578722344,-0.029463297,-6.8658403e-07,0.044446763,0.017523836,1.0,42,0.020320697,1.7675143e-07,0,-7.0556282010648555e-09,1.0
83,83,42.92585,94128.164,78743.38,122721.766,-39.914333,51.24941086085164,-0.029564075,-5.7241863e-08,0.0470855,0.019385282,1.0,42,0.02033418,1.6569335e-07,0,-7.141419422280156e-09,1.0
84,84,37.1518,99540.96,85368.12,131133.97,-40.616985,51.89319313145825,-0.029428417,-9.115765e-07,0.050181612,0.021266969,1.0,42,0.020329764,1.5503049e-07,0,-7.158598967633465e-09,1.0
85,85,32.150223,104631.195,93171.47,140102.14,-41.684265,52.53139209505753,-0.029429331,-8.629654e-07,0.053131636,0.023497926,1.0,42,0.020316483,1.4501194e-07,0,-7.411274783873662e-09,1.0
86,86,27.835518,111021.555,100986.61,150080.25,-42.29005,53.259325916325906,-0.0294382,-9.030096e-07,0.056618325,0.025635248,1.0,42,0.020303478,1.3528414e-07,0,-7.363610218620506e-09,1.0
87,87,24.082958,118541.87,109310.055,161247.83,-42.67983,54.2194006286154,-0.02945726,-1.0909525e-06,0.0604575,0.027783226,1.0,43,0.02028232,1.2578353e-07,0,-7.34554894808702e-09,1.0
88,88,20.833313,125852.07,119156.664,173312.02,-43.434654,54.87377039305284,-0.029448148,-1.1261126e-06,0.06411261,0.030305592,1.0,43,0.020285089,1.1704375e-07,0,-7.716013924196987e-09,1.0
89,89,18.021912,134148.39,129763.85,186639.89,-44.0482,55.619717361812945,-0.029287543,-1.174197e-06,0.06805587,0.032897588,1.0,43,0.020311996,1.0882988e-07,0,-7.874986282370205e-09,1.0
90,90,15.604198,143104.88,140570.22,200596.6,-44.48807,56.27500379292178,-0.029436449,-1.0999662e-06,0.07255801,0.035630744,1.0,43,0.020298036,1.0118834e-07,0,-8.368810603192698e-09,1.0
91,91,13.500899,152900.94,153132.05,216398.06,-45.04327,57.02298262846307,-0.029448634,-1.11195e-06,0.07698238,0.038549326,1.0,43,0.02033118,9.3952686e-08,0,-8.62655458413153e-09,1.0
92,92,11.686608,161716.55,165519.42,231406.39,-45.665813,57.613895483198576,-0.029411128,-1.1195018e-06,0.082277805,0.042094942,1.0,43,0.020216025,8.736157e-08,0,-8.83322906625376e-09,1.0
93,93,10.113269,174093.4,180446.55,250737.84,-46.026596,58.2875303151377,-0.029455248,-1.0698532e-06,0.08721276,0.04516868,1.0,43,0.020322978,8.10527e-08,0,-8.725731260818905e-09,1.0
94,94,8.748621,186250.66,194755.86,269479.4,-46.2788,59.05438589825644,-0.029452499,-1.0376358e-06,0.09340928,0.04878877,1.0,43,0.020289078,7.5289904e-08,0,-8.509950008778706e-09,1.0
95,95,7.570237,198690.56,211671.38,290314.84,-46.81181,59.930004846537486,-0.029474204,-1.0571156e-06,0.09932269,0.052800044,1.0,43,0.020304125,6.9938295e-08,0,-9.480323330541138e-09,1.0
96,96,6.554112,212521.8,229941.14,313110.9,-47.254517,60.4663041519525,-0.029442374,-1.0679915e-06,0.10560624,0.05695431,1.0,43,0.020346815,6.498277e-08,0,-9.065606719985908e-09,1.0
97,97,5.669445,226501.22,248953.5,336571.9,-47.703655,61.0761381542834,-0.029437492,-1.094902e-06,0.112761624,0.06169388,1.0,43,0.02032902,6.040023e-08,0,-9.83713710485665e-09,1.0
98,98,4.907347,241354.03,269510.9,361784.3,-48.154724,61.76854376049596,-0.029398011,-1.0027745e-06,0.1203364,0.06678058,1.0,43,0.020311598,5.6142838e-08,0,-9.207870373094649e-09,1.0
99,99,4.245922,256204.08,293175.44,389348.66,-48.850006,62.556287744577276,-0.029422335,-1.1756788e-06,0.12785582,0.072493374,1.0,43,0.020325374,5.220353e-08,0,-1.029746474219648e-08,1.0
100,100,3.6747382,271292.22,319144.25,418870.53,-49.63342,63.45590704065398,-0.029435247,-1.028288e-06,0.13570838,0.078780934,1.0,43,0.020325221,4.8523873e-08,0,-1.0406271183225298e-08,1.0
101,101,3.180988,286964.12,347672.6,450804.44,-50.46421,64.48521423622151,-0.029451111,-1.0204292e-06,0.14390889,0.08559574,1.0,43,0.020347336,4.5135618e-08,0,-9.895156737622893e-09,1.0
102,102,2.752818,302121.0,379735.4,485258.78,-51.49392,65.66415437220712,-0.02944003,-1.1044732e-06,0.15225147,0.093234554,1.0,43,0.020315778,4.1865864e-08,0,-1.0727384480980836e-08,1.0
103,103,2.3804083,317980.25,415590.56,523284.78,-52.579365,67.01895131656784,-0.029402755,-1.0970552e-06,0.16088034,0.101474784,1.0,43,0.020327915,3.8846753e-08,0,-1.1911773564458666e-08,1.0
104,104,2.060257,333396.72,457327.8,565952.4,-53.907562,68.57433891043183,-0.029437644,-1.0233206e-06,0.16891614,0.11029773,1.0,43,0.020306423,3.5880092e-08,0,-1.206503183278487e-08,1.0
105,105,1.7836765,346802.8,504784.6,612437.5,-55.509716,70.36259368868195,-0.029430417,-1.0352898e-06,0.17676568,0.120084405,1.0,43,0.02032442,3.318611e-08,0,-1.1692545059215774e-08,1.0
