True,index,freq,Re(Z),Im(Z),Z,Phase(Z),time,Ewe_meas,I_meas,Cs,Cp,cycle_number,I_Range,Ewe,I,Ns,(QQo),cycle
0,0,7000018.5,349.78293,1706.3473,1741.8292,-78.41546,2.4684854238585103,0.0024660549,1.054255e-05,1.332458e-05,1.2787253e-05,1.0,40,0.010013556,5.7488737e-06,0,8.62906605136181e-09,1.0
1,1,6057573.0,446.9283,1925.712,1976.8945,-76.933846,3.02048630345962,0.0024097685,2.6505862e-05,1.36436365e-05,1.2946305e-05,1.0,40,0.01421468,7.1904087e-06,0,1.786185505701749e-08,1.0
2,2,5242039.0,463.6043,2162.179,2211.3225,-77.89814,3.436485763202654,0.0025047534,1.7421144e-06,1.4041976e-05,1.3424786e-05,1.0,40,0.019756947,8.9344485e-06,0,1.795071053498355e-08,1.0
3,3,4536288.0,425.04074,2478.6,2514.78,-80.269325,4.940497994626639,0.0024993315,-2.3151897e-05,1.4155104e-05,1.3750737e-05,1.0,40,0.018888688,7.5110697e-06,0,1.5670522725271337e-08,1.0
4,4,3925558.5,527.88983,2804.824,2854.068,-79.34117,5.356484174408251,0.0024363562,1.6589202e-05,1.4454833e-05,1.3960328e-05,1.0,40,0.018495202,6.480295e-06,0,1.658524066201355e-08,1.0
5,5,3397055.0,628.998,3152.0535,3214.1997,-78.71476,5.772503420797875,0.0025193046,-3.6938498e-05,1.48636e-05,1.4294383e-05,1.0,40,0.019602312,6.0986604e-06,0,1.6802635824263174e-08,1.0
6,6,2939708.2,690.1866,3631.1157,3696.1274,-79.237854,6.188492320565274,0.0024766754,-2.547757e-05,1.4909936e-05,1.4390043e-05,1.0,40,0.021565093,5.83451e-06,0,1.5199721719480093e-08,1.0
7,7,2543924.5,850.1923,4114.123,4201.052,-78.32406,6.740485733462265,0.002430711,6.6353314e-06,1.5206829e-05,1.4584016e-05,1.0,40,0.020633087,4.9114096e-06,0,1.3638444085801085e-08,1.0
8,8,2201436.2,991.1597,4614.6562,4719.8994,-77.877884,7.292501413001446,0.002447647,-4.3375952e-05,1.5666596e-05,1.4975726e-05,1.0,40,0.020856695,4.4188855e-06,0,1.1672207703845237e-08,1.0
9,9,1905053.1,958.8157,5265.518,5352.103,-79.67989,7.844500985898776,0.0024074025,1.9491656e-05,1.5866164e-05,1.5356958e-05,1.0,40,0.020620624,3.852808e-06,0,1.1660136993643594e-08,1.0
10,10,1648567.4,1155.498,6318.597,6423.383,-79.63669,8.56349027340184,0.0024414428,-5.4698958e-06,1.5278925e-05,1.4784495e-05,1.0,41,0.018959057,2.9515688e-06,0,1.589066242707165e-08,1.0
11,11,1426616.2,1427.5765,7251.256,7390.446,-78.86244,8.979483599803643,0.00240349,1.991873e-06,1.538508e-05,1.4811018e-05,1.0,41,0.021860378,2.9579242e-06,0,1.5862739707665065e-08,1.0
12,12,1234551.2,1732.0089,8206.11,8386.9,-78.08189,9.531487226049649,0.0023983847,1.3084531e-06,1.5709908e-05,1.5039915e-05,1.0,41,0.021034872,2.5080628e-06,0,1.4555180666778572e-08,1.0
13,13,1068345.5,2134.6045,9433.275,9671.774,-77.24958,10.083499812259106,0.0024110917,3.0756605e-06,1.5792319e-05,1.5023067e-05,1.0,41,0.020718463,2.1421574e-06,0,1.3944278510348025e-08,1.0
14,14,924510.06,2748.7268,10688.167,11035.96,-75.577515,10.635489625128685,0.0023997077,-8.740229e-07,1.6106651e-05,1.5107461e-05,1.0,41,0.020319352,1.8411948e-06,0,1.4115015162581636e-08,1.0
15,15,800039.0,3405.3467,10892.215,11412.131,-72.63865,11.187491571326973,0.0023818957,2.660395e-06,1.8263869e-05,1.6637638e-05,1.0,41,0.020526107,1.7986218e-06,0,1.4395743411859662e-08,1.0
16,16,692334.1,4288.211,13550.191,14212.545,-72.43906,11.73948522421415,0.0023885844,2.861511e-06,1.69652e-05,1.5420772e-05,1.0,41,0.02040097,1.4354199e-06,0,1.5215619908242198e-08,1.0
17,17,599122.25,5189.7417,15379.193,16231.235,-71.35292,12.291495037119603,0.0024345675,1.9114495e-07,1.7273134e-05,1.5507261e-05,1.0,41,0.020550974,1.2661374e-06,0,1.4284194705854563e-08,1.0
18,18,518454.94,6396.279,17215.805,18365.629,-69.618195,12.843480850016931,0.0024042164,1.7162698e-06,1.783125e-05,1.5668407e-05,1.0,41,0.020616896,1.1225804e-06,0,1.4549238977417013e-08,1.0
19,19,448662.03,8106.0366,19089.775,20739.512,-66.99261,13.39549674288719,0.002458323,-1.3414303e-06,1.8582323e-05,1.5743619e-05,1.0,41,0.020261591,9.76956e-07,0,1.4455400872482945e-08,1.0
20,20,388258.97,10786.517,21821.809,24342.15,-63.69682,13.947488315781811,0.002514535,-7.994996e-06,1.8784858e-05,1.5096334e-05,1.0,41,0.020866802,8.572292e-07,0,1.4613650714803977e-08,1.0
21,21,335983.9,12844.342,25684.277,28716.88,-63.43102,14.499480395315913,0.00241275,3.2562916e-06,1.8443116e-05,1.4753479e-05,1.0,41,0.020171328,7.0242055e-07,0,1.5689888807641082e-08,1.0
22,22,290751.2,15685.287,24903.328,29431.344,-57.795345,15.051491781574441,0.0023993538,2.1185008e-06,2.1980686e-05,1.5737503e-05,1.0,41,0.020631848,7.010162e-07,0,1.652849703782522e-08,1.0
23,23,251605.19,18661.254,26368.229,32303.65,-54.712296,15.603493807750056,0.0023601712,5.474148e-06,2.398941e-05,1.5983736e-05,1.0,41,0.020366576,6.3047287e-07,0,1.6970897351834918e-08,1.0
24,24,217729.38,22272.996,27986.02,35767.355,-51.48507,16.15548466067412,0.0024290713,7.49799e-07,2.6119325e-05,1.5990814e-05,1.0,41,0.020224314,5.654406e-07,0,1.7275434930474554e-08,1.0
25,25,188418.58,26163.545,28922.01,39000.176,-47.86675,16.707501620199764,0.0024363378,-1.0583775e-06,2.9205721e-05,1.606171e-05,1.0,41,0.020785503,5.3295923e-07,0,1.6587464307832533e-08,1.0
26,26,163051.14,30799.385,29388.38,42570.87,-43.65704,17.25950295306393,0.002410514,-8.3491653e-07,3.321396e-05,1.582876e-05,1.0,41,0.020304851,4.7696585e-07,0,1.698312512570826e-08,1.0
27,27,141098.2,34152.652,28757.273,44647.336,-40.098103,17.811479672644055,0.002386833,4.4834674e-06,3.9223916e-05,1.6272536e-05,1.0,41,0.02021835,4.528456e-07,0,1.748032559952506e-08,1.0
28,28,122105.11,38795.695,27752.691,47700.293,-35.57822,18.227494145714445,0.002466987,-2.3078996e-06,4.6965743e-05,1.589825e-05,1.0,41,0.021904685,4.5921487e-07,0,1.7178173672142014e-08,1.0
29,29,105663.59,41496.664,26891.352,49448.133,-32.94471,18.779503158613807,0.0024433618,1.5617067e-06,5.6012137e-05,1.6565617e-05,1.0,41,0.02044504,4.1346433e-07,0,1.7240052548436956e-08,1.0
30,30,91439.65,45662.74,28307.826,53725.402,-31.79613,19.361502812913386,0.002443958,-2.8484382e-07,6.1486404e-05,1.706997e-05,1.0,42,0.020134345,3.7476397e-07,0,1.684714165931685e-08,1.0
31,31,79127.08,49216.613,26265.887,55786.844,-28.087917,19.77750091269263,0.002420631,-2.878237e-07,7.657781e-05,1.6975535e-05,1.0,42,0.021015266,3.7670648e-07,0,1.684409416119248e-08,1.0
32,32,68475.36,51972.023,24962.096,57655.85,-25.654915,20.19348602576065,0.0025048465,-6.6703103e-07,9.311181e-05,1.7453402e-05,1.0,42,0.021760857,3.774267e-07,0,1.6843454533981825e-08,1.0
33,33,59252.523,54526.426,22793.3,59098.777,-22.68605,20.745487758686068,0.0024600744,-1.7085804e-07,0.00011784362,1.7529257e-05,1.0,42,0.020203978,3.4186795e-07,0,1.6879280670801478e-08,1.0
34,34,51282.285,57242.312,21214.023,61046.844,-20.334724,21.16148292509024,0.0023629472,4.43771e-07,0.00014629507,1.7666454e-05,1.0,42,0.020702884,3.391311e-07,0,1.6870727307263443e-08,1.0
35,35,44369.8,58986.816,18225.365,61738.227,-17.169765,21.57748593154247,0.0023857711,1.6830586e-07,0.00019681419,1.715144e-05,1.0,42,0.021059653,3.4111204e-07,0,1.692258704265104e-08,1.0
36,36,38403.727,60560.24,16251.933,62703.01,-15.021948,21.993481711280765,0.0024183022,2.0608963e-08,0.00025500092,1.7130695e-05,1.0,42,0.021371968,3.4084437e-07,0,1.6864616841150296e-08,1.0
37,37,33226.32,61402.63,14734.418,63145.75,-13.493781,22.409479571011616,0.0024993129,-9.1623394e-07,0.00032509098,1.7700382e-05,1.0,42,0.021510141,3.4064274e-07,0,1.681193998908596e-08,1.0
38,38,28754.086,62371.56,12602.764,63632.074,-11.423348,22.82549444414326,0.002335838,7.862882e-07,0.00043919234,1.7227974e-05,1.0,42,0.02163527,3.4000573e-07,0,1.6731430349984343e-08,1.0
39,39,24884.947,63318.453,10942.097,64256.953,-9.804482,23.241495717229554,0.002509486,-7.01486e-07,0.00058449776,1.6948985e-05,1.0,42,0.02173694,3.3828152e-07,0,1.6751218066948186e-08,1.0
40,40,21553.963,63719.234,9978.026,64495.75,-8.899878,23.65848381703836,0.0023961863,1.0924909e-08,0.0007400283,1.771232e-05,1.0,42,0.021659566,3.3582936e-07,0,1.6643136547882026e-08,1.0
41,41,18631.234,63908.668,8271.443,64441.715,-7.374569,24.0744951168017,0.0023341984,5.871864e-07,0.0010327548,1.7014752e-05,1.0,42,0.021612331,3.3537796e-07,0,1.651766222180099e-08,1.0
42,42,16126.037,64360.555,6974.4155,64737.344,-6.1847095,24.490483243222116,0.0024475353,-1.6526768e-07,0.0014150918,1.642444e-05,1.0,42,0.021480856,3.3181553e-07,0,1.650867885600555e-08,1.0
43,43,13954.87,63471.12,7607.241,63925.375,-6.8345027,24.90648054299527,0.0024474608,-1.9432223e-07,0.0014992262,2.123122e-05,1.0,42,0.020988995,3.283359e-07,0,1.6706553159916798e-08,1.0
44,44,12080.609,64972.418,4823.5605,65151.223,-4.245857,25.322497869405197,0.002480793,-6.7931967e-07,0.002731263,1.4971105e-05,1.0,42,0.02106333,3.2329908e-07,0,1.6805429826966742e-08,1.0
45,45,10447.592,64520.414,4306.1587,64663.953,-3.8183165,25.738479649153305,0.0024445355,-4.4222165e-07,0.003537642,1.5688067e-05,1.0,42,0.020492379,3.1690575e-07,0,1.6869508623000803e-08,1.0
46,46,9045.586,64669.934,3572.795,64768.55,-3.1621833,26.31126863634563,0.0024135883,9.6044374e-08,0.0049246494,1.4985221e-05,1.0,42,0.020453036,3.1578654e-07,0,1.661705222218609e-08,1.0
47,47,7827.7437,64429.22,3094.0037,64503.465,-2.7493312,26.791944792552385,0.0024571493,-2.7906535e-07,0.0065714726,1.5119529e-05,1.0,42,0.020540051,3.184333e-07,0,1.6409147754126508e-08,1.0
48,48,6770.8345,64134.91,2407.4407,64180.08,-2.14971,27.330408311419887,0.0025448117,-3.4406665e-07,0.009763878,1.3738302e-05,1.0,42,0.020665307,3.2198943e-07,0,1.637193670469698e-08,1.0
49,49,5860.798,64225.55,2433.5742,64271.64,-2.1699595,27.93697098028497,0.0024917298,-9.4621635e-07,0.011158833,1.5998128e-05,1.0,42,0.02083826,3.242217e-07,0,1.6418799525602977e-08,1.0
50,50,5071.625,63847.02,2146.6785,63883.098,-1.9256858,28.617709945960087,0.0024184699,-3.4330316e-08,0.014618607,1.6506998e-05,1.0,42,0.020913236,3.2736727e-07,0,1.6294981925069803e-08,1.0
51,51,4388.5933,63854.47,2456.8857,63901.72,-2.2034445,29.29784411158471,0.0023999126,1.1914097e-07,0.014760799,2.1819997e-05,1.0,42,0.021049885,3.294103e-07,0,1.6500102513006413e-08,1.0
52,52,3798.7827,63734.016,1775.4802,63758.742,-1.5957133,29.97783587721642,0.0023929258,2.6776945e-07,0.023597166,1.8298355e-05,1.0,42,0.021132246,3.3144076e-07,0,1.660075742385055e-08,1.0
53,53,3286.0488,63716.316,1941.2202,63745.88,-1.7450686,30.657679802854545,0.0024359277,3.5328537e-08,0.024950044,2.3137514e-05,1.0,42,0.0212295,3.3303328e-07,0,1.6440172029499225e-08,1.0
54,54,2844.088,63583.594,1893.5248,63611.78,-1.705769,31.337835195154184,0.0024627575,-5.7424206e-08,0.02955331,2.6186231e-05,1.0,42,0.021277932,3.3449672e-07,0,1.6702739104468633e-08,1.0
55,55,2460.7852,63493.555,2189.8384,63531.305,-1.9752995,32.01771832078521,0.0024759115,-1.999058e-07,0.029534822,3.5089965e-05,1.0,42,0.02130641,3.353687e-07,0,1.685332307792474e-08,1.0
56,56,2129.3164,63557.227,2329.2754,63599.895,-2.0988636,32.69780805974733,0.0024482806,-1.9059313e-07,0.032089215,4.3041557e-05,1.0,42,0.02137888,3.3614648e-07,0,1.6954818488730063e-08,1.0
57,57,1843.2289,63604.188,2500.558,63653.324,-2.2513874,33.377973158698296,0.00245646,-1.3211024e-07,0.034530584,5.3288764e-05,1.0,42,0.021408109,3.363235e-07,0,1.6966742734713374e-08,1.0
58,58,1594.4913,63580.887,2822.9114,63643.523,-2.5421908,34.057833111000946,0.0023850817,3.3165537e-07,0.035359062,6.956436e-05,1.0,42,0.021421658,3.365882e-07,0,1.7106192196116962e-08,1.0
59,59,1380.4436,63481.125,3097.2668,63556.637,-2.7932668,34.73771906330512,0.0024019808,2.2664723e-08,0.037223984,8.840122e-05,1.0,42,0.02140954,3.3685765e-07,0,1.739656644576599e-08,1.0
60,60,1194.6187,63659.99,3525.5603,63757.54,-3.1698651,35.41780173560255,0.0024364123,-3.513275e-07,0.037788764,0.00011554626,1.0,42,0.021435544,3.3620407e-07,0,1.7158530872086373e-08,1.0
61,61,1033.3434,63654.016,4051.9692,63782.85,-3.642314,36.09806414123159,0.0024041978,2.8527882e-07,0.038011003,0.00015340296,1.0,42,0.021432986,3.3603055e-07,0,1.6967946080966635e-08,1.0
62,62,894.71045,63986.1,4448.845,64140.574,-3.9772778,36.77782934687275,0.0024212273,-7.418585e-08,0.03998438,0.00019236199,1.0,42,0.021481812,3.3491767e-07,0,1.7116113560595576e-08,1.0
63,63,774.2569,64185.47,5067.8926,64385.23,-4.5145373,37.45794577916968,0.0024173332,3.0301038e-08,0.04056091,0.00025129854,1.0,42,0.021493929,3.338332e-07,0,1.738729144897169e-08,1.0
64,64,669.7856,64586.33,5810.9917,64847.215,-5.1412005,38.13780530479562,0.002380815,6.870763e-10,0.0408916,0.0003283613,1.0,42,0.021546142,3.322601e-07,0,1.7277331074143e-08,1.0
65,65,579.81464,64684.426,6556.223,65015.836,-5.7875667,38.817812323759426,0.0024964437,-8.033241e-08,0.04186752,0.0004257419,1.0,42,0.021516472,3.3094202e-07,0,1.7067355272600813e-08,1.0
66,66,501.44418,64940.05,7332.2974,65352.68,-6.4419103,39.495169315923704,0.0023721326,1.7036177e-07,0.043286998,0.00054489245,1.0,42,0.021509469,3.291291e-07,0,1.7029446535459434e-08,1.0
67,67,434.02762,65151.395,8809.862,65744.336,-7.7009053,40.17519185485435,0.0024263323,-6.0031184e-08,0.041623026,0.00074740365,1.0,42,0.021482848,3.2676348e-07,0,1.7346376808444753e-08,1.0
68,68,375.6009,65654.66,9138.552,66287.61,-7.9241567,40.854420633782865,0.0024610248,-2.0269958e-07,0.046367764,0.00088126434,1.0,42,0.021474974,3.2396665e-07,0,1.7506837670545493e-08,1.0
69,69,325.10385,66246.79,10070.858,67007.91,-8.643941,41.5336787460983,0.0024265002,-4.9229286e-08,0.04861066,0.0010980255,1.0,42,0.021487897,3.2067706e-07,0,1.771732396828845e-08,1.0
70,70,281.3503,66842.11,11405.394,67808.19,-9.6832285,42.21079941825883,0.0024349217,-2.3380404e-07,0.049597807,0.0014031973,1.0,42,0.021483755,3.168313e-07,0,1.8050866038283925e-08,1.0
71,71,243.36427,67232.11,12752.953,68430.945,-10.740572,42.89410985066206,0.0024532366,-2.915424e-07,0.051280536,0.0017810209,1.0,42,0.021426199,3.1310685e-07,0,1.7646981200097816e-08,1.0
72,72,210.60631,68533.805,14194.542,69988.336,-11.701502,43.571201749524334,0.002448765,-3.0607e-07,0.053238694,0.0021898723,1.0,42,0.021515442,3.074147e-07,0,1.736267301017877e-08,1.0
73,73,182.27473,68974.53,15655.26,70728.87,-12.78786,44.2422633546812,0.0024291086,-1.4587116e-08,0.055774204,0.002732502,1.0,42,0.021419121,3.0283422e-07,0,1.755168531055388e-08,1.0
74,74,157.72879,70228.766,17343.367,72338.59,-13.87194,44.930630560784266,0.0024216373,-1.9057579e-08,0.05818027,0.0033442785,1.0,42,0.02143881,2.9636752e-07,0,1.7507992524900452e-08,1.0
75,75,136.52892,71637.27,19195.885,74164.555,-15.000548,45.60251392595819,0.0024695208,-2.855829e-07,0.06072777,0.00406828,1.0,42,0.021484451,2.8968626e-07,0,1.776155337327554e-08,1.0
76,76,118.14758,73095.09,21024.738,76058.74,-16.04711,46.29091099870857,0.0024323505,-9.1882015e-08,0.06407147,0.0048958445,1.0,42,0.021491209,2.8256068e-07,0,1.7567900262446872e-08,1.0
77,77,102.25773,74725.37,23253.14,78259.75,-17.285168,46.95735367035377,0.0024670428,-2.9787589e-07,0.06693332,0.0059092,1.0,42,0.021528764,2.750937e-07,0,1.7676615961979398e-08,1.0
78,78,88.4436,76398.68,25284.678,80474.055,-18.312323,47.647298129770206,0.002440623,-6.170965e-08,0.07116988,0.0070258575,1.0,42,0.02149947,2.6716026e-07,0,1.7699119799511405e-08,1.0
79,79,76.54279,78116.4,27596.924,82847.82,-19.457273,48.3147069348488,0.0023919942,2.6385703e-07,0.07534513,0.008360155,1.0,42,0.021471873,2.5917245e-07,0,1.775433096213192e-08,1.0
80,80,66.250786,80486.29,30308.393,86003.73,-20.634665,48.982983606576454,0.0023879325,1.0927958e-08,0.07926221,0.009843679,1.0,42,0.021532247,2.503641e-07,0,1.7820690470138443e-08,1.0
81,81,57.329906,82921.64,32586.635,89094.82,-21.453888,49.6376494510223,0.0024466596,-1.4738572e-07,0.085192114,0.011396552,1.0,42,0.021516556,2.4150177e-07,0,1.7582620071888537e-08,1.0
82,82,49.60321,84853.26,35315.03,91908.8,-22.596563,50.32338292352506,0.0024170538,-1.8724346e-07,0.090855405,0.013413922,1.0,42,0.021431493,2.3318218e-07,0,1.74841672998823e-08,1.0
83,83,42.92585,87954.47,38322.36,95940.56,-23.543085,51.03143855716917,0.0024006765,8.9898386e-08,0.09674956,0.015436504,1.0,42,0.021502042,2.2411837e-07,0,1.7789184193320947e-08,1.0
84,84,37.1518,90831.98,42043.66,100090.55,-24.83814,51.67618338778266,0.0024268355,-2.2038648e-08,0.101891935,0.01797855,1.0,42,0.021524007,2.1504535e-07,0,1.7908405787544762e-08,1.0
85,85,32.150223,93915.45,44513.758,103930.68,-25.359873,52.31436245809891,0.0024507586,-7.344432e-08,0.1112095,0.020400597,1.0,42,0.021451125,2.0639838e-07,0,1.748738631080165e-08,1.0
86,86,27.835518,97687.18,48034.87,108858.32,-26.18433,53.042327452712925,0.0024264536,-9.1045536e-08,0.11903212,0.023176838,1.0,42,0.021476353,1.9728719e-07,0,1.7750256150619513e-08,1.0
87,87,24.082958,101220.875,51778.336,113695.48,-27.091476,53.7444085526804,0.0024602236,-1.2987874e-07,0.12763278,0.026471103,1.0,42,0.021472411,1.8885898e-07,0,1.7544162942345644e-08,1.0
88,88,20.833313,105392.34,55538.984,119130.7,-27.788048,54.398760957148625,0.0023912117,3.3649346e-08,0.13755102,0.029895946,1.0,42,0.021463053,1.8016391e-07,0,1.71166002427655e-08,1.0
89,89,18.021912,109647.46,59990.715,124985.805,-28.68411,55.1447500592476,0.0022939912,-1.07436286e-07,0.1472093,0.033914227,1.0,42,0.021480793,1.7186586e-07,0,1.7393920286277325e-08,1.0
90,90,15.604198,114600.58,64413.957,131462.73,-29.33919,55.80002742368379,0.0023947703,3.1004532e-07,0.15834294,0.038014855,1.0,42,0.021493012,1.634913e-07,0,1.7499194880220733e-08,1.0
91,91,13.500899,121676.695,69761.82,140256.66,-29.827269,56.8199892588018,0.002450414,-1.2350937e-07,0.16898169,0.041805007,1.0,43,0.02149438,1.5325034e-07,0,1.6965595019427602e-08,1.0
92,92,11.686608,127196.04,74368.05,147341.23,-30.31366,57.41087355354102,0.0024872583,-1.7867056e-07,0.183124,0.04665191,1.0,43,0.02148932,1.458473e-07,0,1.669603205574482e-08,1.0
93,93,10.113269,132256.31,79758.56,154444.69,-31.09252,58.08453342548455,0.0024380519,-1.6734798e-07,0.19731098,0.052621104,1.0,43,0.02144821,1.3887308e-07,0,1.5942727470683296e-08,1.0
94,94,8.748621,138385.28,85303.875,162564.56,-31.650635,58.85138804858434,0.002403052,-1.791927e-07,0.21326116,0.05872155,1.0,43,0.021494372,1.3222052e-07,0,1.607220064890047e-08,1.0
95,95,7.570237,144503.34,91006.625,170773.02,-32.202274,59.726980996871134,0.002394174,-1.0769995e-07,0.23101364,0.06560624,1.0,43,0.021481415,1.2578928e-07,0,1.7052775505848296e-08,1.0
96,96,6.554112,150655.94,97351.96,179372.84,-32.870033,60.26329576902208,0.002420035,-3.8650396e-07,0.2494374,0.07347466,1.0,43,0.021479875,1.1974987e-07,0,1.5519874272513136e-08,1.0
97,97,5.669445,157094.69,103378.77,188058.27,-33.347584,60.87311379794846,0.0024481316,8.461859e-08,0.271549,0.08205898,1.0,43,0.02145332,1.1407804e-07,0,1.7143920330557598e-08,1.0
98,98,4.907347,163053.73,111018.2,197260.14,-34.24973,61.56554863086785,0.0024128058,-3.726856e-07,0.29213202,0.09253134,1.0,43,0.021447577,1.0872737e-07,0,1.5614345192478937e-08,1.0
99,99,4.245922,169620.23,119074.69,207243.34,-35.069145,62.353288348269416,0.002431512,3.6181749e-09,0.3147956,0.103921734,1.0,43,0.021474099,1.0361779e-07,0,1.6049720812825136e-08,1.0
100,100,3.6747382,175133.47,128241.03,217065.64,-36.21336,63.25296348435222,0.0024217397,-1.0899458e-07,0.33772773,0.11787957,1.0,43,0.021462254,9.887449e-08,0,1.731755212965148e-08,1.0
101,101,3.180988,181063.53,139262.34,228425.05,-37.565155,64.28117030652356,0.0024533763,-2.9888315e-07,0.35927284,0.13353783,1.0,43,0.021492394,9.408948e-08,0,1.5642272291858105e-08,1.0
102,102,2.752818,187005.03,150817.56,240243.25,-38.885803,65.46013513582875,0.0024382325,-1.4766881e-07,0.38334578,0.15107484,1.0,43,0.021490706,8.945394e-08,0,1.4852778466763854e-08,1.0
103,103,2.3804083,191595.62,165331.66,253068.05,-40.79156,66.81402858684305,0.0024306804,-6.638002e-08,0.4044014,0.17260368,1.0,43,0.021482402,8.488785e-08,0,1.6542262483589216e-08,1.0
104,104,2.060257,197123.03,180847.31,267513.06,-42.53432,68.37031244739774,0.002403476,-1.3066742e-07,0.4271562,0.19521843,1.0,43,0.021459734,8.021939e-08,0,1.7632900309654746e-08,1.0
105,105,1.7836765,201754.8,201032.69,284814.22,-44.89728,70.1586630390484,0.0024272162,-2.1737289e-07,0.44385117,0.22112986,1.0,43,0.021485744,7.5437754e-08,0,1.6266955034787344e-08,1.0
