True,index,freq,Re(Z),Im(Z),Z,Phase(Z),time,Ewe_meas,I_meas,Cs,Cp,cycle_number,I_Range,Ewe,I,Ns,(QQo),cycle
0,0,7000018.5,321.31998,1569.0327,1601.5962,-78.4265,2.467476383812027,0.0031911274,2.8422326e-05,1.4490686e-05,1.3907431e-05,1.0,40,0.010003407,6.245898e-06,0,1.0980847651151433e-08,1.0
1,1,6057573.0,493.81848,1824.2561,1889.9119,-74.85327,3.0194822500634473,0.003217324,-2.2952743e-06,1.4402427e-05,1.3419125e-05,1.0,40,0.014197648,7.512333e-06,0,1.0931629060754251e-08,1.0
2,2,5242039.0,434.7323,2046.1473,2091.82,-78.00508,3.435483896493679,0.0032662323,-1.4760869e-05,1.48382605e-05,1.4197378e-05,1.0,40,0.019686922,9.411384e-06,0,8.684330419688043e-09,1.0
3,3,4536288.0,455.6534,2331.882,2375.9827,-78.94363,4.667493528308114,0.0032517554,-2.5440357e-05,1.5045718e-05,1.4492375e-05,1.0,40,0.020987006,8.83298e-06,0,9.301847438646544e-09,1.0
4,4,3925558.5,563.93695,2624.7966,2684.694,-77.874344,5.08348280141945,0.003204673,-1.8426133e-05,1.5446249e-05,1.4764703e-05,1.0,40,0.019653007,7.3203896e-06,0,6.0240884349380195e-09,1.0
5,5,3397055.0,683.3943,2994.6934,3071.6797,-77.14513,5.499486207874725,0.00318347,-6.8349673e-06,1.5644626e-05,1.4870243e-05,1.0,40,0.020878576,6.79712e-06,0,8.016257327344394e-09,1.0
6,6,2939708.2,767.4436,3356.1167,3442.7444,-77.11962,6.051493540726369,0.0031549823,6.5423114e-06,1.6131651e-05,1.5330044e-05,1.0,40,0.020984186,6.0951916e-06,0,3.971965513770215e-09,1.0
7,7,2543924.5,846.2551,3836.5283,3928.7527,-77.56098,6.603485726955114,0.003139965,-4.4348776e-06,1.6307129e-05,1.555052e-05,1.0,40,0.020445613,5.2040978e-06,0,3.645864642629072e-09,1.0
8,8,2201436.2,1029.3636,4359.6885,4479.5615,-76.715225,7.15648615322425,0.0031580937,-6.9465987e-06,1.6582826e-05,1.5707188e-05,1.0,40,0.020504747,4.5774004e-06,0,3.41793085930754e-09,1.0
9,9,1905053.1,1263.5518,4837.4272,4999.7266,-75.36123,7.708498392748879,0.003186004,-1.477947e-05,1.7270248e-05,1.6167207e-05,1.0,40,0.020621471,4.12452e-06,0,2.797842275444711e-09,1.0
10,10,1648567.4,1360.8148,5921.632,6075.9805,-77.0579,8.42648741355515,0.0031468216,-9.820437e-07,1.630317e-05,1.5485388e-05,1.0,41,0.01905594,3.136274e-06,0,-2.2666143560299032e-10,1.0
11,11,1426616.2,1580.1545,6552.7573,6740.5874,-76.44234,8.842479966609972,0.0031548147,1.9673129e-07,1.702507e-05,1.6089463e-05,1.0,41,0.02188208,3.2463165e-06,0,-6.050774020138761e-11,1.0
12,12,1234551.2,1941.9479,7598.2793,7842.513,-75.66339,9.39449004616472,0.0031661799,1.3214867e-06,1.6966636e-05,1.592633e-05,1.0,41,0.020929508,2.6687246e-06,0,7.874121065417505e-10,1.0
13,13,1068345.5,2499.2507,8610.954,8966.313,-73.81511,9.946496552409371,0.0031468775,1.6715761e-06,1.730044e-05,1.5956288e-05,1.0,41,0.020979427,2.3398052e-06,0,1.6445620563590384e-09,1.0
14,14,924510.06,2979.6338,9648.301,10097.917,-72.83802,10.498499911947874,0.003153529,8.9504715e-07,1.784258e-05,1.6289048e-05,1.0,41,0.020130489,1.993529e-06,0,1.473746415889031e-09,1.0
15,15,800039.0,3366.2954,10029.57,10579.425,-71.44634,11.050502604834037,0.0032031452,-2.0173986e-06,1.9834746e-05,1.7826545e-05,1.0,41,0.020571109,1.9444449e-06,0,8.365657450843697e-10,1.0
16,16,692334.1,4511.2646,12218.988,13025.175,-69.735794,11.602504337701248,0.0031966614,-1.2911495e-06,1.881348e-05,1.6556653e-05,1.0,41,0.020391699,1.5655605e-06,0,1.2402134493483017e-09,1.0
17,17,599122.25,5810.3804,13678.28,14861.221,-66.98476,12.154502470599255,0.0031723285,6.9952006e-07,1.9421072e-05,1.6452323e-05,1.0,41,0.020540526,1.382156e-06,0,1.8620991797416226e-09,1.0
18,18,518454.94,7177.1577,15164.627,16777.291,-64.67261,12.706492070137756,0.0031602737,2.6045286e-06,2.0243117e-05,1.6538539e-05,1.0,41,0.020428779,1.2176447e-06,0,4.547597564068282e-10,1.0
19,19,448662.03,8657.599,16750.277,18855.393,-62.667233,13.25848374972702,0.003140673,3.8689477e-06,2.11777e-05,1.6712893e-05,1.0,41,0.020114414,1.0667725e-06,0,6.109158512954435e-10,1.0
20,20,388258.97,11493.937,17989.385,21347.799,-57.424316,13.810488629242172,0.0031733904,-1.12389465e-07,2.2786748e-05,1.6181126e-05,1.0,41,0.02106473,9.867401e-07,0,1.4091155683186368e-09,1.0
21,21,335983.9,13764.088,19320.701,23722.133,-54.533886,14.362498228816548,0.0031759057,-2.1294798e-07,2.4517643e-05,1.6263613e-05,1.0,41,0.02022028,8.523803e-07,0,1.4725022364593265e-09,1.0
22,22,290751.2,15626.93,20042.371,25414.516,-52.05665,14.914502121711848,0.003167894,5.8779057e-07,2.7311751e-05,1.6985723e-05,1.0,41,0.020639222,8.121037e-07,0,6.726872502551057e-10,1.0
23,23,251605.19,18480.527,20967.63,27949.443,-48.607574,15.466481507901335,0.0031508275,2.0849805e-06,3.0168323e-05,1.6978667e-05,1.0,41,0.020200377,7.22747e-07,0,1.219393811226155e-09,1.0
24,24,217729.38,21583.61,20904.824,30047.693,-44.084736,16.018499187455745,0.0031303884,8.5000984e-08,3.4966855e-05,1.6924949e-05,1.0,41,0.020295199,6.7543283e-07,0,6.583517709531052e-10,1.0
25,25,188418.58,24162.469,21178.83,32130.48,-41.235138,16.570485827018274,0.0031422754,1.8317247e-06,3.988361e-05,1.7328617e-05,1.0,41,0.020277083,6.310856e-07,0,1.5403887598542571e-09,1.0
26,26,163051.14,27191.156,20716.781,34183.973,-37.303562,17.12249097324093,0.0031465234,2.4946607e-06,4.711661e-05,1.7305076e-05,1.0,41,0.020619897,6.0320366e-07,0,9.478720990961797e-10,1.0
27,27,141098.2,30196.861,19932.719,36182.367,-33.4285,17.674493959493702,0.0031268855,2.8354389e-06,5.658901e-05,1.717399e-05,1.0,41,0.020230027,5.5911283e-07,0,1.7609975268126417e-09,1.0
28,28,122105.11,32776.13,18868.537,37819.258,-29.92814,18.090482939238427,0.0031680432,6.8276233e-07,6.9079324e-05,1.7194856e-05,1.0,41,0.02189534,5.7894687e-07,0,2.1301030028205838e-09,1.0
29,29,105663.59,34762.77,17904.305,39102.613,-27.250393,18.642485872114776,0.0031736325,1.1073373e-06,8.4127365e-05,1.7637647e-05,1.0,41,0.020500854,5.2428345e-07,0,1.6881898153494983e-09,1.0
30,30,91439.65,36735.06,16357.777,40212.453,-24.002962,19.05847999852267,0.0031419029,3.4965137e-06,0.00010640482,1.7607137e-05,1.0,41,0.021751935,5.409253e-07,0,1.585490853727044e-09,1.0
31,31,79127.08,38174.527,14759.297,40928.367,-21.13784,19.61049554476631,0.0031530818,2.2652667e-07,0.00013627912,1.7721963e-05,1.0,41,0.020177506,4.9299564e-07,0,1.5001295154901426e-09,1.0
32,32,68475.36,39750.297,13443.331,41961.996,-18.685255,20.026479831169127,0.0031457595,2.7851618e-06,0.00017289359,1.774518e-05,1.0,41,0.021075705,5.0225697e-07,0,2.1600612423581863e-09,1.0
33,33,59252.523,40686.164,11842.912,42374.74,-16.2292,20.442501904297387,0.0031644658,-2.837086e-07,0.0002268061,1.7715676e-05,1.0,41,0.021806614,5.1461353e-07,0,2.6761235394374693e-09,1.0
34,34,51282.285,41616.105,11016.546,43049.56,-14.8271475,20.994502410496352,0.003201636,4.3136586e-07,0.00028171326,1.8448489e-05,1.0,41,0.020229295,4.6990715e-07,0,2.2712254158755564e-09,1.0
35,35,44369.8,42299.21,9382.089,43327.207,-12.505913,21.410483443556586,0.0031575535,1.6250225e-06,0.00038232538,1.7927132e-05,1.0,41,0.020642847,4.7644076e-07,0,2.581587380231238e-09,1.0
36,36,38403.727,42913.504,8096.404,43670.59,-10.684289,21.82648618335952,0.0031338166,5.2618593e-06,0.000511864,1.7593846e-05,1.0,41,0.020929953,4.7926886e-07,0,3.171729127539417e-09,1.0
37,37,33226.32,43195.97,7190.191,43790.3,-9.45053,22.242496896447847,0.003113657,3.7143886e-06,0.000666189,1.7960667e-05,1.0,41,0.021158189,4.8317065e-07,0,3.1040056413884383e-09,1.0
38,38,28754.086,43557.137,6264.951,44005.383,-8.184886,22.658496489544632,0.0031816629,8.5408203e-07,0.0008834925,1.7907158e-05,1.0,41,0.021275094,4.834657e-07,0,2.981414163362691e-09,1.0
39,39,24884.947,43744.273,5710.569,44115.44,-7.4375815,23.074489122634986,0.0031561188,3.844694e-08,0.0011199639,1.8766425e-05,1.0,41,0.021296652,4.8274825e-07,0,3.5086375166947113e-09,1.0
40,40,21553.963,43779.688,5007.397,44065.12,-6.5249743,23.490493995690485,0.0031547958,5.039933e-07,0.0014746229,1.904211e-05,1.0,41,0.021251747,4.822805e-07,0,4.8489727920153e-09,1.0
41,41,18631.234,44140.156,4401.038,44359.02,-5.693914,23.906482042133575,0.003138046,2.330789e-06,0.0019409903,1.9105999e-05,1.0,41,0.021147707,4.7673976e-07,0,5.118247777463441e-09,1.0
42,42,16126.037,46407.613,3955.2666,46575.86,-4.8714795,24.488486016431125,0.0031396856,1.5340943e-07,0.0024952653,1.7994776e-05,1.0,42,0.0189374,4.065926e-07,0,5.590722050598629e-09,1.0
43,43,13954.87,46508.25,2775.0513,46590.97,-3.4146721,24.904484729544492,0.0031567896,-6.860155e-08,0.004109825,1.4580146e-05,1.0,42,0.018882649,4.052856e-07,0,5.584411312224486e-09,1.0
44,44,12080.609,46015.992,2728.3794,46096.81,-3.3932078,25.320503442635527,0.0031904385,-2.030746e-07,0.004828659,1.6915868e-05,1.0,42,0.018471401,4.007089e-07,0,5.697896951438964e-09,1.0
45,45,10447.592,46283.777,2292.8267,46340.535,-2.8360257,25.736490475741448,0.003168602,-6.4131285e-08,0.0066440473,1.6264963e-05,1.0,42,0.018155811,3.9179113e-07,0,5.857816838693945e-09,1.0
46,46,9045.586,46160.355,1832.4698,46196.715,-2.2733293,26.16825425621937,0.0031804147,-4.3570074e-07,0.009601666,1.510769e-05,1.0,42,0.020806395,4.503869e-07,0,5.696582955805872e-09,1.0
47,47,7827.7437,46230.92,1507.587,46255.496,-1.8677493,26.647922519041458,0.003146244,-1.6861487e-07,0.013486558,1.43264715e-05,1.0,42,0.021041268,4.5489227e-07,0,5.855674852072291e-09,1.0
48,48,6770.8345,46072.81,1273.3091,46090.4,-1.5830741,27.18639523794991,0.0031093904,4.713453e-07,0.018460527,1.4089347e-05,1.0,42,0.021233426,4.606909e-07,0,5.66876323824323e-09,1.0
49,49,5860.798,45939.965,1187.674,45955.316,-1.4809229,27.791991826728918,0.0031862464,-6.1002856e-07,0.022864733,1.527176e-05,1.0,42,0.021431074,4.663459e-07,0,5.376924566235965e-09,1.0
50,50,5071.625,45796.957,1069.2584,45809.438,-1.3374877,28.472715885734942,0.0031366113,-1.3092888e-08,0.029348798,1.5989901e-05,1.0,42,0.021601344,4.715479e-07,0,5.5116918342000705e-09,1.0
51,51,4388.5933,46341.863,828.36127,46349.266,-1.0240536,29.152845331365825,0.0031407664,1.7452441e-08,0.04377993,1.39839185e-05,1.0,42,0.02197473,4.7411172e-07,0,5.445852313644177e-09,1.0
52,52,3798.7827,45589.8,963.4737,45599.98,-1.2106822,29.832843150332337,0.0031427413,3.905796e-08,0.043484636,1.9412713e-05,1.0,42,0.021881761,4.798634e-07,0,5.205296243779855e-09,1.0
53,53,3286.0488,45544.258,930.18365,45553.754,-1.170031,30.733684446458938,0.0031704465,1.3143797e-07,0.05206878,2.1710333e-05,1.0,42,0.020154111,4.424248e-07,0,4.52107195684527e-09,1.0
54,54,2844.088,45419.316,1166.7156,45434.3,-1.4714704,31.413841865418362,0.0031261777,9.9030444e-08,0.047963638,3.1628195e-05,1.0,42,0.020207807,4.4476985e-07,0,4.184297392583069e-09,1.0
55,55,2460.7852,45481.46,1362.6152,45501.867,-1.7160566,32.093677711054625,0.0031760547,-2.988015e-07,0.047464967,4.2565844e-05,1.0,42,0.02031135,4.4638497e-07,0,4.194808062287336e-09,1.0
56,56,2129.3164,45381.2,1453.2771,45404.465,-1.8341999,32.773848863347666,0.0031749927,-7.306537e-08,0.051431775,5.2690368e-05,1.0,42,0.02034579,4.481011e-07,0,3.933758995321865e-09,1.0
57,57,1843.2289,45400.8,1798.3582,45436.402,-2.268341,33.4539327089733,0.00316754,-7.996665e-10,0.048013642,7.5215816e-05,1.0,42,0.020388827,4.487333e-07,0,4.056350799684102e-09,1.0
58,58,1594.4913,45553.016,1969.852,45595.586,-2.4761026,34.1338139946165,0.0031768745,-1.630242e-07,0.05067157,9.4577095e-05,1.0,42,0.020472653,4.4900514e-07,0,3.960978671638631e-09,1.0
59,59,1380.4436,45445.95,2161.5034,45497.324,-2.723054,34.81370805358165,0.0031316553,8.934585e-08,0.05333908,0.000120388686,1.0,42,0.020445764,4.4938386e-07,0,3.602579918700302e-09,1.0
60,60,1194.6187,45541.81,2341.1135,45601.94,-2.9427457,35.493838592548855,0.003192581,-2.3398587e-07,0.056907352,0.0001499846,1.0,42,0.02047865,4.4907412e-07,0,3.847890595294877e-09,1.0
61,61,1033.3434,45575.715,2748.4893,45658.516,-3.4510999,36.17407830484444,0.0031487406,1.4242748e-07,0.056037843,0.00020306073,1.0,42,0.020485014,4.48657e-07,0,4.145465761587117e-09,1.0
62,62,894.71045,45638.312,3110.275,45744.17,-3.898709,36.85382396381465,0.0031326613,7.85431e-08,0.05719247,0.00026440207,1.0,42,0.020482335,4.4775837e-07,0,3.86259703069827e-09,1.0
63,63,774.2569,45938.785,3595.6243,46079.285,-4.475411,37.53393210275681,0.0032121444,-4.381175e-07,0.05716902,0.00034809508,1.0,42,0.020548372,4.4593511e-07,0,3.4712151175055638e-09,1.0
64,64,669.7856,45934.77,3971.2222,46106.113,-4.9411354,38.213819361742935,0.0031672793,-1.0919749e-07,0.059835672,0.00044390652,1.0,42,0.02049939,4.4461328e-07,0,3.799836512675212e-09,1.0
65,65,579.81464,46158.473,4515.7007,46378.832,-5.5874877,38.893829420703696,0.003184383,-1.1627493e-07,0.060786318,0.00057625736,1.0,42,0.02051368,4.4230697e-07,0,3.896114813091995e-09,1.0
66,66,501.44418,46355.746,5160.2637,46642.08,-6.351943,39.57116603953182,0.0031834887,-1.9263842e-07,0.061507158,0.000752859,1.0,42,0.02051279,4.397915e-07,0,3.813477722242769e-09,1.0
67,67,434.02762,46674.383,5904.448,47046.367,-7.2097898,40.251233831833815,0.0031297177,-3.8236443e-08,0.062104553,0.000978205,1.0,42,0.020532038,4.3642135e-07,0,3.4641721461959998e-09,1.0
68,68,375.6009,47065.406,6542.3037,47517.938,-7.913661,40.92945589069859,0.0031525788,3.7009038e-08,0.06476835,0.0012277475,1.0,42,0.020559471,4.3266758e-07,0,3.3145213946852437e-09,1.0
69,69,325.10385,47267.906,7416.799,47846.254,-8.917559,41.60867690966552,0.0031209234,1.07598204e-07,0.066005714,0.0015860564,1.0,42,0.020511009,4.2868578e-07,0,3.0766257741450748e-09,1.0
70,70,281.3503,47727.55,8252.883,48435.824,-9.810378,42.285797928489046,0.0031999592,-3.0625202e-07,0.06854362,0.001989963,1.0,42,0.020511089,4.234694e-07,0,3.085745692564343e-09,1.0
71,71,243.36427,48358.37,9277.932,49240.35,-10.860668,42.9691289209004,0.0031678195,-2.1846503e-08,0.07048751,0.0025024891,1.0,42,0.020557411,4.1749115e-07,0,2.6825549286597394e-09,1.0
72,72,210.60631,48894.926,10306.752,49969.418,-11.9033375,43.64616156640113,0.0031550382,-1.9226648e-07,0.07332076,0.0031193348,1.0,42,0.02052917,4.1083467e-07,0,2.822569768528164e-09,1.0
73,73,182.27473,49418.67,11380.163,50712.062,-12.968035,44.318256558297435,0.0031975931,-2.518674e-07,0.07672646,0.0038638439,1.0,42,0.020488262,4.0401162e-07,0,2.5960799252220885e-09,1.0
74,74,157.72879,50404.215,12672.266,51972.793,-14.112405,45.006630351061176,0.0031185385,3.57046e-08,0.079625994,0.0047338153,1.0,42,0.02053859,3.9517965e-07,0,2.569602911599923e-09,1.0
75,75,136.52892,51279.363,13990.008,53153.49,-15.260035,45.67852304960252,0.0031449955,-2.2448869e-07,0.08332542,0.0057723136,1.0,42,0.020541143,3.8644956e-07,0,2.4517461069208936e-09,1.0
76,76,118.14758,52260.684,15250.595,54440.42,-16.268183,46.366910175653175,0.0031650248,-1.3192182e-07,0.08833006,0.0069316896,1.0,42,0.020520667,3.7693806e-07,0,2.6717049432447325e-09,1.0
77,77,102.25773,53513.45,16714.8,56063.125,-17.346073,47.03335514062201,0.0031904012,-3.8503765e-07,0.093115665,0.008276954,1.0,42,0.02055642,3.666656e-07,0,2.5368872007973664e-09,1.0
78,78,88.4436,54446.95,18708.66,57571.56,-18.963367,47.72328176003066,0.0031888175,-4.332769e-07,0.0961858,0.0101573495,1.0,42,0.020524208,3.5649907e-07,0,2.5195043171753656e-09,1.0
79,79,76.54279,56099.996,20080.89,59585.668,-19.694735,48.39072568512347,0.0031351207,2.9459224e-07,0.10354589,0.0117602125,1.0,42,0.020549528,3.4487368e-07,0,2.5750271114175246e-09,1.0
80,80,66.250786,57481.67,21965.758,61535.656,-20.913605,49.05898193016765,0.0031694404,-2.073177e-08,0.10936614,0.01393547,1.0,42,0.02053207,3.3366135e-07,0,2.308787327457651e-09,1.0
81,81,57.329906,58800.97,23705.553,63399.582,-21.95678,49.71364118796555,0.0031715832,-1.6634713e-08,0.11710861,0.016372545,1.0,42,0.020449337,3.2254687e-07,0,2.6597641175259116e-09,1.0
82,82,49.60321,60974.42,25835.846,66222.13,-22.963158,50.39936380714062,0.003172254,-1.4403149e-07,0.12419029,0.018902823,1.0,42,0.02053298,3.100622e-07,0,2.760143347406954e-09,1.0
83,83,42.92585,63065.99,28162.355,69068.35,-24.06333,51.107423600769835,0.0030976897,7.5556113e-07,0.13165346,0.0218883,1.0,42,0.020569118,2.9780816e-07,0,2.401670030261174e-09,1.0
84,84,37.1518,65115.47,30404.965,71864.36,-25.029715,51.75116656467435,0.0031051983,3.422694e-07,0.14089507,0.025220733,1.0,42,0.020539457,2.8580868e-07,0,2.3965353178512473e-09,1.0
85,85,32.150223,67519.516,32623.455,74987.83,-25.788475,52.39036558169755,0.003149635,8.505649e-08,0.15174213,0.028720006,1.0,42,0.020538874,2.738961e-07,0,2.9827298200094296e-09,1.0
86,86,27.835518,69698.66,35273.055,78115.88,-26.843033,53.11831758960034,0.0031736512,2.2475495e-08,0.16209804,0.033051044,1.0,42,0.020513628,2.6260508e-07,0,2.774309641061734e-09,1.0
87,87,24.082958,72446.195,37850.555,81738.09,-27.585464,53.82035812965478,0.0031914073,-1.40297765e-08,0.17459752,0.0374398,1.0,42,0.020512681,2.509562e-07,0,3.1212251031236508e-09,1.0
88,88,20.833313,75156.98,40971.977,85599.5,-28.597097,54.47477333409188,0.0031651552,7.3321985e-08,0.18645535,0.042717542,1.0,42,0.020532146,2.398629e-07,0,3.090356234310655e-09,1.0
89,89,18.021912,78394.8,43663.05,89734.086,-29.116215,55.22073939620168,0.0034258224,-1.8452513e-06,0.20225777,0.047887094,1.0,42,0.02052762,2.2876056e-07,0,2.9566040501857554e-09,1.0
90,90,15.604198,81426.64,47016.168,94025.625,-30.002361,55.8760252406355,0.003191426,-3.0551303e-07,0.21693592,0.05424172,1.0,42,0.020521807,2.182576e-07,0,2.4231104832603576e-09,1.0
91,91,13.500899,84710.94,50467.715,98604.94,-30.784956,56.62399359617848,0.0031525043,-3.367986e-08,0.23358437,0.061189055,1.0,42,0.020528775,2.0819216e-07,0,2.4355801464679417e-09,1.0
92,92,11.686608,87339.32,54475.156,102935.414,-31.952557,57.21489287755685,0.0031465234,-1.3099203e-08,0.24999607,0.07001652,1.0,42,0.020496879,1.9912369e-07,0,2.1951762648065986e-09,1.0
93,93,10.113269,91078.555,58211.676,108092.1,-32.584152,57.88850701620686,0.0031843085,-1.0939119e-07,0.2703451,0.07840627,1.0,42,0.020486113,1.895246e-07,0,2.569014981051036e-09,1.0
94,94,8.748621,95483.96,63045.72,114420.055,-33.435806,58.934388105903054,0.0031961305,-1.2663737e-07,0.28855255,0.08760559,1.0,43,0.020497492,1.7914248e-07,0,1.093782765090386e-09,1.0
95,95,7.570237,99032.23,68214.86,120252.44,-34.559643,59.810009534150595,0.0031607675,-6.912066e-08,0.3081993,0.09917492,1.0,43,0.020511076,1.7056682e-07,0,2.769861651130788e-09,1.0
96,96,6.554112,102528.03,73665.484,126248.17,-35.69691,60.3463074262545,0.0031457595,-1.7414534e-08,0.3296418,0.112232886,1.0,43,0.020504827,1.6241682e-07,0,1.4133851368269588e-09,1.0
97,97,5.669445,106098.836,80013.23,132887.47,-37.02136,60.95613385524484,0.0031955435,-1.0715833e-07,0.35084704,0.12719595,1.0,43,0.020533752,1.5451985e-07,0,2.8128875960575785e-09,1.0
98,98,4.907347,109634.01,87097.61,140020.03,-38.465023,61.648533621424576,0.003146188,-2.4128056e-07,0.3723635,0.14407852,1.0,43,0.02054505,1.4672936e-07,0,7.116570541732475e-10,1.0
99,99,4.245922,112895.375,95011.29,147555.11,-40.08353,62.436293365521124,0.0031745643,2.0929102e-07,0.3945235,0.1635742,1.0,43,0.020510655,1.3900335e-07,0,3.035146005698171e-09,1.0
100,100,3.6747382,116236.51,104321.69,156185.6,-41.907818,63.335911061643856,0.003173437,-2.720652e-07,0.41516343,0.18521936,1.0,43,0.020518199,1.3137063e-07,0,2.3601416422288757e-09,1.0
101,101,3.180988,119260.78,114771.086,165515.97,-43.900967,64.36520268380991,0.003161997,-1.250661e-07,0.4359389,0.2096094,1.0,43,0.020514578,1.239432e-07,0,2.606865813544622e-10,1.0
102,102,2.752818,122181.9,127851.73,176845.92,-46.29903,65.54408775316551,0.0031396241,9.670801e-08,0.4522057,0.2363519,1.0,43,0.020515054,1.16005246e-07,0,1.876309912430448e-09,1.0
103,103,2.3804083,125290.016,142168.31,189497.8,-48.610935,66.89803688414395,0.0031552685,-4.371087e-09,0.47029012,0.2647056,1.0,43,0.020510636,1.08236804e-07,0,3.8171079222069085e-09,1.0
104,104,2.060257,128218.15,159831.73,204905.05,-51.26317,68.45436954472098,0.003186945,-1.6227936e-07,0.4833211,0.29407388,1.0,43,0.020515334,1.0012118e-07,0,2.513386536591611e-09,1.0
105,105,1.7836765,131192.9,178983.39,221915.83,-53.758984,70.24262322970571,0.0031823006,-1.3923368e-07,0.49853,0.32429498,1.0,43,0.020495271,9.235606e-08,0,4.0231023435903047e-11,1.0
