True,index,freq,Re(Z),Im(Z),Z,Phase(Z),time,Ewe_meas,I_meas,Cs,Cp,cycle_number,I_Range,Ewe,I,Ns,(QQo),cycle
220,220,7000018.5,476.08136,2335.9092,2383.9307,-78.48033,162.9714957140095,-0.11171402,-1.4109586e-05,9.73341e-06,9.345223e-06,3.0,40,0.010053681,4.217271e-06,0,2.618931678386839e-08,3.0
221,221,6057573.0,541.7875,2758.9502,2811.6436,-78.88994,163.52348979355884,-0.1117442,-1.3793411e-05,9.523084e-06,9.169483e-06,3.0,40,0.014381045,5.1148177e-06,0,1.9758608705082973e-08,3.0
222,222,5242039.0,436.0291,3131.8958,3162.1025,-82.074104,163.93948917332455,-0.11166343,-1.7495873e-05,9.694213e-06,9.509886e-06,3.0,40,0.019985586,6.3203474e-06,0,1.9199246645543216e-08,3.0
223,223,4536288.0,378.8603,3481.3806,3501.9346,-83.789246,165.17149149850593,-0.11170936,-1.1058409e-05,1.0077853e-05,9.9599e-06,3.0,40,0.01936388,5.529481e-06,0,5.783151630486236e-09,3.0
224,224,3925558.5,455.5673,3986.7275,4012.672,-83.48103,165.58749255826115,-0.11177712,5.699628e-07,1.016956e-05,1.0038478e-05,3.0,40,0.018815277,4.6889645e-06,0,3.24186549895453e-09,3.0
225,225,3397055.0,511.07526,4413.563,4443.0547,-83.39477,166.00350641805562,-0.111754835,-2.5743468e-06,1.0615201e-05,1.0474748e-05,3.0,40,0.01995077,4.4903272e-06,0,3.6335931885625388e-09,3.0
226,226,2939708.2,509.10257,5110.417,5135.713,-84.310936,166.4195002511551,-0.11182413,9.928474e-06,1.059399e-05,1.0489885e-05,3.0,40,0.021951444,4.274274e-06,0,-3.618151315907012e-11,3.0
227,227,2543924.5,292.65335,6060.7173,6067.779,-87.23551,167.13850479197572,-0.11179989,-4.792564e-07,1.0322667e-05,1.0298654e-05,3.0,41,0.020415718,3.3646113e-06,0,-7.581810163847476e-09,3.0
228,228,2201436.2,463.05408,6844.7207,6860.3657,-86.12977,167.69051097819465,-0.11176916,-3.4047266e-06,1.0562295e-05,1.0514175e-05,3.0,41,0.020517848,2.9907806e-06,0,-7.025821015119603e-09,3.0
229,229,1905053.1,461.33887,8231.414,8244.332,-86.79215,168.24249916439294,-0.11175739,-2.2371403e-06,1.0149358e-05,1.0117577e-05,3.0,41,0.020532466,2.4904948e-06,0,-6.8064253165388185e-09,3.0
230,230,1648567.4,-57.72648,9363.897,9364.075,-90.35321,168.79450644392637,-0.111739874,-4.9149544e-06,1.03099555e-05,1.03095645e-05,3.0,41,0.019929884,2.1283345e-06,0,-7.270503138640491e-09,3.0
231,231,1426616.2,341.25372,10625.595,10631.073,-88.16051,169.3465066034987,-0.11178962,-1.5369602e-06,1.0499285e-05,1.0488467e-05,3.0,41,0.020586912,1.9364848e-06,0,-7.3850317332422065e-09,3.0
232,232,1234551.2,-27.591154,12441.351,12441.381,-90.12707,169.89850924306666,-0.11175437,-2.9820121e-06,1.0361997e-05,1.0361947e-05,3.0,41,0.020357385,1.6362641e-06,0,-7.106702934084256e-09,3.0
233,233,1068345.5,-100.48226,14996.143,14996.4795,-90.3839,170.45050038924091,-0.11180395,2.2320912e-06,9.934108e-06,9.933661e-06,3.0,41,0.020640925,1.3763847e-06,0,-8.111879094215722e-09,3.0
234,234,924510.06,138.54948,16560.033,16560.613,-89.520645,171.0024940421281,-0.11182741,3.3382257e-06,1.0395545e-05,1.0394818e-05,3.0,41,0.020315617,1.226743e-06,0,-7.988091694523882e-09,3.0
235,235,800039.0,9948.62,19061.96,21501.94,-62.439514,171.55449073502677,-0.111733004,-2.6542682e-06,1.0436176e-05,8.202028e-06,3.0,41,0.020564012,9.563794e-07,0,-8.70296260640825e-09,3.0
236,236,692334.1,-224.78633,22353.355,22354.486,-90.57615,172.10650097459438,-0.111732684,-3.3004444e-06,1.028399e-05,1.028295e-05,3.0,41,0.020410316,9.1302996e-07,0,-8.460331060290057e-09,3.0
237,237,599122.25,670.3819,25404.984,25413.828,-88.48844,172.65849214748596,-0.11177928,-1.177559e-06,1.0456486e-05,1.044921e-05,3.0,41,0.020735482,8.159134e-07,0,-8.294430391070386e-09,3.0
238,238,518454.94,908.82336,29864.621,29878.447,-88.25694,173.21050628038938,-0.11177619,-2.319075e-06,1.0279029e-05,1.02695185e-05,3.0,41,0.020364448,6.815765e-07,0,-9.212070055202008e-09,3.0
239,239,448662.03,1358.9408,33576.707,33604.195,-87.68235,173.76250385327148,-0.11176048,-1.911259e-06,1.0564835e-05,1.0547557e-05,3.0,41,0.020200036,6.0111654e-07,0,-8.244388239273586e-09,3.0
240,240,388258.97,-1160.005,40111.582,40128.35,-91.6565,174.31450438612956,-0.11176775,-8.777479e-07,1.0219481e-05,1.0210942e-05,3.0,41,0.020933777,5.216705e-07,0,-7.400131611248936e-09,3.0
241,241,335983.9,7354.192,41273.332,41923.406,-79.89692,174.866510065709,-0.11177554,-9.3361433e-07,1.1477098e-05,1.1123925e-05,3.0,41,0.020831646,4.9689777e-07,0,-6.040164535832659e-09,3.0
242,242,290751.2,233.76485,50806.188,50806.727,-89.736374,175.58550473980722,-0.11178521,-3.5003217e-07,1.0774125e-05,1.0773897e-05,3.0,42,0.020113725,3.9588704e-07,0,-5.75379899853533e-09,3.0
243,243,251605.19,-564.7335,59142.82,59145.516,-90.54708,176.13748841939378,-0.1117537,-2.718066e-07,1.0695437e-05,1.0694462e-05,3.0,42,0.020376882,3.4452117e-07,0,-5.746397026432623e-09,3.0
244,244,217729.38,635.4451,69650.83,69653.73,-89.47729,176.68950351225794,-0.11181045,-5.705916e-08,1.0494864e-05,1.0493991e-05,3.0,42,0.020195195,2.8993705e-07,0,-5.741046082202001e-09,3.0
245,245,188418.58,349.18842,79717.38,79718.15,-89.74902,177.24148959180457,-0.111835904,1.9531113e-07,1.0596034e-05,1.0595831e-05,3.0,42,0.020702053,2.5969058e-07,0,-5.7745965336322886e-09,3.0
246,246,163051.14,-86.18122,91218.53,91218.57,-90.05413,177.79350009802147,-0.11178161,-1.5931086e-07,1.0700725e-05,1.0700716e-05,3.0,42,0.020322798,2.2279234e-07,0,-5.8388872513181295e-09,3.0
247,247,141098.2,3155.8748,106791.59,106838.21,-88.307304,178.34648937763995,-0.111811966,2.7949662e-07,1.0562375e-05,1.0553159e-05,3.0,42,0.020235632,1.8940445e-07,0,-5.80096344508036e-09,3.0
248,248,122105.11,1527.6766,123014.945,123024.43,-89.2885,178.76250523739145,-0.11176054,-2.8018806e-07,1.0595671e-05,1.0594036e-05,3.0,42,0.021844858,1.7756521e-07,0,-5.817430144752889e-09,3.0
249,249,105663.59,-634.27844,139759.02,139760.45,-90.260025,179.31448678360903,-0.11178593,-1.8877518e-08,1.0777423e-05,1.0777201e-05,3.0,42,0.020386584,1.4586804e-07,0,-5.908476230013535e-09,3.0
250,250,91439.65,101.56501,163259.02,163259.05,-89.964355,179.73149013673537,-0.11178608,4.6496567e-08,1.0661257e-05,1.0661253e-05,3.0,42,0.021591349,1.3225208e-07,0,-5.897365411591582e-09,3.0
251,251,79127.08,120.309525,185874.31,185874.34,-89.96291,180.28350130966282,-0.11174383,-3.8020477e-07,1.0821205e-05,1.0821202e-05,3.0,42,0.020332923,1.0939069e-07,0,-5.9199304721413564e-09,3.0
252,252,68475.36,-2630.5469,217593.17,217609.08,-90.692635,180.69950314276502,-0.11182139,1.1857573e-07,1.0681704e-05,1.0680143e-05,3.0,42,0.021169065,9.728024e-08,0,-5.895457899394003e-09,3.0
253,253,59252.523,-3112.855,251624.7,251643.95,-90.70877,181.1154870025057,-0.11177313,-3.3569086e-07,1.0674807e-05,1.0673173e-05,3.0,42,0.021853203,8.684176e-08,0,-5.861586359227276e-09,3.0
254,254,51282.285,-10299.875,288982.25,289165.75,-92.04127,181.6675121220469,-0.1117233,-4.6699796e-07,1.0739439e-05,1.0725814e-05,3.0,42,0.020230573,6.996186e-08,0,-5.7287158375458735e-09,3.0
255,255,44369.8,4379.1255,345529.8,345557.56,-89.273895,182.08349179514335,-0.11184461,2.1579886e-07,1.0381189e-05,1.0379522e-05,3.0,42,0.020628259,5.969558e-08,0,-5.743322404793842e-09,3.0
256,256,38403.727,8570.767,389880.38,389974.56,-88.74067,182.4995048015553,-0.11184734,4.3669272e-07,1.0629562e-05,1.0624429e-05,3.0,42,0.020856773,5.3482395e-08,0,-5.761807716458524e-09,3.0
257,257,33226.32,2706.3948,460970.44,460978.38,-89.66361,182.91548730133218,-0.111855954,4.6835555e-07,1.0391178e-05,1.03908205e-05,3.0,42,0.02106554,4.569746e-08,0,-5.757542910045808e-09,3.0
258,258,28754.086,4147.997,547977.25,547992.94,-89.5663,183.4974967156595,-0.111826554,-1.4923558e-08,1.0100853e-05,1.0100274e-05,3.0,43,0.020950662,3.8231626e-08,0,-5.770330785550251e-09,3.0
259,259,24884.947,22274.992,642713.9,643099.75,-88.01505,183.9134914020833,-0.11176475,-8.179842e-08,9.950977e-06,9.939039e-06,3.0,43,0.02097898,3.2621656e-08,0,-5.7750942832148765e-09,3.0
260,260,21553.963,19837.309,766165.4,766422.1,-88.516846,184.33049275519443,-0.11173833,-8.012237e-08,9.637634e-06,9.631179e-06,3.0,43,0.02094989,2.7334663e-08,0,-5.780945906480557e-09,3.0
261,261,18631.234,7137.6357,837968.5,837998.9,-89.51198,184.74649538830272,-0.11181291,-1.1888041e-08,1.0194145e-05,1.0193406e-05,3.0,43,0.02076929,2.478439e-08,0,-5.786116505176192e-09,3.0
262,262,16126.037,36588.273,950832.25,951535.94,-87.79633,185.16251162139815,-0.111792974,-5.306328e-08,1.037979e-05,1.0364443e-05,3.0,43,0.020542394,2.1588669e-08,0,-5.784281025865738e-09,3.0
263,263,13954.87,-167576.94,1002665.06,1016572.3,-99.488235,185.578510254476,-0.111721545,-1.0777738e-07,1.1374662e-05,1.1065567e-05,3.0,43,0.020188332,1.9859218e-08,0,-5.78123945336809e-09,3.0
264,264,12080.609,1926.4001,1217895.0,1217896.5,-89.90937,185.99449731424102,-0.11177753,-7.271045e-08,1.0817364e-05,1.0817337e-05,3.0,43,0.019844014,1.629368e-08,0,-5.780375688479561e-09,3.0
265,265,10447.592,20752.639,1515583.9,1515726.0,-89.21551,186.41049242732697,-0.111765645,-6.9451445e-08,1.005134e-05,1.0049454e-05,3.0,43,0.019377919,1.2784579e-08,0,-5.780517965101465e-09,3.0
266,266,9045.586,23625.723,1652813.9,1652982.8,-89.18105,186.98325136120548,-0.11176361,-3.2894675e-08,1.0645339e-05,1.06431635e-05,3.0,43,0.020179832,1.2208132e-08,0,-5.783029219109503e-09,3.0
267,267,7827.7437,30532.594,1992350.0,1992584.0,-89.12202,187.46294103734544,-0.11178495,-1.9802767e-08,1.0205114e-05,1.0202718e-05,3.0,43,0.02021471,1.0144973e-08,0,-5.783790381811341e-09,3.0
268,268,6770.8345,194277.81,2362739.5,2370713.2,-85.29939,188.00140959621058,-0.11175877,-2.4924066e-08,9.948603e-06,9.881793e-06,3.0,43,0.02022726,8.532141e-09,0,-5.783428916549458e-09,3.0
269,269,5860.798,133621.1,2720569.8,2723849.2,-87.18817,188.60796573173138,-0.11182819,5.7910626e-08,9.981676e-06,9.9576555e-06,3.0,43,0.020243758,7.4320403e-09,0,-5.777571565705501e-09,3.0
270,270,5071.625,231359.47,3076567.0,3085254.0,-85.699425,189.2887224840888,-0.11179996,5.2636677e-09,1.0200151e-05,1.0142792e-05,3.0,43,0.020213248,6.551567e-09,0,-5.77631611008685e-09,3.0
271,271,4388.5933,-17815.986,3487067.8,3487113.2,-90.29273,189.96884078305447,-0.11181444,2.2396742e-08,1.0400026e-05,1.03997545e-05,3.0,43,0.020213433,5.796609e-09,0,-5.779847487222058e-09,3.0
272,272,3798.7827,266494.97,4136219.8,4144796.0,-86.31355,190.6488382553507,-0.11179085,-1.5482254e-08,1.0129129e-05,1.0087255e-05,3.0,43,0.020231785,4.88125e-09,0,-5.786447602742149e-09,3.0
273,273,3286.0488,262614.34,4597123.5,4604618.5,-86.730484,191.32871004764456,-0.11178966,-2.038008e-08,1.0535617e-05,1.0501347e-05,3.0,43,0.020206532,4.388318e-09,0,-5.789495168807952e-09,3.0
274,274,2844.088,412450.1,5455136.0,5470706.0,-85.67622,192.00881095994555,-0.111809134,8.317819e-09,1.0258209e-05,1.01999e-05,3.0,43,0.02024949,3.70144e-09,0,-5.78172013448186e-09,3.0
275,275,2460.7852,458320.97,6163356.5,6180374.0,-85.747185,192.68869547224313,-0.11179208,-1.0360962e-08,1.0493712e-05,1.0436003e-05,3.0,43,0.020225886,3.272599e-09,0,-5.782823282705839e-09,3.0
276,276,2129.3164,492677.97,7123706.5,7140723.0,-86.0437,193.36881873120728,-0.11175991,-7.26956e-09,1.0492377e-05,1.044243e-05,3.0,43,0.02024349,2.8349356e-09,0,-5.7891024151285454e-09,3.0
277,277,1843.2289,1105662.1,7900540.5,7977533.0,-82.03333,194.04896223015385,-0.111745656,-2.2652085e-08,1.0929091e-05,1.0719153e-05,3.0,43,0.020173423,2.5287796e-09,0,-5.793857264532237e-09,3.0
278,278,1594.4913,960892.06,9308643.0,9358106.0,-84.10647,194.72883298246597,-0.11177343,-1.7121081e-08,1.0722884e-05,1.06098305e-05,3.0,43,0.0202119,2.159828e-09,0,-5.7969723393371746e-09,3.0
279,279,1380.4436,1322222.1,10510223.0,10593067.0,-82.829666,195.40869848143484,-0.1118036,-5.8356022e-09,1.0969568e-05,1.07986625e-05,3.0,43,0.020210925,1.907939e-09,0,-5.802431656546555e-09,3.0
280,280,1194.6187,1260409.9,12109974.0,12175389.0,-84.05803,196.0888195804,-0.11178633,-1.5128434e-08,1.10013925e-05,1.0883495e-05,3.0,43,0.02021642,1.6604332e-09,0,-5.805240168582538e-09,3.0
281,281,1033.3434,1658976.5,14100412.0,14197670.0,-83.28974,196.76909638603684,-0.11178087,-2.1776813e-08,1.0923043e-05,1.0773904e-05,3.0,43,0.020260824,1.4270527e-09,0,-5.807987194773995e-09,3.0
282,282,894.71045,2379536.2,15424782.0,15607245.0,-81.23028,197.4488364183344,-0.111827016,-6.3011867e-09,1.1532371e-05,1.1264299e-05,3.0,43,0.020183904,1.2932394e-09,0,-5.810430162925657e-09,3.0
283,283,774.2569,2238047.0,20943758.0,21062998.0,-83.90053,198.12895389061305,-0.11176969,-1.9746926e-08,9.8147775e-06,9.7039665e-06,3.0,43,0.020343427,9.658372e-10,0,-5.814889504956443e-09,3.0
284,284,669.7856,2385869.5,20160642.0,20301326.0,-83.25084,198.80883360293228,-0.11180328,-6.0777148e-09,1.1786367e-05,1.162358e-05,3.0,43,0.02020582,9.952956e-10,0,-5.813265045408356e-09,3.0
285,285,579.81464,2789186.5,23479840.0,23644924.0,-83.22554,199.488843848565,-0.111765996,-2.7512687e-08,1.1690574e-05,1.1527902e-05,3.0,43,0.020206846,8.545955e-10,0,-5.8135230744188714e-09,3.0
286,286,501.44418,3541858.8,25861480.0,26102890.0,-82.20158,200.16619854737655,-0.11178536,-1.4271807e-08,1.2272814e-05,1.2046856e-05,3.0,43,0.020205023,7.740531e-10,0,-5.8166508325440245e-09,3.0
287,287,434.02762,6035983.0,31072264.0,31653100.0,-79.00684,200.8462238596694,-0.11180967,5.7850618e-09,1.18013e-05,1.1372165e-05,3.0,43,0.020209007,6.384527e-10,0,-5.821728250471978e-09,3.0
288,288,375.6009,3606678.2,33604772.0,33797764.0,-83.8741,201.52544450524147,-0.11182085,1.5487592e-08,1.2609346e-05,1.2465754e-05,3.0,43,0.020192001,5.97436e-10,0,-5.820682684219782e-09,3.0
289,289,325.10385,4451539.0,39229800.0,39481556.0,-83.526146,202.2046883508956,-0.111814015,2.4515554e-09,1.2479061e-05,1.2320422e-05,3.0,43,0.020204224,5.1173826e-10,0,-5.82228424707217e-09,3.0
290,290,281.3503,3242394.8,44821016.0,44938140.0,-85.86237,202.8817918497225,-0.11181794,1.3569428e-08,1.2620921e-05,1.2555218e-05,3.0,43,0.020212477,4.4978446e-10,0,-5.823329838183881e-09,3.0
291,291,243.36427,7270417.0,52578532.0,53078820.0,-82.12722,203.56509190882207,-0.1118055,-1.8130936e-09,1.2438124e-05,1.220476e-05,3.0,43,0.02018682,3.8031778e-10,0,-5.8212935149196985e-09,3.0
292,292,210.60631,2784464.0,57950776.0,58017630.0,-87.24912,204.242212074314,-0.111752845,-2.244728e-08,1.3040357e-05,1.3010321e-05,3.0,43,0.020219479,3.4850575e-10,0,-5.825083124217577e-09,3.0
293,293,182.27473,17567736.0,51404388.0,54323444.0,-71.13185,204.91425903953495,-0.111760505,-3.7140754e-08,1.698609e-05,1.5209651e-05,3.0,43,0.020131169,3.7057976e-10,0,-5.829485480168792e-09,3.0
294,294,157.72879,2969029.0,93923350.0,93970264.0,-88.189415,205.60266400562614,-0.11172408,-1.4066974e-08,1.0743247e-05,1.0732523e-05,3.0,43,0.020235036,2.1533446e-10,0,-5.834544677127407e-09,3.0
295,295,136.52892,17383816.0,91237040.0,92878380.0,-79.21247,206.27454238416976,-0.11174016,-2.0100796e-08,1.2776865e-05,1.232927e-05,3.0,43,0.020180516,2.1727893e-10,0,-5.83812331390976e-09,3.0
296,296,118.14758,5882605.5,103808500.0,103975040.0,-86.75664,206.96291527021094,-0.111790314,1.483155e-09,1.2976645e-05,1.29351065e-05,3.0,43,0.02021657,1.9443676e-10,0,-5.842892733394889e-09,3.0
297,297,102.25773,-25428480.0,161753710.0,163740260.0,-98.93406,207.6293446351483,-0.11178977,-1.6152738e-08,9.6220965e-06,9.390037e-06,3.0,43,0.020232568,1.2356502e-10,0,-5.840648333759746e-09,3.0
298,298,88.4436,1162370.0,121019384.0,121024970.0,-89.4497,208.31930336126243,-0.11182176,1.15209e-08,1.4869581e-05,1.4868209e-05,3.0,43,0.020223267,1.6709996e-10,0,-5.844720999294142e-09,3.0
299,299,76.54279,164866460.0,34499492.0,168437420.0,-11.819011,208.9857438996405,-0.111823365,2.0106064e-08,6.0270264e-05,2.5284323e-06,3.0,43,0.020250991,1.2022858e-10,0,-5.84530992822305e-09,3.0
300,300,66.250786,113682300.0,-11588775.0,114271460.0,5.820626,209.6539806780347,-0.11178649,2.6563964e-09,-0.00020729631,-2.1320193e-06,3.0,43,0.020169102,1.7650166e-10,0,-5.847948163640784e-09,3.0
301,301,57.329906,32717746.0,-2643532.5,32824368.0,4.6193566,210.30865769581578,-0.11176859,-4.4515428e-08,-0.001050157,-6.8113127e-06,3.0,43,0.020255148,6.1707656e-10,0,-5.849485272638239e-09,3.0
302,302,49.60321,72034264.0,229773300.0,240800130.0,-72.59372,210.99336407493684,-0.11178724,-8.647712e-09,1.3964031e-05,1.2714418e-05,3.0,43,0.020251144,8.409939e-11,0,-5.85493649250753e-09,3.0
303,303,42.92585,33872324.0,179269570.0,182441540.0,-79.300316,211.70143152194214,-0.111751854,4.928392e-09,2.0682102e-05,1.9969186e-05,3.0,43,0.020208392,1.10766396e-10,0,-5.8618010964741e-09,3.0
304,304,37.1518,-36530560.0,348541300.0,350450460.0,-95.983315,212.3452010191686,-0.1117889,2.786758e-09,1.2290967e-05,1.2157417e-05,3.0,43,0.020228248,5.7720707e-11,0,-5.863469125578206e-09,3.0
305,305,32.150223,47830130.0,262235580.0,266561860.0,-79.66324,212.98436440955265,-0.11177345,-1.3005469e-08,1.8877501e-05,1.8269713e-05,3.0,43,0.020201486,7.578536e-11,0,-5.865906765689729e-09,3.0
306,306,27.835518,122347710.0,206328140.0,239875520.0,-59.33306,213.71134759069537,-0.11184822,2.5162171e-08,2.7711647e-05,2.0502528e-05,3.0,43,0.020158447,8.403712e-11,0,-5.866625782778535e-09,3.0
307,307,24.082958,421472740.0,267047860.0,498952740.0,-32.358612,214.41337831740384,-0.11177934,-1.7661199e-08,2.4746923e-05,7.088928e-06,3.0,43,0.020283654,4.0652457e-11,0,-5.869877641421069e-09,3.0
308,308,20.833313,-3382765.0,351540960.0,351557250.0,-90.55132,215.0677455218538,-0.11180626,2.005019e-08,2.1731308e-05,2.1729295e-05,3.0,43,0.020225307,5.7530623e-11,0,-5.868874230893192e-09,3.0
309,309,18.021912,1344578300.0,-494384320.0,1432587400.0,20.187834,215.81371974395734,-0.11185106,6.185861e-08,-1.7863007e-05,-2.1273636e-06,3.0,43,0.02019776,1.40987985e-11,0,-5.870697379463095e-09,3.0
310,310,15.604198,199758460.0,-243440880.0,314907780.0,50.628983,216.46903217505314,-0.11182678,1.3532172e-08,-4.1897216e-05,-2.5038333e-05,3.0,43,0.020240836,6.427544e-11,0,-5.872279197392416e-09,3.0
311,311,13.500899,79697470.0,544747650.0,550546700.0,-81.67658,217.21699317058665,-0.111785404,6.8465384e-09,2.164024e-05,2.1186757e-05,3.0,43,0.02019007,3.6672766e-11,0,-5.873544356747757e-09,3.0
312,312,11.686608,326857820.0,33857396.0,328606700.0,-5.913862,217.80787445200258,-0.111808985,-2.6823667e-08,0.0004022334,4.2700444e-06,3.0,43,0.02019796,6.146546e-11,0,-5.877633917921997e-09,3.0
313,313,10.113269,323894200.0,303235680.0,443688320.0,-43.11328,218.48253411069163,-0.11179551,5.822289e-09,5.1897725e-05,2.4241132e-05,3.0,43,0.02018689,4.5497908e-11,0,-5.876429124788498e-09,3.0
314,314,8.748621,218811870.0,91242430.0,237073440.0,-22.635664,219.2484070803912,-0.111802906,-5.3421543e-09,0.00019938094,2.9533272e-05,3.0,43,0.020152736,8.50063e-11,0,-5.878650997419762e-09,3.0
315,315,7.570237,676408200.0,556413800.0,875856400.0,-39.440735,220.1240099486604,-0.11179215,-1.2111577e-08,3.7784415e-05,1.5249048e-05,3.0,43,0.020210527,2.3075162e-11,0,-5.8834412970112936e-09,3.0
316,316,6.554112,108544080.0,372450080.0,387944420.0,-73.75216,220.66031192077207,-0.11176583,-2.5575932e-08,6.519859e-05,6.0094586e-05,3.0,43,0.020191984,5.2048654e-11,0,-5.88645660568128e-09,3.0
317,317,5.669445,314492160.0,-125313630.0,338539260.0,21.725473,221.2701575230749,-0.11175827,-6.4315784e-09,-0.00022401716,-3.0694446e-05,3.0,43,0.020222478,5.973451e-11,0,-5.888495136137928e-09,3.0
318,318,4.907347,305452540.0,576881900.0,652758800.0,-62.09928,221.96253232928575,-0.11174353,-1.89648e-08,5.621943e-05,4.3909127e-05,3.0,43,0.020187702,3.092674e-11,0,-5.891815192824057e-09,3.0
319,319,4.245922,408486980.0,499741120.0,645447740.0,-50.737534,222.75031706006848,-0.11179008,-5.2397273e-09,7.500721e-05,4.496463e-05,3.0,43,0.020203047,3.1300823e-11,0,-5.89726575711233e-09,3.0
320,320,3.6747382,569937660.0,423120860.0,709831100.0,-36.590137,223.64995376946172,-0.11179704,3.7830783e-09,0.000102359765,3.6370402e-05,3.0,43,0.020210585,2.8472386e-11,0,-5.9002103571271966e-09,3.0
321,321,3.180988,463420830.0,826726700.0,947753100.0,-60.727234,224.67819187164423,-0.11180252,-7.660697e-09,6.0519607e-05,4.605e-05,3.0,43,0.02021066,2.1324815e-11,0,-5.902339394956978e-09,3.0
