True,index,freq,Re(Z),Im(Z),Z,Phase(Z),time,Ewe_meas,I_meas,Cs,Cp,cycle_number,I_Range,Ewe,I,Ns,(QQo),cycle
243,243,100003.71,57414.168,56248.25,80375.695,-44.412296,188.33850726558012,0.027830293,-2.2416442e-08,2.829404e-05,1.3856818e-05,4.0,42,0.019440226,2.4186699e-07,0,1.9544481096325918e-08,4.0
244,244,86596.27,64428.28,57302.098,86223.74,-41.64969,188.75448877867893,0.02782556,6.791547e-08,3.20738e-05,1.4165689e-05,4.0,42,0.020439016,2.3704625e-07,0,1.9586924167041688e-08,4.0
245,245,74988.87,71411.234,56743.86,91210.91,-38.470898,189.170505945076,0.027839944,-2.3161217e-08,3.740283e-05,1.4476003e-05,4.0,42,0.02132496,2.3379836e-07,0,1.963074920317936e-08,4.0
246,246,64940.242,78183.15,55882.03,96101.02,-35.55559,189.7225098646304,0.027839404,1.6346236e-07,4.3856508e-05,1.4829359e-05,4.0,42,0.020241065,2.1062279e-07,0,1.9646592645786796e-08,4.0
247,247,56237.01,84203.1,54570.332,100339.836,-32.94646,190.13850161773735,0.027816562,1.5359113e-07,5.186105e-05,1.5339378e-05,4.0,42,0.020796647,2.0726212e-07,0,1.963934571762661e-08,4.0
248,248,48712.14,93169.93,52197.97,106795.43,-29.259502,190.55551099751028,0.027822075,2.44668e-07,6.259351e-05,1.4953098e-05,4.0,42,0.021280475,1.9926391e-07,0,1.9644784248745693e-08,4.0
249,249,42170.8,97449.95,48969.4,109061.89,-26.679903,190.97151171063888,0.027814176,2.1319168e-07,7.7069664e-05,1.553771e-05,4.0,42,0.021586271,1.979268e-07,0,1.971887590455533e-08,4.0
250,250,36520.19,102352.7,45867.344,112160.1,-24.138596,191.38750213038293,0.027829045,1.0963618e-07,9.50131e-05,1.5889635e-05,4.0,42,0.021865569,1.9494962e-07,0,1.9776425256226422e-08,4.0
251,251,31621.143,106669.195,43199.14,115084.68,-22.04708,191.93951287659002,0.027826156,1.0628365e-07,0.00011651114,1.641658e-05,4.0,42,0.0202665,1.7610076e-07,0,1.98592726757443e-08,4.0
252,252,27380.861,110817.664,40733.773,118066.91,-20.182152,192.35550772302668,0.027811028,2.2287693e-07,0.00014269816,1.6985225e-05,4.0,42,0.020361474,1.7245708e-07,0,1.991428470200902e-08,4.0
253,253,23715.854,113918.47,37959.28,120076.33,-18.428818,192.7714978228032,0.027827442,9.4922626e-08,0.00017679231,1.7667884e-05,4.0,42,0.02039199,1.6982523e-07,0,1.99521201579522e-08,4.0
254,254,20533.33,116234.4,35529.223,121543.25,-16.996756,193.1874935758824,0.027828578,1.0740169e-07,0.00021815997,1.8641667e-05,4.0,42,0.020343551,1.6737705e-07,0,1.9919528556297687e-08,4.0
255,255,17786.89,119508.164,33028.383,123988.2,-15.4491625,193.6034877022903,0.0278185,2.3572882e-07,0.00027091484,1.922413e-05,4.0,42,0.020259937,1.6340213e-07,0,2.0000081407529673e-08,4.0
256,256,15402.317,121612.734,30889.648,125474.41,-14.251748,194.0194950287405,0.027817717,3.5548848e-07,0.00033451922,2.0273872e-05,4.0,42,0.020089742,1.6011028e-07,0,1.9944188951465178e-08,4.0
257,257,13333.209,123365.66,29399.682,126820.45,-13.404323,194.43550664847135,0.027807841,2.7651816e-07,0.0004060157,2.1819735e-05,4.0,42,0.019814545,1.5624093e-07,0,1.9898797084929833e-08,4.0
258,258,11551.737,125192.75,27235.78,128121.086,-12.273499,194.85149685494252,0.027814679,3.4785253e-07,0.00050586317,2.2859747e-05,4.0,42,0.019417275,1.5155409e-07,0,1.988368333185021e-08,4.0
259,259,10002.226,127556.76,26459.545,130272.16,-11.718868,195.26749100800953,0.027816916,3.6368402e-07,0.00060136913,2.4808623e-05,4.0,42,0.01895834,1.4552872e-07,0,1.9934112237590403e-08,4.0
260,260,8663.699,128951.41,25283.45,131406.69,-11.093236,195.71339156254544,0.02777995,8.375073e-07,0.000726575,2.6897886e-05,4.0,42,0.02178931,1.6581585e-07,0,1.9963206372744403e-08,4.0
261,261,7498.54,131283.4,24275.697,133508.95,-10.476267,196.20971009281493,0.027834782,3.4915695e-07,0.0008743226,2.8906425e-05,4.0,42,0.021886045,1.6392943e-07,0,1.9885733002183473e-08,4.0
262,262,6491.4526,133159.72,23595.834,135234.14,-10.048477,196.7669623325928,0.027813058,3.249443e-07,0.0010390654,3.1633037e-05,4.0,42,0.021946138,1.6228252e-07,0,1.9979274575916565e-08,4.0
263,263,5622.588,134983.75,22920.643,136915.92,-9.6370735,197.39543297575437,0.027814213,2.1337999e-07,0.0012349719,3.4610093e-05,4.0,42,0.021997897,1.606672e-07,0,1.9968468469618886e-08,4.0
264,264,4868.4404,137025.12,21896.424,138763.61,-9.079025,198.29685528526898,0.027818555,3.5809688e-07,0.0014929906,3.7175112e-05,4.0,42,0.020179436,1.4542312e-07,0,1.9773555886121545e-08,4.0
265,265,4216.3506,138835.69,20808.516,140386.4,-8.52397,198.9767170509076,0.027814195,2.880665e-07,0.001814021,3.985423e-05,4.0,42,0.020196445,1.4386325e-07,0,1.9845216247541765e-08,4.0
266,266,3651.1719,140815.7,20464.824,142295.02,-8.268936,199.65670772321027,0.027803613,5.236742e-07,0.002130001,4.405716e-05,4.0,42,0.020230953,1.4217612e-07,0,1.988731933433277e-08,4.0
267,267,3163.0398,142809.02,19634.408,144152.44,-7.828356,200.33658100877074,0.027827032,4.17325e-07,0.0025626994,4.75433e-05,4.0,42,0.020263411,1.4056933e-07,0,1.987642967697361e-08,4.0
268,268,2739.124,144486.75,18528.244,145669.89,-7.3074374,201.0158489344176,0.027811829,3.9441616e-07,0.0031359864,5.0734467e-05,4.0,42,0.020273732,1.3917585e-07,0,1.991390029776606e-08,4.0
269,269,2370.7598,145611.3,18175.09,146741.22,-7.1148176,201.69571539339086,0.027816487,4.0521857e-07,0.0036936523,5.66637e-05,4.0,42,0.020233277,1.3788407e-07,0,1.996918320604271e-08,4.0
270,270,2053.0298,147606.1,16519.26,148527.6,-6.385656,202.37596014566952,0.027808549,3.6908597e-07,0.004692824,5.804986e-05,4.0,42,0.02029122,1.3661582e-07,0,2.0112877345390343e-08,4.0
271,271,1778.2897,149157.39,15384.08,149948.64,-5.88866,203.05596935132053,0.027811363,4.5960388e-07,0.0058176303,6.1235616e-05,4.0,42,0.020311765,1.3545815e-07,0,2.0171490960452922e-08,4.0
272,272,1539.506,150125.66,14483.33,150822.67,-5.5105405,203.73582205027924,0.027813654,2.3107377e-07,0.0071378984,6.582243e-05,4.0,42,0.020315105,1.346953e-07,0,2.0155096586938863e-08,4.0
273,273,1333.721,151288.11,13604.869,151898.6,-5.1386094,204.41596901591402,0.027801767,4.6779888e-07,0.008771236,7.036263e-05,4.0,42,0.020311942,1.337204e-07,0,2.034575713387543e-08,4.0
274,274,1154.6313,152582.12,12485.031,153092.06,-4.677806,205.09581088820414,0.027805476,3.7206578e-07,0.01104046,7.3427895e-05,4.0,42,0.020329062,1.3278978e-07,0,2.0313447932661925e-08,4.0
275,275,999.68164,152970.23,11946.915,153436.05,-4.465713,205.77582262716896,0.02784041,3.1674907e-07,0.013326086,8.079033e-05,4.0,42,0.020323176,1.3245372e-07,0,2.0266032540236523e-08,4.0
276,276,865.832,153381.77,11776.038,153833.16,-4.390328,206.4555544994364,0.027847601,3.2308176e-07,0.01560944,9.1471506e-05,4.0,42,0.020308662,1.3201746e-07,0,2.0465396825458203e-08,4.0
277,277,749.7594,154260.17,11025.74,154653.7,-4.0882616,207.13483909172646,0.027814418,3.8957344e-07,0.019252647,9.785551e-05,4.0,42,0.020318203,1.313787e-07,0,2.0546372854857117e-08,4.0
278,278,649.37695,154824.02,10305.309,155166.61,-3.808072,207.8149615773582,0.027837839,2.68324e-07,0.02378276,0.00010490295,4.0,42,0.020320373,1.3095841e-07,0,2.0497555174711696e-08,4.0
279,279,562.3393,154834.92,10372.988,155182.0,-3.832738,208.49193515616935,0.027811512,3.957198e-07,0.027284615,0.000121911,4.0,42,0.02031006,1.3087896e-07,0,2.0579056940968755e-08,4.0
280,280,487.02582,155733.75,10469.598,156085.28,-3.8460672,209.16891516165924,0.027828317,5.6949193e-07,0.031213189,0.00014043464,4.0,42,0.020327337,1.3023225e-07,0,2.0597319854157803e-08,4.0
281,281,421.75427,156303.12,9904.57,156616.62,-3.6258543,209.84591559381806,0.027811885,4.7711154e-07,0.038100004,0.0001523774,4.0,42,0.020337919,1.2985798e-07,0,2.0727247234515862e-08,4.0
282,282,365.1172,156643.14,10339.015,156983.97,-3.776252,210.52568690611952,0.02782092,4.3855744e-07,0.04216079,0.00018287587,4.0,42,0.020329474,1.2950032e-07,0,2.074162139672955e-08,4.0
283,283,316.3159,156656.97,11989.5205,157115.1,-4.37652,211.20292547161807,0.02781645,5.497493e-07,0.041965973,0.0002443797,4.0,42,0.020296574,1.2918284e-07,0,2.0742307011983997e-08,4.0
284,284,273.861,157535.66,11298.335,157940.3,-4.102185,211.88558502399246,0.027828652,3.6889958e-07,0.051436987,0.00026321976,4.0,42,0.020337682,1.2876816e-07,0,2.0736537417455834e-08,4.0
285,285,237.20116,158003.12,11492.693,158420.55,-4.160204,212.55889782935265,0.02779616,6.2629846e-07,0.058382347,0.00030725726,4.0,42,0.020333353,1.2835048e-07,0,2.0759819599881763e-08,4.0
286,286,205.32831,158357.7,12657.667,158862.77,-4.569985,213.23846972823958,0.027825449,4.0503215e-07,0.061237525,0.00038875925,4.0,42,0.020326145,1.2794783e-07,0,2.0913874527931834e-08,4.0
287,287,177.78128,158826.1,13863.507,159430.0,-4.9885526,213.92526077423827,0.027826734,2.793127e-07,0.064574495,0.00048827796,4.0,42,0.02032756,1.2750148e-07,0,2.0815848361476085e-08,4.0
288,288,153.9655,159664.83,14633.809,160334.05,-5.2367167,214.60812632666784,0.027827442,3.4878434e-07,0.07063816,0.00058844057,4.0,42,0.020340417,1.2686274e-07,0,2.0854928973558647e-08,4.0
289,289,133.33633,159610.62,16082.798,160418.86,-5.753856,215.2952619859425,0.027807208,4.4489e-07,0.07421813,0.00074597175,4.0,42,0.020284876,1.2644945e-07,0,2.0863698753680007e-08,4.0
290,290,115.48027,160708.77,17408.78,161648.92,-6.182459,215.97194633813342,0.027793122,5.810395e-07,0.07916697,0.00091819523,4.0,42,0.020309024,1.2563662e-07,0,2.0907805852070935e-08,4.0
291,291,99.96816,161714.42,19339.617,162866.73,-6.8196807,216.6518356504239,0.027835958,3.5623427e-07,0.08232099,0.0011607576,4.0,42,0.020328358,1.248159e-07,0,2.0881759990814134e-08,4.0
292,292,86.579475,162188.83,20911.38,163531.34,-7.346747,217.3201359754603,0.027814455,3.599595e-07,0.0879068,0.0014374274,4.0,42,0.020289369,1.2407021e-07,0,2.0876823130285852e-08,4.0
293,293,74.97594,163764.8,23092.45,165384.92,-8.02635,217.99982950111735,0.027833683,3.9162214e-07,0.091923855,0.0017921585,4.0,42,0.020336624,1.229654e-07,0,2.0928997158211713e-08,4.0
294,294,64.9377,164978.64,25522.303,166941.12,-8.7939825,218.67996094675618,0.027821423,4.1192328e-07,0.096029215,0.0022444834,4.0,42,0.02033379,1.2180216e-07,0,2.1035706540386062e-08,4.0
295,295,56.241825,166106.5,27701.832,168400.6,-9.468167,219.34634959170944,0.027794538,5.3186915e-07,0.102153264,0.0027642797,4.0,42,0.020330165,1.2072502e-07,0,2.099258478805499e-08,4.0
296,296,48.706383,167604.62,31139.395,170472.8,-10.525021,220.0420837047568,0.027836721,2.5454128e-07,0.10493591,0.0035013398,4.0,42,0.020302268,1.1909389e-07,0,2.1093945475228953e-08,4.0
297,297,42.172745,169239.6,34175.207,172655.69,-11.416433,220.6904632288788,0.027805177,4.8791367e-07,0.11042748,0.0043265093,4.0,42,0.020307278,1.176172e-07,0,2.1198765827988432e-08,4.0
298,298,36.507027,171154.61,38021.996,175327.05,-12.524863,221.34549821997643,0.027829846,3.2140528e-07,0.11465916,0.0053923833,4.0,42,0.020321567,1.1590662e-07,0,2.112581575954871e-08,4.0
299,299,31.629578,173816.83,41291.67,178654.11,-13.363393,222.23547863561544,0.027800519,2.7272856e-07,0.12186087,0.0065097334,4.0,43,0.020322178,1.13751526e-07,0,2.1267019924708427e-08,4.0
300,300,27.393028,175647.33,45877.027,181539.77,-14.637971,222.8622730653442,0.027828766,2.4302497e-07,0.12664406,0.008087826,4.0,43,0.02031311,1.1189345e-07,0,2.138493219148242e-08,4.0
301,301,23.71736,178032.3,50520.406,185061.64,-15.842405,223.575595285889,0.027812704,2.7745872e-07,0.13282718,0.00989892,4.0,43,0.020314367,1.09770816e-07,0,2.1474241066673035e-08,4.0
302,302,20.532162,180605.39,56247.867,189161.66,-17.298712,224.2385978240345,0.027822375,2.6624764e-07,0.13780957,0.012184994,4.0,43,0.02033059,1.0747733e-07,0,2.1125263333284178e-08,4.0
303,303,17.775894,183493.28,61686.426,193584.61,-18.581518,224.99480551335728,0.027831784,2.611172e-07,0.14514399,0.014737935,4.0,43,0.02032311,1.04983094e-07,0,2.1604155235737087e-08,4.0
304,304,15.3991585,186232.05,68495.805,198428.95,-20.193428,225.657604504755,0.027839739,3.2153903e-07,0.15088955,0.017979477,4.0,43,0.020323012,1.0241959e-07,0,2.1445529106790242e-08,4.0
305,305,13.33192,189414.6,75513.02,203912.0,-21.735453,226.41378827409062,0.027828112,2.2289358e-07,0.15809044,0.021680223,4.0,43,0.020305796,9.958117e-08,0,2.1418197282453423e-08,4.0
306,306,11.5484,192946.78,83631.195,210291.8,-23.433924,227.01093990245136,0.027815891,2.4196342e-07,0.16478968,0.026062854,4.0,43,0.020324793,9.665043e-08,0,2.167467151184188e-08,4.0
307,307,9.996817,196510.66,92338.3,217123.92,-25.16834,227.6918178814667,0.027820623,2.7987952e-07,0.1724156,0.031183504,4.0,43,0.020312546,9.355278e-08,0,2.2176091644512126e-08,4.0
308,308,8.6613,199923.98,102365.11,224606.8,-27.113361,228.465706718227,0.027818825,2.9450777e-07,0.17950854,0.03728578,4.0,43,0.020319207,9.046568e-08,0,2.190770200771941e-08,4.0
309,309,7.497594,204139.2,113379.2,233511.58,-29.047855,228.9451149009692,0.027834317,2.4583676e-07,0.18722542,0.044138215,4.0,43,0.020322261,8.702892e-08,0,2.1442290326950788e-08,4.0
310,310,6.4941792,208734.36,126967.71,244317.08,-31.311066,229.48973770019074,0.027820641,5.7825554e-07,0.19302012,0.052129254,4.0,43,0.02040186,8.350566e-08,0,2.2455228028035902e-08,4.0
311,311,5.6245475,212383.31,140088.64,254423.86,-33.40896,230.10455247599748,0.02782094,9.0726374e-08,0.20198989,0.061237834,4.0,43,0.020299874,7.978762e-08,0,2.1448118167695886e-08,4.0
312,312,4.8706384,216536.28,156698.27,267286.94,-35.891693,230.80109120247653,0.027810916,5.1396904e-07,0.20853072,0.07167092,4.0,43,0.020315144,7.6005e-08,0,2.233608445253764e-08,4.0
313,313,4.2184143,220712.42,175215.7,281805.8,-38.444805,231.59387625346426,0.027833655,1.4752601e-07,0.2153267,0.08324229,4.0,43,0.020307694,7.206272e-08,0,2.2411674931411065e-08,4.0
314,314,3.6507025,224799.84,196634.9,298664.12,-41.176548,232.49873773644504,0.027820446,2.0402776e-07,0.22170888,0.09610327,4.0,43,0.02030695,6.79926e-08,0,2.1369674832892302e-08,4.0
315,315,3.1629577,228994.56,222060.73,318981.94,-44.119293,233.5330058922118,0.027802551,1.608409e-07,0.22659743,0.10981618,4.0,43,0.020287957,6.3602215e-08,0,2.240549781104089e-08,4.0
316,316,2.7383492,234707.77,249603.97,342622.06,-46.76172,234.7180951485061,0.02783347,2.9764e-07,0.23285192,0.12358113,4.0,43,0.020322774,5.9315425e-08,0,2.324433631137494e-08,4.0
317,317,2.3717358,239696.52,281825.03,369972.66,-49.618324,236.0775297730288,0.027812004,2.5012667e-07,0.23810814,0.13816376,4.0,43,0.020330977,5.4952647e-08,0,2.2309260693328564e-08,4.0
318,318,2.05376,246144.69,318996.9,402922.12,-52.34547,237.63881120726,0.027825734,3.067884e-07,0.24293157,0.15227011,4.0,43,0.020341843,5.0485795e-08,0,2.1543089421330948e-08,4.0
319,319,1.7775893,251982.86,362683.9,441627.66,-55.209484,239.4335455057735,0.027828285,3.07665e-07,0.2468655,0.16649625,4.0,43,0.020320084,4.6011802e-08,0,2.2357048146408647e-08,4.0
320,320,1.5391037,259082.33,411582.72,486337.3,-57.810482,241.4977902705432,0.027818246,2.968758e-07,0.25124365,0.17994268,4.0,43,0.020321716,4.1785228e-08,0,2.3753596027876373e-08,4.0
321,321,1.334101,268210.56,469152.25,540407.94,-60.243744,243.8707701432577,0.027816355,2.7818115e-07,0.2542832,0.1916469,4.0,43,0.020321695,3.7604362e-08,0,2.4206637533165616e-08,4.0
322,322,1.154326,276090.53,536585.25,603448.2,-62.77271,246.60547979312832,0.027808534,2.629729e-07,0.25695255,0.20316572,4.0,43,0.020325672,3.3682547e-08,0,2.34878523117897e-08,4.0
323,323,1.0000616,287218.38,611350.3,675458.06,-64.8354,249.75518247604487,0.027804049,2.673866e-07,0.26031741,0.21324886,4.0,43,0.020319037,3.0081864e-08,0,2.256242564463287e-08,4.0
