True,index,freq,Re(Z),Im(Z),Z,Phase(Z),time,Ewe_meas,I_meas,Cs,Cp,cycle_number,I_Range,Ewe,I,Ns,(QQo),cycle
330,330,7000018.5,544.2323,2191.1482,2257.7244,-76.05128,242.86750417554867,-0.035780776,-1.4393304e-06,1.037646e-05,9.7735165e-06,4.0,40,0.010100041,4.473549e-06,0,-1.1701365294152311e-07,4.0
331,331,6057573.0,557.126,2487.7246,2549.3457,-77.37689,243.41951097510173,-0.035738,-2.3114722e-05,1.05613435e-05,1.0056951e-05,4.0,40,0.014439133,5.6638582e-06,0,-1.2118399323114837e-07,4.0
332,332,5242039.0,575.0278,2755.7942,2815.148,-78.2137,243.83549451487488,-0.035707593,-2.0956482e-05,1.1017248e-05,1.0557576e-05,4.0,40,0.01999753,7.1035447e-06,0,-1.236995245349293e-07,4.0
333,333,4536288.0,519.7338,3155.9797,3198.489,-80.64834,245.06749793337076,-0.03575825,-2.9142853e-05,1.1116941e-05,1.0823407e-05,4.0,40,0.018991297,5.937584e-06,0,-1.3173899555888763e-07,4.0
334,334,3925558.5,647.1315,3597.736,3655.4731,-79.80314,245.48351272646687,-0.035778224,-2.3058894e-05,1.1269103e-05,1.0915931e-05,4.0,40,0.018602554,5.0889594e-06,0,-1.343658446037763e-07,4.0
335,335,3397055.0,755.7569,4021.9485,4092.3389,-79.35776,245.89949215957313,-0.035793558,-2.2891445e-05,1.1648796e-05,1.1251512e-05,4.0,40,0.019752216,4.8266324e-06,0,-1.3604410233001197e-07,4.0
336,336,2939708.2,847.40155,4585.1084,4662.758,-79.52898,246.31551105933613,-0.035791695,-2.4435683e-05,1.1807727e-05,1.141773e-05,4.0,40,0.021719418,4.6580626e-06,0,-1.4015874494397608e-07,4.0
337,337,2543924.5,805.9688,5447.4434,5506.7437,-81.58394,247.03450360012357,-0.035776865,-6.468026e-06,1.14847935e-05,1.1238773e-05,4.0,41,0.020480454,3.7191587e-06,0,-1.4616041239815776e-07,4.0
338,338,2201436.2,930.3713,6305.64,6373.9067,-81.6068,247.5865012530412,-0.03581053,-1.9000863e-06,1.1465285e-05,1.12210055e-05,4.0,41,0.02036373,3.1948584e-06,0,-1.4586312756942258e-07,4.0
339,339,1905053.1,924.71295,7179.416,7238.7227,-82.660675,248.13850477259257,-0.035818115,-1.9466409e-06,1.1636542e-05,1.1446647e-05,4.0,41,0.02075727,2.867532e-06,0,-1.4688535439311876e-07,4.0
340,340,1648567.4,1144.3136,8238.609,8317.7,-82.092415,248.69051349212532,-0.03578702,-4.911231e-06,1.1718163e-05,1.1496372e-05,4.0,41,0.019914458,2.3942264e-06,0,-1.4695020549037154e-07,4.0
341,341,1426616.2,1457.2861,9516.277,9627.212,-81.29358,249.2425096250081,-0.035800062,-2.9391822e-06,1.1723192e-05,1.14545755e-05,4.0,41,0.020519022,2.1313567e-06,0,-1.473525580038305e-07,4.0
342,342,1234551.2,1742.3711,10828.152,10967.44,-80.858826,249.79449007791118,-0.03577409,-3.367484e-06,1.1905746e-05,1.1605258e-05,4.0,41,0.020407923,1.8607735e-06,0,-1.4787174984169363e-07,4.0
343,343,1068345.5,2225.8293,12511.859,12708.302,-79.91275,250.34650141079328,-0.03578342,-3.1570567e-06,1.1906567e-05,1.1541313e-05,4.0,41,0.020770298,1.6343882e-06,0,-1.4889226587600983e-07,4.0
344,344,924510.06,2767.969,14137.458,14405.88,-78.92221,250.89850909032975,-0.035810046,8.127301e-08,1.2176913e-05,1.1727359e-05,4.0,41,0.02018844,1.4014028e-06,0,-1.4916481629017477e-07,4.0
345,345,800039.0,5042.839,15812.656,16597.299,-72.31191,251.4504999165365,-0.03582989,-5.1089967e-07,1.258068e-05,1.1419286e-05,4.0,41,0.02087566,1.2577746e-06,0,-1.4938715635520655e-07,4.0
346,346,692334.1,4053.5942,18459.727,18899.555,-77.61492,252.00250916942605,-0.035826333,-3.190956e-07,1.2453147e-05,1.1880275e-05,4.0,41,0.020426253,1.0807796e-06,0,-1.4992921829228499e-07,4.0
347,347,599122.25,5278.8857,21027.412,21679.914,-75.907265,252.55450428897166,-0.035809394,-1.2818422e-06,1.263336e-05,1.1884349e-05,4.0,41,0.02068549,9.541316e-07,0,-1.4995142976120393e-07,4.0
348,348,518454.94,6528.8965,23894.793,24770.701,-74.717804,253.10651567523018,-0.035804346,-1.2408747e-06,1.2847122e-05,1.195462e-05,4.0,41,0.020456519,8.258353e-07,0,-1.4939274236507396e-07,4.0
349,349,448662.03,8216.52,26614.053,27853.527,-72.84305,253.65849188811262,-0.035818227,-4.1220454e-07,1.3328761e-05,1.2168903e-05,4.0,41,0.020166874,7.2403304e-07,0,-1.495241890526581e-07,4.0
350,350,388258.97,10687.631,30067.578,31910.574,-70.43206,254.2105053276464,-0.03580103,-1.9559513e-06,1.3633276e-05,1.210397e-05,4.0,41,0.02089942,6.5493714e-07,0,-1.487846606591437e-07,4.0
351,351,335983.9,16220.387,36347.69,39802.707,-65.95088,254.7624905805278,-0.03579328,-1.1924578e-06,1.3032412e-05,1.0868091e-05,4.0,41,0.020574719,5.1691757e-07,0,-1.4809851448015523e-07,4.0
352,352,290751.2,16638.654,37309.78,40851.74,-65.96506,255.3145029800653,-0.035780963,-1.5984125e-06,1.4671548e-05,1.2237712e-05,4.0,41,0.020582581,5.0383613e-07,0,-1.4900197707412922e-07,4.0
353,353,251605.19,20855.06,40774.445,45798.35,-62.911446,255.8665049263218,-0.035803974,-2.514606e-06,1.5513597e-05,1.2296709e-05,4.0,41,0.020315718,4.435906e-07,0,-1.4925474984350255e-07,4.0
354,354,217729.38,24788.498,44447.785,50892.78,-60.851624,256.4184928458708,-0.03577925,-3.8833077e-06,1.6445723e-05,1.2544139e-05,4.0,41,0.020288944,3.9866055e-07,0,-1.4961855597577768e-07,4.0
355,355,188418.58,28343.645,49011.926,56617.41,-59.959164,257.13750437335693,-0.035819866,-1.2362153e-06,1.7234339e-05,1.2915111e-05,4.0,42,0.019915577,3.517571e-07,0,-1.4944958759602912e-07,4.0
356,356,163051.14,34005.8,52580.535,62618.746,-57.10774,257.55349199307966,-0.03579898,-1.4230251e-06,1.856399e-05,1.3089184e-05,4.0,42,0.021767316,3.476166e-07,0,-1.4959308621330614e-07,4.0
357,357,141098.2,41021.688,55874.613,69316.31,-53.714855,258.105502552673,-0.03579956,-1.4703329e-06,2.0187572e-05,1.3117234e-05,4.0,42,0.020370029,2.9387064e-07,0,-1.4982719217753016e-07,4.0
358,358,122105.11,47225.62,58659.438,75307.3,-51.163105,258.52151006573695,-0.035801552,-1.4535702e-06,2.2220223e-05,1.3481868e-05,4.0,42,0.021909932,2.9094036e-07,0,-1.499465276123097e-07,4.0
359,359,105663.59,56536.79,60123.426,82530.2,-46.760963,259.0734989453049,-0.0358137,-1.2066013e-06,2.5052497e-05,1.3295744e-05,4.0,42,0.020411002,2.4731554e-07,0,-1.5018271852041643e-07,4.0
360,360,91439.65,64775.2,60725.72,88788.734,-43.151905,259.48949240506045,-0.03579527,-1.2546541e-06,2.8662425e-05,1.3407337e-05,4.0,42,0.021542275,2.4262397e-07,0,-1.503450792182382e-07,4.0
361,361,79127.08,72962.42,60206.543,94595.68,-39.528492,260.041492617951,-0.035810288,-1.1162695e-06,3.3408065e-05,1.3533063e-05,4.0,42,0.02025867,2.1416064e-07,0,-1.5047982715228473e-07,4.0
362,362,68475.36,81972.445,58632.156,100782.99,-35.574875,260.45751575773465,-0.0357865,-1.2373326e-06,3.9641487e-05,1.3416746e-05,4.0,42,0.021075727,2.0911989e-07,0,-1.506707877553121e-07,4.0
363,363,59252.523,88541.78,56434.11,104997.41,-32.51232,260.87349855081993,-0.035819642,-1.0289176e-06,4.7596128e-05,1.37498455e-05,4.0,42,0.0217026,2.0669654e-07,0,-1.5081723567444329e-07,4.0
364,364,51282.285,96948.6,54856.465,111392.38,-29.5025,261.42550385699724,-0.035795346,-1.2552127e-06,5.657505e-05,1.372049e-05,4.0,42,0.020233959,1.816458e-07,0,-1.5109536273187552e-07,4.0
365,365,44369.8,103415.086,48359.297,114163.484,-25.061884,261.8415137701377,-0.03580401,-1.025565e-06,7.417416e-05,1.3309391e-05,4.0,42,0.020592656,1.8037866e-07,0,-1.5121362604064992e-07,4.0
366,366,38403.727,108268.01,44656.094,117115.875,-22.41413,262.2575063765107,-0.035791546,-1.2211286e-06,9.280386e-05,1.34926095e-05,4.0,42,0.020874491,1.7823793e-07,0,-1.513175528728823e-07,4.0
367,367,33226.32,112360.42,39896.53,119233.375,-19.548748,262.673496022966,-0.035788585,-1.1978472e-06,0.000120061224,1.3442416e-05,4.0,42,0.021049835,1.7654314e-07,0,-1.5143782331137106e-07,4.0
368,368,28754.086,116150.1,35699.215,121512.47,-17.085026,263.08949142936035,-0.035784315,-1.3524353e-06,0.00015504647,1.3382509e-05,4.0,42,0.021180721,1.7430904e-07,0,-1.5158520767203814e-07,4.0
369,369,24884.947,119490.54,31801.033,123649.89,-14.90316,263.505511022493,-0.03579613,-1.2656423e-06,0.00020111394,1.330262e-05,4.0,42,0.021251304,1.7186674e-07,0,-1.5179064697470916e-07,4.0
370,370,21553.963,120551.72,26807.098,123496.305,-12.536881,263.9225093355926,-0.03581051,-1.0210942e-06,0.00027545026,1.29788095e-05,4.0,42,0.021191185,1.7159368e-07,0,-1.5188098932234736e-07,4.0
371,371,18631.234,122542.88,23901.95,124852.16,-11.036951,264.338502555358,-0.035787653,-1.161155e-06,0.00035739227,1.30984445e-05,4.0,42,0.021083938,1.6887124e-07,0,-1.5196946530201277e-07,4.0
372,372,16126.037,123751.31,20409.506,125423.02,-9.365121,264.7554983618611,-0.035805333,-1.1820149e-06,0.0004835707,1.28047295e-05,4.0,42,0.020892642,1.6657741e-07,0,-1.5217079567045902e-07,4.0
373,373,13954.87,124426.945,17330.197,125628.02,-7.929152,265.17151110162376,-0.035792775,-1.2540938e-06,0.00065809843,1.2523474e-05,4.0,42,0.020655222,1.6441572e-07,0,-1.52396671773422e-07,4.0
374,374,12080.609,124658.18,15377.253,125603.03,-7.032216,265.58749061470735,-0.035798274,-1.1414116e-06,0.00085674686,1.2841323e-05,4.0,42,0.020271923,1.6139677e-07,0,-1.5257125699558572e-07,4.0
375,375,10447.592,125732.22,12604.511,126362.43,-5.72471,266.00351711447,-0.03579775,-1.1229727e-06,0.0012085871,1.2025246e-05,4.0,42,0.019817717,1.5683236e-07,0,-1.5278183265151627e-07,4.0
376,376,9045.586,125303.234,10932.904,125779.29,-4.9865184,266.5762599683658,-0.03576738,-1.2466433e-06,0.0016093403,1.2159079e-05,4.0,42,0.020226255,1.6080752e-07,0,-1.5303346972228286e-07,4.0
377,377,7827.7437,125593.62,8613.68,125888.65,-3.9234147,267.0559286044736,-0.035789702,-1.3393964e-06,0.00236045,1.1050937e-05,4.0,42,0.020329483,1.6148782e-07,0,-1.5317763669114805e-07,4.0
378,378,6770.8345,125283.15,7297.414,125495.49,-3.333562,267.594418816705,-0.035739973,-1.4805745e-06,0.0032211354,1.0891575e-05,4.0,42,0.020380367,1.6239919e-07,0,-1.5346906026438094e-07,4.0
379,379,5860.798,125252.61,6244.2456,125408.164,-2.854016,268.1999930321472,-0.035824656,-9.4025967e-07,0.0043489398,1.0781811e-05,4.0,42,0.020461438,1.6315875e-07,0,-1.5362704480062444e-07,4.0
380,380,5071.625,125021.71,5271.8286,125132.81,-2.4145782,268.8806952245068,-0.035784483,-1.2388202e-06,0.0059526693,1.05655445e-05,4.0,42,0.020511746,1.6391981e-07,0,-1.5379836847667782e-07,4.0
381,381,4388.5933,124135.016,5739.281,124267.62,-2.6471384,269.5608333368,-0.03578318,-1.1689758e-06,0.0063188397,1.3478338e-05,4.0,42,0.020484777,1.6484405e-07,0,-1.5401521824089867e-07,4.0
382,382,3798.7827,124708.76,3991.3477,124772.62,-1.8331457,270.2408341424307,-0.03580118,-1.0585287e-06,0.010496781,1.0741296e-05,4.0,42,0.020597799,1.6508268e-07,0,-1.543404603579764e-07,4.0
383,383,3286.0488,124413.266,3575.942,124464.65,-1.6463677,270.92072046806425,-0.035799764,-1.2287621e-06,0.013544273,1.1180071e-05,4.0,42,0.020615246,1.6563133e-07,0,-1.5468209781199486e-07,4.0
384,384,2844.088,124474.78,3465.4343,124523.01,-1.5947286,271.600812740362,-0.035810307,-1.0400895e-06,0.016148025,1.2506494e-05,4.0,42,0.0206528,1.658553e-07,0,-1.5477225349333896e-07,4.0
385,385,2460.7852,124329.62,3057.2166,124367.2,-1.4085969,272.28071698599524,-0.03577895,-1.1984031e-06,0.02115535,1.27838275e-05,4.0,42,0.020668712,1.6619101e-07,0,-1.5508529188682808e-07,4.0
386,386,2129.3164,124208.17,2772.5393,124239.11,-1.2787278,272.9608136582974,-0.035782006,-1.1000623e-06,0.026958903,1.3425825e-05,4.0,42,0.020692311,1.6655231e-07,0,-1.551989320972527e-07,4.0
387,387,1843.2289,124251.97,2583.9807,124278.836,-1.1913682,273.6409440905845,-0.0357799,-1.3095948e-06,0.03341578,1.4445606e-05,4.0,42,0.020709027,1.6663357e-07,0,-1.5551812597171337e-07,4.0
388,388,1594.4913,124325.68,2551.1152,124351.85,-1.1755224,274.3208527362149,-0.03578808,-1.1408513e-06,0.03912622,1.6467344e-05,4.0,42,0.020723583,1.666528e-07,0,-1.5584629917032562e-07,4.0
389,389,1380.4436,124208.94,2422.2073,124232.555,-1.1171875,275.0007279685233,-0.0357949,-9.2312365e-07,0.047598157,1.8094306e-05,4.0,42,0.020724513,1.668203e-07,0,-1.5602775602122184e-07,4.0
390,390,1194.6187,124287.0,2598.1448,124314.16,-1.1975592,275.6808212274773,-0.03577707,-1.1900213e-06,0.051277578,2.2398195e-05,4.0,42,0.020727988,1.6673876e-07,0,-1.5639041492670694e-07,4.0
391,391,1033.3434,124218.78,2844.326,124251.34,-1.3117131,276.3610701931175,-0.03581763,-9.782539e-07,0.054149706,2.8376096e-05,4.0,42,0.020730238,1.6684116e-07,0,-1.567004985431208e-07,4.0
392,392,894.71045,124794.59,2540.3762,124820.445,-1.1661782,277.04082017208566,-0.035777442,-1.1628287e-06,0.07002282,2.9004423e-05,4.0,42,0.020770755,1.6640507e-07,0,-1.5679983842525598e-07,4.0
393,393,774.2569,124686.5,3535.9941,124736.625,-1.6244202,277.72097729772213,-0.035804104,-1.1019248e-06,0.058133107,4.6715246e-05,4.0,42,0.020761658,1.6644395e-07,0,-1.5699045302805578e-07,4.0
394,394,669.7856,124500.516,3411.1777,124547.234,-1.569449,278.4008251433406,-0.03578193,-1.2412404e-06,0.06965944,5.225412e-05,4.0,42,0.020751351,1.6661431e-07,0,-1.5737188323945853e-07,4.0
395,395,579.81464,124740.01,3618.3735,124792.48,-1.6615312,279.08081322898215,-0.03579747,-1.0464217e-06,0.07586082,6.377751e-05,4.0,42,0.020754047,1.6630848e-07,0,-1.5751468585277214e-07,4.0
396,396,501.44418,124685.555,3951.5146,124748.16,-1.8152012,279.758187474421,-0.03579773,-1.1130998e-06,0.08032189,8.059217e-05,4.0,42,0.020734228,1.662087e-07,0,-1.5758864572299242e-07,4.0
397,397,434.02762,124751.375,4351.0303,124827.23,-1.9975305,280.4382455867308,-0.035789907,-1.1583588e-06,0.08427731,0.000102394406,4.0,42,0.020736922,1.6612499e-07,0,-1.5778194637256524e-07,4.0
398,398,375.6009,125002.125,4819.6323,125095.01,-2.2080255,281.11744895231095,-0.035763077,-1.1576138e-06,0.08791837,0.0001305051,4.0,42,0.020752056,1.6589036e-07,0,-1.5811396229644004e-07,4.0
399,399,325.10385,124996.78,5416.8994,125114.1,-2.481435,281.796698424645,-0.035799894,-8.79727e-07,0.09037478,0.00016940892,4.0,42,0.020736346,1.6573948e-07,0,-1.583839300478596e-07,4.0
400,400,281.3503,125224.09,6095.843,125372.375,-2.7869282,282.47383616346633,-0.03579093,-1.0181116e-06,0.092798084,0.00021938291,4.0,42,0.020741934,1.6544261e-07,0,-1.5856411271019353e-07,4.0
401,401,243.36427,125564.77,6736.5615,125745.35,-3.0709796,283.1571209425747,-0.035782695,-1.2146068e-06,0.09707895,0.00027862348,4.0,42,0.020748638,1.650052e-07,0,-1.589251870682471e-07,4.0
402,402,210.60631,125969.65,7597.6064,126198.555,-3.4514987,283.8342198013852,-0.035780758,-1.0354331e-06,0.099465385,0.00036050956,4.0,42,0.020764407,1.645376e-07,0,-1.590908822968318e-07,4.0
403,403,182.27473,126518.805,8898.125,126831.32,-4.023014,284.5062740199792,-0.03578635,-1.1389888e-06,0.0981285,0.00048299108,4.0,42,0.020771831,1.6377525e-07,0,-1.593631455640584e-07,4.0
404,404,157.72879,126294.984,9653.626,126663.4,-4.371025,285.19463695937884,-0.035769057,-1.0724972e-06,0.104524635,0.0006071519,4.0,42,0.020731034,1.6367028e-07,0,-1.5960954443440696e-07,4.0
405,405,136.52892,126626.516,10353.576,127049.086,-4.6743727,285.8665455512528,-0.035780236,-1.2248504e-06,0.11259136,0.00074772653,4.0,42,0.020713568,1.6303595e-07,0,-1.5980770959910966e-07,4.0
406,406,118.14758,127484.75,12088.964,128056.65,-5.4169745,286.55492331730784,-0.035795737,-1.149605e-06,0.111431055,0.0009930705,4.0,42,0.020756282,1.6208672e-07,0,-1.599101044560677e-07,4.0
407,407,102.25773,128006.43,13417.744,128707.74,-5.9839406,287.2213399622415,-0.035818506,-1.0831135e-06,0.11599638,0.0012606488,4.0,42,0.02074301,1.6116365e-07,0,-1.6014408455331146e-07,4.0
408,408,88.4436,128791.44,14979.93,129659.68,-6.63435,287.9113034350157,-0.03580183,-1.1149624e-06,0.12012791,0.0016034432,4.0,42,0.020754173,1.6006652e-07,0,-1.6036464130119535e-07,4.0
409,409,76.54279,129499.875,16569.016,130555.55,-7.291163,288.57874117343454,-0.035766114,-1.2403095e-06,0.12549289,0.0020212585,4.0,42,0.020730209,1.5878459e-07,0,-1.6054050219544182e-07,4.0
410,410,66.250786,130675.88,18760.475,132015.69,-8.169841,289.2469856851676,-0.035787784,-1.2164695e-06,0.12805168,0.0025859603,4.0,42,0.020771911,1.5734427e-07,0,-1.6089470909306887e-07,4.0
411,411,57.329906,131435.1,20782.953,133068.08,-8.985405,289.9016360096157,-0.035792347,-1.113659e-06,0.13357699,0.003258355,4.0,42,0.020723036,1.5573258e-07,0,-1.609232224774549e-07,4.0
412,412,49.60321,132775.39,23202.11,134787.39,-9.912184,290.5873945487838,-0.035820518,-9.5031675e-07,0.13828748,0.0040976917,4.0,42,0.0207578,1.5400403e-07,0,-1.610767425277307e-07,4.0
413,413,42.92585,134168.73,25859.377,136638.05,-10.909286,291.29544319576235,-0.0357802,-1.2099508e-06,0.14337823,0.0051354207,4.0,42,0.020759553,1.5193098e-07,0,-1.6148672076981897e-07,4.0
414,414,37.1518,135578.39,28498.086,138541.11,-11.870556,291.93917621302535,-0.03583397,-1.1745633e-06,0.1503227,0.0063606086,4.0,42,0.020759666,1.4984481e-07,0,-1.6167493274640105e-07,4.0
415,415,32.150223,137205.34,31221.818,140712.86,-12.819666,292.5783937367087,-0.03581236,-1.1142179e-06,0.15855427,0.0078059677,4.0,42,0.020762494,1.4755221e-07,0,-1.615862282621209e-07,4.0
416,416,27.835518,138477.25,34524.098,142716.02,-13.99916,293.306356091256,-0.035798095,-1.222896e-06,0.16561455,0.00969165,4.0,42,0.02072212,1.4519827e-07,0,-1.6187329828028832e-07,4.0
417,417,24.082958,140665.72,37973.184,145701.1,-15.107084,294.00838865796686,-0.03582363,-1.0948479e-06,0.17403369,0.011821203,4.0,42,0.02073426,1.4230683e-07,0,-1.6188347381098546e-07,4.0
418,418,20.833313,142771.69,42577.01,148985.1,-16.6055,294.6627719957469,-0.035804924,-1.1546347e-06,0.17942652,0.014653836,4.0,42,0.0207625,1.3935957e-07,0,-1.6217494485608145e-07,4.0
419,419,18.021912,145758.98,46395.13,152964.67,-17.656288,295.6817454574775,-0.03570736,-1.2221592e-06,0.19034737,0.017510938,4.0,43,0.020730209,1.3552285e-07,0,-1.6281237883707474e-07,4.0
420,420,15.604198,148162.98,51060.08,156714.39,-19.015028,296.33701114193536,-0.03579419,-1.1781069e-06,0.19975479,0.021205202,4.0,43,0.02073855,1.3233341e-07,0,-1.6342732723235188e-07,4.0
421,421,13.500899,150602.1,56533.676,160863.44,-20.575352,297.08499360410497,-0.035780143,-1.1964507e-06,0.2085212,0.025754314,4.0,43,0.020737968,1.2891661e-07,0,-1.6376634328975193e-07,4.0
422,422,11.686608,153590.42,62383.48,165776.11,-22.105404,297.6758932855155,-0.035795346,-1.1568403e-06,0.21830419,0.030914154,4.0,43,0.020765122,1.2526004e-07,0,-1.6393506915162507e-07,4.0
423,423,10.113269,156088.22,68930.28,170630.94,-23.826782,298.3495247841638,-0.035801217,-1.1583492e-06,0.22830665,0.037258305,4.0,43,0.020733917,1.2151324e-07,0,-1.6361603080211278e-07,4.0
424,424,8.748621,158920.14,76207.68,176247.61,-25.619322,299.11641538058757,-0.035811063,-1.1184679e-06,0.23871613,0.044630606,4.0,43,0.020731904,1.1762942e-07,0,-1.633312185385027e-07,4.0
425,425,7.570237,161972.66,84579.54,182726.14,-27.572845,299.99200584884966,-0.035812926,-1.144214e-06,0.24856806,0.05325674,4.0,43,0.020743445,1.1352204e-07,0,-1.6477371010318444e-07,4.0
426,426,6.554112,165019.88,93787.1,189809.33,-29.611223,300.5273195542686,-0.03579486,-1.0922004e-06,0.25891855,0.06321415,4.0,43,0.020745723,1.09297694e-07,0,-1.6382649024739099e-07,4.0
427,427,5.669445,168091.12,104088.79,197709.64,-31.76746,301.13712968988693,-0.03578808,-1.2185568e-06,0.2696967,0.07475287,4.0,43,0.020747058,1.0493701e-07,0,-1.6521877332516194e-07,4.0
428,428,4.907347,171135.19,116313.1,206920.25,-34.202232,301.82953521612217,-0.035791844,-1.006088e-06,0.27883333,0.08810407,4.0,43,0.020753153,1.00295416e-07,0,-1.6388054820626548e-07,4.0
429,429,4.245922,174249.44,130108.96,217465.42,-36.748043,302.61731034689,-0.035784855,-1.3471015e-06,0.28809842,0.1031276,4.0,43,0.020734822,9.534767e-08,0,-1.656196722286612e-07,4.0
430,430,3.6747382,177824.73,145906.39,230022.4,-39.369106,303.51695065628155,-0.035786208,-1.0552992e-06,0.29683793,0.11943394,4.0,43,0.020748626,9.020263e-08,0,-1.657547482469413e-07,4.0
431,431,3.180988,180698.6,163528.89,243708.19,-42.144516,304.5462474518281,-0.0357855,-1.0535301e-06,0.30595925,0.13775657,4.0,43,0.020738041,8.509374e-08,0,-1.6449799814329996e-07,4.0
432,432,2.752818,184391.53,185200.86,261341.9,-45.125465,305.72516542780795,-0.035798773,-1.2229501e-06,0.31217608,0.15677163,4.0,43,0.020742897,7.937073e-08,0,-1.6577924251943562e-07,4.0
