True,index,freq,Re(Z),Im(Z),Z,Phase(Z),time,Ewe_meas,I_meas,Cs,Cp,cycle_number,I_Range,Ewe,I,Ns,(QQo),cycle
0,0,7000018.5,154.92834,1417.8416,1426.281,-83.764,2.4664753171091434,-0.024322765,-8.565169e-06,1.6035898e-05,1.5846686e-05,1.0,40,0.009984552,7.00041e-06,0,-2.7533727702259763e-09,1.0
1,1,6057573.0,383.8147,1823.5596,1863.5137,-78.11413,3.01849286336801,-0.024366846,3.0816948e-06,1.4407928e-05,1.3796734e-05,1.0,40,0.014228053,7.635068e-06,0,-4.870814968987879e-09,1.0
2,2,5242039.0,259.45004,2028.6685,2045.1919,-82.71191,3.4344911764201242,-0.024286265,9.835465e-06,1.49661055e-05,1.4725256e-05,1.0,40,0.019712701,9.638558e-06,0,-3.976123089147323e-09,1.0
3,3,4536288.0,216.00835,2300.4578,2310.577,-84.63577,4.666499394952552,-0.024297128,-5.0501807e-05,1.5251244e-05,1.511795e-05,1.0,40,0.020624753,8.926235e-06,0,-1.4331773527434027e-08,1.0
4,4,3925558.5,311.9418,2738.2808,2755.9915,-83.500946,5.082492694695247,-0.024478693,4.7399742e-05,1.4806101e-05,1.4616417e-05,1.0,40,0.019545224,7.0919027e-06,0,-1.2598276302690516e-08,1.0
5,5,3397055.0,365.25705,3037.7866,3059.6667,-83.14379,5.498491541162366,-0.02432977,-8.3805455e-05,1.5422696e-05,1.5202904e-05,1.0,40,0.020649066,6.748796e-06,0,-1.3652301975702761e-08,1.0
6,6,2939708.2,324.42795,3474.9995,3490.111,-84.6663,6.050497140706284,-0.0244331,1.7947425e-05,1.5579773e-05,1.544515e-05,1.0,40,0.021141203,6.0574584e-06,0,-1.4126231353657204e-08,1.0
7,7,2543924.5,283.87292,4042.485,4052.44,-85.98315,6.602498420252232,-0.024530824,6.5949316e-05,1.5476313e-05,1.540037e-05,1.0,40,0.020410366,5.0365625e-06,0,-2.1983867093284616e-08,1.0
8,8,2201436.2,321.62347,4327.7354,4339.67,-85.74977,7.154500819771783,-0.024249932,-0.00010133173,1.6705262e-05,1.6613507e-05,1.0,40,0.02060087,4.7471053e-06,0,-1.9065900809235043e-08,1.0
9,9,1905053.1,233.98265,5514.846,5519.8076,-87.570526,7.873482720606262,-0.024348438,-6.3562916e-06,1.5148848e-05,1.5121628e-05,1.0,41,0.0194753,3.5282571e-06,0,-2.2888781729556168e-08,1.0
10,10,1648567.4,288.25327,6645.7056,6651.954,-87.51639,8.425487200176576,-0.024252057,-1.5581516e-05,1.452688e-05,1.4499601e-05,1.0,41,0.020117056,3.0242325e-06,0,-2.4141425088520327e-08,1.0
11,11,1426616.2,218.13152,7261.928,7265.2036,-88.27949,8.977491946396185,-0.024436865,2.9825528e-06,1.536247e-05,1.534862e-05,1.0,41,0.020150727,2.7735941e-06,0,-2.369004890535257e-08,1.0
12,12,1234551.2,188.98085,8241.318,8243.484,-88.686386,9.529489145934349,-0.024270186,-1.1866467e-05,1.5642792e-05,1.5634574e-05,1.0,41,0.02073406,2.5152058e-06,0,-2.3849921881779542e-08,1.0
13,13,1068345.5,576.26764,9528.69,9546.1,-86.53913,10.08147922551143,-0.024595384,1.6282236e-05,1.5634183e-05,1.5577212e-05,1.0,41,0.020492006,2.1466365e-06,0,-2.312897008594433e-08,1.0
14,14,924510.06,219.27031,11073.331,11075.502,-88.8656,10.63349975834717,-0.024308324,-9.594608e-06,1.5546413e-05,1.554032e-05,1.0,41,0.02035886,1.8381885e-06,0,-2.4181596417745964e-08,1.0
15,15,800039.0,3147.8154,11101.097,11538.765,-74.16884,11.185500531253638,-0.024418233,4.584026e-06,1.7920209e-05,1.6586555e-05,1.0,41,0.020792935,1.802007e-06,0,-2.4862324804517815e-08,1.0
16,16,692334.1,-20.790518,15459.422,15459.436,-90.07706,11.737480770825641,-0.024380447,1.0470375e-05,1.48700055e-05,1.486998e-05,1.0,41,0.020436235,1.3219263e-06,0,-2.414406919980166e-08,1.0
17,17,599122.25,483.9739,17568.867,17575.531,-88.42206,12.289492957032053,-0.024273856,-4.190563e-06,1.51203185e-05,1.5108854e-05,1.0,41,0.020837775,1.1856127e-06,0,-2.289269873701796e-08,1.0
18,18,518454.94,133.66927,19379.672,19380.133,-89.60481,12.841501569928369,-0.024469899,3.7739787e-06,1.5840275e-05,1.5839521e-05,1.0,41,0.020422027,1.0537609e-06,0,-2.2702767313639763e-08,1.0
19,19,448662.03,622.2872,23001.002,23009.418,-88.45026,13.393482316139853,-0.024335247,1.982562e-06,1.5422474e-05,1.5411195e-05,1.0,41,0.020212047,8.7842494e-07,0,-2.337667760316552e-08,1.0
20,20,388258.97,629.239,26909.346,26916.701,-88.66046,13.945498155691894,-0.024461403,3.0328322e-06,1.5233353e-05,1.5225029e-05,1.0,41,0.02100615,7.8041325e-07,0,-2.3630800276818064e-08,1.0
21,21,335983.9,513.39905,29813.48,29817.9,-89.01344,14.497502261918271,-0.02449833,8.23576e-06,1.5888721e-05,1.5884012e-05,1.0,41,0.019920554,6.6807365e-07,0,-2.3346253939321313e-08,1.0
22,22,290751.2,1577.0817,34874.832,34910.473,-87.41078,15.049483541428344,-0.024505708,1.0137045e-05,1.569591e-05,1.5663878e-05,1.0,41,0.020568281,5.8917226e-07,0,-2.2202495474265425e-08,1.0
23,23,251605.19,973.9341,40090.895,40102.723,-88.608376,15.601497647672659,-0.024432095,3.7013535e-06,1.5778103e-05,1.5768797e-05,1.0,41,0.020330178,5.069526e-07,0,-2.134346585019219e-08,1.0
24,24,217729.38,3224.6865,47539.656,47648.9,-86.119484,16.15347858055611,-0.024303108,-2.170099e-06,1.537613e-05,1.5305708e-05,1.0,41,0.020324878,4.2655506e-07,0,-2.060945672308703e-08,1.0
25,25,188418.58,258.5479,55472.445,55473.047,-89.732956,16.872489121364197,-0.024256995,-5.91041e-07,1.5227166e-05,1.5226836e-05,1.0,42,0.019740818,3.5586325e-07,0,-2.0405976808195547e-08,1.0
26,26,163051.14,1534.431,61064.285,61083.562,-88.56057,17.2894890345342,-0.024272421,-2.9490147e-07,1.5984868e-05,1.597478e-05,1.0,42,0.021574805,3.5320147e-07,0,-2.0363583688155767e-08,1.0
27,27,141098.2,1554.0535,71107.16,71124.13,-88.74799,17.841503487405134,-0.024406495,2.614306e-07,1.5863001e-05,1.5855429e-05,1.0,42,0.020403743,2.868751e-07,0,-2.034023803475618e-08,1.0
28,28,122105.11,6421.8667,93054.6,93275.93,-86.05218,18.39348900693585,-0.024450298,2.8694706e-07,1.4007107e-05,1.3940713e-05,1.0,42,0.020510895,2.1989483e-07,0,-2.03540371324586e-08,1.0
29,29,105663.59,2998.8328,95663.51,95710.5,-88.2045,18.809503240016056,-0.02433519,-8.2571717e-07,1.574521e-05,1.5729753e-05,1.0,42,0.021696372,2.2668748e-07,0,-2.0424779590848688e-08,1.0
30,30,91439.65,2795.716,110094.04,110129.53,-88.54535,19.361496012919815,-0.024277806,-6.7112893e-07,1.5809634e-05,1.5799444e-05,1.0,42,0.020279728,1.8414433e-07,0,-2.0442108994565344e-08,1.0
31,31,79127.08,3330.7957,120710.32,120756.266,-88.41942,19.77748565937509,-0.02424386,-7.21603e-07,1.66629e-05,1.6650223e-05,1.0,42,0.021273697,1.7617054e-07,0,-2.0383599172141745e-08,1.0
32,32,68475.36,3321.7922,142648.39,142687.06,-88.666016,20.329502618900733,-0.02432243,-2.0326601e-07,1.629367e-05,1.628484e-05,1.0,42,0.02009767,1.4085138e-07,0,-2.04625273483861e-08,1.0
33,33,59252.523,2405.9316,167894.6,167911.83,-89.17901,20.745498611970106,-0.024267465,-1.6755814e-06,1.5998401e-05,1.5995116e-05,1.0,42,0.020878626,1.2434279e-07,0,-2.0541892106662116e-08,1.0
34,34,51282.285,3075.769,194279.44,194303.78,-89.09299,21.161494125117315,-0.024508635,9.539126e-07,1.597445e-05,1.5970449e-05,1.0,42,0.021418115,1.1023005e-07,0,-2.0508207149584024e-08,1.0
35,35,44369.8,4466.425,225745.75,225789.94,-88.86654,21.57748510481906,-0.024325894,-6.120872e-07,1.5889604e-05,1.5883385e-05,1.0,42,0.021846907,9.675767e-08,0,-2.050514763600702e-08,1.0
36,36,38403.727,3041.9375,263353.5,263371.06,-89.33822,22.129491237719776,-0.024425909,3.5157632e-07,1.5736483e-05,1.5734384e-05,1.0,42,0.020250928,7.689124e-08,0,-2.0571095744337736e-08,1.0
37,37,33226.32,20527.377,297761.5,298468.22,-86.05633,22.545490244141547,-0.024433715,4.141567e-07,1.6086788e-05,1.6010697e-05,1.0,42,0.020410948,6.838567e-08,0,-2.0716101981551382e-08,1.0
38,38,28754.086,29603.568,343993.6,345265.06,-85.08133,22.961494450602913,-0.024342217,-5.1449166e-07,1.6090526e-05,1.5972233e-05,1.0,42,0.020555655,5.9535864e-08,0,-2.0572818786932856e-08,1.0
39,39,24884.947,19174.846,393504.28,393971.2,-87.21027,23.377500470349332,-0.024397682,-4.0572098e-07,1.6253016e-05,1.6214515e-05,1.0,42,0.02058202,5.2242452e-08,0,-2.050943731682617e-08,1.0
40,40,21553.963,47849.73,463457.22,465920.8,-84.10537,23.79450481015374,-0.024559965,1.6246029e-06,1.5932477e-05,1.5764435e-05,1.0,42,0.020599194,4.421179e-08,0,-2.0484337325455292e-08,1.0
41,41,18631.234,39342.35,540520.7,541950.56,-85.837006,24.376483957777964,-0.024402695,4.9977302e-08,1.580397e-05,1.5720685e-05,1.0,43,0.02018746,3.7249634e-08,0,-2.0462896193573676e-08,1.0
42,42,16126.037,60018.742,609976.9,612922.56,-84.38046,24.79248384424136,-0.024254348,-8.941516e-08,1.6180022e-05,1.6024873e-05,1.0,43,0.019902557,3.247157e-08,0,-2.0456637256961327e-08,1.0
43,43,13954.87,64491.69,723338.2,726207.5,-84.90507,25.208498557301937,-0.024634846,2.7408535e-07,1.576714e-05,1.5642792e-05,1.0,43,0.019742645,2.7185957e-08,0,-2.0445957154803215e-08,1.0
44,44,12080.609,60047.1,834121.75,836280.3,-85.88247,25.624484310421394,-0.024267986,-8.420076e-08,1.5794352e-05,1.5712923e-05,1.0,43,0.01933334,2.3118254e-08,0,-2.044656436427239e-08,1.0
45,45,10447.592,116534.164,945078.3,952235.94,-82.97055,26.040485450153938,-0.024474278,8.5621544e-08,1.6118927e-05,1.5877516e-05,1.0,43,0.01880688,1.9750232e-08,0,-2.0441926150046214e-08,1.0
46,46,9045.586,72038.35,1033078.8,1035587.44,-86.01112,26.47224717735662,-0.02440223,6.143039e-08,1.7031385e-05,1.694897e-05,1.0,43,0.021304533,2.0572413e-08,0,-2.043179024499485e-08,1.0
47,47,7827.7437,149497.48,1227491.2,1236561.5,-83.05608,26.952926400204888,-0.02442738,4.5414694e-08,1.6563998e-05,1.6321892e-05,1.0,43,0.021387367,1.7295838e-08,0,-2.0430525494852493e-08,1.0
48,48,6770.8345,191556.44,1440577.1,1453257.1,-82.4257,27.49141290577245,-0.024242721,-4.6135526e-08,1.6317043e-05,1.6033544e-05,1.0,43,0.021437123,1.4751088e-08,0,-2.04166812859738e-08,1.0
49,49,5860.798,301503.38,1629567.9,1657225.4,-79.51765,28.097997014585417,-0.024078762,-1.2852327e-07,1.6664448e-05,1.6112861e-05,1.0,43,0.021397253,1.2911493e-08,0,-2.0430837002835605e-08,1.0
50,50,5071.625,264374.22,1881362.8,1899847.2,-82.001015,28.778688486934698,-0.024397496,4.5374113e-09,1.668017e-05,1.6357171e-05,1.0,43,0.021357624,1.1241759e-08,0,-2.0435312399791942e-08,1.0
51,51,4388.5933,327908.97,2163217.8,2187929.5,-81.3805,29.458822119238903,-0.024423786,8.0779586e-08,1.6764654e-05,1.6388092e-05,1.0,43,0.021418618,9.789447e-09,0,-2.0437134690054925e-08,1.0
52,52,3798.7827,455438.94,2408088.8,2450778.8,-79.290215,30.138826231530402,-0.024341526,3.057223e-08,1.7398155e-05,1.679732e-05,1.0,43,0.021356143,8.714023e-09,0,-2.0431770245989856e-08,1.0
53,53,3286.0488,389940.47,2657453.2,2685909.8,-81.6523,30.81872143716464,-0.024369922,2.9361749e-08,1.8225544e-05,1.78414e-05,1.0,43,0.021278901,7.922418e-09,0,-2.041862020290382e-08,1.0
54,54,2844.088,662102.3,3185673.0,3253750.5,-78.25894,31.498835549457,-0.02438192,5.636496e-08,1.7566123e-05,1.6838749e-05,1.0,43,0.021395123,6.5755263e-09,0,-2.041383751409641e-08,1.0
55,55,2460.7852,782723.75,3459210.0,3546659.0,-77.250244,32.17868235509377,-0.024531197,7.115155e-08,1.8696895e-05,1.7786253e-05,1.0,43,0.021291932,6.0033774e-09,0,-2.0404332383943864e-08,1.0
56,56,2129.3164,962347.06,4022285.8,4135806.5,-76.5447,32.85880830738461,-0.024249298,-6.9935595e-08,1.8582623e-05,1.7576502e-05,1.0,43,0.021391453,5.172257e-09,0,-2.040861898670027e-08,1.0
57,57,1843.2289,1382802.4,4321930.0,4537755.0,-72.25792,33.53894639300415,-0.024281085,-3.7028933e-08,1.9978512e-05,1.8123268e-05,1.0,43,0.021287011,4.6910884e-09,0,-2.0400151267243348e-08,1.0
58,58,1594.4913,1508304.9,5055657.5,5275856.0,-73.388054,34.218838345317636,-0.024314417,-3.5263106e-09,1.9743326e-05,1.8129664e-05,1.0,43,0.021349328,4.0466093e-09,0,-2.0391510322295286e-08,1.0
59,59,1380.4436,1968025.9,5699154.5,6029385.5,-70.94924,34.89871208428667,-0.02449222,1.2439443e-07,2.0229774e-05,1.807448e-05,1.0,43,0.021400077,3.5492966e-09,0,-2.0387183285706398e-08,1.0
60,60,1194.6187,2229159.5,6414960.5,6791235.0,-70.837975,35.57780355653085,-0.02441868,6.027576e-08,2.0768106e-05,1.8530507e-05,1.0,43,0.021425487,3.1548735e-09,0,-2.0383364572412324e-08,1.0
61,61,1033.3434,2995917.8,7018628.5,7631295.5,-66.884674,36.258089162176475,-0.024146657,-6.054967e-08,2.1944374e-05,1.8562274e-05,1.0,43,0.02135815,2.798758e-09,0,-2.0378344861259037e-08,1.0
62,62,894.71045,3942555.5,7817408.0,8755319.0,-63.23681,36.937825594461174,-0.024464812,7.871243e-08,2.2754895e-05,1.8140801e-05,1.0,43,0.02146232,2.4513465e-09,0,-2.0368537713497548e-08,1.0
63,63,774.2569,2921550.0,6010604.5,6683025.0,-64.077194,37.83893387726857,-0.024437144,6.2361515e-08,3.4199278e-05,2.7663495e-05,1.0,43,0.01888116,2.8252416e-09,0,-2.0365135609628605e-08,1.0
64,64,669.7856,4642040.5,9093124.0,10209478.0,-62.955685,38.518839562893845,-0.024425108,6.640267e-08,2.6131915e-05,2.0729574e-05,1.0,43,0.019375069,1.897753e-09,0,-2.0352335988788815e-08,1.0
65,65,579.81464,5663620.5,10535335.0,11961182.0,-61.738266,39.1988170085242,-0.02441106,8.224716e-09,2.6054491e-05,2.0213016e-05,1.0,43,0.019470552,1.6278117e-09,0,-2.0339818582487604e-08,1.0
66,66,501.44418,6674421.0,11609157.0,13391058.0,-60.10423,39.87618712065159,-0.024457583,5.1131888e-08,2.7339895e-05,2.0547946e-05,1.0,43,0.019517815,1.457526e-09,0,-2.0336145173358628e-08,1.0
67,67,434.02762,8738440.0,12400951.0,15170495.0,-54.829224,40.55621237962623,-0.024411134,4.0218854e-08,2.9569757e-05,1.9758694e-05,1.0,43,0.01947736,1.2838974e-09,0,-2.0335274882441367e-08,1.0
68,68,375.6009,9033300.0,12320840.0,15277552.0,-53.75216,41.23543198520201,-0.024367126,3.0981894e-08,3.4391665e-05,2.2367956e-05,1.0,43,0.019394135,1.2694531e-09,0,-2.0332142449823486e-08,1.0
69,69,325.10385,11510560.0,13342962.0,17621794.0,-49.216675,41.91472225753387,-0.024572412,9.130148e-08,3.6689835e-05,2.1035365e-05,1.0,43,0.019426852,1.1024333e-09,0,-2.03286689831782e-08,1.0
70,70,281.3503,12228621.0,14080975.0,18649746.0,-49.027325,42.59180276968982,-0.024306163,-2.855928e-09,4.017353e-05,2.2901273e-05,1.0,43,0.019452102,1.0430223e-09,0,-2.0324048179808335e-08,1.0
71,71,243.36427,13405388.0,14184525.0,19516792.0,-46.6176,43.27512232211302,-0.024337167,1.8448674e-08,4.6105055e-05,2.4353492e-05,1.0,43,0.019409887,9.945225e-10,0,-2.0316955571483102e-08,1.0
72,72,210.60631,17855384.0,14015671.0,22699202.0,-38.130314,43.952185127622215,-0.024415383,4.9843063e-09,5.391814e-05,2.0556135e-05,1.0,43,0.019446962,8.5672447e-10,0,-2.031434669207144e-08,1.0
73,73,182.27473,6514953.5,16846290.0,18062174.0,-68.857056,44.62428209287464,-0.024486817,6.217525e-08,5.1830975e-05,4.5087676e-05,1.0,43,0.01949878,1.0795368e-09,0,-2.0315430352606374e-08,1.0
74,74,157.72879,18231126.0,11730456.0,21678966.0,-32.75845,45.31262415226229,-0.024338936,-1.6767254e-08,8.6018976e-05,2.5185287e-05,1.0,43,0.019329157,8.916088e-10,0,-2.0315320798436787e-08,1.0
75,75,136.52892,18997784.0,13218392.0,23143934.0,-34.829655,45.98452514412929,-0.024398632,1.541313e-08,8.8189496e-05,2.8767343e-05,1.0,43,0.019309588,8.343261e-10,0,-2.0307845068973664e-08,1.0
76,76,118.14758,21483902.0,11600998.0,24416002.0,-28.368408,46.6729225901945,-0.024404539,-1.635755e-08,0.00011611811,2.6214499e-05,1.0,43,0.01938837,7.940846e-10,0,-2.0306113179627507e-08,1.0
77,77,102.25773,25324908.0,12244649.0,28129742.0,-25.803871,47.33934086179943,-0.024358705,1.7182309e-08,0.0001271094,2.4084566e-05,1.0,43,0.019464362,6.9194955e-10,0,-2.0303933469058923e-08,1.0
78,78,88.4436,25250592.0,11006278.0,27545064.0,-23.55152,48.02928572121891,-0.024383038,7.196619e-10,0.00016349829,2.6103971e-05,1.0,43,0.019433443,7.0551454e-10,0,-2.0301520753616355e-08,1.0
79,79,76.54279,26001178.0,9645770.0,27732690.0,-20.353563,48.69675087298674,-0.024367591,-3.6567265e-09,0.00021556533,2.6077667e-05,1.0,43,0.019342229,6.974523e-10,0,-2.0302839162045352e-08,1.0
80,80,66.250786,29246114.0,8631111.0,30493134.0,-16.44238,49.36497674472048,-0.024397086,2.3458226e-08,0.00027833154,2.2299322e-05,1.0,43,0.019433953,6.3732225e-10,0,-2.031837132704897e-08,1.0
81,81,57.329906,31871614.0,8904989.0,33092274.0,-15.610464,50.01964736249647,-0.024387099,3.219237e-08,0.00031174935,2.2574548e-05,1.0,43,0.01936594,5.852103e-10,0,-2.0311431925487492e-08,1.0
82,82,49.60321,31754314.0,7720558.5,32679404.0,-13.665406,50.70534459504415,-0.02440875,8.6863366e-10,0.0004155867,2.3195877e-05,1.0,43,0.019457767,5.954138e-10,0,-2.0315602869225145e-08,1.0
83,83,42.92585,29858066.0,3461810.5,30058082.0,-6.613471,51.41341201533214,-0.024414433,-6.4501595e-09,0.0010710208,1.4206334e-05,1.0,43,0.019379858,6.44747e-10,0,-2.031920195187912e-08,1.0
84,84,37.1518,29189138.0,9150180.0,30589730.0,-17.40511,52.057181085896445,-0.024415998,1.03663185e-08,0.00046817763,4.18908e-05,1.0,43,0.019451689,6.358895e-10,0,-2.0318416637780334e-08,1.0
85,85,32.150223,28727836.0,5883409.5,29324104.0,-11.574031,52.695385996223195,-0.024324106,4.3366114e-08,0.0008414088,3.387004e-05,1.0,43,0.019395476,6.6141753e-10,0,-2.031198299522378e-08,1.0
86,86,27.835518,27982522.0,4275482.5,28307266.0,-8.687105,53.42230936404667,-0.024320332,-2.063155e-08,0.001337321,3.0507745e-05,1.0,43,0.019343663,6.833462e-10,0,-2.0312408769866877e-08,1.0
87,87,24.082958,31321740.0,3742081.0,31544486.0,-6.812967,54.12439289074973,-0.024429357,3.27883e-08,0.0017660261,2.4852872e-05,1.0,43,0.019408714,6.152807e-10,0,-2.030504200435966e-08,1.0
88,88,20.833313,32663630.0,5591898.5,33138830.0,-9.71466,54.77875894853787,-0.024390956,1.435163e-08,0.0013661629,3.8899743e-05,1.0,43,0.01942807,5.8626304e-10,0,-2.030071414167203e-08,1.0
89,89,18.021912,30193608.0,5043930.5,30612010.0,-9.483853,55.52474743730272,-0.024162903,-2.450283e-07,0.001750855,4.7534035e-05,1.0,43,0.019422248,6.34465e-10,0,-2.033843131535049e-08,1.0
90,90,15.604198,32368374.0,3448789.8,32551586.0,-6.081813,56.179035095032305,-0.024408955,2.8840242e-08,0.002957413,3.319717e-05,1.0,43,0.019436743,5.9710586e-10,0,-2.0335263367772942e-08,1.0
91,91,13.500899,31680128.0,1615232.1,31721278.0,-2.9187355,56.92699062387692,-0.024375446,-1.0798656e-08,0.0072983135,1.8923045e-05,1.0,43,0.019384375,6.110843e-10,0,-2.0338160551421137e-08,1.0
92,92,11.686608,30903526.0,11161087.0,32857234.0,-19.857641,57.51787769194925,-0.024455944,5.449876e-09,0.0012201836,0.00014079141,1.0,43,0.019459475,5.9224325e-10,0,-2.0344605887082866e-08,1.0
93,93,10.113269,32782662.0,12646.812,32782664.0,-0.02210342,58.191531990567455,-0.024303611,-6.600622e-08,1.2443643,1.8519154e-07,1.0,43,0.019449335,5.932811e-10,0,-2.035228207084907e-08,1.0
94,94,8.748621,32156740.0,2251064.5,32235434.0,-4.0043373,58.95840746702743,-0.024369214,-1.8657524e-08,0.008081511,3.9409544e-05,1.0,43,0.01941605,6.023201e-10,0,-2.0345335086881214e-08,1.0
95,95,7.570237,34522210.0,1123537.6,34540490.0,-1.8640536,59.83399742862093,-0.024370918,-2.2503132e-08,0.018712122,1.9798912e-05,1.0,43,0.019447979,5.630487e-10,0,-2.0343747296083608e-08,1.0
96,96,6.554112,33565708.0,3248610.0,33722548.0,-5.528074,60.37030372073059,-0.024378603,-2.0380096e-08,0.007474957,6.936863e-05,1.0,43,0.019468805,5.773231e-10,0,-2.0354719410029925e-08,1.0
97,97,5.669445,33182578.0,3380693.8,33354348.0,-5.817313,60.98012737635872,-0.024423692,1.3342116e-09,0.00830374,8.530618e-05,1.0,43,0.019448314,5.830818e-10,0,-2.0356330065936254e-08,1.0
98,98,4.907347,33691916.0,633715.25,33697876.0,-1.077556,61.67255431591184,-0.024387192,-3.7312198e-09,0.051177517,1.8099327e-05,1.0,43,0.019470459,5.7779487e-10,0,-2.0351122056183564e-08,1.0
99,99,4.245922,33025210.0,1742606.4,33071154.0,-3.0204647,62.46031448667054,-0.024447504,8.084974e-09,0.021510417,5.9723974e-05,1.0,43,0.019443989,5.879441e-10,0,-2.0359516754208873e-08,1.0
100,100,3.6747382,35100536.0,3839190.0,35309870.0,-6.2420254,63.35994807610405,-0.02440492,3.5037633e-09,0.011281169,0.00013336474,1.0,43,0.01944622,5.507304e-10,0,-2.0350011021359273e-08,1.0
101,101,3.180988,32897438.0,-664836.4,32904156.0,1.1577538,64.38823740489897,-0.024293205,-5.4823175e-08,-0.07525638,-3.0723546e-05,1.0,43,0.019403875,5.8970895e-10,0,-2.0354330312616105e-08,1.0
102,102,2.752818,34382920.0,2031334.8,34442870.0,-3.3810909,65.56709442092688,-0.02441732,1.04594475e-08,0.028461717,9.899776e-05,1.0,43,0.019466667,5.6518706e-10,0,-2.0362690892093997e-08,1.0
103,103,2.3804083,34901910.0,2894445.8,35021724.0,-4.7407403,66.92203523195349,-0.024419133,1.8970159e-08,0.023099536,0.00015778258,1.0,43,0.019425297,5.546642e-10,0,-2.0367957179868304e-08,1.0
