True,index,freq,Re(Z),Im(Z),Z,Phase(Z),time,Ewe_meas,I_meas,Cs,Cp,cycle_number,I_Range,Ewe,I,Ns,(QQo),cycle
0,0,7000018.5,282.6112,1641.465,1665.6158,-80.231155,2.466492543782806,0.022588776,-5.3962318e-05,1.3851262e-05,1.3452496e-05,1.0,40,0.010055544,6.0371326e-06,0,6.018769573178891e-09,1.0
1,1,6057573.0,221.71672,2065.3723,2077.2388,-83.87279,3.018497423356166,0.022678338,-7.820526e-05,1.2721056e-05,1.257613e-05,1.0,40,0.014318604,6.893095e-06,0,-2.443512805232078e-09,1.0
2,2,5242039.0,290.38593,2323.2688,2341.3462,-82.875534,3.434491496445844,0.022729054,-4.017583e-05,1.306834e-05,1.2867319e-05,1.0,40,0.019836672,8.472336e-06,0,-4.812240368247937e-09,1.0
3,3,4536288.0,171.23387,2590.3958,2596.049,-86.218056,4.802491001406452,0.022628723,-3.0017287e-05,1.35442015e-05,1.3485276e-05,1.0,40,0.018602755,7.1657946e-06,0,-2.731810407918071e-09,1.0
4,4,3925558.5,309.09555,3008.9263,3024.7607,-84.134796,5.354482307651779,0.022478886,4.780906e-05,1.3474328e-05,1.33336225e-05,1.0,40,0.02022437,6.686271e-06,0,-1.144090544938889e-08,1.0
5,5,3397055.0,311.2433,3434.3994,3448.4739,-84.8217,5.77050176737248,0.022537632,4.2538463e-06,1.3641646e-05,1.353052e-05,1.0,40,0.021242904,6.160088e-06,0,-1.6347104093935313e-08,1.0
6,6,2939708.2,334.1928,3885.252,3899.5984,-85.08376,6.3224946469126735,0.022556767,-3.4240704e-05,1.3934671e-05,1.3832329e-05,1.0,40,0.02034954,5.218368e-06,0,-1.9410214714803764e-08,1.0
7,7,2543924.5,453.11017,4477.443,4500.3115,-84.22143,6.874503046477912,0.022585683,-2.992425e-05,1.3972878e-05,1.3831231e-05,1.0,40,0.020646784,4.587857e-06,0,-2.19643993921813e-08,1.0
8,8,2201436.2,-30.08158,5062.2456,5062.335,-90.34047,7.426499872730346,0.022615848,-5.6306693e-05,1.42814015e-05,1.4280897e-05,1.0,40,0.020937173,4.1358726e-06,0,-3.213118546753119e-08,1.0
9,9,1905053.1,469.5357,6234.608,6252.2637,-85.693115,8.145481906860368,0.022550786,-4.589084e-06,1.3399972e-05,1.3324398e-05,1.0,41,0.019507196,3.1200213e-06,0,-3.397274092202057e-08,1.0
10,10,1648567.4,296.5193,6536.4873,6543.2095,-87.40263,8.697491959756007,0.022443559,3.9192287e-06,1.476961e-05,1.4739278e-05,1.0,41,0.019899182,3.041196e-06,0,-3.426741352049589e-08,1.0
11,11,1426616.2,323.15347,8079.7266,8086.1865,-87.70964,9.249489479319891,0.022608992,-7.049008e-06,1.380754e-05,1.3785488e-05,1.0,41,0.020610511,2.5488544e-06,0,-3.424867058253906e-08,1.0
12,12,1234551.2,488.86053,9538.469,9550.988,-87.06607,9.801478652196238,0.02261294,-1.0929791e-05,1.3515507e-05,1.3480098e-05,1.0,41,0.020491375,2.1454716e-06,0,-3.44365680920128e-08,1.0
13,13,1068345.5,176.41875,11366.411,11367.78,-89.11078,10.35350179838133,0.02253016,-3.4605887e-06,1.310645e-05,1.3103293e-05,1.0,41,0.020807678,1.8304082e-06,0,-3.418507113602074e-08,1.0
14,14,924510.06,693.9745,12570.778,12589.919,-86.84017,10.905480811285088,0.022534333,1.1799627e-06,1.3694505e-05,1.3652896e-05,1.0,41,0.020251267,1.6085304e-06,0,-3.4510824782022574e-08,1.0
15,15,800039.0,4149.8877,13786.431,14397.474,-73.24755,11.457490144151961,0.022591142,-6.1141945e-06,1.4429694e-05,1.3230864e-05,1.0,41,0.02077625,1.4430483e-06,0,-3.512949853266099e-08,1.0
16,16,692334.1,1088.7145,17025.271,17060.047,-86.34109,12.009494917030679,0.022581937,3.4384436e-07,1.350238e-05,1.344739e-05,1.0,41,0.020492077,1.2011735e-06,0,-3.6086268158292176e-08,1.0
17,17,599122.25,432.9299,19276.295,19281.156,-88.7134,12.561502676602686,0.022617897,-2.6039866e-06,1.3781012e-05,1.3774064e-05,1.0,41,0.020730518,1.0751698e-06,0,-3.5393353017923344e-08,1.0
18,18,518454.94,360.44653,22625.984,22628.855,-89.08732,13.113482942833798,0.022437561,-2.9860794e-07,1.3567556e-05,1.3564114e-05,1.0,41,0.020474294,9.04787e-07,0,-3.5394064156731826e-08,1.0
19,19,448662.03,416.6973,25816.674,25820.037,-89.07529,13.665490382380085,0.022539048,-2.2725185e-06,1.3740437e-05,1.3736857e-05,1.0,41,0.02014346,7.801484e-07,0,-3.53213822923111e-08,1.0
20,20,388258.97,715.7123,30028.387,30036.914,-88.63464,14.217500568571268,0.02260163,-1.333979e-06,1.3651069e-05,1.3643318e-05,1.0,41,0.0208688,6.947718e-07,0,-3.54979847648459e-08,1.0
21,21,335983.9,-8141.9883,36644.45,37538.082,-102.526985,14.769485101482132,0.022537129,-1.1310027e-06,1.2926872e-05,1.2318723e-05,1.0,41,0.020891108,5.5653106e-07,0,-3.498296882317378e-08,1.0
22,22,290751.2,1516.9585,39314.76,39344.016,-87.790344,15.321496301010484,0.022486283,-1.9503618e-06,1.3923325e-05,1.3902628e-05,1.0,41,0.02070696,5.263052e-07,0,-3.4232513052185e-08,1.0
23,23,251605.19,3986.036,46586.625,46756.84,-85.10958,15.87350043389597,0.022630362,-1.05201125e-05,1.357811e-05,1.3479429e-05,1.0,41,0.020359121,4.354255e-07,0,-3.5587355857832866e-08,1.0
24,24,217729.38,2284.99,52004.883,52055.06,-87.48415,16.425485660118284,0.022537222,3.965782e-06,1.4055911e-05,1.4028827e-05,1.0,41,0.020315733,3.9027395e-07,0,-3.582663927342525e-08,1.0
25,25,188418.58,1740.5698,59800.89,59826.215,-88.33282,17.144494120933814,0.022523565,-4.1261242e-07,1.4125009e-05,1.4113054e-05,1.0,42,0.019669823,3.2878268e-07,0,-3.5869679797543714e-08,1.0
26,26,163051.14,1619.3555,68093.914,68113.164,-88.637695,17.56049320739112,0.022521738,1.06842236e-07,1.433468e-05,1.4326579e-05,1.0,42,0.021595083,3.1704712e-07,0,-3.592472857567591e-08,1.0
27,27,141098.2,866.7998,78613.664,78618.445,-89.36828,18.11249328692793,0.02267083,-1.5170816e-06,1.4348306e-05,1.43465595e-05,1.0,42,0.020320257,2.584668e-07,0,-3.59577369494165e-08,1.0
28,28,122105.11,1852.0024,91032.02,91050.86,-88.8345,18.52849226669059,0.022354277,1.2038615e-06,1.4318322e-05,1.4312398e-05,1.0,42,0.022044115,2.4210772e-07,0,-3.5897343673248124e-08,1.0
29,29,105663.59,1591.3906,103413.695,103425.94,-89.11837,19.08049799958826,0.022519615,-4.615963e-07,1.4565208e-05,1.45617605e-05,1.0,42,0.020367462,1.9692799e-07,0,-3.59662052869554e-08,1.0
30,30,91439.65,11131.787,125915.73,126406.83,-84.94781,19.49650001936243,0.022489728,-4.59175e-07,1.3823104e-05,1.3715906e-05,1.0,42,0.021665933,1.7139844e-07,0,-3.623024054130289e-08,1.0
31,31,79127.08,6229.597,138556.22,138696.19,-87.42567,20.0484793522337,0.022338942,1.9034208e-06,1.4516736e-05,1.4487451e-05,1.0,42,0.020438774,1.4736362e-07,0,-3.6196430012435185e-08,1.0
32,32,68475.36,940.69916,159839.66,159842.42,-89.6628,20.46448185198824,0.022532228,5.618195e-08,1.4541234e-05,1.4540731e-05,1.0,42,0.021238504,1.328715e-07,0,-3.622713560466205e-08,1.0
33,33,59252.523,2778.1694,186014.27,186035.02,-89.14434,20.880500245053554,0.02244084,6.104654e-07,1.4439995e-05,1.4436773e-05,1.0,42,0.02199393,1.18224676e-07,0,-3.630266384488381e-08,1.0
34,34,51282.285,-1503.9495,214062.22,214067.5,-90.40254,21.43247925795731,0.02254488,-4.290024e-07,1.4498156e-05,1.449744e-05,1.0,42,0.020205826,9.4389975e-08,0,-3.63741126955599e-08,1.0
35,35,44369.8,7801.966,249223.33,249345.42,-88.20693,21.848500851046992,0.022559933,-6.7373645e-07,1.43927555e-05,1.4378664e-05,1.0,42,0.020602651,8.262695e-08,0,-3.64053435119267e-08,1.0
36,36,38403.727,3650.3286,295491.62,295514.16,-89.29224,22.264492844144115,0.02251259,7.741456e-08,1.4024958e-05,1.4022819e-05,1.0,42,0.02093037,7.0826964e-08,0,-3.648633019354344e-08,1.0
37,37,33226.32,7670.764,328844.6,328934.06,-88.663734,22.680489530583145,0.022416394,1.2319853e-06,1.4566232e-05,1.4558308e-05,1.0,42,0.021045057,6.397956e-08,0,-3.650509892072782e-08,1.0
38,38,28754.086,14092.146,384286.12,384544.44,-87.89985,23.096489923686022,0.02252949,-8.183019e-08,1.4403428e-05,1.4384083e-05,1.0,42,0.021164576,5.5038047e-08,0,-3.633883023606563e-08,1.0
39,39,24884.947,28327.11,430618.53,431549.25,-86.236374,23.512496716779424,0.02237235,7.4344865e-07,1.4852197e-05,1.4788203e-05,1.0,42,0.021124834,4.8951154e-08,0,-3.639599072299029e-08,1.0
40,40,21553.963,22622.05,544753.75,545223.25,-87.62204,24.096481517801294,0.022467613,-4.201987e-08,1.3554789e-05,1.3531455e-05,1.0,43,0.020948244,3.842141e-08,0,-3.6428397741931244e-08,1.0
41,41,18631.234,33635.305,608219.4,609148.7,-86.834694,24.512482657592045,0.022384254,3.519071e-08,1.40448865e-05,1.4002066e-05,1.0,43,0.020847619,3.4224186e-08,0,-3.6438813947816034e-08,1.0
42,42,16126.037,45146.625,699608.94,701064.1,-86.307755,24.92849326398573,0.022327447,7.305109e-08,1.41070805e-05,1.4048576e-05,1.0,43,0.02062827,2.9424227e-08,0,-3.6435078252898184e-08,1.0
43,43,13954.87,177468.64,837011.9,855619.06,-78.02907,25.344484563771402,0.02251697,-1.3862033e-08,1.3625823e-05,1.3039624e-05,1.0,43,0.020502001,2.3961599e-08,0,-3.64435636040105e-08,1.0
44,44,12080.609,7270.968,950763.94,950791.75,-89.56184,25.760493943555048,0.022537446,-3.2224225e-08,1.385666e-05,1.385585e-05,1.0,43,0.020004716,2.104006e-08,0,-3.645426266313311e-08,1.0
45,45,10447.592,74398.02,1078920.2,1081482.2,-86.05536,26.1765022566251,0.022553729,-3.4384488e-08,1.4119346e-05,1.4052529e-05,1.0,43,0.019394629,1.7933377e-08,0,-3.6466282065475555e-08,1.0
46,46,9045.586,52141.59,1217184.1,1218300.4,-87.54707,26.74925327047822,0.022554567,-6.818506e-08,1.4455301e-05,1.4428824e-05,1.0,43,0.02019526,1.6576585e-08,0,-3.648083455305616e-08,1.0
47,47,7827.7437,112893.06,1468875.4,1473207.2,-85.60507,27.229927693348145,0.022551177,-3.3453343e-08,1.3841992e-05,1.37607085e-05,1.0,43,0.020214226,1.37212375e-08,0,-3.6490720594141575e-08,1.0
48,48,6770.8345,144887.53,1603004.2,1609538.8,-84.83536,27.76839819891029,0.022529434,-1.2800526e-08,1.466369e-05,1.4544867e-05,1.0,43,0.020148516,1.2518193e-08,0,-3.6498036468313424e-08,1.0
49,49,5860.798,64330.08,1860980.6,1862092.1,-88.020195,28.374988521070918,0.022907471,-3.9740084e-07,1.4592224e-05,1.457481e-05,1.0,43,0.02012764,1.0809154e-08,0,-3.65097452172244e-08,1.0
50,50,5071.625,92850.43,2110668.0,2112709.2,-87.481125,29.055674980096228,0.02261732,-5.362194e-08,1.4868018e-05,1.4839302e-05,1.0,43,0.020129452,9.527791e-09,0,-3.6519723584983625e-08,1.0
51,51,4388.5933,245705.42,2486772.0,2498881.0,-84.35721,29.735812799059204,0.022424724,7.200478e-09,1.4583401e-05,1.4442408e-05,1.0,43,0.02015694,8.066387e-09,0,-3.6523239690187806e-08,1.0
52,52,3798.7827,166008.1,2892969.0,2897728.2,-86.71578,30.415802191360854,0.022520788,-4.827717e-08,1.44821115e-05,1.443458e-05,1.0,43,0.020234885,6.983017e-09,0,-3.6525706852352544e-08,1.0
53,53,3286.0488,351025.16,3040630.0,3060825.0,-83.41465,31.09568131699052,0.022575434,-7.330636e-08,1.5928781e-05,1.5719283e-05,1.0,43,0.020063862,6.5550503e-09,0,-3.653724836501778e-08,1.0
54,54,2844.088,355208.94,3862415.0,3878714.0,-84.745544,31.775806655947235,0.022550525,-6.347346e-08,1.4488324e-05,1.4366816e-05,1.0,43,0.020233303,5.216498e-09,0,-3.653636743160544e-08,1.0
55,55,2460.7852,362597.22,4189352.5,4205015.0,-85.05326,32.45568287491915,0.022557959,1.67354e-08,1.5438301e-05,1.5323509e-05,1.0,43,0.020161767,4.7946958e-09,0,-3.6545681843332687e-08,1.0
56,56,2129.3164,635757.2,4961659.0,5002224.0,-82.69825,33.1358460005431,0.02262155,-1.0816845e-07,1.5064442e-05,1.4821105e-05,1.0,43,0.020198844,4.0379726e-09,0,-3.6558814909391344e-08,1.0
57,57,1843.2289,700936.75,5570417.0,5614344.0,-82.82805,33.81595211284002,0.022598445,-8.9899366e-08,1.5500766e-05,1.5259156e-05,1.0,43,0.020203058,3.5984717e-09,0,-3.657077815769494e-08,1.0
58,58,1594.4913,821251.3,6417448.0,6469783.0,-82.707405,34.495842198477476,0.022651155,-1.3036696e-07,1.555377e-05,1.5303152e-05,1.0,43,0.020090213,3.1052376e-09,0,-3.658448226081084e-08,1.0
59,59,1380.4436,911006.06,7530672.0,7585575.5,-83.10229,35.17568615077471,0.02244792,5.571314e-08,1.5309737e-05,1.5088919e-05,1.0,43,0.02021588,2.6650424e-09,0,-3.6590973652793305e-08,1.0
60,60,1194.6187,1311727.6,8459558.0,8560651.0,-81.18598,35.85584823638783,0.022602582,-1.0608269e-07,1.5748645e-05,1.5378888e-05,1.0,43,0.02019296,2.3588114e-09,0,-3.6601581153829364e-08,1.0
61,61,1033.3434,1754905.5,9672602.0,9830510.0,-79.71665,36.53606250870507,0.022582088,-1.4506044e-07,1.5923266e-05,1.5415822e-05,1.0,43,0.020179344,2.052726e-09,0,-3.662010904233605e-08,1.0
62,62,894.71045,2571043.5,9088020.0,9444701.0,-74.203545,37.21580427433946,0.02253262,-2.3229374e-08,1.9573494e-05,1.8123017e-05,1.0,43,0.019978182,2.1152795e-09,0,-3.662558948123075e-08,1.0
63,63,774.2569,1310423.9,10436732.0,10518678.0,-82.84346,37.89594403997762,0.022612885,-8.928484e-08,1.969566e-05,1.9389976e-05,1.0,43,0.0200029,1.9016553e-09,0,-3.663877467965292e-08,1.0
64,64,669.7856,2366774.2,14038884.0,14236990.0,-80.43066,38.575808765599504,0.022558369,-4.6526637e-08,1.69259e-05,1.6458134e-05,1.0,43,0.020181913,1.4175688e-09,0,-3.664399641981881e-08,1.0
65,65,579.81464,2015300.0,16403621.0,16526954.0,-82.99591,39.25581058456737,0.022506088,2.811397e-08,1.6733671e-05,1.6484852e-05,1.0,43,0.02024032,1.2246855e-09,0,-3.6645715814903884e-08,1.0
66,66,501.44418,2483486.8,17869112.0,18040866.0,-82.0876,39.93316149667953,0.02251056,-1.8778517e-08,1.776211e-05,1.742552e-05,1.0,43,0.02011594,1.1150207e-09,0,-3.664669829163457e-08,1.0
67,67,434.02762,4547743.5,19945718.0,20457606.0,-77.15579,40.61323131565587,0.022499027,-4.693635e-08,1.8384553e-05,1.7476032e-05,1.0,43,0.020138139,9.843839e-10,0,-3.6655468895912575e-08,1.0
68,68,375.6009,4031795.0,22901454.0,23253644.0,-80.0154,41.29242694794084,0.022551233,-7.293394e-08,1.8502502e-05,1.7946284e-05,1.0,43,0.020178888,8.677732e-10,0,-3.667462099279284e-08,1.0
69,69,325.10385,4445693.0,26207638.0,26582032.0,-80.37237,41.971684100237326,0.022502659,-1.0487223e-07,1.8679712e-05,1.8157229e-05,1.0,43,0.020147413,7.579335e-10,0,-3.668376573281426e-08,1.0
70,70,281.3503,5921481.5,29418134.0,30008174.0,-78.619194,42.64780431901454,0.02249014,2.0534427e-08,1.922904e-05,1.8480287e-05,1.0,43,0.020135084,6.7098666e-10,0,-3.668741176055532e-08,1.0
71,71,243.36427,7697863.0,34947520.0,35785280.0,-77.577866,43.3311298180779,0.022531781,-5.135e-08,1.8713152e-05,1.7847231e-05,1.0,43,0.020121824,5.622933e-10,0,-3.6694579130738305e-08,1.0
72,72,210.60631,6165819.0,38131720.0,38627004.0,-80.814896,44.00817382361856,0.022518534,-5.1089277e-08,1.9818117e-05,1.931315e-05,1.0,43,0.020155631,5.2180155e-10,0,-3.670038794086065e-08,1.0
73,73,182.27473,-12367924.0,19605150.0,23180324.0,-122.24581,44.68028798882733,0.022531409,-2.6078707e-08,4.4537257e-05,3.185846e-05,1.0,43,0.0203585,8.782664e-10,0,-3.670518731035097e-08,1.0
74,74,157.72879,10343601.0,42821304.0,44052856.0,-76.42018,45.36863020825513,0.022498114,-3.7066222e-08,2.3564013e-05,2.2264907e-05,1.0,43,0.020119375,4.5670986e-10,0,-3.671140505473009e-08,1.0
75,75,136.52892,22900034.0,71921510.0,75479240.0,-72.33836,46.04049984013545,0.022475662,-2.4756487e-08,1.620827e-05,1.4716321e-05,1.0,43,0.020173393,2.6727076e-10,0,-3.671527904811664e-08,1.0
76,76,118.14758,25094856.0,60580012.0,65572020.0,-67.49855,46.72890693950467,0.022550413,-1.4942211e-08,2.2236476e-05,1.8979621e-05,1.0,43,0.020135071,3.0706804e-10,0,-3.671791993240229e-08,1.0
77,77,102.25773,12558015.0,82678290.0,83626570.0,-81.36335,47.39534233111772,0.022542719,-4.9282857e-08,1.8824892e-05,1.8400386e-05,1.0,43,0.020188145,2.4140828e-10,0,-3.672294415782525e-08,1.0
78,78,88.4436,28958350.0,80731050.0,85767640.0,-70.26701,48.08527953721932,0.022554735,-4.6508042e-08,2.2290154e-05,1.9749103e-05,1.0,43,0.020172346,2.3519764e-10,0,-3.673460602355642e-08,1.0
79,79,76.54279,37028016.0,86595496.0,94179900.0,-66.84857,48.75174394226633,0.022631722,-7.222628e-08,2.4011568e-05,2.0299934e-05,1.0,43,0.020089544,2.133103e-10,0,-3.674976179477873e-08,1.0
80,80,66.250786,46577340.0,111109680.0,120477420.0,-67.2565,49.419978667312535,0.022481065,-6.74813e-09,2.1621072e-05,1.8389488e-05,1.0,43,0.020230277,1.6791757e-10,0,-3.675272254834638e-08,1.0
81,81,57.329906,50724520.0,106292630.0,117775640.0,-64.488785,50.074639925111114,0.022398174,4.427863e-08,2.611775e-05,2.1273117e-05,1.0,43,0.020156074,1.7113959e-10,0,-3.675048441496011e-08,1.0
82,82,49.60321,-57970164.0,117013090.0,130585620.0,-116.35455,50.760340730979806,0.022541879,-3.214978e-08,2.7420534e-05,2.2016795e-05,1.0,43,0.02028836,1.5536443e-10,0,-3.6760129592090566e-08,1.0
83,83,42.92585,113792440.0,154464430.0,191854060.0,-53.62129,51.46844737793435,0.022482071,-2.0138007e-08,2.4003399e-05,1.5559217e-05,1.0,43,0.020200584,1.0529141e-10,0,-3.67614970875616e-08,1.0
84,84,37.1518,-36811160.0,169017010.0,172979220.0,-102.28689,52.11215092850034,0.022474395,-5.202438e-09,2.5346028e-05,2.4198189e-05,1.0,43,0.02023334,1.1696978e-10,0,-3.6766438633317595e-08,1.0
85,85,32.150223,85846470.0,74648800.0,113763176.0,-41.00897,52.75035746549838,0.022624549,-3.611646e-08,6.631523e-05,2.855325e-05,1.0,43,0.020093191,1.7662298e-10,0,-3.6773674178792764e-08,1.0
86,86,27.835518,5945427.5,61275480.0,61563240.0,-84.45806,53.47733368669287,0.02257537,-6.030766e-08,9.331127e-05,9.244099e-05,1.0,43,0.020181857,3.2782319e-10,0,-3.6778588545686486e-08,1.0
87,87,24.082958,85583100.0,209797950.0,226582540.0,-67.80792,54.17936345338239,0.022594774,-1.1347991e-08,3.149989e-05,2.7005899e-05,1.0,43,0.020250753,8.937472e-11,0,-3.67811833137617e-08,1.0
88,88,20.833313,179186270.0,221562460.0,284952000.0,-51.03617,54.833772391153616,0.022526471,-2.7792028e-08,3.447987e-05,2.0845608e-05,1.0,43,0.020195,7.0871586e-11,0,-3.67862608775494e-08,1.0
89,89,18.021912,111165330.0,82453550.0,138406350.0,-36.56507,55.57974159991136,0.022314927,1.5192829e-07,0.000107105036,3.801164e-05,1.0,43,0.020096147,1.4519672e-10,0,-3.679942893277873e-08,1.0
90,90,15.604198,63808090.0,274914080.0,282221950.0,-76.93291,56.23500883101951,0.022473836,1.1502315e-08,3.7100664e-05,3.5204168e-05,1.0,43,0.020139817,7.1361625e-11,0,-3.680741133006402e-08,1.0
91,91,13.500899,319411420.0,66370596.0,326234140.0,-11.738466,56.981994306494016,0.022517724,-6.599199e-09,0.00017761586,7.3514725e-06,1.0,43,0.020163205,6.180593e-11,0,-3.68119894577542e-08,1.0
92,92,11.686608,176318160.0,-42076092.0,181269120.0,13.421886,57.57287668122444,0.022452578,-3.9468585e-08,-0.0003236654,-1.7438913e-05,1.0,43,0.02013472,1.1107639e-10,0,-3.68177790679354e-08,1.0
93,93,10.113269,152168850.0,195720480.0,247915040.0,-52.13563,58.246539966523414,0.022536663,-3.874229e-08,8.040672e-05,5.0114006e-05,1.0,43,0.020233551,8.161486e-11,0,-3.6823059386219847e-08,1.0
94,94,8.748621,132027970.0,341330460.0,365975230.0,-68.85333,59.01340384295327,0.022522997,-2.8183148e-08,5.3297328e-05,4.6360936e-05,1.0,43,0.020174028,5.5124027e-11,0,-3.683085119451373e-08,1.0
95,95,7.570237,399089700.0,404391300.0,568159200.0,-45.378048,59.888976524583995,0.022473622,-3.4596687e-11,5.1988685e-05,2.6337364e-05,1.0,43,0.02014821,3.5462258e-11,0,-3.6837144642392124e-08,1.0
96,96,6.554112,407329000.0,246958130.0,476345700.0,-31.227875,60.42529308333178,0.022495355,-2.3415634e-08,9.832931e-05,2.6429267e-05,1.0,43,0.02020336,4.241323e-11,0,-3.6841231886054355e-08,1.0
97,97,5.669445,340568830.0,-248304350.0,421476200.0,36.09531,61.03513601902523,0.022528967,-2.6711893e-08,-0.00011305643,-3.9238992e-05,1.0,43,0.020161558,4.783558e-11,0,-3.684884345059371e-08,1.0
98,98,4.907347,264011710.0,-170597730.0,314333860.0,32.869526,61.72753298518364,0.022557419,-6.496336e-08,-0.00019010788,-5.5996934e-05,1.0,43,0.020103827,6.395692e-11,0,-3.685375613786718e-08,1.0
99,99,4.245922,407846430.0,-219299500.0,463066940.0,28.26697,62.51533411597484,0.022540277,-4.816553e-08,-0.00017092691,-3.833524e-05,1.0,43,0.020187551,4.359532e-11,0,-3.686100697554748e-08,1.0
100,100,3.6747382,328611140.0,152235860.0,362161600.0,-24.8569,63.41494685204816,0.02251166,-1.33965345e-08,0.00028449637,5.026965e-05,1.0,43,0.020169236,5.569126e-11,0,-3.686973496018537e-08,1.0
101,101,3.180988,-83853170.0,204398200.0,220929810.0,-112.3056,64.44323788754991,0.022572417,-5.187145e-08,0.00024478286,0.0002095205,1.0,43,0.020203546,9.14478e-11,0,-3.687243755408135e-08,1.0
102,102,2.752818,430751520.0,473860640.0,640383300.0,-47.728355,65.62215439687134,0.022516536,-9.1295116e-10,0.00012200902,6.680566e-05,1.0,43,0.020181816,3.1515214e-11,0,-3.6878220000417824e-08,1.0
103,103,2.3804083,743217000.0,-669139700.0,1000059800.0,41.99762,66.97599560784874,0.022505686,-1.4253123e-08,-9.991987e-05,-4.473357e-05,1.0,43,0.020194376,2.0193168e-11,0,-3.688111394927477e-08,1.0
